! TOUCHSTONE file generated by CST MICROWAVE STUDIO
! Date and time: Sat Oct 24 10:42:41 2020
! Project name: Scenario_1_Planar_Body_Tissue_Center.cst
! Parameters = {hfat=3; hmuscle=50; hskin=1.5; hgap=25; Wtissue=700; Ltissue=700; L_HA=400; MT=2.54; Rad_Dielectric=30; Rad_Lower=7.3; Rad_Upper=30; a_HA=580; a_WG=246; b_HA=500; b_WG=121; c_HA=0; c_WG=187; d_feed=85; dx1=328.88; h_feed=15; h_lower=18; h_upper=40}
! Header version: 2018
! Port assignment regex: !\s*Touchstone port\s*([0-9]+)\s*=\s*(CST MWS port|CST DS port)\s*([0-9]+|Zmin|Zmax)\s*\(\"(.*)\"\)(\s*mode\s*([0-9]+))?.*
! Touchstone port assignment:
! Touchstone port 1 = CST MWS port 1 ("")
! Touchstone port 2 = CST MWS port 2 ("")
# GHz S DB R 50
0.5                    -0.301388        -122.244         -54.3789         52.6482         -54.3792         52.6477      -0.00789052         151.131
0.501                  -0.302788        -122.582         -54.4654          51.742         -54.4671         51.7477      -0.00798369         151.066
0.502                  -0.304206        -122.926         -54.5528         50.8067         -54.5561         50.8182      -0.00807617             151
0.503                  -0.305639        -123.273         -54.6412         49.8406          -54.646         49.8577      -0.00816791         150.935
0.504                  -0.307086        -123.625         -54.7304         48.8425         -54.7369         48.8646      -0.00825885          150.87
0.505                  -0.308544        -123.981         -54.8204         47.8108         -54.8286         47.8374      -0.00834895         150.804
0.506                  -0.310011        -124.342         -54.9109         46.7439         -54.9209         46.7744       -0.0084382         150.739
0.507                  -0.311485        -124.707         -55.0019         45.6401         -55.0137         45.6741      -0.00852657         150.673
0.508                  -0.312967        -125.077         -55.0932         44.4978         -55.1069         44.5345      -0.00861406         150.607
0.509                  -0.314454         -125.45         -55.1846         43.3153         -55.2002          43.354      -0.00870068         150.542
0.51                   -0.315947        -125.828         -55.2759         42.0908         -55.2935         42.1308      -0.00878644         150.476
0.511                  -0.317445        -126.211         -55.3667         40.8225         -55.3864         40.8629      -0.00887134          150.41
0.512                  -0.318948        -126.598          -55.457         39.5088         -55.4787         39.5486      -0.00895542         150.344
0.513                  -0.320456        -126.989         -55.5462         38.1477           -55.57         38.1861       -0.0090387         150.278
0.514                   -0.32197        -127.385         -55.6342         36.7377           -55.66         36.7736      -0.00912121         150.212
0.515                  -0.323491        -127.785         -55.7204         35.2771         -55.7484         35.3094      -0.00920298         150.146
0.516                   -0.32502         -128.19         -55.8045         33.7642         -55.8345         33.7918      -0.00928404         150.079
0.517                  -0.326558        -128.599         -55.8859         32.1978          -55.918         32.2194      -0.00936444         150.013
0.518                  -0.328106        -129.012         -55.9642         30.5765         -55.9983         30.5909      -0.00944421         149.947
0.519                  -0.329668         -129.43         -56.0388         28.8993         -56.0748         28.9053      -0.00952339          149.88
0.52                   -0.331244        -129.853         -56.1091         27.1654         -56.1469         27.1617      -0.00960203         149.814
0.521                  -0.332838         -130.28         -56.1745         25.3744          -56.214         25.3597      -0.00968017         149.747
0.522                  -0.334451        -130.712         -56.2341         23.5261         -56.2752         23.4993      -0.00975785          149.68
0.523                  -0.336087        -131.148         -56.2875          21.621         -56.3299         21.5808      -0.00983511         149.613
0.524                  -0.337749        -131.589         -56.3336         19.6599         -56.3772         19.6053      -0.00991201         149.546
0.525                   -0.33944        -132.035         -56.3719         17.6441         -56.4164         17.5741      -0.00998858         149.479
0.526                  -0.341164        -132.485         -56.4015         15.5756         -56.4467         15.4894       -0.0100649         149.412
0.527                  -0.342925         -132.94         -56.4217          13.457         -56.4673         13.3539       -0.0101409         149.345
0.528                  -0.344727          -133.4         -56.4316         11.2915         -56.4773         11.1712       -0.0102168         149.278
0.529                  -0.346575        -133.865         -56.4306         9.08307         -56.4761         8.94528       -0.0102925          149.21
0.53                   -0.348472        -134.334          -56.418         6.83624         -56.4629          6.6811       -0.0103681         149.143
0.531                  -0.350425        -134.809         -56.3931         4.55618         -56.4372         4.38408       -0.0104437         149.075
0.532                  -0.352439        -135.288         -56.3555         2.24866         -56.3984         2.06027       -0.0105192         149.008
0.533                  -0.354519        -135.773         -56.3047       -0.080086          -56.346       -0.283773       -0.0105948          148.94
0.534                   -0.35667        -136.262         -56.2403         -2.4234         -56.2799        -2.64111       -0.0106704         148.872
0.535                    -0.3589        -136.757         -56.1623        -4.77435         -56.1997        -5.00454       -0.0107462         148.804
0.536                  -0.361215        -137.257         -56.0704        -7.12585         -56.1055         -7.3667       -0.0108221         148.736
0.537                  -0.363622        -137.762         -55.9648        -9.47076         -55.9974        -9.72028       -0.0108982         148.668
0.538                  -0.366127        -138.272         -55.8457        -11.8021         -55.8755        -12.0581       -0.0109745         148.599
0.539                   -0.36874        -138.788         -55.7133         -14.113         -55.7403        -14.3733       -0.0110511         148.531
0.54                   -0.371467        -139.309         -55.5681        -16.3972         -55.5923        -16.6593        -0.011128         148.462
0.541                  -0.374317        -139.836         -55.4107        -18.6488         -55.4319        -18.9103       -0.0112053         148.394
0.542                  -0.377299        -140.368         -55.2415        -20.8622         -55.2599         -21.121       -0.0112829         148.325
0.543                  -0.380422        -140.907         -55.0615        -23.0329         -55.0771        -23.2865        -0.011361         148.256
0.544                  -0.383697         -141.45         -54.8712        -25.1566         -54.8841        -25.4031       -0.0114396         148.187
0.545                  -0.387132            -142         -54.6716        -27.2301         -54.6819        -27.4674       -0.0115187         148.118
0.546                   -0.39074        -142.556         -54.4634        -29.2506         -54.4713         -29.477       -0.0115983         148.049
0.547                  -0.394532        -143.118         -54.2474        -31.2161         -54.2532        -31.4299       -0.0116786          147.98
0.548                  -0.398519        -143.686         -54.0245        -33.1251         -54.0284         -33.325       -0.0117594          147.91
0.549                  -0.402714         -144.26         -53.7956        -34.9768         -53.7978        -35.1618        -0.011841         147.841
0.55                    -0.40713        -144.841         -53.5613        -36.7711          -53.562        -36.9401       -0.0119232         147.771
0.551                  -0.411782        -145.428         -53.3225        -38.5081         -53.3221        -38.6603       -0.0120062         147.701
0.552                  -0.416683        -146.022         -53.0798        -40.1884         -53.0785        -40.3235       -0.0120899         147.631
0.553                   -0.42185        -146.622          -52.834        -41.8132          -52.832        -41.9308       -0.0121745         147.561
0.554                  -0.427299         -147.23         -52.5857        -43.3838         -52.5833        -43.4838         -0.01226         147.491
0.555                  -0.433046        -147.844         -52.3355        -44.9018         -52.3329        -44.9842       -0.0123464         147.421
0.556                  -0.439111        -148.466         -52.0839        -46.3691         -52.0814        -46.4341       -0.0124337         147.351
0.557                  -0.445513        -149.095         -51.8314        -47.7878         -51.8292        -47.8358       -0.0125219          147.28
0.558                  -0.452271        -149.731         -51.5785          -49.16         -51.5768        -49.1915       -0.0126113          147.21
0.559                  -0.459407        -150.375         -51.3256        -50.4881         -51.3246        -50.5036       -0.0127016         147.139
0.56                   -0.466945        -151.027          -51.073        -51.7745         -51.0729        -51.7747       -0.0127931         147.068
0.561                  -0.474908        -151.687         -50.8211        -53.0216         -50.8221        -53.0074       -0.0128857         146.997
0.562                  -0.483322        -152.354         -50.5702         -54.232         -50.5724        -54.2041       -0.0129796         146.926
0.563                  -0.492214         -153.03         -50.3205        -55.4081          -50.324        -55.3675       -0.0130746         146.854
0.564                  -0.501612        -153.715         -50.0723        -56.5526         -50.0773        -56.5003        -0.013171         146.783
0.565                  -0.511549        -154.408         -49.8258         -57.668         -49.8323        -57.6049       -0.0132686         146.711
0.566                  -0.522055         -155.11         -49.5811        -58.7567         -49.5893        -58.6839       -0.0133677          146.64
0.567                  -0.533166        -155.822         -49.3384        -59.8214         -49.3483        -59.7399       -0.0134681         146.568
0.568                  -0.544918        -156.542         -49.0978        -60.8645         -49.1095        -60.7755         -0.01357         146.496
0.569                  -0.557352        -157.272         -48.8595        -61.8886         -48.8729         -61.793       -0.0136735         146.424
0.57                   -0.570508        -158.012         -48.6234        -62.8959         -48.6387        -62.7949       -0.0137785         146.351
0.571                  -0.584432        -158.762         -48.3897         -63.889         -48.4068        -63.7836       -0.0138851         146.279
0.572                  -0.599171        -159.522         -48.1584        -64.8703         -48.1774        -64.7615       -0.0139934         146.206
0.573                  -0.614776        -160.293         -47.9296         -65.842         -47.9503        -65.7309       -0.0141034         146.134
0.574                  -0.631302        -161.074         -47.7032        -66.8064         -47.7257        -66.6941       -0.0142152         146.061
0.575                  -0.648808        -161.867         -47.4792        -67.7659         -47.5035        -67.6532       -0.0143288         145.988
0.576                  -0.667355        -162.671         -47.2577        -68.7227         -47.2837        -68.6105       -0.0144444         145.914
0.577                  -0.687011        -163.486         -47.0386        -69.6789         -47.0662        -69.5681       -0.0145619         145.841
0.578                  -0.707848        -164.314         -46.8219        -70.6368          -46.851        -70.5281       -0.0146814         145.768
0.579                  -0.729943        -165.153         -46.6075        -71.5983          -46.638        -71.4926        -0.014803         145.694
0.58                   -0.753379        -166.006         -46.3953        -72.5656         -46.4272        -72.4636       -0.0149268          145.62
0.581                  -0.778245        -166.871         -46.1854        -73.5408         -46.2185         -73.443       -0.0150528         145.546
0.582                  -0.804637        -167.749         -45.9776        -74.5257         -46.0119        -74.4327       -0.0151812         145.472
0.583                  -0.832657        -168.642         -45.7718        -75.5224         -45.8072        -75.4348       -0.0153119         145.398
0.584                  -0.862418        -169.547         -45.5681        -76.5327         -45.6043        -76.4508       -0.0154451         145.323
0.585                  -0.894038        -170.468         -45.3661        -77.5585         -45.4031        -77.4828       -0.0155808         145.249
0.586                  -0.927647        -171.402          -45.166        -78.6016         -45.2036        -78.5324       -0.0157191         145.174
0.587                  -0.963384        -172.352         -44.9675        -79.6638         -45.0057        -79.6012       -0.0158602         145.099
0.588                    -1.0014        -173.317         -44.7706        -80.7468         -44.8092        -80.6911       -0.0160041         145.023
0.589                   -1.04185        -174.298         -44.5751        -81.8523          -44.614        -81.8035       -0.0161509         144.948
0.59                    -1.08493        -175.294          -44.381        -82.9819         -44.4201          -82.94       -0.0163006         144.873
0.591                    -1.1308        -176.307         -44.1882        -84.1372         -44.2273        -84.1022       -0.0164535         144.797
0.592                   -1.17969        -177.337         -43.9965        -85.3197         -44.0355        -85.2915       -0.0166096         144.721
0.593                   -1.23182        -178.383         -43.8058        -86.5309         -43.8446        -86.5094        -0.016769         144.645
0.594                   -1.28741        -179.446         -43.6161        -87.7723         -43.6546        -87.7572       -0.0169319         144.569
0.595                   -1.34674         179.473         -43.4273        -89.0452         -43.4654        -89.0363       -0.0170983         144.492
0.596                   -1.41008         178.375         -43.2393        -90.3509         -43.2768         -90.348       -0.0172683         144.415
0.597                   -1.47775          177.26         -43.0519        -91.6908         -43.0888        -91.6935       -0.0174422         144.339
0.598                   -1.55006         176.127         -42.8653        -93.0661         -42.9014         -93.074       -0.0176199         144.262
0.599                   -1.62738         174.977         -42.6791        -94.4779         -42.7145        -94.4906       -0.0178018         144.184
0.6                     -1.71009         173.809         -42.4936        -95.9274          -42.528        -95.9445       -0.0179878         144.107
0.601                   -1.79862         172.624         -42.3085        -97.4156          -42.342        -97.4366       -0.0181781         144.029
0.602                   -1.89341         171.423          -42.124        -98.9434         -42.1564        -98.9679       -0.0183729         143.951
0.603                   -1.99496         170.207         -41.9399        -100.512         -41.9713        -100.539       -0.0185723         143.873
0.604                   -2.10378         168.975         -41.7564        -102.122         -41.7866        -102.152       -0.0187765         143.795
0.605                   -2.22046          167.73         -41.5734        -103.774         -41.6024        -103.806       -0.0189855         143.717
0.606                   -2.34561         166.472         -41.3911        -105.469         -41.4188        -105.503       -0.0191997         143.638
0.607                   -2.47987         165.204         -41.2094        -107.208         -41.2359        -107.243        -0.019419         143.559
0.608                   -2.62396         163.928         -41.0286         -108.99         -41.0538        -109.026       -0.0196436          143.48
0.609                   -2.77864         162.647         -40.8486        -110.817         -40.8725        -110.853       -0.0198737         143.401
0.61                     -2.9447         161.364         -40.6698        -112.689         -40.6923        -112.725       -0.0201095         143.321
0.611                   -3.12301         160.083         -40.4921        -114.605         -40.5134        -114.641        -0.020351         143.241
0.612                   -3.31446         158.808         -40.3159        -116.567         -40.3358        -116.602       -0.0205984         143.161
0.613                   -3.52001         157.547         -40.1414        -118.573           -40.16        -118.606       -0.0208518         143.081
0.614                   -3.74063         156.306         -39.9687        -120.623          -39.986        -120.655       -0.0211114         143.001
0.615                   -3.97734         155.092         -39.7982        -122.717         -39.8142        -122.748       -0.0213772          142.92
0.616                   -4.23117         153.917         -39.6301        -124.855         -39.6448        -124.884       -0.0216493         142.839
0.617                   -4.50315         152.791         -39.4647        -127.034         -39.4782        -127.062       -0.0219279         142.758
0.618                   -4.79426         151.729         -39.3024        -129.255         -39.3146         -129.28       -0.0222129         142.677
0.619                   -5.10543         150.745         -39.1434        -131.516         -39.1545        -131.539       -0.0225045         142.595
0.62                    -5.43745          149.86         -38.9881        -133.815          -38.998        -133.835       -0.0228026         142.513
0.621                   -5.79091         149.094         -38.8368         -136.15         -38.8457        -136.168       -0.0231074         142.431
0.622                   -6.16608         148.474         -38.6899        -138.519         -38.6977        -138.535       -0.0234187         142.349
0.623                   -6.56277         148.027         -38.5477         -140.92         -38.5545        -140.934       -0.0237365         142.267
0.624                   -6.98018         147.789         -38.4105         -143.35         -38.4163        -143.362       -0.0240609         142.184
0.625                   -7.41659         147.797         -38.2786        -145.807         -38.2835        -145.817       -0.0243916         142.101
0.626                   -7.86904         148.092         -38.1522        -148.286         -38.1564        -148.295       -0.0247287         142.018
0.627                   -8.33297         148.719         -38.0317        -150.786         -38.0351        -150.793        -0.025072         141.934
0.628                   -8.80172         149.724         -37.9173        -153.302         -37.9199        -153.307       -0.0254213         141.851
0.629                   -9.26607         151.149         -37.8091        -155.831         -37.8111        -155.835       -0.0257765         141.767
