! TOUCHSTONE file generated by CST MICROWAVE STUDIO
! Date and time: Sat Oct 24 10:42:49 2020
! Project name: Scenario_1_Planar_Body_Tissue_Center.cst
! Parameters = {hfat=3; hmuscle=50; hskin=1.5; hgap=25; Wtissue=700; Ltissue=700; L_HA=400; MT=2.54; Rad_Dielectric=30; Rad_Lower=7.3; Rad_Upper=30; a_HA=580; a_WG=246; b_HA=500; b_WG=121; c_HA=0; c_WG=187; d_feed=85; dx1=346.2; h_feed=15; h_lower=18; h_upper=40}
! Header version: 2018
! Port assignment regex: !\s*Touchstone port\s*([0-9]+)\s*=\s*(CST MWS port|CST DS port)\s*([0-9]+|Zmin|Zmax)\s*\(\"(.*)\"\)(\s*mode\s*([0-9]+))?.*
! Touchstone port assignment:
! Touchstone port 1 = CST MWS port 1 ("")
! Touchstone port 2 = CST MWS port 2 ("")
# GHz S DB R 50
0.5                    -0.295795        -121.742         -55.0329         35.7714         -55.0329         35.7714      -0.00801795         151.148
0.501                  -0.293617        -122.113          -54.959         32.7898         -54.9593         32.7898       -0.0080759         151.083
0.502                  -0.291627        -122.488         -54.8942         29.8917         -54.8948         29.8917      -0.00813435         151.018
0.503                  -0.289821        -122.866         -54.8374         27.0777         -54.8383         27.0779      -0.00819331         150.953
0.504                  -0.288194        -123.247         -54.7878         24.3479         -54.7889         24.3484      -0.00825281         150.887
0.505                  -0.286742        -123.632         -54.7444         21.7018         -54.7457         21.7027      -0.00831284         150.822
0.506                   -0.28546        -124.021         -54.7064         19.1384         -54.7078         19.1397      -0.00837342         150.757
0.507                  -0.284344        -124.413         -54.6729         16.6561         -54.6744         16.6578      -0.00843455         150.691
0.508                  -0.283391        -124.809         -54.6431         14.2531         -54.6447         14.2553      -0.00849624         150.626
0.509                  -0.282596        -125.209         -54.6164         11.9273         -54.6181           11.93       -0.0085585          150.56
0.51                   -0.281956        -125.612         -54.5921         9.67631         -54.5938         9.67947      -0.00862135         150.494
0.511                  -0.281468         -126.02         -54.5696         7.49768         -54.5713         7.50127      -0.00868478         150.429
0.512                  -0.281128        -126.431         -54.5484         5.38876         -54.5501         5.39273      -0.00874881         150.363
0.513                  -0.280935        -126.846          -54.528         3.34684         -54.5296         3.35116      -0.00881346         150.297
0.514                  -0.280885        -127.264         -54.5079          1.3692         -54.5095         1.37382      -0.00887871         150.231
0.515                  -0.280976        -127.687         -54.4878       -0.546919         -54.4893       -0.542031       -0.0089446         150.164
0.516                  -0.281207        -128.114         -54.4672        -2.40422         -54.4687        -2.39911      -0.00901112         150.098
0.517                  -0.281576        -128.545          -54.446        -4.20538         -54.4474         -4.2001      -0.00907828         150.032
0.518                  -0.282081         -128.98         -54.4237        -5.95302         -54.4251        -5.94761       -0.0091461         149.966
0.519                  -0.282721        -129.419         -54.4002        -7.64968         -54.4016        -7.64419      -0.00921458         149.899
0.52                   -0.283497        -129.863         -54.3753        -9.29786         -54.3765        -9.29232      -0.00928374         149.832
0.521                  -0.284407         -130.31         -54.3487        -10.8999         -54.3498        -10.8944      -0.00935357         149.766
0.522                  -0.285451        -130.762         -54.3202        -12.4582         -54.3213        -12.4527       -0.0094241         149.699
0.523                  -0.286629        -131.218         -54.2898        -13.9749         -54.2908        -13.9694      -0.00949533         149.632
0.524                  -0.287943        -131.679         -54.2572        -15.4521         -54.2582        -15.4467      -0.00956726         149.565
0.525                  -0.289393        -132.144         -54.2225        -16.8919         -54.2233        -16.8867      -0.00963992         149.498
0.526                   -0.29098        -132.613         -54.1853        -18.2963         -54.1861        -18.2912       -0.0097133         149.431
0.527                  -0.292706        -133.087         -54.1458        -19.6671         -54.1465        -19.6621      -0.00978743         149.364
0.528                  -0.294573        -133.565         -54.1037         -21.006         -54.1043        -21.0013       -0.0098623         149.296
0.529                  -0.296583        -134.048          -54.059        -22.3149         -54.0596        -22.3104      -0.00993793         149.229
0.53                    -0.29874        -134.536         -54.0117        -23.5954         -54.0122         -23.591       -0.0100143         149.161
0.531                  -0.301046        -135.029         -53.9616        -24.8489         -53.9621        -24.8448       -0.0100915         149.094
0.532                  -0.303504        -135.526         -53.9089         -26.077         -53.9093        -26.0731       -0.0101695         149.026
0.533                   -0.30612        -136.028         -53.8533        -27.2812         -53.8536        -27.2776       -0.0102482         148.958
0.534                  -0.308897        -136.536         -53.7948        -28.4628         -53.7951        -28.4594       -0.0103278          148.89
0.535                   -0.31184        -137.048         -53.7335        -29.6231         -53.7338        -29.6199       -0.0104082         148.822
0.536                  -0.314954        -137.565         -53.6692        -30.7634         -53.6695        -30.7605       -0.0104894         148.754
0.537                  -0.318246        -138.088         -53.6021        -31.8849         -53.6022        -31.8822       -0.0105714         148.686
0.538                  -0.321722        -138.615         -53.5319        -32.9887          -53.532        -32.9863       -0.0106543         148.617
0.539                  -0.325388        -139.148         -53.4587         -34.076         -53.4589        -34.0739       -0.0107381         148.549
0.54                   -0.329252        -139.687         -53.3826        -35.1479         -53.3827         -35.146       -0.0108228          148.48
0.541                  -0.333322        -140.231         -53.3034        -36.2053         -53.3034        -36.2037       -0.0109083         148.412
0.542                  -0.337607        -140.781         -53.2211        -37.2494         -53.2212         -37.248       -0.0109947         148.343
0.543                  -0.342116        -141.336         -53.1358        -38.2811         -53.1358        -38.2798        -0.011082         148.274
0.544                  -0.346859        -141.897         -53.0473        -39.3012         -53.0473        -39.3002       -0.0111702         148.205
0.545                  -0.351845        -142.464         -52.9558        -40.3109         -52.9558        -40.3101       -0.0112594         148.136
0.546                  -0.357088        -143.037         -52.8611        -41.3108         -52.8611        -41.3102       -0.0113495         148.067
0.547                  -0.362599        -143.617         -52.7633         -42.302         -52.7633        -42.3016       -0.0114406         147.997
0.548                  -0.368391        -144.202         -52.6624        -43.2852         -52.6623         -43.285       -0.0115326         147.928
0.549                  -0.374478        -144.794         -52.5583        -44.2613         -52.5582        -44.2612       -0.0116256         147.858
0.55                   -0.380875        -145.392          -52.451        -45.2311         -52.4509        -45.2312       -0.0117196         147.789
0.551                  -0.387597        -145.997         -52.3405        -46.1954         -52.3404        -46.1957       -0.0118146         147.719
0.552                  -0.394662        -146.609         -52.2268         -47.155         -52.2267        -47.1554       -0.0119106         147.649
0.553                  -0.402089        -147.228         -52.1098        -48.1107         -52.1098        -48.1111       -0.0120077         147.579
0.554                  -0.409895        -147.854         -51.9897        -49.0631         -51.9896        -49.0637       -0.0121058         147.509
0.555                  -0.418103        -148.487         -51.8663        -50.0132         -51.8662        -50.0139       -0.0122049         147.439
0.556                  -0.426733        -149.128         -51.7396        -50.9616         -51.7395        -50.9624       -0.0123052         147.368
0.557                   -0.43581        -149.776         -51.6097         -51.909         -51.6096        -51.9099       -0.0124065         147.298
0.558                   -0.44536        -150.432         -51.4764        -52.8563         -51.4764        -52.8573       -0.0125089         147.227
0.559                  -0.455408        -151.096         -51.3399        -53.8042         -51.3399        -53.8051       -0.0126125         147.156
0.56                   -0.465984        -151.768         -51.2001        -54.7533         -51.2001        -54.7543       -0.0127172         147.085
0.561                   -0.47712        -152.448          -51.057        -55.7045         -51.0569        -55.7056       -0.0128231         147.014
0.562                  -0.488847        -153.137         -50.9105        -56.6585         -50.9105        -56.6595       -0.0129301         146.943
0.563                  -0.501203        -153.834         -50.7607         -57.616         -50.7607        -57.6171       -0.0130384         146.872
0.564                  -0.514224        -154.541         -50.6076        -58.5777         -50.6075        -58.5788       -0.0131478           146.8
0.565                  -0.527953        -155.257          -50.451        -59.5446          -50.451        -59.5457       -0.0132586         146.729
0.566                  -0.542432        -155.982         -50.2912        -60.5172         -50.2912        -60.5183       -0.0133705         146.657
0.567                  -0.557709        -156.717         -50.1279        -61.4964         -50.1279        -61.4975       -0.0134838         146.585
0.568                  -0.573834        -157.462         -49.9613         -62.483         -49.9613        -62.4841       -0.0135983         146.513
0.569                  -0.590863        -158.217         -49.7913        -63.4778         -49.7913        -63.4788       -0.0137142         146.441
0.57                   -0.608854        -158.983         -49.6179        -64.4816         -49.6179        -64.4825       -0.0138315         146.369
0.571                  -0.627871         -159.76         -49.4411        -65.4952         -49.4411        -65.4961       -0.0139502         146.296
0.572                   -0.64798        -160.547         -49.2608        -66.5195         -49.2609        -66.5204       -0.0140702         146.224
0.573                  -0.669257        -161.346         -49.0772        -67.5553         -49.0773        -67.5562       -0.0141918         146.151
0.574                   -0.69178        -162.157         -48.8902        -68.6036         -48.8902        -68.6044       -0.0143148         146.078
0.575                  -0.715635         -162.98         -48.6998        -69.6653         -48.6998         -69.666       -0.0144393         146.005
0.576                  -0.740914        -163.814          -48.506        -70.7413          -48.506         -70.742       -0.0145654         145.932
0.577                  -0.767718        -164.662         -48.3088        -71.8326         -48.3089        -71.8332       -0.0146932         145.859
0.578                  -0.796155        -165.523         -48.1083        -72.9401         -48.1083        -72.9407       -0.0148225         145.785
0.579                  -0.826342        -166.397         -47.9044         -74.065         -47.9044        -74.0655       -0.0149536         145.711
0.58                   -0.858407        -167.284         -47.6971        -75.2082         -47.6971        -75.2087       -0.0150864         145.638
0.581                  -0.892487        -168.186         -47.4865         -76.371         -47.4866        -76.3713       -0.0152211         145.564
0.582                  -0.928732        -169.101         -47.2727        -77.5543         -47.2727        -77.5546       -0.0153576          145.49
0.583                  -0.967303        -170.032         -47.0556        -78.7594         -47.0556        -78.7597        -0.015496         145.415
0.584                   -1.00838        -170.977         -46.8353        -79.9876         -46.8353        -79.9878       -0.0156364         145.341
0.585                   -1.05215        -171.938         -46.6118          -81.24         -46.6118        -81.2402        -0.015779         145.266
0.586                   -1.09882        -172.914         -46.3852         -82.518         -46.3852        -82.5181       -0.0159236         145.191
0.587                   -1.14862        -173.905         -46.1555        -83.8229         -46.1555         -83.823       -0.0160706         145.116
0.588                   -1.20179        -174.913         -45.9229        -85.1561         -45.9229        -85.1561       -0.0162199         145.041
0.589                   -1.25861        -175.937         -45.6874        -86.5191         -45.6874        -86.5191       -0.0163716         144.966
0.59                    -1.31936        -176.977         -45.4492        -87.9133         -45.4491        -87.9132        -0.016526          144.89
0.591                   -1.38435        -178.033         -45.2082        -89.3402         -45.2082        -89.3402        -0.016683         144.815
0.592                   -1.45394        -179.105         -44.9647        -90.8015         -44.9647        -90.8014       -0.0168428         144.739
0.593                   -1.52849         179.807         -44.7188        -92.2987         -44.7188        -92.2986       -0.0170057         144.663
0.594                   -1.60842         178.704         -44.4707        -93.8334         -44.4706        -93.8333       -0.0171717         144.587
0.595                   -1.69415         177.586         -44.2206        -95.4074         -44.2205        -95.4074        -0.017341          144.51
0.596                   -1.78618         176.453         -43.9685        -97.0224         -43.9685        -97.0223       -0.0175138         144.433
0.597                     -1.885         175.307         -43.7149        -98.6799         -43.7149        -98.6799       -0.0176903         144.357
0.598                   -1.99119         174.149           -43.46        -100.382         -43.4599        -100.382       -0.0178707          144.28
0.599                   -2.10534         172.981          -43.204         -102.13         -43.2039         -102.13       -0.0180553         144.202
0.6                      -2.2281         171.805         -42.9472        -103.925         -42.9471        -103.925       -0.0182443         144.125
0.601                   -2.36016         170.622         -42.6901         -105.77           -42.69         -105.77       -0.0184379         144.047
0.602                   -2.50225         169.437          -42.433        -107.666         -42.4329        -107.666       -0.0186364         143.969
0.603                   -2.65517         168.253         -42.1763        -109.614         -42.1762        -109.614       -0.0188402         143.891
0.604                   -2.81973         167.075         -41.9206        -111.615         -41.9204        -111.616       -0.0190495         143.813
0.605                   -2.99679         165.908         -41.6662        -113.672         -41.6661        -113.672       -0.0192646         143.735
0.606                   -3.18724         164.758         -41.4137        -115.783         -41.4136        -115.784       -0.0194859         143.656
0.607                   -3.39197         163.635         -41.1638        -117.951         -41.1637        -117.951       -0.0197136         143.577
0.608                   -3.61189         162.547          -40.917        -120.176         -40.9169        -120.176       -0.0199481         143.498
0.609                   -3.84786         161.505          -40.674        -122.457         -40.6739        -122.457       -0.0201897         143.418
0.61                    -4.10066         160.522         -40.4354        -124.794         -40.4353        -124.795       -0.0204387         143.339
0.611                   -4.37099         159.614          -40.202        -127.187         -40.2019        -127.187       -0.0206953         143.259
0.612                   -4.65934         158.799         -39.9744        -129.634         -39.9743        -129.634       -0.0209598         143.179
0.613                   -4.96593         158.096         -39.7534        -132.133         -39.7533        -132.133       -0.0212324         143.099
0.614                   -5.29062          157.53         -39.5397        -134.682         -39.5396        -134.683       -0.0215132         143.018
0.615                   -5.63272         157.127          -39.334        -137.278         -39.3339        -137.279       -0.0218023         142.938
0.616                   -5.99086         156.916         -39.1369        -139.918         -39.1369        -139.918       -0.0220996         142.857
0.617                   -6.36272         156.929         -38.9492        -142.597         -38.9491        -142.597       -0.0224053         142.776
0.618                    -6.7448           157.2         -38.7713        -145.311         -38.7712        -145.311        -0.022719         142.695
0.619                   -7.13212         157.763         -38.6037        -148.054         -38.6036        -148.055       -0.0230405         142.613
0.62                    -7.51799         158.648         -38.4469        -150.822         -38.4468        -150.822       -0.0233697         142.531
0.621                    -7.8938         159.881         -38.3012        -153.608         -38.3011        -153.608       -0.0237059         142.449
0.622                   -8.24904         161.474         -38.1668        -156.406         -38.1668        -156.406       -0.0240488         142.367
0.623                    -8.5716         163.424         -38.0438        -159.209         -38.0438        -159.209       -0.0243979         142.285
0.624                   -8.84862         165.705         -37.9323        -162.011         -37.9323        -162.012       -0.0247524         142.202
0.625                   -9.06769         168.264         -37.8321        -164.807          -37.832        -164.807       -0.0251119          142.12
0.626                   -9.21853         171.019         -37.7429        -167.589         -37.7429        -167.589       -0.0254756         142.037
0.627                   -9.29462         173.872         -37.6645        -170.352         -37.6645        -170.352       -0.0258429         141.954
0.628                   -9.29435         176.709         -37.5964         -173.09         -37.5964         -173.09       -0.0262132          141.87
0.629                   -9.22126         179.425         -37.5382        -175.797         -37.5382        -175.797       -0.0265858         141.786
