! TOUCHSTONE file generated by CST MICROWAVE STUDIO
! Date and time: Sat Oct 24 10:43:37 2020
! Project name: Scenario_1_Planar_Body_Tissue_Center.cst
! Parameters = {hfat=3; hmuscle=50; hskin=1.5; hgap=25; Wtissue=700; Ltissue=700; L_HA=400; MT=2.54; Rad_Dielectric=30; Rad_Lower=7.3; Rad_Upper=30; a_HA=580; a_WG=246; b_HA=500; b_WG=121; c_HA=0; c_WG=187; d_feed=85; dx1=398.16; h_feed=15; h_lower=18; h_upper=40}
! Header version: 2018
! Port assignment regex: !\s*Touchstone port\s*([0-9]+)\s*=\s*(CST MWS port|CST DS port)\s*([0-9]+|Zmin|Zmax)\s*\(\"(.*)\"\)(\s*mode\s*([0-9]+))?.*
! Touchstone port assignment:
! Touchstone port 1 = CST MWS port 1 ("")
! Touchstone port 2 = CST MWS port 2 ("")
# GHz S DB R 50
0.5                    -0.171033        -121.251         -58.3237        0.251712          -58.324        0.251446      -0.00781492         151.147
0.501                   -0.17094        -121.675         -58.2578       -0.673361         -58.2581       -0.673677      -0.00785706         151.082
0.502                  -0.170926        -122.102         -58.1901        -1.60561         -58.1904        -1.60597      -0.00790009         151.017
0.503                  -0.170994        -122.532         -58.1207        -2.54501          -58.121        -2.54542      -0.00794402         150.951
0.504                  -0.171144        -122.964         -58.0495        -3.49152         -58.0498        -3.49198      -0.00798887         150.886
0.505                  -0.171381          -123.4         -57.9765        -4.44513         -57.9767        -4.44562      -0.00803464         150.821
0.506                  -0.171707        -123.838         -57.9015        -5.40578         -57.9017        -5.40631      -0.00808135         150.755
0.507                  -0.172124         -124.28         -57.8247        -6.37344         -57.8249        -6.37401      -0.00812903          150.69
0.508                  -0.172636        -124.725         -57.7459        -7.34808         -57.7461        -7.34869      -0.00817767         150.624
0.509                  -0.173246        -125.173         -57.6651        -8.32964         -57.6653        -8.33028      -0.00822729         150.558
0.51                   -0.173957        -125.624         -57.5823        -9.31809         -57.5824        -9.31876      -0.00827791         150.492
0.511                  -0.174773        -126.078         -57.4975        -10.3134         -57.4976        -10.3141      -0.00832953         150.426
0.512                  -0.175696        -126.535         -57.4105        -11.3155         -57.4106        -11.3162      -0.00838218          150.36
0.513                  -0.176732        -126.996         -57.3214        -12.3243         -57.3215         -12.325      -0.00843587         150.294
0.514                  -0.177883        -127.461         -57.2301        -13.3398         -57.2302        -13.3405       -0.0084906         150.228
0.515                  -0.179155        -127.928         -57.1367        -14.3619         -57.1367        -14.3627       -0.0085464         150.162
0.516                  -0.180552          -128.4         -57.0409        -15.3907         -57.0409        -15.3915      -0.00860327         150.096
0.517                  -0.182079        -128.875         -56.9429        -16.4259         -56.9429        -16.4268      -0.00866122         150.029
0.518                   -0.18374        -129.353         -56.8426        -17.4677         -56.8426        -17.4685      -0.00872028         149.963
0.519                  -0.185541        -129.836         -56.7399        -18.5159         -56.7399        -18.5168      -0.00878045         149.896
0.52                   -0.187488        -130.322         -56.6349        -19.5705         -56.6348        -19.5714      -0.00884174         149.829
0.521                  -0.189587        -130.812         -56.5274        -20.6314         -56.5273        -20.6323      -0.00890418         149.763
0.522                  -0.191843        -131.307         -56.4175        -21.6987         -56.4174        -21.6996      -0.00896776         149.696
0.523                  -0.194264        -131.805          -56.305        -22.7722         -56.3049        -22.7731      -0.00903251         149.629
0.524                  -0.196858        -132.307         -56.1901         -23.852           -56.19        -23.8529      -0.00909844         149.562
0.525                   -0.19963        -132.814         -56.0725        -24.9379         -56.0724        -24.9388      -0.00916555         149.495
0.526                   -0.20259        -133.325         -55.9524          -26.03         -55.9523        -26.0309      -0.00923386         149.427
0.527                  -0.205747        -133.841         -55.8296        -27.1283         -55.8295        -27.1292      -0.00930338          149.36
0.528                  -0.209108        -134.361         -55.7042        -28.2327         -55.7041        -28.2336      -0.00937413         149.293
0.529                  -0.212684        -134.885         -55.5761        -29.3432         -55.5759        -29.3441      -0.00944612         149.225
0.53                   -0.216486        -135.415         -55.4452        -30.4599          -55.445        -30.4608      -0.00951935         149.157
0.531                  -0.220524        -135.949         -55.3116        -31.5827         -55.3114        -31.5836      -0.00959384          149.09
0.532                   -0.22481        -136.488         -55.1751        -32.7117         -55.1749        -32.7126      -0.00966961         149.022
0.533                  -0.229357        -137.033         -55.0358        -33.8468         -55.0357        -33.8477      -0.00974666         148.954
0.534                  -0.234179        -137.583         -54.8937        -34.9882         -54.8935        -34.9891        -0.009825         148.886
0.535                  -0.239289        -138.138         -54.7486        -36.1359         -54.7484        -36.1368      -0.00990465         148.818
0.536                  -0.244703        -138.698         -54.6006          -37.29         -54.6004        -37.2908      -0.00998561          148.75
0.537                  -0.250438        -139.264         -54.4496        -38.4504         -54.4494        -38.4513       -0.0100679         148.681
0.538                  -0.256511        -139.836         -54.2956        -39.6175         -54.2954        -39.6183       -0.0101515         148.613
0.539                  -0.262942        -140.414         -54.1386        -40.7911         -54.1384         -40.792       -0.0102365         148.544
0.54                   -0.269752        -140.998         -53.9785        -41.9716         -53.9783        -41.9725       -0.0103228         148.476
0.541                  -0.276962        -141.588         -53.8153         -43.159         -53.8151        -43.1599       -0.0104105         148.407
0.542                  -0.284596        -142.185         -53.6489        -44.3536         -53.6487        -44.3544       -0.0104996         148.338
0.543                   -0.29268        -142.789         -53.4794        -45.5554         -53.4792        -45.5563       -0.0105901         148.269
0.544                  -0.301241        -143.399         -53.3066        -46.7648         -53.3064        -46.7657        -0.010682           148.2
0.545                   -0.31031        -144.016         -53.1306         -47.982         -53.1304        -47.9829       -0.0107753         148.131
0.546                  -0.319918         -144.64         -52.9513        -49.2073         -52.9511        -49.2081         -0.01087         148.061
0.547                  -0.330101        -145.272         -52.7687         -50.441         -52.7685        -50.4418       -0.0109661         147.992
0.548                  -0.340897        -145.911         -52.5827        -51.6834         -52.5825        -51.6842       -0.0110636         147.922
0.549                  -0.352346        -146.559         -52.3933        -52.9349         -52.3932        -52.9356       -0.0111626         147.853
0.55                   -0.364493        -147.214         -52.2005        -54.1959         -52.2004        -54.1966       -0.0112631         147.783
0.551                  -0.377386        -147.878         -52.0042        -55.4668         -52.0041        -55.4676        -0.011365         147.713
0.552                  -0.391079         -148.55         -51.8045        -56.7483         -51.8043         -56.749       -0.0114684         147.643
0.553                  -0.405627        -149.231         -51.6011        -58.0407          -51.601        -58.0413       -0.0115733         147.573
0.554                  -0.421094        -149.921         -51.3943        -59.3446         -51.3942        -59.3453       -0.0116796         147.503
0.555                  -0.437547        -150.621         -51.1838        -60.6608         -51.1837        -60.6614       -0.0117874         147.432
0.556                  -0.455061         -151.33         -50.9696        -61.9898         -50.9695        -61.9905       -0.0118968         147.362
0.557                  -0.473716        -152.049         -50.7518        -63.3325         -50.7517        -63.3331       -0.0120076         147.291
0.558                  -0.493602        -152.779         -50.5302        -64.6897         -50.5302        -64.6902       -0.0121199         147.221
0.559                  -0.514814        -153.519         -50.3049        -66.0621         -50.3049        -66.0626       -0.0122338          147.15
0.56                   -0.537459         -154.27         -50.0758        -67.4508         -50.0758        -67.4513       -0.0123492         147.079
0.561                  -0.561655        -155.032         -49.8429        -68.8568          -49.843        -68.8572       -0.0124661         147.008
0.562                  -0.587527        -155.805         -49.6062        -70.2811         -49.6062        -70.2815       -0.0125846         146.936
0.563                  -0.615218        -156.591         -49.3656         -71.725         -49.3657        -71.7253       -0.0127045         146.865
0.564                   -0.64488        -157.388         -49.1211        -73.1897         -49.1212          -73.19       -0.0128261         146.794
0.565                  -0.676684        -158.197         -48.8728        -74.6765         -48.8729        -74.6768       -0.0129492         146.722
0.566                  -0.710817        -159.019         -48.6205        -76.1871         -48.6206        -76.1873       -0.0130739          146.65
0.567                  -0.747483        -159.854         -48.3643        -77.7229         -48.3644         -77.723       -0.0132001         146.578
0.568                  -0.786909        -160.702         -48.1042        -79.2856         -48.1044        -79.2856        -0.013328         146.506
0.569                  -0.829345        -161.562         -47.8403        -80.8771         -47.8405         -80.877       -0.0134575         146.434
0.57                   -0.875063        -162.436         -47.5725        -82.4992         -47.5727        -82.4991       -0.0135886         146.362
0.571                  -0.924368        -163.322         -47.3009        -84.1542         -47.3011         -84.154       -0.0137213         146.289
0.572                  -0.977589        -164.221         -47.0256        -85.8442         -47.0258        -85.8439       -0.0138557         146.216
0.573                   -1.03509        -165.132         -46.7466        -87.5715         -46.7468        -87.5711       -0.0139919         146.144
0.574                   -1.09728        -166.056          -46.464        -89.3387         -46.4643        -89.3382       -0.0141298         146.071
0.575                   -1.16459         -166.99         -46.1781        -91.1485         -46.1783        -91.1479       -0.0142695         145.998
0.576                    -1.2375        -167.934         -45.8889        -93.0037         -45.8892         -93.003       -0.0144111         145.924
0.577                   -1.31653        -168.886         -45.5966        -94.9072         -45.5969        -94.9064       -0.0145547         145.851
0.578                   -1.40224        -169.845         -45.3016        -96.8622         -45.3019        -96.8612       -0.0147003         145.777
0.579                   -1.49525        -170.808          -45.004        -98.8719         -45.0043        -98.8708       -0.0148482         145.704
0.58                     -1.5962        -171.773         -44.7043         -100.94         -44.7046        -100.938       -0.0149985          145.63
0.581                   -1.70577        -172.735         -44.4028        -103.069         -44.4031        -103.068       -0.0151514         145.556
0.582                   -1.82469        -173.689            -44.1        -105.263         -44.1003        -105.262       -0.0153072         145.481
0.583                   -1.95367        -174.631         -43.7965        -107.526         -43.7969        -107.525       -0.0154663         145.407
0.584                   -2.09346        -175.552          -43.493        -109.861         -43.4933         -109.86       -0.0156291         145.332
0.585                   -2.24474        -176.445         -43.1901        -112.272         -43.1904         -112.27       -0.0157961         145.257
0.586                   -2.40814        -177.299         -42.8887        -114.761          -42.889        -114.759        -0.015968         145.182
0.587                   -2.58417        -178.102         -42.5897        -117.331           -42.59        -117.329       -0.0161457         145.107
0.588                   -2.77315         -178.84         -42.2942        -119.986         -42.2945        -119.984       -0.0163302         145.032
0.589                   -2.97511        -179.497         -42.0034        -122.726         -42.0036        -122.724       -0.0165228         144.956
0.59                    -3.18971         179.946         -41.7184        -125.554         -41.7186        -125.551       -0.0167249          144.88
0.591                   -3.41606          179.51         -41.4407        -128.468         -41.4409        -128.466       -0.0169383         144.804
0.592                   -3.65261         179.215         -41.1718        -131.469         -41.1719        -131.467        -0.017165         144.728
0.593                   -3.89697         179.086          -40.913        -134.554         -40.9132        -134.552       -0.0174069         144.652
0.594                   -4.14575         179.144         -40.6661         -137.72         -40.6662        -137.718       -0.0176664         144.575
0.595                   -4.39443         179.409         -40.4325        -140.962         -40.4325         -140.96       -0.0179451         144.498
0.596                   -4.63735         179.896         -40.2136        -144.273         -40.2137        -144.271       -0.0182444         144.422
0.597                   -4.86776        -179.388          -40.011        -147.645          -40.011        -147.643       -0.0185646         144.345
0.598                   -5.07817        -178.448         -39.8259        -151.068         -39.8259        -151.067       -0.0189045         144.267
0.599                   -5.26077        -177.301         -39.6594         -154.53         -39.6594         -154.53       -0.0192612          144.19
0.6                     -5.40824         -175.98         -39.5122         -158.02         -39.5122         -158.02         -0.01963         144.113
0.601                    -5.5145        -174.532          -39.385        -161.524         -39.3849        -161.524       -0.0200045         144.036
0.602                   -5.57557        -173.016         -39.2779        -165.027         -39.2779        -165.028       -0.0203777         143.959
0.603                   -5.59007        -171.495         -39.1909        -168.517         -39.1909        -168.517       -0.0207428         143.882
0.604                    -5.5594        -170.033         -39.1236        -171.978         -39.1236        -171.979        -0.021094         143.804
0.605                   -5.48745        -168.686         -39.0753        -175.398         -39.0754        -175.399       -0.0214275         143.727
0.606                      -5.38        -167.501          -39.045        -178.764         -39.0451        -178.766       -0.0217417         143.649
0.607                    -5.2439        -166.508         -39.0315         177.934         -39.0316         177.931       -0.0220366         143.572
0.608                    -5.0863        -165.724         -39.0334         174.705         -39.0336         174.702        -0.022314         143.494
0.609                   -4.91403        -165.155         -39.0492         171.557         -39.0495         171.554       -0.0225764         143.416
0.61                    -4.73317        -164.794         -39.0774         168.496         -39.0778         168.493       -0.0228266         143.337
0.611                   -4.54882        -164.632         -39.1163         165.526         -39.1168         165.523       -0.0230677         143.259
0.612                   -4.36507        -164.653         -39.1643         162.651         -39.1648         162.648       -0.0233024          143.18
0.613                   -4.18507        -164.838         -39.2199         159.871         -39.2205         159.868        -0.023533         143.101
0.614                    -4.0111        -165.169         -39.2815         157.187         -39.2822         157.184       -0.0237615         143.021
0.615                   -3.84474        -165.628         -39.3478         154.599         -39.3486         154.596       -0.0239895         142.942
0.616                     -3.687          -166.2         -39.4175         152.104         -39.4183         152.101       -0.0242183         142.862
0.617                   -3.53846        -166.869         -39.4893           149.7         -39.4902         149.698        -0.024449         142.781
0.618                   -3.39936        -167.622         -39.5622         147.384         -39.5632         147.382       -0.0246822         142.701
0.619                    -3.2697        -168.446         -39.6353         145.153         -39.6363         145.152       -0.0249186          142.62
0.62                    -3.14931        -169.333         -39.7075         143.003         -39.7086         143.002       -0.0251586         142.539
0.621                   -3.03791        -170.273         -39.7782         140.931         -39.7793          140.93       -0.0254025         142.457
0.622                   -2.93512         -171.26         -39.8467         138.932         -39.8478         138.932       -0.0256507         142.376
0.623                   -2.84054        -172.287         -39.9123         137.002         -39.9135         137.002       -0.0259031         142.294
0.624                   -2.75376        -173.348         -39.9746         135.137         -39.9758         135.138       -0.0261601         142.212
0.625                   -2.67434        -174.441         -40.0331         133.333         -40.0342         133.334       -0.0264217         142.129
0.626                   -2.60186        -175.561         -40.0874         131.586         -40.0885         131.588        -0.026688         142.047
0.627                   -2.53592        -176.705         -40.1372         129.891         -40.1382         129.894       -0.0269591         141.964
0.628                   -2.47613        -177.871         -40.1821         128.246         -40.1831         128.249       -0.0272349          141.88
0.629                   -2.42214        -179.058         -40.2219         126.646         -40.2229          126.65       -0.0275156         141.797
