! TOUCHSTONE file generated by CST MICROWAVE STUDIO
! Date and time: Sat Oct 24 10:45:00 2020
! Project name: Scenario_1_Planar_Body_Tissue_Center.cst
! Parameters = {hfat=3; hmuscle=50; hskin=1.5; hgap=25; Wtissue=700; Ltissue=700; L_HA=400; MT=2.54; Rad_Dielectric=30; Rad_Lower=7.3; Rad_Upper=30; a_HA=580; a_WG=246; b_HA=500; b_WG=121; c_HA=0; c_WG=187; d_feed=85; dx1=432.8; h_feed=15; h_lower=18; h_upper=40}
! Header version: 2018
! Port assignment regex: !\s*Touchstone port\s*([0-9]+)\s*=\s*(CST MWS port|CST DS port)\s*([0-9]+|Zmin|Zmax)\s*\(\"(.*)\"\)(\s*mode\s*([0-9]+))?.*
! Touchstone port assignment:
! Touchstone port 1 = CST MWS port 1 ("")
! Touchstone port 2 = CST MWS port 2 ("")
# GHz S DB R 50
0.5                    -0.118548        -121.376         -59.9964        -14.8524         -59.9962        -14.8515      -0.00765547         151.141
0.501                  -0.119464         -121.81            -59.9        -15.8465         -59.8998        -15.8447      -0.00771325         151.076
0.502                  -0.120453        -122.247         -59.8009        -16.8425         -59.8007        -16.8398       -0.0077716          151.01
0.503                  -0.121519        -122.687         -59.6991        -17.8402          -59.699        -17.8367      -0.00783051         150.945
0.504                  -0.122665         -123.13         -59.5947        -18.8395         -59.5946        -18.8352         -0.00789          150.88
0.505                  -0.123895        -123.577         -59.4875        -19.8405         -59.4875        -19.8354      -0.00795006         150.814
0.506                  -0.125213        -124.026         -59.3776        -20.8431         -59.3776        -20.8372       -0.0080107         150.749
0.507                  -0.126622        -124.479         -59.2649        -21.8471         -59.2649        -21.8405      -0.00807193         150.683
0.508                  -0.128128        -124.935         -59.1494        -22.8527         -59.1494        -22.8453      -0.00813374         150.617
0.509                  -0.129734        -125.394         -59.0311        -23.8597          -59.031        -23.8517      -0.00819615         150.551
0.51                   -0.131446        -125.857         -58.9098        -24.8682         -58.9098        -24.8595      -0.00825915         150.486
0.511                  -0.133269        -126.324         -58.7856        -25.8782         -58.7856        -25.8689      -0.00832275          150.42
0.512                  -0.135209        -126.794         -58.6585        -26.8896         -58.6585        -26.8798      -0.00838695         150.354
0.513                  -0.137272        -127.267         -58.5283        -27.9026         -58.5283        -27.8922      -0.00845177         150.287
0.514                  -0.139464        -127.745         -58.3952        -28.9171         -58.3951        -28.9063      -0.00851719         150.221
0.515                  -0.141791        -128.226         -58.2589        -29.9333         -58.2589        -29.9221      -0.00858323         150.155
0.516                  -0.144263        -128.712         -58.1196        -30.9513         -58.1195        -30.9396      -0.00864988         150.089
0.517                  -0.146885        -129.201         -57.9771         -31.971          -57.977         -31.959      -0.00871717         150.022
0.518                  -0.149667        -129.695         -57.8314        -32.9928         -57.8312        -32.9804      -0.00878508         149.956
0.519                  -0.152618        -130.192         -57.6824        -34.0166         -57.6823         -34.004      -0.00885362         149.889
0.52                   -0.155747        -130.694         -57.5302        -35.0427           -57.53        -35.0299       -0.0089228         149.822
0.521                  -0.159066        -131.201         -57.3747        -36.0712         -57.3745        -36.0583      -0.00899263         149.755
0.522                  -0.162584        -131.712         -57.2158        -37.1025         -57.2156        -37.0894       -0.0090631         149.688
0.523                  -0.166315        -132.228         -57.0535        -38.1366         -57.0532        -38.1234      -0.00913422         149.621
0.524                  -0.170271        -132.749         -56.8877         -39.174         -56.8874        -39.1607        -0.009206         149.554
0.525                  -0.174467        -133.275         -56.7184        -40.2148         -56.7181        -40.2016      -0.00927845         149.487
0.526                  -0.178917        -133.806         -56.5456        -41.2595         -56.5452        -41.2463      -0.00935156          149.42
0.527                  -0.183639        -134.342         -56.3691        -42.3083         -56.3687        -42.2952      -0.00942534         149.353
0.528                  -0.188649        -134.883          -56.189        -43.3618         -56.1885        -43.3488      -0.00949981         149.285
0.529                  -0.193968         -135.43         -56.0052        -44.4202         -56.0047        -44.4074      -0.00957496         149.218
0.53                   -0.199615        -135.983         -55.8176        -45.4841          -55.817        -45.4715      -0.00965081          149.15
0.531                  -0.205614        -136.542         -55.6261        -46.5541         -55.6255        -46.5417      -0.00972735         149.082
0.532                  -0.211989        -137.107         -55.4308        -47.6305         -55.4301        -47.6185      -0.00980461         149.014
0.533                  -0.218768        -137.678         -55.2315        -48.7142         -55.2308        -48.7024      -0.00988258         148.947
0.534                  -0.225978        -138.255         -55.0282        -49.8056         -55.0275        -49.7943      -0.00996128         148.878
0.535                  -0.233652        -138.839         -54.8208        -50.9056           -54.82        -50.8946       -0.0100407          148.81
0.536                  -0.241824         -139.43         -54.6092        -52.0148         -54.6085        -52.0043       -0.0101209         148.742
0.537                  -0.250533        -140.028         -54.3935        -53.1341         -54.3927        -53.1241       -0.0102019         148.674
0.538                  -0.259818        -140.633         -54.1735        -54.2644         -54.1727        -54.2548       -0.0102836         148.605
0.539                  -0.269727        -141.246         -53.9492        -55.4065         -53.9484        -55.3975       -0.0103661         148.537
0.54                   -0.280308        -141.867         -53.7205        -56.5616         -53.7197        -56.5531       -0.0104494         148.468
0.541                  -0.291615        -142.496         -53.4874        -57.7306         -53.4865        -57.7227       -0.0105335         148.399
0.542                  -0.303708        -143.133         -53.2497        -58.9148         -53.2489        -58.9074       -0.0106185          148.33
0.543                  -0.316654        -143.778         -53.0075        -60.1153         -53.0066        -60.1085       -0.0107044         148.261
0.544                  -0.330524        -144.433         -52.7606        -61.3335         -52.7598        -61.3273       -0.0107912         148.192
0.545                  -0.345398        -145.096          -52.509        -62.5709         -52.5082        -62.5652       -0.0108789         148.123
0.546                  -0.361364        -145.769         -52.2527        -63.8288         -52.2519        -63.8237       -0.0109675         148.054
0.547                  -0.378518        -146.452         -51.9916         -65.109         -51.9908        -65.1045       -0.0110572         147.984
0.548                  -0.396969        -147.145         -51.7256        -66.4132         -51.7249        -66.4092       -0.0111479         147.915
0.549                  -0.416835        -147.847         -51.4548        -67.7432         -51.4541        -67.7397       -0.0112398         147.845
0.55                   -0.438248        -148.561         -51.1791        -69.1011         -51.1784         -69.098       -0.0113328         147.775
0.551                  -0.461353        -149.285         -50.8984        -70.4888         -50.8978        -70.4862       -0.0114271         147.705
0.552                  -0.486312        -150.021         -50.6127        -71.9087         -50.6122        -71.9066       -0.0115227         147.635
0.553                  -0.513305        -150.767         -50.3221        -73.3632         -50.3216        -73.3615       -0.0116197         147.565
0.554                   -0.54253        -151.525         -50.0266        -74.8549         -50.0262        -74.8536       -0.0117183         147.495
0.555                  -0.574209        -152.295         -49.7262        -76.3865         -49.7258        -76.3855       -0.0118185         147.424
0.556                  -0.608587        -153.076         -49.4208         -77.961         -49.4205        -77.9602       -0.0119206         147.354
0.557                  -0.645935        -153.869         -49.1107        -79.5815         -49.1105        -79.5809       -0.0120246         147.283
0.558                  -0.686557        -154.673          -48.796        -81.2512         -48.7957        -81.2509       -0.0121308         147.212
0.559                  -0.730786        -155.489         -48.4766        -82.9738         -48.4765        -82.9736       -0.0122394         147.141
0.56                    -0.77899        -156.315         -48.1529        -84.7531         -48.1528         -84.753       -0.0123507          147.07
0.561                  -0.831576        -157.151         -47.8251        -86.5929          -47.825        -86.5928        -0.012465         146.999
0.562                   -0.88899        -157.995         -47.4934        -88.4974         -47.4933        -88.4974       -0.0125826         146.927
0.563                  -0.951718        -158.847         -47.1581        -90.4711         -47.1581        -90.4711       -0.0127038         146.856
0.564                   -1.02029        -159.704         -46.8197        -92.5186         -46.8198        -92.5186       -0.0128292         146.784
0.565                   -1.09527        -160.565         -46.4787        -94.6446         -46.4788        -94.6445       -0.0129592         146.712
0.566                   -1.17726        -161.425         -46.1356         -96.854         -46.1357        -96.8538       -0.0130944          146.64
0.567                   -1.26689        -162.281         -45.7912        -99.1517         -45.7913        -99.1514       -0.0132353         146.568
0.568                   -1.36481        -163.128         -45.4463        -101.543         -45.4464        -101.542       -0.0133826         146.496
0.569                   -1.47166        -163.959         -45.1018        -104.032         -45.1019        -104.031       -0.0135371         146.423
0.57                    -1.58802        -164.767         -44.7588        -106.624         -44.7589        -106.623       -0.0136994         146.351
0.571                   -1.71442        -165.543         -44.4186        -109.323         -44.4187        -109.322       -0.0138704         146.278
0.572                   -1.85126        -166.276         -44.0826        -112.132         -44.0827        -112.132       -0.0140508         146.205
0.573                    -1.9987        -166.953         -43.7525        -115.055         -43.7526        -115.055       -0.0142413         146.132
0.574                   -2.15662        -167.559         -43.4299        -118.093           -43.43        -118.093       -0.0144426         146.058
0.575                   -2.32446        -168.078         -43.1168        -121.247         -43.1169        -121.246       -0.0146551         145.985
0.576                   -2.50114        -168.493         -42.8153        -124.514         -42.8154        -124.513       -0.0148791         145.912
0.577                   -2.68485        -168.783         -42.5275        -127.892         -42.5276        -127.891       -0.0151148         145.838
0.578                     -2.873        -168.932         -42.2556        -131.375         -42.2556        -131.375       -0.0153617         145.764
0.579                   -3.06205        -168.922         -42.0016        -134.955         -42.0016        -134.955       -0.0156193         145.691
0.58                    -3.24757        -168.743         -41.7678        -138.622         -41.7678        -138.621       -0.0158866         145.617
0.581                   -3.42426        -168.388         -41.5558        -142.361         -41.5558        -142.361       -0.0161619         145.543
0.582                   -3.58627        -167.861         -41.3673        -146.158         -41.3673        -146.158       -0.0164436         145.469
0.583                   -3.72756        -167.176         -41.2035        -149.996         -41.2035        -149.996       -0.0167295         145.395
0.584                   -3.84255        -166.358         -41.0652        -153.855         -41.0652        -153.855       -0.0170173         145.321
0.585                   -3.92668        -165.444         -40.9526        -157.717         -40.9526        -157.717       -0.0173047         145.246
0.586                   -3.97701        -164.478         -40.8655         -161.56         -40.8655         -161.56       -0.0175894         145.172
0.587                    -3.9926        -163.509         -40.8032        -165.367         -40.8033        -165.367       -0.0178694         145.098
0.588                   -3.97457        -162.583         -40.7647        -169.119         -40.7647         -169.12       -0.0181431         145.023
0.589                   -3.92591        -161.745         -40.7483        -172.801         -40.7483        -172.802        -0.018409         144.949
0.59                    -3.85093        -161.026         -40.7522        -176.399         -40.7523          -176.4       -0.0186664         144.874
0.591                   -3.75475         -160.45         -40.7745        -179.902         -40.7745        -179.903       -0.0189149         144.799
0.592                   -3.64268         -160.03         -40.8128         176.698         -40.8129         176.698       -0.0191543         144.724
0.593                   -3.51981        -159.769         -40.8651         173.408         -40.8651         173.408       -0.0193851         144.649
0.594                   -3.39066        -159.664         -40.9291         170.232         -40.9291         170.232       -0.0196078         144.574
0.595                   -3.25903        -159.706         -41.0027         167.171         -41.0027         167.171       -0.0198231         144.499
0.596                   -3.12798        -159.883         -41.0839         164.225          -41.084         164.225       -0.0200319         144.423
0.597                   -2.99982        -160.183          -41.171         161.392          -41.171         161.392       -0.0202352         144.347
0.598                   -2.87626        -160.592         -41.2622         158.669         -41.2622         158.669       -0.0204339         144.271
0.599                   -2.75846        -161.095          -41.356         156.054          -41.356         156.054       -0.0206289         144.195
0.6                     -2.64715        -161.682         -41.4512         153.541         -41.4512         153.541       -0.0208212         144.118
0.601                   -2.54274        -162.341         -41.5466         151.126         -41.5466         151.126       -0.0210115         144.041
0.602                    -2.4454        -163.061         -41.6411         148.804         -41.6411         148.804       -0.0212006         143.964
0.603                    -2.3551        -163.835          -41.734         146.569          -41.734         146.569       -0.0213893         143.887
0.604                    -2.2717        -164.656         -41.8244         144.416         -41.8244         144.416        -0.021578          143.81
0.605                   -2.19496        -165.516         -41.9119         142.341         -41.9118         142.341       -0.0217673         143.732
0.606                   -2.12462         -166.41         -41.9957         140.338         -41.9956         140.338       -0.0219578         143.654
0.607                   -2.06035        -167.335         -42.0756         138.402         -42.0755         138.402       -0.0221497         143.576
0.608                   -2.00185        -168.286         -42.1511         136.529          -42.151         136.528       -0.0223436         143.498
0.609                   -1.94878         -169.26          -42.222         134.713         -42.2219         134.713       -0.0225396         143.419
0.61                    -1.90085        -170.256         -42.2881         132.952          -42.288         132.951       -0.0227382         143.341
0.611                   -1.85775        -171.271         -42.3491          131.24          -42.349          131.24       -0.0229394         143.262
0.612                   -1.81921        -172.303         -42.4049         129.574         -42.4048         129.574       -0.0231435         143.182
0.613                   -1.78497        -173.352         -42.4554          127.95         -42.4553          127.95       -0.0233508         143.103
0.614                   -1.75479        -174.416         -42.5006         126.365         -42.5005         126.365       -0.0235613         143.023
0.615                   -1.72847        -175.495         -42.5404         124.816         -42.5403         124.815       -0.0237752         142.943
0.616                    -1.7058        -176.588         -42.5747         123.299         -42.5746         123.298       -0.0239926         142.863
0.617                   -1.68661        -177.694         -42.6036         121.812         -42.6035         121.811       -0.0242137         142.783
0.618                   -1.67075        -178.815         -42.6271         120.351          -42.627         120.351       -0.0244385         142.702
0.619                   -1.65808        -179.949         -42.6451         118.915         -42.6451         118.915       -0.0246673         142.621
0.62                    -1.64849         178.904         -42.6578         117.501         -42.6578           117.5       -0.0248999          142.54
0.621                   -1.64187         177.742         -42.6652         116.106         -42.6651         116.105       -0.0251366         142.459
0.622                   -1.63814         176.566         -42.6672         114.729         -42.6672         114.728       -0.0253774         142.377
0.623                   -1.63723         175.376         -42.6641         113.366         -42.6641         113.366       -0.0256224         142.295
0.624                   -1.63909         174.171         -42.6558         112.017         -42.6558         112.016       -0.0258717         142.213
0.625                   -1.64367         172.951         -42.6424         110.679         -42.6424         110.679       -0.0261253          142.13
0.626                   -1.65095         171.716          -42.624         109.351          -42.624          109.35       -0.0263834         142.048
0.627                   -1.66092         170.464         -42.6006          108.03         -42.6006         108.029        -0.026646         141.965
0.628                   -1.67356         169.195         -42.5724         106.715         -42.5725         106.715       -0.0269132         141.881
0.629                    -1.6889          167.91         -42.5395         105.405         -42.5395         105.405        -0.027185         141.798
