! TOUCHSTONE file generated by CST MICROWAVE STUDIO
! Date and time: Sat Oct 24 10:45:54 2020
! Project name: Scenario_1_Planar_Body_Tissue_Center.cst
! Parameters = {hfat=3; hmuscle=50; hskin=1.5; hgap=25; Wtissue=700; Ltissue=700; L_HA=400; MT=2.54; Rad_Dielectric=30; Rad_Lower=7.3; Rad_Upper=30; a_HA=580; a_WG=246; b_HA=500; b_WG=121; c_HA=0; c_WG=187; d_feed=85; dx1=536.72; h_feed=15; h_lower=18; h_upper=40}
! Header version: 2018
! Port assignment regex: !\s*Touchstone port\s*([0-9]+)\s*=\s*(CST MWS port|CST DS port)\s*([0-9]+|Zmin|Zmax)\s*\(\"(.*)\"\)(\s*mode\s*([0-9]+))?.*
! Touchstone port assignment:
! Touchstone port 1 = CST MWS port 1 ("")
! Touchstone port 2 = CST MWS port 2 ("")
# GHz S DB R 50
0.5                   -0.0777627        -122.097          -61.216        -54.9399         -61.2162        -54.9391      -0.00743857         151.147
0.501                 -0.0827794        -122.481         -61.2479        -56.1783         -61.2482        -56.1714      -0.00748672         151.082
0.502                  -0.087801        -122.867         -61.2795        -57.4389         -61.2798        -57.4258      -0.00753588         151.016
0.503                 -0.0928284        -123.256         -61.3106        -58.7222          -61.311        -58.7029      -0.00758607         150.951
0.504                 -0.0978625        -123.647         -61.3412        -60.0287         -61.3416        -60.0031      -0.00763729         150.885
0.505                  -0.102904         -124.04         -61.3712         -61.359         -61.3716         -61.327      -0.00768954          150.82
0.506                  -0.107954        -124.435         -61.4005        -62.7134          -61.401         -62.675      -0.00774283         150.754
0.507                  -0.113014        -124.832          -61.429        -64.0926         -61.4296        -64.0477      -0.00779716         150.689
0.508                  -0.118084        -125.232         -61.4566        -65.4971         -61.4573        -65.4455      -0.00785255         150.623
0.509                  -0.123166        -125.634         -61.4832        -66.9272          -61.484        -66.8691        -0.007909         150.557
0.51                   -0.128261        -126.038         -61.5087        -68.3836         -61.5096        -68.3188      -0.00796652         150.491
0.511                   -0.13337        -126.444         -61.5329        -69.8666          -61.534         -69.795       -0.0080251         150.425
0.512                  -0.138494        -126.853         -61.5558        -71.3766         -61.5571        -71.2983      -0.00808476         150.359
0.513                  -0.143634        -127.265         -61.5773        -72.9141         -61.5787         -72.829      -0.00814551         150.293
0.514                  -0.148793        -127.679          -61.597        -74.4795         -61.5987        -74.3876      -0.00820735         150.226
0.515                   -0.15397        -128.095         -61.6151        -76.0731          -61.617        -75.9743      -0.00827029          150.16
0.516                  -0.159168        -128.514         -61.6311        -77.6951         -61.6334        -77.5895      -0.00833434         150.094
0.517                  -0.164389        -128.936         -61.6451        -79.3458         -61.6476        -79.2335      -0.00839949         150.027
0.518                  -0.169633         -129.36         -61.6569        -81.0255         -61.6597        -80.9064      -0.00846577         149.961
0.519                  -0.174903        -129.787         -61.6662        -82.7343         -61.6693        -82.6084      -0.00853317         149.894
0.52                     -0.1802        -130.217         -61.6728        -84.4722         -61.6764        -84.3397      -0.00860172         149.827
0.521                  -0.185526        -130.649         -61.6767        -86.2393         -61.6807        -86.1001       -0.0086714          149.76
0.522                  -0.190883        -131.085         -61.6776        -88.0355          -61.682        -87.8898      -0.00874223         149.693
0.523                  -0.196273        -131.523         -61.6753        -89.8607         -61.6802        -89.7085      -0.00881423         149.626
0.524                  -0.201697        -131.964         -61.6696        -91.7147          -61.675        -91.5562      -0.00888739         149.559
0.525                  -0.207159        -132.408         -61.6604         -93.597         -61.6663        -93.4323      -0.00896172         149.492
0.526                  -0.212659        -132.855         -61.6473        -95.5074         -61.6538        -95.3367      -0.00903725         149.425
0.527                  -0.218202        -133.305         -61.6303        -97.4453         -61.6373        -97.2688      -0.00911396         149.357
0.528                  -0.223788        -133.758          -61.609        -99.4101         -61.6167        -99.2279      -0.00919187          149.29
0.529                  -0.229421        -134.214         -61.5834        -101.401         -61.5917        -101.213        -0.009271         149.222
0.53                   -0.235104        -134.674         -61.5532        -103.418         -61.5621        -103.225      -0.00935135         149.155
0.531                  -0.240838        -135.136         -61.5182        -105.458         -61.5278        -105.261      -0.00943292         149.087
0.532                  -0.246627        -135.602         -61.4783        -107.523         -61.4886         -107.32      -0.00951574         149.019
0.533                  -0.252475        -136.072         -61.4332        -109.609         -61.4442        -109.402       -0.0095998         148.951
0.534                  -0.258383        -136.544         -61.3829        -111.717         -61.3946        -111.506      -0.00968512         148.883
0.535                  -0.264356        -137.021         -61.3272        -113.844         -61.3396        -113.629      -0.00977171         148.815
0.536                  -0.270397        -137.501         -61.2659         -115.99          -61.279        -115.772      -0.00985958         148.747
0.537                   -0.27651        -137.984         -61.1989        -118.152         -61.2127        -117.931      -0.00994873         148.678
0.538                  -0.282698        -138.471         -61.1261         -120.33         -61.1407        -120.106       -0.0100392          148.61
0.539                  -0.288966        -138.962         -61.0475        -122.521         -61.0628        -122.295        -0.010131         148.541
0.54                   -0.295318        -139.457          -60.963        -124.725          -60.979        -124.497        -0.010224         148.473
0.541                  -0.301758        -139.955         -60.8725        -126.939         -60.8893        -126.709       -0.0103185         148.404
0.542                   -0.30829        -140.458          -60.776        -129.161         -60.7935         -128.93       -0.0104142         148.335
0.543                   -0.31492        -140.965         -60.6736         -131.39         -60.6917        -131.158       -0.0105114         148.266
0.544                  -0.321653        -141.475         -60.5652        -133.625          -60.584        -133.392       -0.0106099         148.197
0.545                  -0.328494         -141.99         -60.4509        -135.863         -60.4703         -135.63       -0.0107097         148.128
0.546                  -0.335449        -142.509         -60.3307        -138.103         -60.3507         -137.87        -0.010811         148.058
0.547                  -0.342523        -143.033         -60.2048        -140.343         -60.2253        -140.111       -0.0109137         147.989
0.548                  -0.349723        -143.561         -60.0732        -142.582         -60.0942         -142.35       -0.0110177         147.919
0.549                  -0.357056        -144.093          -59.936        -144.818         -59.9576        -144.587       -0.0111233          147.85
0.55                   -0.364527         -144.63         -59.7935        -147.049         -59.8155         -146.82       -0.0112302          147.78
0.551                  -0.372145        -145.172         -59.6457        -149.276          -59.668        -149.048       -0.0113387          147.71
0.552                  -0.379916        -145.719         -59.4927        -151.495         -59.5154        -151.269       -0.0114485          147.64
0.553                  -0.387849         -146.27         -59.3349        -153.707         -59.3579        -153.483       -0.0115599          147.57
0.554                  -0.395952        -146.827         -59.1723        -155.909         -59.1955        -155.688       -0.0116728           147.5
0.555                  -0.404234        -147.388         -59.0051        -158.102         -59.0286        -157.883       -0.0117872          147.43
0.556                  -0.412704        -147.955         -58.8336        -160.285         -58.8572        -160.068       -0.0119031         147.359
0.557                  -0.421372        -148.527         -58.6579        -162.456         -58.6816        -162.242       -0.0120206         147.289
0.558                  -0.430248        -149.105         -58.4783        -164.615         -58.5021        -164.404       -0.0121396         147.218
0.559                  -0.439343        -149.688         -58.2949        -166.762         -58.3187        -166.554       -0.0122602         147.147
0.56                   -0.448669        -150.277          -58.108        -168.896         -58.1318        -168.691       -0.0123825         147.076
0.561                  -0.458237        -150.871         -57.9178        -171.017         -57.9415        -170.815       -0.0125063         147.005
0.562                   -0.46806        -151.472         -57.7244        -173.125          -57.748        -172.927       -0.0126317         146.934
0.563                  -0.478152        -152.078         -57.5282         -175.22         -57.5516        -175.024       -0.0127588         146.863
0.564                  -0.488527        -152.691         -57.3292        -177.301         -57.3524        -177.109       -0.0128875         146.791
0.565                    -0.4992         -153.31         -57.1277        -179.369         -57.1506         -179.18       -0.0130179          146.72
0.566                  -0.510186        -153.935         -56.9238         178.576         -56.9465         178.762       -0.0131501         146.648
0.567                  -0.521503        -154.567         -56.7178         176.534         -56.7402         176.717       -0.0132839         146.576
0.568                  -0.533168        -155.206         -56.5098         174.505         -56.5318         174.684       -0.0134195         146.504
0.569                    -0.5452        -155.852            -56.3         172.488         -56.3216         172.664       -0.0135568         146.432
0.57                   -0.557619        -156.505         -56.0886         170.484         -56.1098         170.657       -0.0136959          146.36
0.571                  -0.570446        -157.165         -55.8757         168.491         -55.8964          168.66       -0.0138367         146.287
0.572                  -0.583703        -157.832         -55.6614          166.51         -55.6817         166.676       -0.0139794         146.215
0.573                  -0.597414        -158.508          -55.446         164.539         -55.4658         164.702        -0.014124         146.142
0.574                  -0.611603         -159.19         -55.2295         162.579         -55.2488         162.738       -0.0142703         146.069
0.575                  -0.626299        -159.881         -55.0121         160.628         -55.0308         160.784       -0.0144186         145.996
0.576                  -0.641528         -160.58         -54.7938         158.687         -54.8121          158.84       -0.0145687         145.923
0.577                  -0.657322        -161.288         -54.5749         156.755         -54.5926         156.904       -0.0147208          145.85
0.578                  -0.673711        -162.003         -54.3555          154.83         -54.3726         154.977       -0.0148748         145.777
0.579                  -0.690729        -162.728         -54.1355         152.914         -54.1521         153.057       -0.0150307         145.703
0.58                   -0.708414        -163.462         -53.9153         151.004         -53.9312         151.144       -0.0151887         145.629
0.581                  -0.726802        -164.204         -53.6947         149.101           -53.71         149.238       -0.0153486         145.555
0.582                  -0.745935        -164.957          -53.474         147.204         -53.4887         147.338       -0.0155106         145.481
0.583                  -0.765857        -165.718         -53.2531         145.313         -53.2672         145.443       -0.0156747         145.407
0.584                  -0.786613         -166.49         -53.0323         143.426         -53.0458         143.553       -0.0158408         145.333
0.585                  -0.808252        -167.272         -52.8115         141.543         -52.8244         141.667        -0.016009         145.258
0.586                  -0.830829        -168.064         -52.5909         139.664         -52.6032         139.784       -0.0161794         145.184
0.587                  -0.854397        -168.867         -52.3705         137.788         -52.3821         137.905       -0.0163519         145.109
0.588                  -0.879018        -169.681         -52.1503         135.914         -52.1614         136.028       -0.0165266         145.034
0.589                  -0.904755        -170.506         -51.9305         134.043          -51.941         134.153       -0.0167035         144.959
0.59                   -0.931676        -171.342         -51.7111         132.172          -51.721         132.279       -0.0168826         144.883
0.591                  -0.959854         -172.19         -51.4922         130.303         -51.5014         130.407        -0.017064         144.808
0.592                  -0.989368         -173.05         -51.2738         128.434         -51.2824         128.534       -0.0172476         144.732
0.593                    -1.0203        -173.922         -51.0559         126.565          -51.064         126.662       -0.0174336         144.656
0.594                   -1.05274        -174.806         -50.8386         124.695         -50.8462         124.788       -0.0176219          144.58
0.595                   -1.08678        -175.703          -50.622         122.824          -50.629         122.914       -0.0178126         144.504
0.596                   -1.12252        -176.614         -50.4061         120.951         -50.4126         121.038       -0.0180056         144.428
0.597                   -1.16008        -177.537          -50.191         119.076         -50.1969         119.159       -0.0182011         144.351
0.598                   -1.19956        -178.475         -49.9767         117.198         -49.9821         117.278        -0.018399         144.274
0.599                    -1.2411        -179.426         -49.7632         115.317         -49.7681         115.394       -0.0185993         144.198
0.6                     -1.28482         179.609         -49.5506         113.433         -49.5551         113.506       -0.0188022          144.12
0.601                   -1.33088         178.629          -49.339         111.545          -49.343         111.615       -0.0190075         144.043
0.602                   -1.37942         177.635         -49.1283         109.652         -49.1319         109.718       -0.0192154         143.966
0.603                    -1.4306         176.627         -48.9186         107.754         -48.9218         107.817       -0.0194257         143.888
0.604                   -1.48461         175.603           -48.71         105.852         -48.7128         105.911       -0.0196387          143.81
0.605                   -1.54163         174.564         -48.5025         103.943         -48.5049         103.999       -0.0198542         143.732
0.606                   -1.60186          173.51         -48.2961         102.029         -48.2983         102.081       -0.0200722         143.653
0.607                   -1.66552         172.441          -48.091         100.107         -48.0928         100.157       -0.0202929         143.575
0.608                   -1.73283         171.356         -47.8871         98.1796         -47.8886         98.2258       -0.0205161         143.496
0.609                   -1.80405         170.257         -47.6844         96.2445         -47.6856         96.2875       -0.0207418         143.417
0.61                    -1.87944         169.142         -47.4831          94.302         -47.4841         94.3417         -0.02097         143.338
0.611                   -1.95928         168.012         -47.2832         92.3515         -47.2839         92.3881       -0.0212008         143.259
0.612                   -2.04387         166.867         -47.0847         90.3928         -47.0852         90.4263        -0.021434         143.179
0.613                   -2.13353         165.708         -46.8877         88.4256         -46.8881         88.4561       -0.0216695         143.099
0.614                    -2.2286         164.536         -46.6922         86.4496         -46.6924         86.4772       -0.0219074         143.019
0.615                   -2.32945          163.35         -46.4984         84.4644         -46.4984         84.4892       -0.0221475         142.939
0.616                   -2.43646         162.152         -46.3062         82.4699         -46.3061         82.4919       -0.0223897         142.859
0.617                   -2.55004         160.943         -46.1157         80.4657         -46.1156         80.4851        -0.022634         142.778
0.618                   -2.67063         159.724          -45.927         78.4517         -45.9268         78.4686       -0.0228804         142.697
0.619                   -2.79869         158.497         -45.7401         76.4276         -45.7399         76.4421       -0.0231291         142.616
0.62                     -2.9347         157.263         -45.5552         74.3932         -45.5549         74.4054       -0.0233809         142.535
0.621                   -3.07917         156.024         -45.3723         72.3484          -45.372         72.3585       -0.0236373         142.453
0.622                   -3.23263         154.783         -45.1915          70.293         -45.1912          70.301       -0.0239022         142.372
0.623                   -3.39564         153.543         -45.0128          68.227         -45.0126         68.2331       -0.0241824          142.29
0.624                   -3.56876         152.307         -44.8364         66.1502         -44.8362         66.1546       -0.0244891         142.208
0.625                   -3.75261         151.079         -44.6623         64.0626         -44.6621         64.0654       -0.0248338         142.126
0.626                   -3.94777         149.864         -44.4907         61.9642         -44.4905         61.9656       -0.0252163         142.043
0.627                   -4.15488         148.667         -44.3215         59.8551         -44.3215         59.8552       -0.0256145          141.96
0.628                   -4.37454         147.494          -44.155         57.7354          -44.155         57.7344       -0.0259979         141.876
0.629                   -4.60737         146.352         -43.9913         55.6052         -43.9913         55.6032        -0.026353         141.792
