! TOUCHSTONE file generated by CST MICROWAVE STUDIO
! Date and time: Sat Oct 24 10:46:02 2020
! Project name: Scenario_1_Planar_Body_Tissue_Center.cst
! Parameters = {hfat=3; hmuscle=50; hskin=1.5; hgap=25; Wtissue=700; Ltissue=700; L_HA=400; MT=2.54; Rad_Dielectric=30; Rad_Lower=7.3; Rad_Upper=30; a_HA=580; a_WG=246; b_HA=500; b_WG=121; c_HA=0; c_WG=187; d_feed=85; dx1=554.04; h_feed=15; h_lower=18; h_upper=40}
! Header version: 2018
! Port assignment regex: !\s*Touchstone port\s*([0-9]+)\s*=\s*(CST MWS port|CST DS port)\s*([0-9]+|Zmin|Zmax)\s*\(\"(.*)\"\)(\s*mode\s*([0-9]+))?.*
! Touchstone port assignment:
! Touchstone port 1 = CST MWS port 1 ("")
! Touchstone port 2 = CST MWS port 2 ("")
# GHz S DB R 50
0.5                   -0.0866087        -122.226          -60.935        -63.0247         -60.9338        -63.0221      -0.00742943         151.138
0.501                 -0.0945291        -122.581         -61.0592         -68.715         -61.0585        -68.7059      -0.00750368         151.072
0.502                  -0.102422        -122.939         -61.1451         -74.382         -61.1449        -74.3669      -0.00757893         151.007
0.503                  -0.110289        -123.299         -61.1925        -79.9895          -61.193        -79.9694      -0.00765518         150.942
0.504                  -0.118129        -123.661         -61.2026        -85.5032         -61.2038        -85.4788      -0.00773243         150.876
0.505                  -0.125945        -124.026         -61.1774         -90.892         -61.1792        -90.8643      -0.00781067         150.811
0.506                  -0.133736        -124.394         -61.1197        -96.1294         -61.1221        -96.0992      -0.00788991         150.745
0.507                  -0.141503        -124.764         -61.0329        -101.195         -61.0359        -101.163      -0.00797013         150.679
0.508                  -0.149247        -125.136         -60.9207        -106.073         -60.9242         -106.04      -0.00805135         150.613
0.509                  -0.156969        -125.511          -60.787        -110.754          -60.791        -110.721      -0.00813355         150.547
0.51                    -0.16467        -125.889         -60.6354        -115.235         -60.6398        -115.201      -0.00821672         150.482
0.511                  -0.172351        -126.269         -60.4694        -119.515         -60.4742        -119.482      -0.00830088         150.416
0.512                  -0.180013        -126.652         -60.2923        -123.597         -60.2973        -123.564      -0.00838601         150.349
0.513                  -0.187657        -127.038         -60.1067        -127.488          -60.112        -127.456      -0.00847211         150.283
0.514                  -0.195284        -127.426         -59.9152        -131.196         -59.9207        -131.165      -0.00855917         150.217
0.515                  -0.202895        -127.818         -59.7198        -134.729         -59.7254        -134.699       -0.0086472         150.151
0.516                  -0.210492        -128.212         -59.5221        -138.097         -59.5278        -138.068      -0.00873618         150.084
0.517                  -0.218075        -128.609         -59.3237         -141.31         -59.3294        -141.283      -0.00882611         150.018
0.518                  -0.225647        -129.009         -59.1256        -144.379         -59.1313        -144.353      -0.00891698         149.951
0.519                  -0.233208        -129.412         -58.9287        -147.313         -58.9344        -147.288       -0.0090088         149.885
0.52                   -0.240761        -129.818         -58.7337        -150.122         -58.7394        -150.098      -0.00910154         149.818
0.521                  -0.248306        -130.227         -58.5412        -152.814         -58.5468        -152.791      -0.00919521         149.751
0.522                  -0.255845        -130.639         -58.3516        -155.398         -58.3571        -155.375       -0.0092898         149.684
0.523                  -0.263381        -131.054         -58.1651        -157.881         -58.1705         -157.86       -0.0093853         149.617
0.524                  -0.270914        -131.472         -57.9819        -160.271         -57.9872        -160.251       -0.0094817          149.55
0.525                  -0.278448        -131.894         -57.8022        -162.576         -57.8074        -162.556      -0.00957899         149.483
0.526                  -0.285983        -132.319         -57.6259          -164.8          -57.631        -164.781      -0.00967717         149.416
0.527                  -0.293523        -132.747         -57.4532        -166.949         -57.4581        -166.932      -0.00977623         149.348
0.528                  -0.301068        -133.179         -57.2839         -169.03         -57.2887        -169.014      -0.00987615         149.281
0.529                  -0.308623        -133.614         -57.1181        -171.047         -57.1227        -171.031      -0.00997693         149.213
0.53                   -0.316189        -134.053         -56.9556        -173.005           -56.96        -172.989       -0.0100786         149.146
0.531                  -0.323768        -134.495         -56.7963        -174.907         -56.8006        -174.892        -0.010181         149.078
0.532                  -0.331364        -134.941         -56.6401        -176.757         -56.6443        -176.743       -0.0102843          149.01
0.533                   -0.33898        -135.391          -56.487         -178.56          -56.491        -178.547       -0.0103884         148.942
0.534                  -0.346618        -135.844         -56.3367         179.682         -56.3406         179.695       -0.0104933         148.874
0.535                  -0.354282        -136.301         -56.1892         177.965         -56.1929         177.977       -0.0105989         148.806
0.536                  -0.361974        -136.762         -56.0443         176.288         -56.0479         176.299       -0.0107054         148.738
0.537                    -0.3697        -137.227         -55.9019         174.646         -55.9053         174.657       -0.0108125          148.67
0.538                  -0.377462        -137.696         -55.7618         173.038         -55.7651         173.049       -0.0109205         148.602
0.539                  -0.385265        -138.169          -55.624         171.462         -55.6272         171.472       -0.0110291         148.533
0.54                   -0.393112        -138.646         -55.4883         169.916         -55.4913         169.925       -0.0111385         148.465
0.541                  -0.401008        -139.128         -55.3546         168.397         -55.3574         168.406       -0.0112485         148.396
0.542                  -0.408957        -139.614         -55.2227         166.903         -55.2254         166.912       -0.0113593         148.327
0.543                  -0.416965        -140.104         -55.0925         165.434         -55.0952         165.442       -0.0114706         148.258
0.544                  -0.425037        -140.599          -54.964         163.987         -54.9665         163.995       -0.0115827         148.189
0.545                  -0.433177        -141.098         -54.8371         162.561         -54.8394         162.569       -0.0116953          148.12
0.546                  -0.441393        -141.602         -54.7115         161.155         -54.7137         161.162       -0.0118085         148.051
0.547                  -0.449689        -142.111         -54.5872         159.767         -54.5893         159.773       -0.0119224         147.982
0.548                  -0.458072        -142.625         -54.4641         158.396         -54.4662         158.402       -0.0120367         147.913
0.549                   -0.46655        -143.143         -54.3422         157.041         -54.3441         157.047       -0.0121517         147.843
0.55                   -0.475129        -143.667         -54.2212           155.7          -54.223         155.706       -0.0122671         147.774
0.551                  -0.483816        -144.196         -54.1012         154.374         -54.1029         154.379       -0.0123831         147.704
0.552                   -0.49262         -144.73          -53.982          153.06         -53.9836         153.065       -0.0124996         147.634
0.553                  -0.501549        -145.269         -53.8635         151.758          -53.865         151.763       -0.0126165         147.564
0.554                  -0.510613        -145.814         -53.7457         150.467         -53.7471         150.472       -0.0127339         147.494
0.555                  -0.519819        -146.364         -53.6285         149.186         -53.6298          149.19       -0.0128518         147.424
0.556                   -0.52918         -146.92         -53.5118         147.915          -53.513         147.919         -0.01297         147.354
0.557                  -0.538704        -147.482         -53.3956         146.652         -53.3967         146.656       -0.0130887         147.283
0.558                  -0.548405         -148.05         -53.2796         145.397         -53.2807           145.4       -0.0132078         147.213
0.559                  -0.558292        -148.624          -53.164         144.149          -53.165         144.152       -0.0133272         147.142
0.56                    -0.56838        -149.205         -53.0486         142.908         -53.0495         142.911       -0.0134471         147.072
0.561                  -0.578681        -149.791         -52.9334         141.672         -52.9342         141.675       -0.0135673         147.001
0.562                  -0.589211        -150.384         -52.8182         140.442          -52.819         140.444       -0.0136879          146.93
0.563                  -0.599983        -150.984         -52.7031         139.216         -52.7038         139.218       -0.0138088         146.859
0.564                  -0.611014        -151.591          -52.588         137.995         -52.5886         137.996       -0.0139302         146.787
0.565                  -0.622322        -152.204         -52.4727         136.777         -52.4733         136.778       -0.0140519         146.716
0.566                  -0.633924        -152.825         -52.3573         135.561         -52.3578         135.563        -0.014174         146.644
0.567                  -0.645841        -153.453         -52.2417         134.349         -52.2422          134.35       -0.0142964         146.573
0.568                  -0.658092        -154.089         -52.1259         133.138         -52.1262         133.139       -0.0144193         146.501
0.569                  -0.670699        -154.732         -52.0097         131.928           -52.01         131.929       -0.0145427         146.429
0.57                   -0.683687        -155.383         -51.8932          130.72         -51.8934          130.72       -0.0146665         146.357
0.571                   -0.69708        -156.043         -51.7762         129.512         -51.7764         129.512       -0.0147908         146.285
0.572                  -0.710905         -156.71         -51.6588         128.304          -51.659         128.304       -0.0149157         146.212
0.573                   -0.72519        -157.386         -51.5409         127.095          -51.541         127.095       -0.0150411          146.14
0.574                  -0.739966         -158.07         -51.4224         125.886         -51.4225         125.886       -0.0151672         146.067
0.575                  -0.755265        -158.764         -51.3033         124.675         -51.3033         124.674       -0.0152939         145.994
0.576                  -0.771122        -159.466         -51.1836         123.462         -51.1835         123.462       -0.0154215         145.921
0.577                  -0.787574        -160.178         -51.0631         122.247          -51.063         122.246       -0.0155499         145.848
0.578                  -0.804661          -160.9         -50.9419         121.029         -50.9418         121.029       -0.0156791         145.775
0.579                  -0.822425        -161.631           -50.82         119.809         -50.8198         119.807       -0.0158094         145.702
0.58                   -0.840912        -162.373         -50.6972         118.584          -50.697         118.583       -0.0159408         145.628
0.581                   -0.86017        -163.125         -50.5735         117.356         -50.5733         117.354       -0.0160733         145.554
0.582                  -0.880253        -163.887          -50.449         116.123         -50.4488         116.121       -0.0162072          145.48
0.583                  -0.901215         -164.66         -50.3235         114.885         -50.3233         114.883       -0.0163424         145.406
0.584                  -0.923118        -165.445         -50.1971         113.641         -50.1968          113.64       -0.0164792         145.332
0.585                  -0.946025        -166.241         -50.0696         112.392         -50.0693          112.39       -0.0166176         145.258
0.586                  -0.970006        -167.049         -49.9411         111.137         -49.9408         111.135       -0.0167578         145.183
0.587                  -0.995137        -167.869         -49.8116         109.875         -49.8112         109.873       -0.0168999         145.108
0.588                    -1.0215        -168.701         -49.6809         108.606         -49.6805         108.604       -0.0170441         145.033
0.589                   -1.04917        -169.546         -49.5491         107.329         -49.5487         107.327       -0.0171904         144.958
0.59                    -1.07825        -170.403         -49.4161         106.044         -49.4158         106.042        -0.017339         144.883
0.591                   -1.10884        -171.274          -49.282          104.75         -49.2816         104.748       -0.0174901         144.807
0.592                   -1.14104        -172.159         -49.1467         103.448         -49.1463         103.445       -0.0176437         144.732
0.593                   -1.17498        -173.058         -49.0101         102.135         -49.0097         102.133       -0.0178001         144.656
0.594                   -1.21077         -173.97         -48.8723         100.813         -48.8719          100.81       -0.0179594          144.58
0.595                   -1.24854        -174.898         -48.7332         99.4799         -48.7328         99.4771       -0.0181217         144.504
0.596                   -1.28845         -175.84         -48.5928         98.1357         -48.5924         98.1327       -0.0182871         144.427
0.597                   -1.33065        -176.797         -48.4512         96.7797         -48.4508         96.7767       -0.0184558         144.351
0.598                   -1.37531        -177.769         -48.3083         95.4114         -48.3079         95.4083       -0.0186278         144.274
0.599                    -1.4226        -178.757          -48.164         94.0302         -48.1636         94.0271       -0.0188034         144.197
0.6                     -1.47273         -179.76         -48.0185         92.6356         -48.0181         92.6324       -0.0189826          144.12
0.601                    -1.5259          179.22         -47.8717         91.2268         -47.8713         91.2237       -0.0191656         144.042
0.602                   -1.58233         178.185         -47.7235         89.8034         -47.7232         89.8002       -0.0193523         143.965
0.603                   -1.64227         177.134         -47.5741         88.3647         -47.5738         88.3615        -0.019543         143.887
0.604                   -1.70599         176.066         -47.4235         86.9101         -47.4231         86.9068       -0.0197377         143.809
0.605                   -1.77376         174.983         -47.2716         85.4388         -47.2712         85.4355       -0.0199365         143.731
0.606                   -1.84588         173.884         -47.1185         83.9502         -47.1182          83.947       -0.0201395         143.652
0.607                   -1.92269          172.77         -46.9642         82.4437         -46.9639         82.4405       -0.0203467         143.574
0.608                   -2.00451         171.641         -46.8088         80.9186         -46.8085         80.9153       -0.0205581         143.495
0.609                   -2.09174         170.497         -46.6524         79.3741         -46.6521         79.3709       -0.0207739         143.416
0.61                    -2.18476          169.34         -46.4949         77.8096         -46.4946         77.8064       -0.0209941         143.336
0.611                   -2.28399          168.17         -46.3364         76.2243         -46.3362         76.2211       -0.0212187         143.257
0.612                   -2.38989         166.989         -46.1771         74.6176         -46.1768         74.6144       -0.0214478         143.177
0.613                   -2.50292         165.798          -46.017         72.9887         -46.0167         72.9856       -0.0216813         143.097
0.614                    -2.6236         164.599         -45.8561         71.3369         -45.8559         71.3339       -0.0219194         143.017
0.615                   -2.75245         163.394         -45.6947         69.6617         -45.6945         69.6588        -0.022162         142.937
0.616                   -2.89002         162.186         -45.5328         67.9622         -45.5326         67.9594       -0.0224091         142.856
0.617                   -3.03688         160.978         -45.3706         66.2379         -45.3704         66.2351       -0.0226608         142.776
0.618                   -3.19362         159.774         -45.2081         64.4881         -45.2079         64.4854       -0.0229171         142.695
0.619                   -3.36086         158.577         -45.0456         62.7122         -45.0454         62.7097       -0.0231779         142.613
0.62                    -3.53919         157.394         -44.8832         60.9098          -44.883         60.9073       -0.0234434         142.532
0.621                   -3.72923          156.23         -44.7211         59.0803         -44.7209         59.0779       -0.0237134          142.45
0.622                   -3.93155         155.091         -44.5594         57.2233         -44.5593         57.2211        -0.023988         142.368
0.623                   -4.14673         153.986         -44.3985         55.3384         -44.3984         55.3364       -0.0242673         142.286
0.624                   -4.37525         152.923         -44.2384         53.4255         -44.2383         53.4236       -0.0245512         142.203
0.625                   -4.61756         151.912         -44.0795         51.4843         -44.0794         51.4825       -0.0248397         142.121
0.626                   -4.87396         150.966         -43.9219         49.5148         -43.9219         49.5132       -0.0251329         142.038
0.627                   -5.14463         150.096          -43.766         47.5171          -43.766         47.5156       -0.0254307         141.954
0.628                   -5.42953         149.317          -43.612         45.4914          -43.612           45.49       -0.0257332         141.871
0.629                   -5.72838         148.645         -43.4602          43.438         -43.4601         43.4368       -0.0260404         141.787
