! TOUCHSTONE file generated by CST MICROWAVE STUDIO
! Date and time: Sat Oct 24 10:46:24 2020
! Project name: Scenario_1_Planar_Body_Tissue_Center.cst
! Parameters = {hfat=3; hmuscle=50; hskin=1.5; hgap=25; Wtissue=700; Ltissue=700; L_HA=400; MT=2.54; Rad_Dielectric=30; Rad_Lower=7.3; Rad_Upper=30; a_HA=580; a_WG=246; b_HA=500; b_WG=121; c_HA=0; c_WG=187; d_feed=85; dx1=606; h_feed=15; h_lower=18; h_upper=40}
! Header version: 2018
! Port assignment regex: !\s*Touchstone port\s*([0-9]+)\s*=\s*(CST MWS port|CST DS port)\s*([0-9]+|Zmin|Zmax)\s*\(\"(.*)\"\)(\s*mode\s*([0-9]+))?.*
! Touchstone port assignment:
! Touchstone port 1 = CST MWS port 1 ("")
! Touchstone port 2 = CST MWS port 2 ("")
# GHz S DB R 50
0.5                    -0.161779        -122.508         -59.4915        -95.1462         -59.4915        -95.1411      -0.00758517         151.131
0.501                  -0.174274        -122.973         -59.1788        -97.2442         -59.1788        -97.2397      -0.00766547         151.066
0.502                  -0.187739        -123.438         -58.8657        -99.4188         -58.8657        -99.4149      -0.00774755             151
0.503                  -0.202202        -123.902          -58.553        -101.674          -58.553         -101.67      -0.00783152         150.935
0.504                  -0.217678        -124.364         -58.2416        -104.012         -58.2415        -104.009       -0.0079175         150.869
0.505                   -0.23417        -124.823         -57.9325        -106.436         -57.9324        -106.433      -0.00800557         150.804
0.506                  -0.251659        -125.279         -57.6269        -108.948         -57.6268        -108.946       -0.0080958         150.738
0.507                  -0.270105         -125.73          -57.326        -111.551         -57.3258        -111.549      -0.00818823         150.672
0.508                   -0.28944        -126.175         -57.0312        -114.244          -57.031        -114.243      -0.00828286         150.607
0.509                  -0.309566        -126.613         -56.7439        -117.028         -56.7437        -117.027      -0.00837965         150.541
0.51                   -0.330351        -127.044         -56.4657        -119.901         -56.4655          -119.9      -0.00847849         150.475
0.511                  -0.351625        -127.465         -56.1982        -122.859          -56.198        -122.859      -0.00857922         150.409
0.512                  -0.373183        -127.878         -55.9429        -125.899         -55.9427        -125.899       -0.0086816         150.343
0.513                  -0.394787         -128.28         -55.7015        -129.014         -55.7013        -129.014      -0.00878531         150.276
0.514                  -0.416169        -128.671         -55.4754        -132.196         -55.4752        -132.196      -0.00888998          150.21
0.515                  -0.437039        -129.052          -55.266        -135.436         -55.2658        -135.436      -0.00899519         150.144
0.516                  -0.457098        -129.423         -55.0745        -138.722         -55.0743        -138.722      -0.00910047         150.078
0.517                  -0.476049        -129.784         -54.9018        -142.042         -54.9015        -142.043      -0.00920535         150.011
0.518                  -0.493611        -130.137         -54.7484        -145.383         -54.7482        -145.384      -0.00930937         149.945
0.519                  -0.509535        -130.483         -54.6149         -148.73         -54.6147        -148.731       -0.0094121         149.878
0.52                   -0.523616        -130.824         -54.5012        -152.069         -54.5009         -152.07      -0.00951318         149.812
0.521                  -0.535703        -131.161         -54.4069        -155.386         -54.4066        -155.386      -0.00961233         149.745
0.522                  -0.545707        -131.498         -54.3314        -158.666         -54.3311        -158.667      -0.00970937         149.678
0.523                  -0.553602        -131.836         -54.2738        -161.898         -54.2734        -161.899      -0.00980421         149.611
0.524                  -0.559424        -132.178         -54.2328         -165.07         -54.2325        -165.071      -0.00989683         149.544
0.525                  -0.563264        -132.525         -54.2072        -168.172         -54.2068        -168.173      -0.00998734         149.477
0.526                  -0.565261        -132.879         -54.1954        -171.196          -54.195        -171.197       -0.0100759          149.41
0.527                  -0.565588        -133.242         -54.1958        -174.136         -54.1954        -174.137       -0.0101626         149.343
0.528                  -0.564445        -133.615         -54.2067        -176.987         -54.2063        -176.988       -0.0102479         149.276
0.529                  -0.562046        -133.999         -54.2265        -179.746         -54.2261        -179.747       -0.0103318         149.208
0.53                   -0.558608        -134.395         -54.2537         177.588         -54.2532         177.587       -0.0104148         149.141
0.531                  -0.554344        -134.803         -54.2867         175.016         -54.2862         175.016        -0.010497         149.073
0.532                  -0.549459        -135.223         -54.3241         172.538         -54.3236         172.537       -0.0105787         149.005
0.533                  -0.544141        -135.656         -54.3646         170.151          -54.364          170.15       -0.0106601         148.938
0.534                  -0.538561        -136.101         -54.4069         167.853         -54.4064         167.852       -0.0107415          148.87
0.535                  -0.532873        -136.558         -54.4501         165.641         -54.4495          165.64       -0.0108229         148.802
0.536                   -0.52721        -137.027          -54.493         163.511         -54.4924          163.51       -0.0109047         148.733
0.537                  -0.521688        -137.507         -54.5349         161.461         -54.5343          161.46       -0.0109869         148.665
0.538                  -0.516404        -137.998          -54.575         159.486         -54.5744         159.485       -0.0110697         148.597
0.539                  -0.511443        -138.499         -54.6126         157.582          -54.612         157.581       -0.0111532         148.528
0.54                   -0.506873        -139.011         -54.6472         155.746         -54.6466         155.744       -0.0112374          148.46
0.541                  -0.502752        -139.533         -54.6783         153.972         -54.6776         153.971       -0.0113225         148.391
0.542                  -0.499126        -140.064         -54.7054         152.258         -54.7047         152.257       -0.0114085         148.322
0.543                  -0.496033        -140.604         -54.7281         150.599         -54.7275         150.598       -0.0114955         148.253
0.544                  -0.493505        -141.153         -54.7463         148.992         -54.7457          148.99       -0.0115835         148.184
0.545                  -0.491567         -141.71         -54.7596         147.433          -54.759         147.431       -0.0116726         148.115
0.546                  -0.490239        -142.276         -54.7678         145.918         -54.7672         145.917       -0.0117628         148.046
0.547                  -0.489541        -142.849         -54.7707         144.445         -54.7701         144.444       -0.0118541         147.976
0.548                  -0.489485        -143.431         -54.7683          143.01         -54.7677         143.009       -0.0119466         147.907
0.549                  -0.490084         -144.02         -54.7603         141.611         -54.7597         141.609       -0.0120403         147.837
0.55                   -0.491352        -144.617         -54.7467         140.243         -54.7461         140.242       -0.0121352         147.768
0.551                  -0.493299        -145.222         -54.7274         138.906         -54.7268         138.904       -0.0122314         147.698
0.552                  -0.495937        -145.834         -54.7024         137.595         -54.7018         137.593       -0.0123288         147.628
0.553                  -0.499276        -146.454         -54.6716         136.309         -54.6711         136.307       -0.0124275         147.558
0.554                  -0.503331        -147.081          -54.635         135.045         -54.6345         135.044       -0.0125275         147.488
0.555                  -0.508113        -147.715         -54.5927         133.802         -54.5922           133.8       -0.0126288         147.417
0.556                  -0.513638        -148.357         -54.5445         132.576          -54.544         132.574       -0.0127314         147.347
0.557                  -0.519923        -149.006         -54.4905         131.366           -54.49         131.364       -0.0128354         147.276
0.558                  -0.526986        -149.663         -54.4306         130.169         -54.4302         130.168       -0.0129408         147.205
0.559                  -0.534848        -150.328          -54.365         128.985         -54.3646         128.984       -0.0130476         147.135
0.56                    -0.54353            -151         -54.2937         127.811         -54.2933          127.81       -0.0131557         147.064
0.561                   -0.55306         -151.68         -54.2166         126.646         -54.2162         126.644       -0.0132653         146.993
0.562                  -0.563464        -152.368         -54.1337         125.487         -54.1334         125.486       -0.0133764         146.921
0.563                  -0.574774        -153.064         -54.0452         124.333         -54.0449         124.332       -0.0134889          146.85
0.564                  -0.587024        -153.769          -53.951         123.184         -53.9507         123.182       -0.0136029         146.778
0.565                  -0.600251        -154.481         -53.8512         122.036         -53.8509         122.035       -0.0137184         146.707
0.566                  -0.614497        -155.202         -53.7458         120.889         -53.7456         120.888       -0.0138355         146.635
0.567                  -0.629807        -155.932         -53.6348         119.741         -53.6346          119.74       -0.0139541         146.563
0.568                   -0.64623         -156.67         -53.5184          118.59         -53.5182          118.59       -0.0140744         146.491
0.569                  -0.663821        -157.417         -53.3964         117.436         -53.3962         117.436       -0.0141963         146.419
0.57                   -0.682636        -158.174          -53.269         116.277         -53.2689         116.277       -0.0143198         146.347
0.571                  -0.702742        -158.939         -53.1362         115.112         -53.1361         115.112       -0.0144451         146.274
0.572                  -0.724206        -159.714         -52.9981         113.939          -52.998         113.939        -0.014572         146.201
0.573                  -0.747104        -160.499         -52.8546         112.757         -52.8546         112.757       -0.0147008         146.129
0.574                  -0.771518        -161.293         -52.7059         111.564         -52.7059         111.564       -0.0148313         146.056
0.575                  -0.797536        -162.097          -52.552          110.36          -52.552          110.36       -0.0149637         145.983
0.576                  -0.825254        -162.912          -52.393         109.142          -52.393         109.143       -0.0150979          145.91
0.577                  -0.854777        -163.736         -52.2288          107.91         -52.2288         107.911       -0.0152341         145.836
0.578                  -0.886217        -164.571         -52.0596         106.662         -52.0597         106.663       -0.0153722         145.763
0.579                  -0.919695        -165.416         -51.8855         105.397         -51.8855         105.398       -0.0155123         145.689
0.58                   -0.955343        -166.272         -51.7064         104.113         -51.7065         104.114       -0.0156546         145.615
0.581                  -0.993303        -167.138         -51.5226         102.809         -51.5226         102.811       -0.0157989         145.541
0.582                   -1.03373        -168.014          -51.334         101.483          -51.334         101.485       -0.0159454         145.467
0.583                   -1.07678        -168.901         -51.1407         100.135         -51.1408         100.137       -0.0160941         145.393
0.584                   -1.12265        -169.799         -50.9429         98.7618          -50.943         98.7638       -0.0162451         145.318
0.585                   -1.17151        -170.706         -50.7406         97.3626         -50.7408         97.3647       -0.0163985         145.244
0.586                   -1.22358        -171.624         -50.5341         95.9357         -50.5342          95.938       -0.0165542         145.169
0.587                   -1.27908        -172.552         -50.3233         94.4796         -50.3235          94.482       -0.0167125         145.094
0.588                   -1.33824        -173.488         -50.1085         92.9926         -50.1087         92.9951       -0.0168733         145.019
0.589                   -1.40132        -174.433         -49.8898          91.473           -49.89         91.4757       -0.0170368         144.943
0.59                    -1.46859        -175.387         -49.6674         89.9192         -49.6676          89.922        -0.017203         144.868
0.591                   -1.54033        -176.347         -49.4415         88.3295         -49.4417         88.3324       -0.0173719         144.792
0.592                   -1.61685        -177.314         -49.2123         86.7021         -49.2125          86.705       -0.0175438         144.716
0.593                   -1.69847        -178.285         -48.9801         85.0353         -48.9803         85.0383       -0.0177186          144.64
0.594                   -1.78552        -179.259          -48.745         83.3274         -48.7452         83.3304       -0.0178965         144.564
0.595                   -1.87836         179.765         -48.5074         81.5765         -48.5076         81.5796       -0.0180776         144.488
0.596                   -1.97734          178.79         -48.2677         79.7811         -48.2679         79.7841        -0.018262         144.411
0.597                   -2.08284         177.818         -48.0261         77.9394         -48.0263         77.9424       -0.0184497         144.334
0.598                   -2.19522         176.852          -47.783         76.0498         -47.7832         76.0528        -0.018641         144.257
0.599                   -2.31487         175.897         -47.5389         74.1108         -47.5391         74.1138       -0.0188358          144.18
0.6                     -2.44213         174.955         -47.2942         72.1211         -47.2943          72.124       -0.0190344         144.103
0.601                   -2.57735         174.033         -47.0493         70.0792         -47.0495         70.0821       -0.0192368         144.025
0.602                   -2.72082         173.134         -46.8049         67.9841          -46.805         67.9869       -0.0194432         143.947
0.603                    -2.8728         172.265         -46.5614          65.835         -46.5615         65.8377       -0.0196537         143.869
0.604                   -3.03346         171.433         -46.3194         63.6311         -46.3196         63.6337       -0.0198684         143.791
0.605                   -3.20288         170.646         -46.0796         61.3722         -46.0798         61.3746       -0.0200874         143.713
0.606                   -3.38101         169.912         -45.8427         59.0582         -45.8428         59.0603       -0.0203109         143.634
0.607                   -3.56764          169.24         -45.6092         56.6894         -45.6093         56.6914       -0.0205389         143.555
0.608                   -3.76236         168.641         -45.3799         54.2667           -45.38         54.2685       -0.0207716         143.476
0.609                    -3.9645         168.125         -45.1555         51.7913         -45.1556         51.7928        -0.021009         143.397
0.61                    -4.17311         167.704         -44.9368         49.2649         -44.9368         49.2663       -0.0212513         143.318
0.611                    -4.3869         167.388         -44.7243         46.6899         -44.7244          46.691       -0.0214986         143.238
0.612                   -4.60417         167.189         -44.5189          44.069         -44.5189         44.0698       -0.0217508         143.158
0.613                   -4.82285         167.117         -44.3211         41.4055         -44.3211         41.4061        -0.022008         143.078
0.614                   -5.04036         167.179         -44.1316         38.7034         -44.1316         38.7037       -0.0222703         142.998
0.615                   -5.25375         167.383         -43.9509          35.967         -43.9509         35.9671       -0.0225377         142.917
0.616                   -5.45963         167.732         -43.7795         33.2011         -43.7795         33.2009       -0.0228101         142.837
0.617                   -5.65433         168.223         -43.6178         30.4109         -43.6178         30.4106       -0.0230874         142.756
0.618                   -5.83401         168.852         -43.4661         27.6021         -43.4661         27.6015       -0.0233698         142.674
0.619                   -5.99484         169.606         -43.3247         24.7804         -43.3247         24.7796       -0.0236569         142.593
0.62                    -6.13327         170.467         -43.1936         21.9517         -43.1936         21.9507       -0.0239489         142.511
0.621                   -6.24623         171.414         -43.0729          19.122         -43.0729         19.1208       -0.0242454          142.43
0.622                   -6.33141         172.417         -42.9624         16.2972         -42.9623         16.2959       -0.0245463         142.347
0.623                   -6.38743         173.447         -42.8619         13.4829         -42.8619         13.4815       -0.0248516         142.265
0.624                   -6.41396          174.47         -42.7711         10.6847         -42.7711         10.6833        -0.025161         142.183
0.625                   -6.41174         175.457         -42.6897         7.90766         -42.6896         7.90616       -0.0254743           142.1
0.626                   -6.38246         176.377          -42.617         5.15641          -42.617         5.15489       -0.0257914         142.017
0.627                   -6.32863         177.205         -42.5527         2.43515         -42.5527         2.43365        -0.026112         141.933
0.628                   -6.25333         177.921         -42.4961       -0.252446         -42.4961       -0.253906       -0.0264361          141.85
0.629                   -6.15998         178.511         -42.4465        -2.90325         -42.4465        -2.90464       -0.0267635         141.766
