! TOUCHSTONE file generated by CST MICROWAVE STUDIO
! Date and time: Sat Oct 24 10:41:40 2020
! Project name: Scenario_1_Planar_Body_Tissue_Center.cst
! Parameters = {hfat=3; hmuscle=50; hskin=1.5; hgap=25; Wtissue=700; Ltissue=700; L_HA=400; MT=2.54; Rad_Dielectric=30; Rad_Lower=7.3; Rad_Upper=30; a_HA=580; a_WG=246; b_HA=500; b_WG=121; c_HA=0; c_WG=187; d_feed=85; dx1=207.64; h_feed=15; h_lower=18; h_upper=40}
! Header version: 2018
! Port assignment regex: !\s*Touchstone port\s*([0-9]+)\s*=\s*(CST MWS port|CST DS port)\s*([0-9]+|Zmin|Zmax)\s*\(\"(.*)\"\)(\s*mode\s*([0-9]+))?.*
! Touchstone port assignment:
! Touchstone port 1 = CST MWS port 1 ("")
! Touchstone port 2 = CST MWS port 2 ("")
# GHz S DB R 50
0.5                   -0.0458034        -122.074         -57.0367         123.941         -57.0378         123.941       -0.0071088         151.147
0.501                 -0.0476271        -122.537         -56.8299         123.284          -56.831         123.283      -0.00716323         151.082
0.502                  -0.049579        -123.005         -56.6194          122.62         -56.6205          122.62      -0.00721845         151.016
0.503                 -0.0516682        -123.476         -56.4052         121.949         -56.4063         121.949      -0.00727446         150.951
0.504                 -0.0539047        -123.952         -56.1872         121.272         -56.1883         121.272      -0.00733129         150.885
0.505                 -0.0562993        -124.433         -55.9654         120.587         -55.9664         120.587      -0.00738895         150.819
0.506                 -0.0588642        -124.918         -55.7396         119.894         -55.7406         119.894      -0.00744746         150.754
0.507                 -0.0616125        -125.407         -55.5098         119.193         -55.5108         119.193      -0.00750683         150.688
0.508                 -0.0645588        -125.902         -55.2758         118.483         -55.2769         118.483      -0.00756709         150.622
0.509                 -0.0677191        -126.402         -55.0377         117.763         -55.0387         117.763      -0.00762827         150.556
0.51                  -0.0711112        -126.907         -54.7953         117.033         -54.7963         117.033      -0.00769038          150.49
0.511                 -0.0747548        -127.417         -54.5486         116.292         -54.5495         116.292      -0.00775345         150.424
0.512                 -0.0786717        -127.934         -54.2973         115.539         -54.2983         115.539      -0.00781752         150.357
0.513                  -0.082886        -128.456         -54.0415         114.774         -54.0424         114.774      -0.00788263         150.291
0.514                 -0.0874247        -128.985          -53.781         113.996         -53.7819         113.996      -0.00794881         150.224
0.515                 -0.0923177         -129.52         -53.5156         113.203         -53.5165         113.203      -0.00801611         150.158
0.516                 -0.0975985        -130.061         -53.2453         112.395         -53.2462         112.396      -0.00808457         150.091
0.517                  -0.103304         -130.61           -52.97         111.571         -52.9709         111.571      -0.00815426         150.025
0.518                  -0.109478        -131.167         -52.6895         110.729         -52.6903          110.73      -0.00822523         149.958
0.519                  -0.116165         -131.73         -52.4037         109.869         -52.4045         109.869      -0.00829757         149.891
0.52                   -0.123419        -132.303         -52.1125         108.988         -52.1132         108.988      -0.00837134         149.824
0.521                    -0.1313        -132.883         -51.8156         108.085         -51.8163         108.086      -0.00844664         149.757
0.522                  -0.139874        -133.472          -51.513         107.159         -51.5136          107.16      -0.00852357         149.689
0.523                  -0.149218        -134.071         -51.2044         106.208         -51.2051         106.209      -0.00860226         149.622
0.524                  -0.159418         -134.68         -50.8898          105.23         -50.8904          105.23      -0.00868282         149.555
0.525                  -0.170571        -135.299          -50.569         104.222         -50.5696         104.223      -0.00876543         149.487
0.526                   -0.18279        -135.928         -50.2418         103.182         -50.2423         103.183      -0.00885024         149.419
0.527                    -0.1962        -136.569          -49.908         102.109         -49.9085         102.109      -0.00893746         149.352
0.528                  -0.210948        -137.222         -49.5674         100.997         -49.5679         100.998      -0.00902732         149.284
0.529                  -0.227199        -137.887         -49.2199         99.8457         -49.2204         99.8463      -0.00912007         149.216
0.53                   -0.245144        -138.566         -48.8654         98.6502         -48.8658         98.6508      -0.00921602         149.148
0.531                  -0.265003        -139.258         -48.5036         97.4068          -48.504         97.4074      -0.00931551          149.08
0.532                  -0.287028        -139.965         -48.1345         96.1114         -48.1348          96.112      -0.00941893         149.011
0.533                  -0.311511        -140.687         -47.7578         94.7592         -47.7581         94.7598      -0.00952675         148.943
0.534                  -0.338789        -141.424         -47.3735         93.3451         -47.3738         93.3456      -0.00963947         148.874
0.535                  -0.369253        -142.177         -46.9816         91.8631         -46.9818         91.8636      -0.00975771         148.806
0.536                  -0.403352        -142.947         -46.5818          90.307         -46.5821         90.3075      -0.00988215         148.737
0.537                  -0.441612        -143.734         -46.1744         88.6697         -46.1746         88.6701       -0.0100136         148.668
0.538                  -0.484636        -144.537         -45.7594         86.9434         -45.7596         86.9437       -0.0101529         148.599
0.539                  -0.533124        -145.356          -45.337         85.1194         -45.3372         85.1197       -0.0103012         148.529
0.54                   -0.587882         -146.19         -44.9075         83.1883         -44.9077         83.1885       -0.0104596          148.46
0.541                  -0.649835        -147.038         -44.4715         81.1398         -44.4715           81.14       -0.0106294         148.391
0.542                  -0.720036        -147.898         -44.0295         78.9627         -44.0295         78.9628        -0.010812         148.321
0.543                   -0.79967        -148.764         -43.5825         76.6449         -43.5825         76.6449       -0.0110091         148.251
0.544                  -0.890056        -149.631         -43.1317         74.1737         -43.1317         74.1736       -0.0112224         148.181
0.545                  -0.992619        -150.492         -42.6787         71.5356         -42.6788         71.5354       -0.0114537         148.112
0.546                   -1.10885        -151.335         -42.2257          68.717         -42.2257         68.7168       -0.0117047         148.042
0.547                   -1.24023        -152.145          -41.775         65.7047          -41.775         65.7044       -0.0119772         147.971
0.548                   -1.38806        -152.904         -41.3298         62.4863         -41.3298         62.4859       -0.0122726         147.901
0.549                   -1.55328        -153.585          -40.894         59.0513         -40.8939         59.0508       -0.0125917         147.831
0.55                    -1.73611        -154.159         -40.4718         55.3923         -40.4718         55.3917       -0.0129349         147.761
0.551                   -1.93561        -154.588         -40.0685         51.5066         -40.0684          51.506       -0.0133011         147.691
0.552                   -2.14917        -154.832         -39.6894         47.3975         -39.6894         47.3969        -0.013688         147.621
0.553                   -2.37189        -154.847         -39.3406         43.0764         -39.3406         43.0758       -0.0140917         147.551
0.554                   -2.59614        -154.598          -39.028         38.5633          -39.028         38.5627       -0.0145061         147.481
0.555                   -2.81146        -154.059         -38.7572         33.8883         -38.7571         33.8877       -0.0149234         147.411
0.556                   -3.00521        -153.229         -38.5327         29.0906         -38.5327         29.0901       -0.0153346         147.342
0.557                   -3.16402        -152.138         -38.3579         24.2173         -38.3579         24.2169       -0.0157294         147.272
0.558                   -3.27615        -150.852         -38.2347         19.3207         -38.2347         19.3204       -0.0160979         147.203
0.559                   -3.33392        -149.462         -38.1627         14.4545         -38.1627         14.4543       -0.0164315         147.134
0.56                    -3.33546        -148.075           -38.14         9.67028           -38.14          9.6702       -0.0167237         147.065
0.561                   -3.28486         -146.79          -38.163         5.01381         -38.1629         5.01387       -0.0169706         146.996
0.562                   -3.19087        -145.686         -38.2267        0.522773         -38.2266        0.522945       -0.0171716         146.927
0.563                   -3.06467        -144.811         -38.3255         -3.7747         -38.3254        -3.77442       -0.0173288         146.858
0.564                   -2.91767        -144.182         -38.4535        -7.86012         -38.4534        -7.85974       -0.0174464         146.788
0.565                   -2.75996        -143.795         -38.6048        -11.7238         -38.6047        -11.7234       -0.0175301         146.719
0.566                   -2.59953         -143.63         -38.7739        -15.3637         -38.7738        -15.3632       -0.0175862         146.649
0.567                   -2.44219        -143.659         -38.9559        -18.7835         -38.9558        -18.7829       -0.0176211         146.578
0.568                   -2.29177        -143.852         -39.1466        -21.9912         -39.1464        -21.9906       -0.0176408         146.508
0.569                   -2.15056         -144.18         -39.3421        -24.9977          -39.342        -24.9971       -0.0176505         146.437
0.57                    -2.01969        -144.618         -39.5396        -27.8157         -39.5395        -27.8151       -0.0176546         146.366
0.571                    -1.8995        -145.143         -39.7366        -30.4586         -39.7364         -30.458       -0.0176568         146.294
0.572                   -1.78983        -145.737         -39.9312          -32.94          -39.931        -32.9394       -0.0176599         146.223
0.573                   -1.69019        -146.386         -40.1218        -35.2732         -40.1216        -35.2726       -0.0176659         146.151
0.574                   -1.59993        -147.078         -40.3073        -37.4708          -40.307        -37.4702       -0.0176765         146.078
0.575                   -1.51833        -147.803         -40.4867        -39.5448         -40.4865        -39.5443       -0.0176928         146.006
0.576                   -1.44464        -148.555         -40.6596        -41.5063         -40.6593        -41.5059       -0.0177155         145.933
0.577                   -1.37813        -149.326         -40.8253        -43.3655         -40.8251         -43.365        -0.017745          145.86
0.578                   -1.31813        -150.113         -40.9837        -45.1316         -40.9834        -45.1312       -0.0177816         145.787
0.579                   -1.26402        -150.913         -41.1345        -46.8132         -41.1343        -46.8128       -0.0178254         145.714
0.58                    -1.21521        -151.723         -41.2777        -48.4179         -41.2775        -48.4176       -0.0178763          145.64
0.581                   -1.17119        -152.541         -41.4133        -49.9527          -41.413        -49.9524       -0.0179343         145.566
0.582                    -1.1315        -153.366         -41.5412        -51.4239          -41.541        -51.4237       -0.0179992         145.492
0.583                   -1.09573        -154.196         -41.6616        -52.8373         -41.6614        -52.8371       -0.0180708         145.418
0.584                   -1.06352        -155.031         -41.7747        -54.1979         -41.7744        -54.1978       -0.0181489         145.344
0.585                   -1.03453         -155.87         -41.8804        -55.5105         -41.8801        -55.5104       -0.0182332         145.269
0.586                   -1.00849        -156.714          -41.979        -56.7792         -41.9787        -56.7792       -0.0183236         145.195
0.587                  -0.985135        -157.561         -42.0707         -58.008         -42.0704         -58.008       -0.0184198          145.12
0.588                  -0.964245        -158.412         -42.1555        -59.2003         -42.1553        -59.2003       -0.0185216         145.045
0.589                  -0.945621        -159.268         -42.2338        -60.3592         -42.2335        -60.3593       -0.0186289          144.97
0.59                   -0.929088        -160.127         -42.3056        -61.4878         -42.3053        -61.4879       -0.0187414         144.894
0.591                  -0.914493        -160.991         -42.3711        -62.5885         -42.3708        -62.5887        -0.018859         144.819
0.592                  -0.901698        -161.859         -42.4304        -63.6638         -42.4302         -63.664       -0.0189816         144.743
0.593                  -0.890583        -162.732         -42.4839         -64.716         -42.4837        -64.7162       -0.0191089         144.667
0.594                  -0.881045         -163.61         -42.5315         -65.747         -42.5313        -65.7473       -0.0192408         144.591
0.595                  -0.872988        -164.493         -42.5735        -66.7588         -42.5733         -66.759       -0.0193773         144.515
0.596                  -0.866334        -165.382         -42.6101         -67.753         -42.6099        -67.7532       -0.0195182         144.438
0.597                  -0.861009        -166.277         -42.6412        -68.7312         -42.6411        -68.7315       -0.0196634         144.361
0.598                  -0.856954        -167.178         -42.6672        -69.6949          -42.667        -69.6952       -0.0198128         144.284
0.599                  -0.854115        -168.086         -42.6881        -70.6456         -42.6879        -70.6459       -0.0199664         144.207
0.6                    -0.852446        -169.001         -42.7041        -71.5844         -42.7039        -71.5847        -0.020124          144.13
0.601                   -0.85191        -169.924         -42.7152        -72.5126          -42.715        -72.5129       -0.0202858         144.053
0.602                  -0.852473        -170.854         -42.7216        -73.4312         -42.7215        -73.4316       -0.0204514         143.975
0.603                  -0.854109        -171.793         -42.7234        -74.3414         -42.7233        -74.3418       -0.0206211         143.897
0.604                  -0.856799         -172.74         -42.7207        -75.2442         -42.7206        -75.2445       -0.0207946         143.819
0.605                  -0.860526        -173.697         -42.7137        -76.1404         -42.7136        -76.1407        -0.020972         143.741
0.606                   -0.86528        -174.663         -42.7023        -77.0309         -42.7022        -77.0312       -0.0211533         143.662
0.607                  -0.871053        -175.639         -42.6867        -77.9167         -42.6867         -77.917       -0.0213384         143.584
0.608                  -0.877846        -176.625         -42.6671        -78.7985          -42.667        -78.7987       -0.0215273         143.505
0.609                  -0.885659        -177.622         -42.6434         -79.677         -42.6433        -79.6773       -0.0217201         143.426
0.61                     -0.8945         -178.63         -42.6157         -80.553         -42.6157        -80.5533       -0.0219167         143.346
0.611                  -0.904379         -179.65         -42.5842        -81.4273         -42.5842        -81.4275       -0.0221171         143.267
0.612                   -0.91531         179.318         -42.5489        -82.3005         -42.5489        -82.3007       -0.0223214         143.187
0.613                  -0.927311         178.273         -42.5099        -83.1732         -42.5099        -83.1734       -0.0225296         143.107
0.614                  -0.940405         177.215         -42.4672        -84.0462         -42.4672        -84.0463       -0.0227416         143.027
0.615                  -0.954617         176.143          -42.421          -84.92          -42.421        -84.9201       -0.0229575         142.947
0.616                  -0.969977         175.057         -42.3712        -85.7953         -42.3712        -85.7954       -0.0231774         142.866
0.617                   -0.98652         173.957          -42.318        -86.6727          -42.318        -86.6727       -0.0234012         142.785
0.618                   -1.00428         172.841         -42.2614        -87.5527         -42.2614        -87.5527        -0.023629         142.704
0.619                   -1.02331         171.709         -42.2014         -88.436         -42.2014         -88.436       -0.0238609         142.623
0.62                    -1.04364          170.56         -42.1382        -89.3232         -42.1382        -89.3231       -0.0240968         142.541
0.621                   -1.06534         169.395         -42.0717        -90.2147         -42.0718        -90.2146       -0.0243368         142.459
0.622                   -1.08845         168.212         -42.0021        -91.1113         -42.0021        -91.1111       -0.0245811         142.377
0.623                   -1.11304          167.01         -41.9294        -92.0134         -41.9294        -92.0132       -0.0248295         142.295
0.624                   -1.13917          165.79         -41.8536        -92.9217         -41.8536        -92.9214       -0.0250823         142.212
0.625                   -1.16691         164.549         -41.7748        -93.8366         -41.7749        -93.8364       -0.0253393         142.129
0.626                   -1.19635         163.289         -41.6931        -94.7589         -41.6931        -94.7586       -0.0256008         142.046
0.627                   -1.22756         162.007         -41.6085         -95.689         -41.6085        -95.6887       -0.0258668         141.963
0.628                   -1.26063         160.703         -41.5211        -96.6276         -41.5211        -96.6272       -0.0261372         141.879
0.629                   -1.29566         159.376         -41.4308        -97.5751         -41.4309        -97.5748       -0.0264123         141.795
