! TOUCHSTONE file generated by CST MICROWAVE STUDIO
! Date and time: Sat Oct 24 10:46:53 2020
! Project name: Scenario_1_Planar_Body_Tissue_Center.cst
! Parameters = {hfat=3; hmuscle=50; hskin=1.5; hgap=25; Wtissue=700; Ltissue=700; L_HA=400; MT=2.54; Rad_Dielectric=30; Rad_Lower=7.3; Rad_Upper=30; a_HA=580; a_WG=246; b_HA=500; b_WG=121; c_HA=0; c_WG=187; d_feed=85; dx1=675.28; h_feed=15; h_lower=18; h_upper=40}
! Header version: 2018
! Port assignment regex: !\s*Touchstone port\s*([0-9]+)\s*=\s*(CST MWS port|CST DS port)\s*([0-9]+|Zmin|Zmax)\s*\(\"(.*)\"\)(\s*mode\s*([0-9]+))?.*
! Touchstone port assignment:
! Touchstone port 1 = CST MWS port 1 ("")
! Touchstone port 2 = CST MWS port 2 ("")
# GHz S DB R 50
0.5                    -0.237069        -121.718         -59.9169        -156.363         -59.9166        -156.365      -0.00780825         151.148
0.501                  -0.237575        -122.128         -59.9431        -157.693         -59.9429        -157.694      -0.00787004         151.083
0.502                   -0.23813        -122.541         -59.9669         -159.04         -59.9667        -159.041      -0.00793244         151.018
0.503                  -0.238737        -122.957         -59.9882        -160.402         -59.9881        -160.403      -0.00799545         150.953
0.504                  -0.239399        -123.376         -60.0068        -161.781         -60.0067        -161.782      -0.00805909         150.887
0.505                  -0.240119        -123.798         -60.0226        -163.176         -60.0226        -163.177      -0.00812335         150.822
0.506                  -0.240899        -124.223         -60.0355        -164.587         -60.0355        -164.588      -0.00818824         150.756
0.507                  -0.241743        -124.651         -60.0454        -166.014         -60.0454        -166.014      -0.00825377         150.691
0.508                  -0.242653        -125.082         -60.0521        -167.456         -60.0522        -167.456      -0.00831995         150.625
0.509                  -0.243634        -125.516         -60.0556        -168.913         -60.0557        -168.913      -0.00838677         150.559
0.51                   -0.244688        -125.953         -60.0556        -170.385         -60.0559        -170.385      -0.00845424         150.493
0.511                  -0.245819        -126.393         -60.0522        -171.872         -60.0525        -171.872      -0.00852237         150.427
0.512                  -0.247033        -126.837         -60.0452        -173.372         -60.0455        -173.372      -0.00859117         150.361
0.513                  -0.248331        -127.284         -60.0344        -174.886         -60.0348        -174.886      -0.00866063         150.295
0.514                  -0.249721        -127.735         -60.0198        -176.413         -60.0202        -176.413      -0.00873077         150.229
0.515                  -0.251205        -128.189         -60.0012        -177.953         -60.0017        -177.953      -0.00880159         150.163
0.516                  -0.252789        -128.646         -59.9786        -179.505         -59.9791        -179.504       -0.0088731         150.096
0.517                  -0.254478        -129.108         -59.9517         178.932         -59.9523         178.932       -0.0089453          150.03
0.518                  -0.256279        -129.572         -59.9207         177.357         -59.9212         177.358       -0.0090182         149.963
0.519                  -0.258197        -130.041         -59.8852         175.773         -59.8858         175.773      -0.00909181         149.897
0.52                   -0.260238        -130.514         -59.8453         174.178          -59.846         174.179      -0.00916612          149.83
0.521                   -0.26241         -130.99         -59.8009         172.575         -59.8015         172.576      -0.00924115         149.763
0.522                  -0.264719        -131.471         -59.7518         170.963         -59.7525         170.964      -0.00931691         149.696
0.523                  -0.267174        -131.956          -59.698         169.344         -59.6988         169.344       -0.0093934          149.63
0.524                  -0.269783        -132.445         -59.6395         167.717         -59.6403         167.718      -0.00947062         149.562
0.525                  -0.272554        -132.938         -59.5762         166.084          -59.577         166.085      -0.00954859         149.495
0.526                  -0.275497        -133.435          -59.508         164.446         -59.5088         164.447       -0.0096273         149.428
0.527                  -0.278621        -133.938         -59.4349         162.803         -59.4357         162.803      -0.00970678         149.361
0.528                  -0.281939        -134.444         -59.3568         161.155         -59.3576         161.156      -0.00978702         149.293
0.529                   -0.28546        -134.956         -59.2737         159.504         -59.2745         159.504      -0.00986803         149.226
0.53                   -0.289198        -135.472         -59.1855         157.849         -59.1864          157.85      -0.00994981         149.158
0.531                  -0.293166        -135.993         -59.0924         156.193         -59.0932         156.193       -0.0100324         149.091
0.532                  -0.297378        -136.519         -58.9941         154.534          -58.995         154.535       -0.0101158         149.023
0.533                  -0.301848        -137.051         -58.8908         152.874         -58.8917         152.875       -0.0101999         148.955
0.534                  -0.306594        -137.588         -58.7824         151.214         -58.7832         151.214       -0.0102849         148.887
0.535                  -0.311633         -138.13         -58.6689         149.553         -58.6697         149.554       -0.0103707         148.819
0.536                  -0.316983        -138.678         -58.5503         147.892         -58.5511         147.893       -0.0104574         148.751
0.537                  -0.322666        -139.231         -58.4266         146.232         -58.4275         146.233       -0.0105448         148.682
0.538                  -0.328703         -139.79         -58.2979         144.573         -58.2987         144.573       -0.0106331         148.614
0.539                  -0.335117        -140.356         -58.1641         142.914         -58.1649         142.915       -0.0107223         148.545
0.54                   -0.341935        -140.927         -58.0252         141.257         -58.0261         141.258       -0.0108123         148.477
0.541                  -0.349183        -141.505         -57.8814         139.601         -57.8822         139.602       -0.0109033         148.408
0.542                  -0.356892         -142.09         -57.7325         137.947         -57.7333         137.947       -0.0109951         148.339
0.543                  -0.365095        -142.681         -57.5787         136.293         -57.5795         136.294       -0.0110878          148.27
0.544                  -0.373825        -143.279         -57.4199         134.642         -57.4206         134.642       -0.0111814         148.201
0.545                  -0.383122        -143.884         -57.2562         132.991         -57.2569         132.991       -0.0112759         148.132
0.546                  -0.393026        -144.496         -57.0875         131.341         -57.0882         131.341       -0.0113714         148.063
0.547                  -0.403583        -145.116          -56.914         129.691         -56.9147         129.692       -0.0114679         147.993
0.548                  -0.414841        -145.743         -56.7356         128.042         -56.7363         128.043       -0.0115653         147.924
0.549                  -0.426854        -146.379         -56.5524         126.392          -56.553         126.393       -0.0116637         147.854
0.55                   -0.439678        -147.022         -56.3643         124.742         -56.3649         124.743       -0.0117632         147.785
0.551                  -0.453379        -147.673         -56.1715          123.09          -56.172          123.09       -0.0118636         147.715
0.552                  -0.468023        -148.333         -55.9738         121.435         -55.9743         121.436       -0.0119652         147.645
0.553                  -0.483687        -149.002         -55.7714         119.777         -55.7719         119.778       -0.0120678         147.575
0.554                  -0.500453        -149.679         -55.5642         118.115         -55.5646         118.116       -0.0121715         147.504
0.555                  -0.518411        -150.366         -55.3523         116.447         -55.3527         116.448       -0.0122764         147.434
0.556                  -0.537658        -151.061         -55.1356         114.774          -55.136         114.774       -0.0123824         147.364
0.557                  -0.558303        -151.766         -54.9143         113.092         -54.9147         113.093       -0.0124897         147.293
0.558                  -0.580463        -152.481         -54.6883         111.401         -54.6886         111.402       -0.0125982         147.222
0.559                  -0.604267        -153.205         -54.4576           109.7         -54.4579         109.701       -0.0127081         147.152
0.56                   -0.629857         -153.94         -54.2222         107.986         -54.2225         107.987       -0.0128193         147.081
0.561                  -0.657386        -154.684         -53.9823         106.259         -53.9825          106.26       -0.0129319         147.009
0.562                  -0.687025        -155.437         -53.7378         104.515         -53.7379         104.516       -0.0130461         146.938
0.563                  -0.718958        -156.201         -53.4887         102.754         -53.4888         102.755       -0.0131618         146.867
0.564                  -0.753386        -156.974         -53.2351         100.972         -53.2352         100.973       -0.0132792         146.795
0.565                  -0.790532        -157.757         -52.9771         99.1685         -52.9772         99.1694       -0.0133983         146.724
0.566                  -0.830634        -158.549         -52.7147         97.3397         -52.7148         97.3406       -0.0135193         146.652
0.567                  -0.873953         -159.35         -52.4481         95.4834         -52.4481         95.4843       -0.0136423          146.58
0.568                  -0.920772        -160.158         -52.1773         93.5968         -52.1773         93.5977       -0.0137673         146.508
0.569                  -0.971394        -160.974         -51.9025          91.677         -51.9024         91.6778       -0.0138947         146.436
0.57                    -1.02615        -161.796         -51.6238         89.7209         -51.6237         89.7217       -0.0140244         146.363
0.571                   -1.08538        -162.622         -51.3415         87.7252         -51.3414         87.7259       -0.0141568         146.291
0.572                   -1.14945        -163.451         -51.0557         85.6865         -51.0556         85.6871       -0.0142919         146.218
0.573                   -1.21876        -164.281         -50.7669         83.6012         -50.7667         83.6017       -0.0144301         146.145
0.574                   -1.29368        -165.109         -50.4752         81.4657          -50.475         81.4662       -0.0145715         146.072
0.575                   -1.37462        -165.931         -50.1811         79.2763         -50.1809         79.2766       -0.0147163         145.999
0.576                   -1.46197        -166.744         -49.8851          77.029         -49.8849         77.0293       -0.0148649         145.926
0.577                   -1.55609        -167.543         -49.5877         74.7201         -49.5875         74.7203       -0.0150175         145.852
0.578                   -1.65731        -168.323         -49.2895         72.3457         -49.2893         72.3458       -0.0151744         145.779
0.579                   -1.76587        -169.076         -48.9912         69.9022          -48.991         69.9021       -0.0153358         145.705
0.58                    -1.88192        -169.796         -48.6936         67.3859         -48.6934         67.3858       -0.0155021         145.631
0.581                   -2.00546        -170.475         -48.3977         64.7938         -48.3974         64.7935       -0.0156734         145.557
0.582                   -2.13631        -171.102         -48.1043         62.1229         -48.1041         62.1226         -0.01585         145.483
0.583                   -2.27402        -171.668         -47.8148          59.371         -47.8146         59.3706       -0.0160321         145.409
0.584                   -2.41784        -172.162         -47.5302         56.5366           -47.53         56.5361       -0.0162198         145.334
0.585                   -2.56664        -172.572         -47.2519          53.619         -47.2517         53.6183       -0.0164133         145.259
0.586                   -2.71885        -172.888         -46.9813         50.6184         -46.9811         50.6177       -0.0166124         145.184
0.587                   -2.87246        -173.099         -46.7198         47.5366         -46.7196         47.5358       -0.0168171         145.109
0.588                   -3.02493        -173.199         -46.4689         44.3763         -46.4688         44.3755       -0.0170273         145.034
0.589                   -3.17331        -173.181         -46.2302          41.142         -46.2301         41.1411       -0.0172426         144.959
0.59                    -3.31424        -173.046         -46.0051         37.8396          -46.005         37.8388       -0.0174628         144.884
0.591                   -3.44419        -172.797         -45.7949         34.4767         -45.7948         34.4759       -0.0176873         144.808
0.592                   -3.55958        -172.443         -45.6009         31.0624         -45.6008         31.0616       -0.0179158         144.732
0.593                   -3.65713        -172.002         -45.4241         27.6071          -45.424         27.6064       -0.0181475         144.656
0.594                   -3.73407        -171.493         -45.2653         24.1225         -45.2653          24.122        -0.018382          144.58
0.595                   -3.78846        -170.944         -45.1251         20.6213         -45.1251         20.6208       -0.0186186         144.504
0.596                   -3.81932        -170.381         -45.0038         17.1165         -45.0038         17.1161       -0.0188568         144.428
0.597                   -3.82674        -169.835         -44.9012         13.6214         -44.9012         13.6212        -0.019096         144.351
0.598                   -3.81184        -169.331          -44.817          10.149          -44.817         10.1489       -0.0193359         144.275
0.599                   -3.77659        -168.895         -44.7506         6.71185         -44.7506         6.71187       -0.0195759         144.198
0.6                     -3.72363        -168.546         -44.7009         3.32125          -44.701          3.3214       -0.0198158         144.121
0.601                   -3.65597        -168.298          -44.667      -0.0125656          -44.667      -0.0122916       -0.0200554         144.044
0.602                   -3.57677        -168.159         -44.6474        -3.28086         -44.6474        -3.28048       -0.0202944         143.967
0.603                   -3.48912        -168.134         -44.6408        -6.47646         -44.6408        -6.47598       -0.0205329         143.889
0.604                   -3.39587        -168.222         -44.6455        -9.59379         -44.6455        -9.59324       -0.0207708         143.811
0.605                   -3.29955         -168.42         -44.6601        -12.6289         -44.6601        -12.6283       -0.0210083         143.733
0.606                    -3.2023        -168.723          -44.683        -15.5791          -44.683        -15.5785       -0.0212453         143.655
0.607                    -3.1059        -169.124         -44.7127        -18.4434         -44.7127        -18.4428       -0.0214822         143.577
0.608                   -3.01175        -169.615         -44.7478        -21.2218         -44.7477        -21.2211       -0.0217191         143.499
0.609                   -2.92093        -170.189         -44.7869        -23.9152         -44.7868        -23.9146       -0.0219561          143.42
0.61                    -2.83425        -170.837         -44.8288        -26.5256         -44.8288         -26.525       -0.0221936         143.341
0.611                   -2.75228        -171.553         -44.8724        -29.0556         -44.8723        -29.0551       -0.0224318         143.262
0.612                   -2.67539         -172.33         -44.9166        -31.5082         -44.9165        -31.5078       -0.0226709         143.182
0.613                    -2.6038        -173.161         -44.9605        -33.8871         -44.9604        -33.8867       -0.0229111         143.103
0.614                   -2.53765        -174.041         -45.0034        -36.1959         -45.0033        -36.1956       -0.0231528         143.023
0.615                   -2.47695        -174.966         -45.0444        -38.4386         -45.0443        -38.4384       -0.0233961         142.943
0.616                   -2.42166        -175.931         -45.0831        -40.6195          -45.083        -40.6194       -0.0236413         142.863
0.617                   -2.37172        -176.932         -45.1188        -42.7426         -45.1187        -42.7426       -0.0238886         142.782
0.618                   -2.32701        -177.967         -45.1511        -44.8119          -45.151        -44.8121       -0.0241382         142.701
0.619                   -2.28742        -179.033         -45.1796        -46.8317         -45.1796        -46.8319       -0.0243902          142.62
0.62                    -2.25282         179.873         -45.2041        -48.8058          -45.204        -48.8062        -0.024645         142.539
0.621                   -2.22307         178.751         -45.2242         -50.738         -45.2242        -50.7386       -0.0249026         142.457
0.622                   -2.19806         177.603         -45.2398        -52.6323         -45.2397        -52.6329       -0.0251632         142.375
0.623                   -2.17767         176.431         -45.2506         -54.492         -45.2506        -54.4927        -0.025427         142.293
0.624                    -2.1618         175.236         -45.2566        -56.3207         -45.2566        -56.3216       -0.0256941         142.211
0.625                   -2.15036         174.017         -45.2576        -58.1217         -45.2576        -58.1227       -0.0259648         142.129
0.626                   -2.14329         172.776         -45.2536        -59.8982         -45.2536        -59.8993       -0.0262391         142.046
0.627                   -2.14053         171.512         -45.2446        -61.6532         -45.2446        -61.6543       -0.0265172         141.963
0.628                   -2.14204         170.226         -45.2305        -63.3895         -45.2306        -63.3908       -0.0267992         141.879
0.629                   -2.14781         168.918         -45.2114          -65.11         -45.2115        -65.1113       -0.0270852         141.795
