! TOUCHSTONE file generated by CST MICROWAVE STUDIO
! Date and time: Sat Oct 24 10:47:11 2020
! Project name: Scenario_1_Planar_Body_Tissue_Center.cst
! Parameters = {hfat=3; hmuscle=50; hskin=1.5; hgap=25; Wtissue=700; Ltissue=700; L_HA=400; MT=2.54; Rad_Dielectric=30; Rad_Lower=7.3; Rad_Upper=30; a_HA=580; a_WG=246; b_HA=500; b_WG=121; c_HA=0; c_WG=187; d_feed=85; dx1=709.92; h_feed=15; h_lower=18; h_upper=40}
! Header version: 2018
! Port assignment regex: !\s*Touchstone port\s*([0-9]+)\s*=\s*(CST MWS port|CST DS port)\s*([0-9]+|Zmin|Zmax)\s*\(\"(.*)\"\)(\s*mode\s*([0-9]+))?.*
! Touchstone port assignment:
! Touchstone port 1 = CST MWS port 1 ("")
! Touchstone port 2 = CST MWS port 2 ("")
# GHz S DB R 50
0.5                    -0.182416        -121.453         -61.5716         178.926         -61.5719         178.926      -0.00773991         151.142
0.501                  -0.183137        -121.872         -61.4988         177.246         -61.4969          177.22      -0.00780161         151.076
0.502                  -0.183888        -122.293         -61.4269          175.56         -61.4232         175.509       -0.0078638         151.011
0.503                  -0.184674        -122.718         -61.3559         173.869         -61.3506         173.793      -0.00792648         150.946
0.504                  -0.185498        -123.146         -61.2858         172.175         -61.2794         172.076      -0.00798967          150.88
0.505                  -0.186366        -123.578         -61.2167         170.479         -61.2093         170.357      -0.00805338         150.815
0.506                  -0.187284        -124.013         -61.1484         168.783         -61.1405          168.64       -0.0081176         150.749
0.507                  -0.188256        -124.451         -61.0809         167.088         -61.0728         166.927      -0.00818236         150.684
0.508                   -0.18929        -124.893         -61.0142         165.397         -61.0061         165.218      -0.00824765         150.618
0.509                  -0.190391        -125.338         -60.9482          163.71         -60.9405         163.516      -0.00831349         150.552
0.51                   -0.191565        -125.787         -60.8828         162.031         -60.8756         161.823      -0.00837988         150.486
0.511                  -0.192821         -126.24         -60.8179         160.359         -60.8114         160.141      -0.00844685          150.42
0.512                  -0.194164        -126.697         -60.7533         158.698         -60.7478         158.471      -0.00851438         150.354
0.513                  -0.195604        -127.158         -60.6888         157.049         -60.6844         156.815       -0.0085825         150.288
0.514                  -0.197148        -127.622         -60.6243         155.413         -60.6211         155.175      -0.00865122         150.222
0.515                  -0.198805        -128.091         -60.5596         153.793         -60.5576         153.552      -0.00872054         150.156
0.516                  -0.200585        -128.564         -60.4943         152.188         -60.4936         151.949      -0.00879047         150.089
0.517                  -0.202497        -129.041         -60.4282         150.602         -60.4289         150.365      -0.00886103         150.023
0.518                  -0.204552        -129.522         -60.3611         149.035          -60.363         148.803      -0.00893223         149.956
0.519                  -0.206761        -130.008         -60.2926         147.488         -60.2957         147.263      -0.00900408          149.89
0.52                   -0.209136        -130.498         -60.2224         145.962         -60.2267         145.747      -0.00907659         149.823
0.521                   -0.21169        -130.993         -60.1502         144.459         -60.1555         144.254      -0.00914977         149.756
0.522                  -0.214437        -131.493         -60.0756         142.977         -60.0817         142.786      -0.00922363         149.689
0.523                  -0.217391        -131.998         -59.9982         141.519         -60.0051         141.342       -0.0092982         149.622
0.524                  -0.220568        -132.508         -59.9178         140.084         -59.9251         139.922      -0.00937348         149.555
0.525                  -0.223985        -133.022         -59.8339         138.673         -59.8415         138.526      -0.00944949         149.488
0.526                  -0.227659        -133.542         -59.7461         137.284         -59.7537         137.155      -0.00952624         149.421
0.527                  -0.231611        -134.068          -59.654         135.918         -59.6615         135.806      -0.00960375         149.353
0.528                   -0.23586        -134.599         -59.5574         134.574         -59.5645         134.479      -0.00968203         149.286
0.529                  -0.240431        -135.135         -59.4557         133.251         -59.4622         133.173       -0.0097611         149.218
0.53                   -0.245346        -135.677         -59.3487         131.947         -59.3544         131.887      -0.00984099          149.15
0.531                  -0.250633        -136.225         -59.2359         130.663         -59.2406         130.619       -0.0099217         149.083
0.532                  -0.256319         -136.78         -59.1172         129.395         -59.1206         129.368       -0.0100033         149.015
0.533                  -0.262436         -137.34          -58.992         128.143         -58.9941          128.13       -0.0100857         148.947
0.534                  -0.269017        -137.907         -58.8601         126.905         -58.8608         126.906        -0.010169         148.879
0.535                  -0.276097         -138.48         -58.7213         125.678         -58.7204         125.691       -0.0102532         148.811
0.536                  -0.283717         -139.06         -58.5752          124.46         -58.5727         124.484       -0.0103384         148.742
0.537                  -0.291919        -139.647         -58.4217         123.249         -58.4174         123.283       -0.0104246         148.674
0.538                   -0.30075        -140.242         -58.2605         122.042         -58.2544         122.085       -0.0105117         148.606
0.539                  -0.310261        -140.843         -58.0914         120.837         -58.0836         120.886       -0.0105999         148.537
0.54                   -0.320508        -141.452         -57.9142          119.63         -57.9047         119.685       -0.0106891         148.468
0.541                   -0.33155        -142.068         -57.7288         118.419         -57.7177         118.478       -0.0107794           148.4
0.542                  -0.343456        -142.692         -57.5351         117.201         -57.5225         117.262       -0.0108708         148.331
0.543                  -0.356297        -143.325          -57.333         115.973          -57.319         116.035       -0.0109634         148.262
0.544                  -0.370153        -143.965         -57.1225         114.731         -57.1071         114.793       -0.0110572         148.193
0.545                  -0.385112        -144.614         -56.9034         113.473         -56.8869         113.533       -0.0111523         148.123
0.546                   -0.40127        -145.271         -56.6758         112.194         -56.6583         112.252       -0.0112487         148.054
0.547                  -0.418733        -145.936         -56.4397         110.892         -56.4214         110.947       -0.0113465         147.984
0.548                  -0.437616        -146.611         -56.1952         109.563         -56.1763         109.613       -0.0114456         147.915
0.549                  -0.458048        -147.294         -55.9422         108.203         -55.9229         108.248       -0.0115463         147.845
0.55                   -0.480167        -147.986         -55.6809         106.809         -55.6614         106.849       -0.0116485         147.775
0.551                  -0.504127        -148.687         -55.4113         105.377         -55.3919         105.411       -0.0117524         147.705
0.552                  -0.530098        -149.397         -55.1337         103.903         -55.1145         103.931       -0.0118579         147.635
0.553                  -0.558265        -150.116         -54.8483         102.383         -54.8295         102.405       -0.0119653         147.565
0.554                  -0.588829        -150.843         -54.5551         100.812          -54.537         100.829       -0.0120746         147.495
0.555                  -0.622012        -151.578         -54.2545         99.1879         -54.2372         99.1985       -0.0121858         147.424
0.556                  -0.658055        -152.321         -53.9468         97.5049         -53.9305         97.5102       -0.0122992         147.354
0.557                   -0.69722         -153.07         -53.6323         95.7587         -53.6172         95.7594       -0.0124148         147.283
0.558                  -0.739789        -153.826         -53.3113         93.9448         -53.2976         93.9415       -0.0125328         147.212
0.559                  -0.786064        -154.587         -52.9844         92.0585         -52.9721         92.0519       -0.0126533         147.141
0.56                   -0.836369        -155.352          -52.652         90.0947         -52.6414         90.0859       -0.0127764          147.07
0.561                  -0.891041        -156.118         -52.3147         88.0486         -52.3058         88.0384       -0.0129023         146.999
0.562                  -0.950433        -156.883         -51.9733         85.9151         -51.9662         85.9047       -0.0130312         146.928
0.563                    -1.0149        -157.646         -51.6285         83.6891         -51.6232         83.6796       -0.0131632         146.856
0.564                    -1.0848        -158.401         -51.2812         81.3656         -51.2778         81.3583       -0.0132986         146.785
0.565                   -1.16046        -159.147         -50.9324         78.9397         -50.9309         78.9358       -0.0134374         146.713
0.566                   -1.24218        -159.876         -50.5834         76.4068         -50.5837         76.4076       -0.0135799         146.641
0.567                   -1.33019        -160.585         -50.2353         73.7627         -50.2374         73.7694       -0.0137263         146.569
0.568                   -1.42464        -161.265         -49.8898         71.0038         -49.8935         71.0177       -0.0138767         146.497
0.569                   -1.52553        -161.911         -49.5484         68.1273         -49.5536         68.1495       -0.0140313         146.425
0.57                    -1.63269        -162.513         -49.2128         65.1314         -49.2194          65.163       -0.0141901         146.352
0.571                   -1.74569        -163.062         -48.8851         62.0158         -48.8929         62.0576       -0.0143534          146.28
0.572                   -1.86383        -163.548         -48.5673         58.7816         -48.5759         58.8343       -0.0145213         146.207
0.573                   -1.98603        -163.962         -48.2614         55.4318         -48.2707         55.4959       -0.0146936         146.134
0.574                   -2.11081        -164.293         -47.9697         51.9718         -47.9793         52.0473       -0.0148705         146.061
0.575                   -2.23625        -164.535         -47.6943         48.4091          -47.704         48.4958       -0.0150519         145.988
0.576                      -2.36         -164.68         -47.4373         44.7535         -47.4467         44.8509       -0.0152376         145.915
0.577                   -2.47929        -164.724         -47.2005         41.0174         -47.2094         41.1247       -0.0154275         145.842
0.578                   -2.59109        -164.671         -46.9855         37.2154         -46.9936         37.3312       -0.0156212         145.768
0.579                   -2.69225        -164.524         -46.7936          33.364         -46.8007         33.4867       -0.0158185         145.695
0.58                    -2.77973        -164.295         -46.6256         29.4809         -46.6315         29.6088       -0.0160189         145.621
0.581                   -2.85087        -164.001          -46.482          25.585         -46.4867         25.7162        -0.016222         145.547
0.582                   -2.90362        -163.662         -46.3628         21.6952          -46.366         21.8275       -0.0164274         145.473
0.583                   -2.93676        -163.303         -46.2673           17.83         -46.2692         17.9614       -0.0166344         145.399
0.584                   -2.95001        -162.949         -46.1947         14.0067         -46.1952         14.1353       -0.0168427         145.325
0.585                   -2.94404        -162.624         -46.1435         10.2409         -46.1429         10.3649       -0.0170516          145.25
0.586                   -2.92035        -162.351         -46.1123         6.54641         -46.1105         6.66428       -0.0172608         145.176
0.587                   -2.88109        -162.147          -46.099         2.93446         -46.0963         3.04488       -0.0174697         145.101
0.588                   -2.82884        -162.026         -46.1017       -0.586014         -46.0982       -0.484055        -0.017678         145.026
0.589                   -2.76634        -161.997         -46.1183        -4.00849         -46.1143        -3.91572       -0.0178855         144.951
0.59                    -2.69631        -162.064         -46.1468        -7.32868         -46.1425        -7.24555       -0.0180918         144.876
0.591                   -2.62131        -162.227         -46.1852        -10.5443         -46.1807         -10.471       -0.0182968         144.801
0.592                   -2.54358        -162.485         -46.2315        -13.6549         -46.2271        -13.5915       -0.0185006         144.725
0.593                   -2.46506        -162.831          -46.284        -16.6615         -46.2798        -16.6077        -0.018703          144.65
0.594                   -2.38732        -163.261         -46.3412        -19.5661         -46.3372        -19.5216       -0.0189043         144.574
0.595                   -2.31161        -163.768         -46.4014         -22.372          -46.398        -22.3363       -0.0191044         144.498
0.596                   -2.23886        -164.344         -46.4635        -25.0828         -46.4607        -25.0555       -0.0193037         144.422
0.597                   -2.16979        -164.983         -46.5264         -27.703         -46.5242        -27.6833       -0.0195022         144.346
0.598                   -2.10486        -165.679          -46.589         -30.237         -46.5875        -30.2244       -0.0197004         144.269
0.599                   -2.04439        -166.425         -46.6504        -32.6897         -46.6498        -32.6834       -0.0198983         144.192
0.6                     -1.98855        -167.216           -46.71        -35.0659         -46.7102        -35.0653       -0.0200965         144.115
0.601                   -1.93743        -168.047         -46.7672        -37.3705         -46.7682        -37.3749        -0.020295         144.038
0.602                   -1.89102        -168.914         -46.8213        -39.6081         -46.8232        -39.6169       -0.0204941         143.961
0.603                   -1.84927        -169.814         -46.8721        -41.7833         -46.8748        -41.7959       -0.0206943         143.883
0.604                    -1.8121        -170.743         -46.9191        -43.9007         -46.9226        -43.9164       -0.0208957         143.806
0.605                    -1.7794          -171.7          -46.962        -45.9644         -46.9663        -45.9826       -0.0210985         143.728
0.606                   -1.75105        -172.681         -47.0006        -47.9784         -47.0057        -47.9987        -0.021303          143.65
0.607                   -1.72694        -173.685         -47.0347        -49.9468         -47.0406        -49.9686       -0.0215095         143.571
0.608                   -1.70694        -174.711         -47.0641         -51.873         -47.0707        -51.8959       -0.0217181         143.493
0.609                   -1.69094        -175.757         -47.0888        -53.7606         -47.0961        -53.7841       -0.0219291         143.414
0.61                    -1.67884        -176.822         -47.1086        -55.6128         -47.1165        -55.6365       -0.0221425         143.335
0.611                   -1.67055        -177.907         -47.1236        -57.4327          -47.132        -57.4563       -0.0223587         143.255
0.612                   -1.66599         -179.01         -47.1336        -59.2233         -47.1425        -59.2465       -0.0225777         143.176
0.613                   -1.66511          179.87         -47.1386        -60.9873          -47.148        -61.0097       -0.0227998         143.096
0.614                   -1.66786         178.731         -47.1387        -62.7273         -47.1485        -62.7488        -0.023025         143.016
0.615                   -1.67421         177.575         -47.1338        -64.4459         -47.1439        -64.4662       -0.0232534         142.936
0.616                   -1.68414         176.402          -47.124        -66.1454         -47.1343        -66.1643       -0.0234853         142.856
0.617                   -1.69768          175.21         -47.1092        -67.8281         -47.1198        -67.8454       -0.0237207         142.775
0.618                   -1.71483         174.001         -47.0896        -69.4961         -47.1003        -69.5118       -0.0239597         142.694
0.619                   -1.73563         172.773         -47.0651        -71.1515         -47.0759        -71.1654       -0.0242024         142.613
0.62                    -1.76015         171.527         -47.0358        -72.7963         -47.0466        -72.8083        -0.024449         142.531
0.621                   -1.78846         170.262         -47.0018        -74.4324         -47.0125        -74.4426       -0.0246996          142.45
0.622                   -1.82066         168.979         -46.9631        -76.0616         -46.9737        -76.0699       -0.0249542         142.368
0.623                   -1.85685         167.675         -46.9198        -77.6859         -46.9303        -77.6922       -0.0252129         142.286
0.624                   -1.89718         166.352         -46.8719        -79.3068         -46.8822        -79.3112       -0.0254758         142.203
0.625                   -1.94179         165.008         -46.8195         -80.926         -46.8296        -80.9287       -0.0257431         142.121
0.626                   -1.99086         163.643         -46.7628        -82.5454         -46.7726        -82.5463       -0.0260148         142.038
0.627                   -2.04458         162.257         -46.7018        -84.1664         -46.7112        -84.1657        -0.026291         141.954
0.628                   -2.10318          160.85         -46.6365        -85.7906         -46.6455        -85.7884       -0.0265717         141.871
0.629                    -2.1669          159.42         -46.5671        -87.4197         -46.5757        -87.4161       -0.0268572         141.787
