! TOUCHSTONE file generated by CST MICROWAVE STUDIO
! Date and time: Sat Oct 24 10:47:19 2020
! Project name: Scenario_1_Planar_Body_Tissue_Center.cst
! Parameters = {hfat=3; hmuscle=50; hskin=1.5; hgap=25; Wtissue=700; Ltissue=700; L_HA=400; MT=2.54; Rad_Dielectric=30; Rad_Lower=7.3; Rad_Upper=30; a_HA=580; a_WG=246; b_HA=500; b_WG=121; c_HA=0; c_WG=187; d_feed=85; dx1=727.24; h_feed=15; h_lower=18; h_upper=40}
! Header version: 2018
! Port assignment regex: !\s*Touchstone port\s*([0-9]+)\s*=\s*(CST MWS port|CST DS port)\s*([0-9]+|Zmin|Zmax)\s*\(\"(.*)\"\)(\s*mode\s*([0-9]+))?.*
! Touchstone port assignment:
! Touchstone port 1 = CST MWS port 1 ("")
! Touchstone port 2 = CST MWS port 2 ("")
# GHz S DB R 50
0.5                    -0.156287        -121.441         -62.3614          169.23          -62.361         169.233      -0.00768092         151.147
0.501                  -0.157058        -121.864         -62.3097         167.394         -62.3093         167.396      -0.00774248         151.082
0.502                  -0.157885        -122.291         -62.2569         165.575         -62.2565         165.578      -0.00780452         151.017
0.503                  -0.158771         -122.72         -62.2028         163.776         -62.2024         163.778      -0.00786704         150.951
0.504                  -0.159721        -123.153         -62.1473         161.997         -62.1469         161.999      -0.00793003         150.886
0.505                  -0.160739        -123.589         -62.0902         160.239         -62.0898         160.241      -0.00799352         150.821
0.506                   -0.16183        -124.028         -62.0313         158.502         -62.0309         158.504      -0.00805751         150.755
0.507                  -0.162998        -124.471         -61.9705         156.788           -61.97         156.789      -0.00812201         150.689
0.508                   -0.16425        -124.917         -61.9075         155.096         -61.9071         155.097      -0.00818702         150.624
0.509                  -0.165591        -125.367         -61.8423         153.427         -61.8418         153.428      -0.00825255         150.558
0.51                   -0.167028        -125.821         -61.7745         151.781          -61.774         151.782       -0.0083186         150.492
0.511                  -0.168566        -126.278         -61.7041         150.159         -61.7036         150.159       -0.0083852         150.426
0.512                  -0.170214         -126.74         -61.6309          148.56         -61.6303         148.561      -0.00845234          150.36
0.513                  -0.171978        -127.205         -61.5546         146.985          -61.554         146.986      -0.00852004         150.294
0.514                  -0.173869        -127.674          -61.475         145.434         -61.4744         145.435       -0.0085883         150.228
0.515                  -0.175893        -128.147         -61.3921         143.907         -61.3914         143.907      -0.00865714         150.161
0.516                  -0.178062        -128.625         -61.3055         142.403         -61.3047         142.403      -0.00872657         150.095
0.517                  -0.180386        -129.107          -61.215         140.922         -61.2143         140.922      -0.00879659         150.029
0.518                  -0.182876        -129.594         -61.1206         139.464         -61.1198         139.463      -0.00886722         149.962
0.519                  -0.185545        -130.085          -61.022         138.027         -61.0211         138.027      -0.00893847         149.896
0.52                   -0.188406        -130.581         -60.9189         136.613          -60.918         136.612      -0.00901035         149.829
0.521                  -0.191474        -131.081         -60.8113         135.219         -60.8104         135.218      -0.00908289         149.762
0.522                  -0.194765        -131.587         -60.6989         133.845         -60.6979         133.844      -0.00915608         149.695
0.523                  -0.198296        -132.098         -60.5815          132.49         -60.5805         132.489      -0.00922995         149.628
0.524                  -0.202085        -132.614          -60.459         131.154          -60.458         131.152      -0.00930451         149.561
0.525                  -0.206155        -133.135         -60.3311         129.834         -60.3301         129.832      -0.00937979         149.494
0.526                  -0.210526        -133.662         -60.1977          128.53         -60.1967         128.528      -0.00945579         149.427
0.527                  -0.215223        -134.195         -60.0586         127.241         -60.0575         127.239      -0.00953254         149.359
0.528                  -0.220273        -134.733         -59.9136         125.965         -59.9126         125.963      -0.00961007         149.292
0.529                  -0.225706        -135.278         -59.7626           124.7         -59.7615         124.698      -0.00968838         149.224
0.53                   -0.231553        -135.829         -59.6054         123.446         -59.6043         123.443      -0.00976751         149.157
0.531                   -0.23785        -136.386         -59.4418           122.2         -59.4407         122.197      -0.00984749         149.089
0.532                  -0.244636         -136.95         -59.2716         120.961         -59.2705         120.958      -0.00992834         149.021
0.533                  -0.251952        -137.521         -59.0948         119.726         -59.0937         119.723       -0.0100101         148.953
0.534                  -0.259847        -138.099         -58.9111         118.494           -58.91          118.49       -0.0100928         148.885
0.535                  -0.268372        -138.684         -58.7204         117.262         -58.7193         117.258       -0.0101764         148.817
0.536                  -0.277583        -139.277         -58.5226         116.028         -58.5215         116.024       -0.0102611         148.749
0.537                  -0.287543        -139.877         -58.3176          114.79         -58.3165         114.786       -0.0103468          148.68
0.538                  -0.298323        -140.485         -58.1051         113.546         -58.1041         113.542       -0.0104336         148.612
0.539                  -0.309999        -141.102         -57.8852         112.292         -57.8843         112.288       -0.0105216         148.543
0.54                   -0.322656        -141.726         -57.6578         111.026         -57.6568         111.022       -0.0106108         148.475
0.541                  -0.336388        -142.359         -57.4226         109.745         -57.4217         109.741       -0.0107012         148.406
0.542                    -0.3513        -143.001         -57.1797         108.446         -57.1788         108.442        -0.010793         148.337
0.543                  -0.367507        -143.652          -56.929         107.125         -56.9281         107.121       -0.0108862         148.268
0.544                  -0.385138        -144.312         -56.6704          105.78         -56.6696         105.775       -0.0109808         148.199
0.545                  -0.404335        -144.981         -56.4039         104.406         -56.4031         104.401        -0.011077          148.13
0.546                  -0.425255        -145.659         -56.1295             103         -56.1288         102.995       -0.0111749          148.06
0.547                  -0.448072        -146.346         -55.8471         101.557         -55.8465         101.552       -0.0112746         147.991
0.548                  -0.472978        -147.042          -55.557         100.074         -55.5564         100.069       -0.0113761         147.921
0.549                  -0.500187        -147.748          -55.259         98.5453         -55.2584         98.5408       -0.0114796         147.852
0.55                   -0.529932        -148.462         -54.9533         96.9669         -54.9528         96.9626       -0.0115852         147.782
0.551                  -0.562468        -149.184         -54.6402         95.3335         -54.6397         95.3294       -0.0116931         147.712
0.552                  -0.598077        -149.913         -54.3197         93.6399         -54.3193         93.6359       -0.0118034         147.642
0.553                  -0.637062         -150.65         -53.9922         91.8804         -53.9918         91.8766       -0.0119162         147.572
0.554                  -0.679749        -151.392         -53.6579         90.0491         -53.6576         90.0455       -0.0120318         147.501
0.555                  -0.726488        -152.137         -53.3174           88.14         -53.3172         88.1366       -0.0121503         147.431
0.556                  -0.777645        -152.885         -52.9712         86.1466          -52.971         86.1434        -0.012272          147.36
0.557                  -0.833599        -153.632         -52.6198         84.0622         -52.6197         84.0593       -0.0123969          147.29
0.558                   -0.89473        -154.376         -52.2642         81.8802          -52.264         81.8775       -0.0125254         147.219
0.559                  -0.961409        -155.112         -51.9051         79.5936         -51.9049         79.5913       -0.0126576         147.148
0.56                    -1.03397        -155.837         -51.5436         77.1956         -51.5435         77.1936       -0.0127937         147.077
0.561                   -1.11271        -156.543         -51.1812         74.6798         -51.1811          74.678       -0.0129339         147.006
0.562                   -1.19781        -157.226         -50.8192         72.0397         -50.8191         72.0383       -0.0130784         146.934
0.563                   -1.28932        -157.878         -50.4593         69.2699         -50.4593         69.2688       -0.0132273         146.863
0.564                   -1.38712        -158.489         -50.1036         66.3658         -50.1036          66.365       -0.0133807         146.791
0.565                   -1.49084        -159.052         -49.7541         63.3242         -49.7541         63.3237       -0.0135389          146.72
0.566                   -1.59979        -159.555         -49.4134         60.1435         -49.4134         60.1432       -0.0137017         146.648
0.567                   -1.71291        -159.989         -49.0838         56.8244         -49.0838         56.8244       -0.0138691         146.576
0.568                   -1.82872        -160.345         -48.7683         53.3702         -48.7683         53.3704       -0.0140412         146.504
0.569                   -1.94526        -160.614         -48.4694         49.7873         -48.4694         49.7876       -0.0142176         146.432
0.57                    -2.06016        -160.791         -48.1901         46.0851         -48.1901         46.0856       -0.0143982          146.36
0.571                   -2.17066        -160.872         -47.9328         42.2769         -47.9328         42.2775       -0.0145827         146.287
0.572                   -2.27375        -160.861            -47.7         38.3789            -47.7         38.3796       -0.0147706         146.215
0.573                   -2.36638        -160.762         -47.4935         34.4108         -47.4935         34.4115       -0.0149615         146.142
0.574                   -2.44569         -160.59         -47.3148         30.3944         -47.3148         30.3951       -0.0151549         146.069
0.575                    -2.5093        -160.361         -47.1647         26.3534         -47.1646         26.3541       -0.0153501         145.996
0.576                   -2.55552        -160.096         -47.0433         22.3122         -47.0432         22.3128       -0.0155467         145.923
0.577                   -2.58352        -159.819         -46.9502         18.2947         -46.9501         18.2952       -0.0157439          145.85
0.578                    -2.5934        -159.554         -46.8841         14.3235          -46.884         14.3239       -0.0159412         145.777
0.579                   -2.58613        -159.322         -46.8434         10.4192         -46.8433         10.4195       -0.0161381         145.704
0.58                    -2.56341        -159.142         -46.8259         6.59922         -46.8259         6.59941       -0.0163341          145.63
0.581                   -2.52742         -159.03         -46.8293         2.87786         -46.8293         2.87796       -0.0165287         145.557
0.582                   -2.48064        -158.996         -46.8509       -0.734003         -46.8509       -0.733985       -0.0167217         145.483
0.583                   -2.42559        -159.046          -46.888        -4.22886         -46.8881        -4.22891       -0.0169128         145.409
0.584                   -2.36469        -159.182          -46.938        -7.60227         -46.9381        -7.60236       -0.0171019         145.335
0.585                   -2.30012        -159.403         -46.9983        -10.8525         -46.9984        -10.8526       -0.0172889         145.261
0.586                   -2.23378        -159.706         -47.0666        -13.9801         -47.0668        -13.9802        -0.017474         145.187
0.587                   -2.16723        -160.085         -47.1407        -16.9876         -47.1409        -16.9877       -0.0176571         145.112
0.588                   -2.10174        -160.536         -47.2187        -19.8786         -47.2189        -19.8787       -0.0178385         145.038
0.589                   -2.03826        -161.051         -47.2989        -22.6582         -47.2992        -22.6582       -0.0180184         144.963
0.59                    -1.97753        -161.626         -47.3798        -25.3319         -47.3801        -25.3318        -0.018197         144.888
0.591                   -1.92006        -162.253         -47.4602        -27.9057         -47.4605        -27.9056       -0.0183748         144.813
0.592                    -1.8662        -162.928          -47.539         -30.386         -47.5393        -30.3858       -0.0185518         144.737
0.593                   -1.81616        -163.646         -47.6152         -32.779         -47.6155        -32.7788       -0.0187285         144.662
0.594                   -1.77004        -164.402         -47.6882        -35.0911         -47.6885        -35.0907       -0.0189052         144.586
0.595                    -1.7279        -165.193         -47.7573        -37.3282         -47.7577        -37.3277       -0.0190822          144.51
0.596                   -1.68972        -166.014          -47.822        -39.4962         -47.8224        -39.4956       -0.0192597         144.434
0.597                   -1.65544        -166.864          -47.882        -41.6008         -47.8824        -41.6001       -0.0194381         144.358
0.598                   -1.62499         -167.74          -47.937        -43.6473         -47.9374        -43.6465       -0.0196176         144.281
0.599                   -1.59828         -168.64         -47.9866        -45.6406          -47.987        -45.6397       -0.0197985         144.205
0.6                     -1.57522        -169.562         -48.0308        -47.5855         -48.0312        -47.5844        -0.019981         144.128
0.601                   -1.55571        -170.505         -48.0694        -49.4863         -48.0698        -49.4852       -0.0201653         144.051
0.602                   -1.53967        -171.468         -48.1023        -51.3472         -48.1027         -51.346       -0.0203517         143.973
0.603                   -1.52702         -172.45         -48.1294        -53.1721         -48.1298        -53.1708       -0.0205402         143.896
0.604                   -1.51768         -173.45         -48.1508        -54.9646         -48.1512        -54.9632       -0.0207312         143.818
0.605                   -1.51159        -174.468         -48.1665         -56.728         -48.1669        -56.7265       -0.0209247          143.74
0.606                   -1.50872        -175.504         -48.1764        -58.4654         -48.1768        -58.4639       -0.0211209         143.662
0.607                   -1.50902        -176.556         -48.1806        -60.1799         -48.1811        -60.1783       -0.0213199         143.584
0.608                   -1.51248        -177.626         -48.1793        -61.8742         -48.1797        -61.8725       -0.0215218         143.505
0.609                    -1.5191        -178.713         -48.1723        -63.5508         -48.1727        -63.5491       -0.0217269         143.426
0.61                    -1.52888        -179.817         -48.1599        -65.2123         -48.1602        -65.2105       -0.0219351         143.347
0.611                   -1.54185         179.062          -48.142        -66.8609         -48.1424         -66.859       -0.0221467         143.268
0.612                   -1.55806         177.923         -48.1188        -68.4987         -48.1192        -68.4969       -0.0223617         143.188
0.613                   -1.57757         176.767         -48.0904        -70.1279         -48.0907        -70.1261       -0.0225801         143.109
0.614                   -1.60044         175.593         -48.0568        -71.7505         -48.0571        -71.7486       -0.0228021         143.029
0.615                   -1.62676           174.4         -48.0181        -73.3681         -48.0185        -73.3662       -0.0230279         142.949
0.616                   -1.65665         173.189         -47.9746        -74.9828         -47.9749        -74.9808       -0.0232574         142.868
0.617                   -1.69023         171.959         -47.9262         -76.596         -47.9265        -76.5941       -0.0234907         142.788
0.618                   -1.72764          170.71          -47.873        -78.2096         -47.8733        -78.2076        -0.023728         142.707
0.619                   -1.76905         169.442         -47.8153        -79.8249         -47.8156         -79.823       -0.0239693         142.626
0.62                    -1.81463         168.153         -47.7531        -81.4436         -47.7533        -81.4418       -0.0242147         142.544
0.621                   -1.86458         166.845         -47.6864        -83.0672         -47.6867        -83.0653       -0.0244642         142.463
0.622                   -1.91913         165.515         -47.6156        -84.6969         -47.6158        -84.6951        -0.024718         142.381
0.623                   -1.97853         164.165         -47.5406        -86.3343         -47.5408        -86.3325       -0.0249762         142.299
0.624                   -2.04304         162.795         -47.4616        -87.9806         -47.4618        -87.9789       -0.0252387         142.216
0.625                   -2.11295         161.403         -47.3788        -89.6371          -47.379        -89.6355       -0.0255058         142.134
0.626                   -2.18859         159.989         -47.2923        -91.3052         -47.2925        -91.3036       -0.0257774         142.051
0.627                   -2.27029         158.555         -47.2023        -92.9859         -47.2024        -92.9844       -0.0260536         141.968
0.628                   -2.35845           157.1         -47.1089        -94.6806          -47.109        -94.6791       -0.0263346         141.884
0.629                   -2.45345         155.623         -47.0122        -96.3903         -47.0123        -96.3889       -0.0266204         141.801
