! TOUCHSTONE file generated by CST MICROWAVE STUDIO
! Date and time: Sat Oct 24 10:47:26 2020
! Project name: Scenario_1_Planar_Body_Tissue_Center.cst
! Parameters = {hfat=3; hmuscle=50; hskin=1.5; hgap=25; Wtissue=700; Ltissue=700; L_HA=400; MT=2.54; Rad_Dielectric=30; Rad_Lower=7.3; Rad_Upper=30; a_HA=580; a_WG=246; b_HA=500; b_WG=121; c_HA=0; c_WG=187; d_feed=85; dx1=744.56; h_feed=15; h_lower=18; h_upper=40}
! Header version: 2018
! Port assignment regex: !\s*Touchstone port\s*([0-9]+)\s*=\s*(CST MWS port|CST DS port)\s*([0-9]+|Zmin|Zmax)\s*\(\"(.*)\"\)(\s*mode\s*([0-9]+))?.*
! Touchstone port assignment:
! Touchstone port 1 = CST MWS port 1 ("")
! Touchstone port 2 = CST MWS port 2 ("")
# GHz S DB R 50
0.5                    -0.134929         -121.48         -63.0134         160.587         -63.0137          160.59      -0.00762922         151.151
0.501                  -0.135915        -121.913         -62.9025         159.139         -62.9026         159.149      -0.00768971         151.086
0.502                   -0.13698         -122.35         -62.7923         157.671          -62.792         157.688      -0.00775083          151.02
0.503                  -0.138131        -122.789         -62.6831         156.185         -62.6824         156.208      -0.00781258         150.955
0.504                  -0.139371        -123.232         -62.5753         154.683          -62.574          154.71      -0.00787497          150.89
0.505                  -0.140709        -123.679         -62.4692         153.167         -62.4673         153.198      -0.00793801         150.824
0.506                  -0.142149        -124.128         -62.3652          151.64         -62.3626         151.673       -0.0080017         150.758
0.507                  -0.143698        -124.582         -62.2636         150.105         -62.2603         150.141      -0.00806604         150.693
0.508                  -0.145364        -125.039         -62.1646         148.568         -62.1607         148.604      -0.00813105         150.627
0.509                  -0.147155          -125.5         -62.0684         147.034         -62.0639         147.068      -0.00819672         150.561
0.51                   -0.149078        -125.964         -61.9749         145.507           -61.97         145.539      -0.00826306         150.495
0.511                  -0.151144        -126.433         -61.8842         143.994         -61.8789         144.023      -0.00833008         150.429
0.512                  -0.153361        -126.905         -61.7958         142.502         -61.7903         142.527      -0.00839779         150.363
0.513                  -0.155741        -127.382         -61.7093         141.037         -61.7039         141.057      -0.00846618         150.297
0.514                  -0.158294        -127.863         -61.6239         139.605         -61.6188          139.62      -0.00853528         150.231
0.515                  -0.161033        -128.348         -61.5386         138.212         -61.5341         138.222      -0.00860507         150.165
0.516                  -0.163972        -128.838         -61.4524         136.861         -61.4487         136.867      -0.00867559         150.098
0.517                  -0.167124        -129.332          -61.364         135.556         -61.3613         135.559      -0.00874682         150.032
0.518                  -0.170506        -129.831         -61.2719         134.298         -61.2704         134.299      -0.00881878         149.965
0.519                  -0.174135        -130.335         -61.1748         133.086         -61.1746         133.087      -0.00889148         149.899
0.52                   -0.178029        -130.843         -61.0712         131.919         -61.0722         131.922      -0.00896493         149.832
0.521                  -0.182208        -131.357         -60.9598         130.791         -60.9621         130.798      -0.00903914         149.765
0.522                  -0.186695        -131.876         -60.8394         129.698         -60.8428          129.71      -0.00911411         149.698
0.523                  -0.191514          -132.4         -60.7092         128.633         -60.7135          128.65      -0.00918987         149.631
0.524                  -0.196691        -132.929         -60.5682         127.587         -60.5733         127.612      -0.00926643         149.564
0.525                  -0.202255        -133.465         -60.4161         126.553         -60.4217         126.586      -0.00934379         149.497
0.526                  -0.208238        -134.006         -60.2526         125.523         -60.2583         125.564      -0.00942197          149.43
0.527                  -0.214674        -134.553         -60.0774         124.488         -60.0832         124.538        -0.009501         149.362
0.528                  -0.221603        -135.106         -59.8909         123.442         -59.8964         123.499      -0.00958088         149.295
0.529                  -0.229066        -135.666         -59.6932         122.378         -59.6983         122.441      -0.00966165         149.227
0.53                    -0.23711        -136.232         -59.4846         121.289         -59.4891         121.358      -0.00974332          149.16
0.531                  -0.245785        -136.805         -59.2656          120.17         -59.2694         120.244      -0.00982592         149.092
0.532                  -0.255149        -137.385         -59.0366         119.017         -59.0397         119.094      -0.00990947         149.024
0.533                  -0.265265        -137.972         -58.7981         117.826         -58.8003         117.906      -0.00999401         148.956
0.534                    -0.2762        -138.566         -58.5505         116.594          -58.552         116.674       -0.0100796         148.888
0.535                  -0.288033        -139.167         -58.2944         115.317          -58.295         115.398       -0.0101662          148.82
0.536                  -0.300847        -139.776         -58.0301         113.993         -58.0299         114.074       -0.0102539         148.752
0.537                  -0.314738        -140.393         -57.7581         112.621         -57.7571           112.7       -0.0103428         148.683
0.538                  -0.329809        -141.018         -57.4787         111.197          -57.477         111.274       -0.0104329         148.615
0.539                  -0.346177        -141.651         -57.1922         109.721         -57.1899         109.794       -0.0105243         148.546
0.54                   -0.363969        -142.292         -56.8989         108.189         -56.8961         108.259        -0.010617         148.478
0.541                   -0.38333        -142.941         -56.5992           106.6         -56.5959         106.667       -0.0107112         148.409
0.542                  -0.404416        -143.599         -56.2933         104.952         -56.2896         105.015       -0.0108069          148.34
0.543                  -0.427403        -144.264         -55.9815         103.242         -55.9775         103.301       -0.0109042         148.271
0.544                  -0.452485        -144.938          -55.664         101.468         -55.6598         101.523       -0.0110032         148.202
0.545                  -0.479874        -145.618         -55.3411         99.6269         -55.3367         99.6771       -0.0111041         148.132
0.546                  -0.509804        -146.307         -55.0132         97.7156         -55.0086         97.7614        -0.011207         148.063
0.547                  -0.542532        -147.001         -54.6804         95.7307         -54.6758         95.7722       -0.0113121         147.994
0.548                  -0.578335        -147.701         -54.3433         93.6687         -54.3387         93.7058       -0.0114195         147.924
0.549                  -0.617512        -148.406         -54.0022         91.5254         -53.9977         91.5583       -0.0115295         147.854
0.55                   -0.660382        -149.114         -53.6576         89.2967         -53.6533         89.3256       -0.0116422         147.784
0.551                  -0.707281        -149.823         -53.3102         86.9781          -53.306         87.0031       -0.0117579         147.714
0.552                  -0.758553        -150.531         -52.9605         84.5649         -52.9565         84.5862       -0.0118769         147.644
0.553                  -0.814542        -151.234         -52.6094         82.0523         -52.6057         82.0702       -0.0119993         147.574
0.554                   -0.87558         -151.93         -52.2579         79.4355         -52.2544         79.4502       -0.0121255         147.504
0.555                  -0.941962        -152.613          -51.907         76.7098         -51.9038         76.7216       -0.0122557         147.433
0.556                   -1.01392        -153.279         -51.5579         73.8708         -51.5551         73.8799       -0.0123903         147.363
0.557                    -1.0916         -153.92         -51.2122         70.9143         -51.2097         70.9212       -0.0125293         147.292
0.558                     -1.175        -154.531         -50.8714         67.8373         -50.8693         67.8422       -0.0126731         147.221
0.559                   -1.26391        -155.102         -50.5374         64.6375         -50.5357         64.6407       -0.0128217          147.15
0.56                     -1.3579        -155.626         -50.2122          61.314         -50.2108         61.3159       -0.0129753         147.079
0.561                   -1.45617        -156.092         -49.8979         57.8676         -49.8968         57.8686       -0.0131339         147.008
0.562                   -1.55759        -156.492         -49.5968         54.3013         -49.5961         54.3016       -0.0132973         146.937
0.563                   -1.66058        -156.817         -49.3112         50.6203         -49.3109         50.6202       -0.0134654         146.865
0.564                   -1.76313         -157.06         -49.0436         46.8325         -49.0435         46.8323       -0.0136376         146.794
0.565                   -1.86282        -157.218         -48.7962         42.9487         -48.7964         42.9487       -0.0138137         146.722
0.566                   -1.95693         -157.29         -48.5711         38.9825         -48.5715         38.9828       -0.0139928         146.651
0.567                   -2.04259        -157.281         -48.3701         34.9501         -48.3707         34.9509       -0.0141744         146.579
0.568                   -2.11701        -157.199         -48.1946         30.8701         -48.1953         30.8714       -0.0143577         146.507
0.569                   -2.17776         -157.06         -48.0456         26.7628         -48.0463         26.7647       -0.0145419         146.435
0.57                    -2.22297        -156.882         -47.9235         22.6495         -47.9242          22.652       -0.0147261         146.363
0.571                   -2.25157        -156.687          -47.828         18.5519         -47.8288         18.5549       -0.0149096         146.291
0.572                   -2.26341        -156.497         -47.7587          14.491         -47.7594         14.4943       -0.0150919         146.219
0.573                   -2.25918        -156.334         -47.7141         10.4862         -47.7148         10.4897       -0.0152723         146.146
0.574                   -2.24033        -156.217         -47.6928         6.55514         -47.6934         6.55873       -0.0154506         146.074
0.575                   -2.20888        -156.161         -47.6927         2.71285         -47.6932         2.71633       -0.0156264         146.001
0.576                   -2.16715        -156.177         -47.7116        -1.02848         -47.7119        -1.02527       -0.0157997         145.928
0.577                   -2.11759         -156.27         -47.7471        -4.65953         -47.7473        -4.65674       -0.0159704         145.855
0.578                   -2.06252        -156.444         -47.7967        -8.17382         -47.7969        -8.17158       -0.0161388         145.782
0.579                   -2.00409        -156.698         -47.8582        -11.5674         -47.8583        -11.5659        -0.016305         145.709
0.58                    -1.94412        -157.027         -47.9293        -14.8388         -47.9292         -14.838       -0.0164694         145.635
0.581                   -1.88413        -157.429         -48.0077        -17.9883         -48.0076        -17.9882       -0.0166322         145.562
0.582                   -1.82534        -157.896         -48.0915        -21.0178         -48.0914        -21.0186       -0.0167938         145.488
0.583                   -1.76866        -158.424          -48.179        -23.9307         -48.1788        -23.9323       -0.0169545         145.414
0.584                   -1.71476        -159.005         -48.2685        -26.7311         -48.2683        -26.7336       -0.0171148          145.34
0.585                   -1.66411        -159.634         -48.3587        -29.4239         -48.3585        -29.4272       -0.0172749         145.266
0.586                   -1.61701        -160.307         -48.4483        -32.0143         -48.4481        -32.0185       -0.0174351         145.192
0.587                   -1.57363        -161.018         -48.5363        -34.5081         -48.5361         -34.513       -0.0175958         145.117
0.588                   -1.53405        -161.762         -48.6218        -36.9109         -48.6217        -36.9164       -0.0177572         145.042
0.589                   -1.49829        -162.538         -48.7041        -39.2283          -48.704        -39.2345       -0.0179195         144.967
0.59                    -1.46629         -163.34         -48.7825         -41.466         -48.7824        -41.4727       -0.0180831         144.892
0.591                   -1.43798        -164.167         -48.8565        -43.6294         -48.8564        -43.6366       -0.0182481         144.817
0.592                   -1.41328        -165.017         -48.9256        -45.7238         -48.9256        -45.7314       -0.0184147         144.741
0.593                   -1.39208        -165.887         -48.9895        -47.7542         -48.9895        -47.7622        -0.018583         144.666
0.594                   -1.37428        -166.776         -49.0479        -49.7254          -49.048        -49.7337       -0.0187532          144.59
0.595                   -1.35977        -167.683         -49.1005        -51.6421         -49.1007        -51.6506       -0.0189254         144.514
0.596                   -1.34845        -168.607         -49.1473        -53.5085         -49.1475        -53.5171       -0.0190998         144.438
0.597                   -1.34026        -169.547          -49.188        -55.3288         -49.1882        -55.3375       -0.0192764         144.361
0.598                   -1.33509        -170.503         -49.2225        -57.1069         -49.2228        -57.1156       -0.0194554         144.285
0.599                   -1.33291        -171.473         -49.2508        -58.8464         -49.2511        -58.8551       -0.0196368         144.208
0.6                     -1.33364        -172.459         -49.2728        -60.5509         -49.2731        -60.5595       -0.0198208         144.131
0.601                   -1.33727        -173.459         -49.2884        -62.2236         -49.2888        -62.2321       -0.0200073         144.054
0.602                   -1.34376        -174.474         -49.2978        -63.8679         -49.2982        -63.8761       -0.0201966         143.976
0.603                   -1.35311        -175.504         -49.3008        -65.4865         -49.3012        -65.4946       -0.0203886         143.899
0.604                   -1.36532        -176.548         -49.2975        -67.0825          -49.298        -67.0903       -0.0205834         143.821
0.605                   -1.38042        -177.607         -49.2879        -68.6584         -49.2884         -68.666       -0.0207811         143.743
0.606                   -1.39843         -178.68         -49.2721        -70.2171         -49.2726        -70.2243       -0.0209817         143.664
0.607                   -1.41942        -179.769         -49.2501         -71.761         -49.2506        -71.7679       -0.0211854         143.586
0.608                   -1.44343         179.126          -49.222        -73.2924         -49.2225         -73.299       -0.0213921         143.507
0.609                   -1.47056         178.006         -49.1878        -74.8139         -49.1883        -74.8201        -0.021602         143.429
0.61                     -1.5009          176.87         -49.1476        -76.3275         -49.1481        -76.3334       -0.0218151         143.349
0.611                   -1.53455         175.718         -49.1016        -77.8357         -49.1021        -77.8412       -0.0220314          143.27
0.612                   -1.57165         174.549         -49.0497        -79.3404         -49.0501        -79.3455        -0.022251         143.191
0.613                   -1.61235         173.363          -48.992        -80.8438         -48.9925        -80.8486        -0.022474         143.111
0.614                   -1.65679          172.16         -48.9288        -82.3479         -48.9292        -82.3524       -0.0227005         143.031
0.615                   -1.70517          170.94           -48.86        -83.8548         -48.8605        -83.8589       -0.0229305         142.951
0.616                   -1.75768         169.702         -48.7859        -85.3664         -48.7863        -85.3702       -0.0231641          142.87
0.617                   -1.81454         168.447         -48.7065        -86.8846         -48.7069        -86.8881       -0.0234014          142.79
0.618                     -1.876         167.173          -48.622        -88.4114         -48.6223        -88.4145       -0.0236424         142.709
0.619                   -1.94232         165.882         -48.5325        -89.9484         -48.5328        -89.9513       -0.0238871         142.627
0.62                    -2.01378         164.572         -48.4382        -91.4977         -48.4385        -91.5004       -0.0241358         142.546
0.621                   -2.09069         163.244         -48.3393         -93.061         -48.3395        -93.0634       -0.0243884         142.464
0.622                    -2.1734         161.899         -48.2359        -94.6399         -48.2361        -94.6421       -0.0246451         142.383
0.623                   -2.26227         160.536         -48.1282        -96.2362         -48.1284        -96.2382       -0.0249059           142.3
0.624                   -2.35768         159.156         -48.0166        -97.8516         -48.0166        -97.8534       -0.0251709         142.218
0.625                   -2.46006         157.759          -47.901        -99.4876         -47.9011        -99.4893       -0.0254402         142.135
0.626                   -2.56987         156.347         -47.7819        -101.146          -47.782        -101.147       -0.0257139         142.052
0.627                   -2.68758          154.92         -47.6595        -102.827         -47.6595        -102.829       -0.0259921         141.969
0.628                    -2.8137         153.479         -47.5341        -104.534          -47.534        -104.536       -0.0262749         141.886
0.629                    -2.9488         152.027         -47.4058        -106.267         -47.4058        -106.269       -0.0265623         141.802
