! TOUCHSTONE file generated by CST MICROWAVE STUDIO
! Date and time: Sat Oct 24 10:47:33 2020
! Project name: Scenario_1_Planar_Body_Tissue_Center.cst
! Parameters = {hfat=3; hmuscle=50; hskin=1.5; hgap=25; Wtissue=700; Ltissue=700; L_HA=400; MT=2.54; Rad_Dielectric=30; Rad_Lower=7.3; Rad_Upper=30; a_HA=580; a_WG=246; b_HA=500; b_WG=121; c_HA=0; c_WG=187; d_feed=85; dx1=761.88; h_feed=15; h_lower=18; h_upper=40}
! Header version: 2018
! Port assignment regex: !\s*Touchstone port\s*([0-9]+)\s*=\s*(CST MWS port|CST DS port)\s*([0-9]+|Zmin|Zmax)\s*\(\"(.*)\"\)(\s*mode\s*([0-9]+))?.*
! Touchstone port assignment:
! Touchstone port 1 = CST MWS port 1 ("")
! Touchstone port 2 = CST MWS port 2 ("")
# GHz S DB R 50
0.5                     -0.11841        -121.539         -63.5274         152.738         -63.5265          152.74      -0.00758845         151.133
0.501                  -0.119761         -121.98         -63.4208         151.664           -63.42         151.666      -0.00765332         151.067
0.502                  -0.121217        -122.424         -63.3109          150.58         -63.3101         150.582      -0.00771874         151.002
0.503                  -0.122784        -122.871         -63.1977         149.485         -63.1969         149.488      -0.00778471         150.937
0.504                  -0.124468        -123.322         -63.0811          148.38         -63.0803         148.382      -0.00785124         150.871
0.505                  -0.126277        -123.776         -62.9609         147.263         -62.9602         147.266      -0.00791833         150.806
0.506                  -0.128218        -124.233         -62.8372         146.136         -62.8365         146.138      -0.00798597          150.74
0.507                  -0.130299        -124.695         -62.7098         144.997         -62.7092         144.999      -0.00805418         150.674
0.508                  -0.132529         -125.16         -62.5787         143.847         -62.5781         143.849      -0.00812295         150.609
0.509                  -0.134918        -125.628         -62.4437         142.685         -62.4432         142.687      -0.00819228         150.543
0.51                   -0.137476        -126.101         -62.3049         141.511         -62.3043         141.514      -0.00826218         150.477
0.511                  -0.140216        -126.578          -62.162         140.325         -62.1615         140.328      -0.00833264         150.411
0.512                  -0.143148        -127.058          -62.015         139.127         -62.0146         139.129      -0.00840369         150.345
0.513                  -0.146288        -127.543         -61.8639         137.916         -61.8635         137.918       -0.0084753         150.279
0.514                  -0.149649        -128.033         -61.7085         136.691         -61.7081         136.693       -0.0085475         150.212
0.515                  -0.153248        -128.526         -61.5488         135.453         -61.5484         135.455      -0.00862027         150.146
0.516                  -0.157102        -129.025         -61.3846         134.201         -61.3842         134.203      -0.00869364          150.08
0.517                   -0.16123        -129.528         -61.2158         132.935         -61.2155         132.937       -0.0087676         150.013
0.518                  -0.165655        -130.036         -61.0424         131.653         -61.0421         131.655      -0.00884215         149.947
0.519                  -0.170398        -130.548         -60.8643         130.356          -60.864         130.358      -0.00891731          149.88
0.52                   -0.175485        -131.066         -60.6813         129.043          -60.681         129.045      -0.00899308         149.813
0.521                  -0.180944         -131.59         -60.4934         127.713         -60.4932         127.715      -0.00906948         149.746
0.522                  -0.186807        -132.118         -60.3004         126.365         -60.3002         126.367       -0.0091465         149.679
0.523                  -0.193106        -132.653         -60.1024         124.998         -60.1022             125      -0.00922416         149.612
0.524                  -0.199879        -133.193         -59.8991         123.613         -59.8989         123.615      -0.00930247         149.545
0.525                  -0.207168        -133.739         -59.6904         122.207         -59.6903         122.208      -0.00938146         149.478
0.526                  -0.215019        -134.291         -59.4764         120.779         -59.4762         120.781      -0.00946113         149.411
0.527                  -0.223481        -134.849         -59.2568         119.329         -59.2567          119.33       -0.0095415         149.343
0.528                  -0.232611        -135.414         -59.0316         117.854         -59.0315         117.856      -0.00962261         149.276
0.529                  -0.242472        -135.985         -58.8007         116.354         -58.8006         116.356      -0.00970447         149.208
0.53                   -0.253133        -136.563         -58.5639         114.827         -58.5638         114.829      -0.00978712         149.141
0.531                  -0.264669        -137.149         -58.3213         113.271         -58.3212         113.273       -0.0098706         149.073
0.532                  -0.277168        -137.741         -58.0727         111.685         -58.0727         111.686      -0.00995495         149.005
0.533                  -0.290723        -138.341         -57.8181         110.065          -57.818         110.067       -0.0100402         148.937
0.534                  -0.305441        -138.947         -57.5574         108.411         -57.5573         108.412       -0.0101265         148.869
0.535                   -0.32144        -139.562         -57.2905         106.719         -57.2905          106.72       -0.0102138         148.801
0.536                  -0.338849        -140.184         -57.0175         104.986         -57.0174         104.988       -0.0103022         148.733
0.537                  -0.357815        -140.813         -56.7382         103.211         -56.7382         103.212       -0.0103919         148.664
0.538                  -0.378499         -141.45         -56.4528         101.388         -56.4528          101.39        -0.010483         148.596
0.539                  -0.401079        -142.094         -56.1613         99.5164         -56.1612         99.5177       -0.0105755         148.527
0.54                   -0.425753        -142.745         -55.8636         97.5906         -55.8636         97.5918       -0.0106696         148.458
0.541                  -0.452738        -143.402         -55.5601          95.607           -55.56         95.6082       -0.0107655          148.39
0.542                  -0.482271        -144.066         -55.2507         93.5612         -55.2507         93.5623       -0.0108634         148.321
0.543                  -0.514611        -144.734         -54.9358         91.4484         -54.9358         91.4494       -0.0109635         148.252
0.544                  -0.550036        -145.407         -54.6157         89.2635         -54.6157         89.2644       -0.0110661         148.182
0.545                  -0.588842        -146.082         -54.2907         87.0011         -54.2907         87.0021       -0.0111713         148.113
0.546                  -0.631338        -146.758         -53.9614         84.6557         -53.9614         84.6566       -0.0112797         148.044
0.547                  -0.677841        -147.432         -53.6283         82.2212         -53.6283          82.222       -0.0113914         147.974
0.548                  -0.728664        -148.102         -53.2922         79.6915         -53.2922         79.6923       -0.0115068         147.905
0.549                  -0.784103        -148.764          -52.954         77.0605          -52.954         77.0611       -0.0116262         147.835
0.55                   -0.844411        -149.414         -52.6148         74.3218         -52.6148         74.3224       -0.0117501         147.765
0.551                  -0.909776        -150.046         -52.2759         71.4696         -52.2758         71.4702       -0.0118786         147.695
0.552                  -0.980279        -150.654         -51.9387         68.4983         -51.9386         68.4988       -0.0120122         147.625
0.553                   -1.05585        -151.233         -51.6049         65.4031         -51.6049         65.4034       -0.0121509         147.555
0.554                   -1.13622        -151.773         -51.2766           62.18         -51.2766         62.1803       -0.0122949         147.484
0.555                   -1.22085        -152.267          -50.956         58.8268          -50.956          58.827       -0.0124442         147.414
0.556                   -1.30888        -152.706         -50.6454         55.3428         -50.6453          55.343       -0.0125985         147.343
0.557                   -1.39907        -153.082         -50.3474           51.73         -50.3473           51.73       -0.0127575         147.273
0.558                   -1.48978        -153.389         -50.0647         47.9928         -50.0647         47.9928       -0.0129206         147.202
0.559                   -1.57901        -153.621         -49.8001         44.1389         -49.8001         44.1388       -0.0130872         147.131
0.56                    -1.66438        -153.777         -49.5563         40.1794         -49.5563         40.1793       -0.0132564          147.06
0.561                   -1.74336        -153.859         -49.3358         36.1289         -49.3358         36.1288       -0.0134272         146.989
0.562                   -1.81337        -153.873         -49.1407         32.0053         -49.1407         32.0052       -0.0135989         146.918
0.563                   -1.87207        -153.831         -48.9728         27.8295         -48.9729         27.8294       -0.0137704         146.847
0.564                   -1.91758        -153.748         -48.8333         23.6245         -48.8334         23.6245       -0.0139409         146.776
0.565                   -1.94869        -153.643         -48.7227         19.4149         -48.7228         19.4149       -0.0141097         146.705
0.566                   -1.96495        -153.536         -48.6409         15.2255          -48.641         15.2255       -0.0142764         146.633
0.567                   -1.96677        -153.448         -48.5871         11.0803         -48.5872         11.0804       -0.0144405         146.562
0.568                   -1.95525        -153.395         -48.5598         7.00177         -48.5599         7.00198       -0.0146019          146.49
0.569                   -1.93206        -153.392         -48.5572         3.00962         -48.5573         3.00993       -0.0147605         146.418
0.57                    -1.89922         -153.45         -48.5767        -0.87946         -48.5768       -0.879056       -0.0149164         146.346
0.571                    -1.8589        -153.577         -48.6159        -4.65227          -48.616        -4.65177       -0.0150699         146.274
0.572                   -1.81322        -153.773          -48.672        -8.29913         -48.6721        -8.29852       -0.0152213         146.202
0.573                   -1.76413        -154.041         -48.7421        -11.8137         -48.7422         -11.813       -0.0153708          146.13
0.574                   -1.71334        -154.377         -48.8236        -15.1927         -48.8237        -15.1919       -0.0155188         146.057
0.575                   -1.66227        -154.777          -48.914        -18.4354          -48.914        -18.4345       -0.0156657         145.984
0.576                   -1.61203        -155.236         -49.0107        -21.5434         -49.0108        -21.5425       -0.0158118         145.912
0.577                   -1.56352         -155.75         -49.1118        -24.5201         -49.1118         -24.519       -0.0159575         145.839
0.578                   -1.51735        -156.312         -49.2152        -27.3699         -49.2152        -27.3688        -0.016103         145.765
0.579                   -1.47398        -156.917         -49.3193        -30.0984         -49.3193        -30.0972       -0.0162488         145.692
0.58                    -1.43369        -157.562         -49.4226        -32.7117         -49.4226        -32.7105       -0.0163949         145.619
0.581                   -1.39665        -158.241         -49.5239        -35.2165         -49.5239        -35.2153       -0.0165417         145.545
0.582                   -1.36295        -158.951         -49.6222        -37.6194         -49.6222        -37.6181       -0.0166894         145.471
0.583                    -1.3326        -159.688         -49.7166        -39.9272         -49.7166        -39.9259       -0.0168382         145.397
0.584                   -1.30556         -160.45         -49.8063        -42.1464         -49.8062         -42.145       -0.0169882         145.323
0.585                   -1.28178        -161.234         -49.8907        -44.2834         -49.8907        -44.2821       -0.0171397         145.249
0.586                   -1.26118        -162.039         -49.9694        -46.3446         -49.9694        -46.3433       -0.0172926         145.174
0.587                   -1.24366        -162.862          -50.042        -48.3357         -50.0419        -48.3344       -0.0174472           145.1
0.588                   -1.22914        -163.702         -50.1081        -50.2625         -50.1081        -50.2612       -0.0176036         145.025
0.589                   -1.21753        -164.559         -50.1676        -52.1302         -50.1675         -52.129       -0.0177618          144.95
0.59                    -1.20874        -165.431         -50.2202        -53.9439         -50.2201        -53.9427        -0.017922         144.875
0.591                   -1.20269        -166.317         -50.2659        -55.7084         -50.2658        -55.7072       -0.0180842           144.8
0.592                   -1.19933        -167.218         -50.3045        -57.4281         -50.3044        -57.4269       -0.0182485         144.724
0.593                    -1.1986        -168.133          -50.336        -59.1072         -50.3359        -59.1061        -0.018415         144.648
0.594                   -1.20045        -169.061         -50.3604        -60.7497         -50.3602        -60.7486       -0.0185837         144.572
0.595                   -1.20486        -170.003         -50.3776        -62.3593         -50.3774        -62.3583       -0.0187548         144.496
0.596                   -1.21181        -170.958         -50.3877        -63.9397         -50.3876        -63.9387       -0.0189282          144.42
0.597                   -1.22128        -171.926         -50.3908        -65.4941         -50.3906        -65.4932       -0.0191041         144.344
0.598                   -1.23331        -172.908         -50.3869        -67.0257         -50.3867        -67.0249       -0.0192824         144.267
0.599                   -1.24789        -173.903          -50.376        -68.5375         -50.3758        -68.5368       -0.0194633          144.19
0.6                     -1.26507        -174.912         -50.3582        -70.0324         -50.3581        -70.0318       -0.0196469         144.113
0.601                    -1.2849        -175.935         -50.3337        -71.5132         -50.3335        -71.5126        -0.019833         144.036
0.602                   -1.30743        -176.971         -50.3025        -72.9824         -50.3023        -72.9819       -0.0200219         143.959
0.603                   -1.33274        -178.023         -50.2647        -74.4426         -50.2645        -74.4422       -0.0202136         143.881
0.604                   -1.36093        -179.089         -50.2204        -75.8962         -50.2202        -75.8958       -0.0204081         143.803
0.605                   -1.39208         179.831         -50.1697        -77.3455         -50.1696        -77.3452       -0.0206056         143.725
0.606                   -1.42633         178.735         -50.1129        -78.7927         -50.1127        -78.7924        -0.020806         143.647
0.607                    -1.4638         177.624         -50.0499          -80.24         -50.0497        -80.2399       -0.0210094         143.569
0.608                   -1.50464         176.497         -49.9809        -81.6896         -49.9807        -81.6895       -0.0212159          143.49
0.609                   -1.54903         175.354          -49.906        -83.1434         -49.9059        -83.1434       -0.0214255         143.411
0.61                    -1.59714         174.196         -49.8255        -84.6035         -49.8253        -84.6035       -0.0216384         143.332
0.611                   -1.64917         173.021         -49.7394        -86.0718         -49.7393        -86.0718       -0.0218545         143.253
0.612                   -1.70535          171.83         -49.6479        -87.5501         -49.6478        -87.5503        -0.022074         143.173
0.613                   -1.76593         170.623         -49.5513        -89.0404         -49.5511        -89.0406        -0.022297         143.094
0.614                   -1.83115           169.4         -49.4495        -90.5444         -49.4494        -90.5446       -0.0225234         143.014
0.615                   -1.90131          168.16         -49.3429        -92.0638         -49.3428        -92.0641       -0.0227534         142.933
0.616                   -1.97672         166.905         -49.2317        -93.6004         -49.2316        -93.6008       -0.0229871         142.853
0.617                    -2.0577         165.634          -49.116        -95.1559         -49.1159        -95.1563       -0.0232244         142.772
0.618                   -2.14461         164.348         -48.9961        -96.7318          -48.996        -96.7322       -0.0234656         142.692
0.619                   -2.23784         163.047         -48.8721        -98.3296         -48.8721        -98.3301       -0.0237107          142.61
0.62                    -2.33779         161.733         -48.7444         -99.951         -48.7444        -99.9515       -0.0239598         142.529
0.621                    -2.4449         160.406         -48.6132        -101.597         -48.6132        -101.598       -0.0242129         142.447
0.622                   -2.55964         159.069         -48.4788         -103.27         -48.4787         -103.27       -0.0244702         142.366
0.623                    -2.6825         157.721         -48.3414         -104.97         -48.3413         -104.97       -0.0247317         142.283
0.624                   -2.81399         156.366         -48.2013        -106.699         -48.2013        -106.699       -0.0249976         142.201
0.625                   -2.95466         155.006         -48.0589        -108.457         -48.0589        -108.458       -0.0252678         142.118
0.626                   -3.10509         153.642         -47.9144        -110.247         -47.9144        -110.247       -0.0255426         142.036
0.627                   -3.26586          152.28         -47.7683        -112.068         -47.7683        -112.068        -0.025822         141.952
0.628                   -3.43759         150.922         -47.6208        -113.921         -47.6208        -113.922        -0.026106         141.869
0.629                   -3.62091         149.573         -47.4724        -115.808         -47.4724        -115.808       -0.0263949         141.785
