! TOUCHSTONE file generated by CST MICROWAVE STUDIO
! Date and time: Sat Oct 24 10:47:42 2020
! Project name: Scenario_1_Planar_Body_Tissue_Center.cst
! Parameters = {hfat=3; hmuscle=50; hskin=1.5; hgap=25; Wtissue=700; Ltissue=700; L_HA=400; MT=2.54; Rad_Dielectric=30; Rad_Lower=7.3; Rad_Upper=30; a_HA=580; a_WG=246; b_HA=500; b_WG=121; c_HA=0; c_WG=187; d_feed=85; dx1=779.2; h_feed=15; h_lower=18; h_upper=40}
! Header version: 2018
! Port assignment regex: !\s*Touchstone port\s*([0-9]+)\s*=\s*(CST MWS port|CST DS port)\s*([0-9]+|Zmin|Zmax)\s*\(\"(.*)\"\)(\s*mode\s*([0-9]+))?.*
! Touchstone port assignment:
! Touchstone port 1 = CST MWS port 1 ("")
! Touchstone port 2 = CST MWS port 2 ("")
# GHz S DB R 50
0.5                     -0.10603        -121.621         -63.8857         145.334          -63.885         145.335      -0.00754649          151.15
0.501                  -0.107703        -122.066         -63.7721         144.122         -63.7714         144.123      -0.00760728         151.084
0.502                  -0.109494        -122.513         -63.6546         142.898         -63.6539           142.9      -0.00766877         151.019
0.503                  -0.111409        -122.965          -63.533         141.664         -63.5324         141.665      -0.00773096         150.954
0.504                  -0.113457         -123.42         -63.4074         140.417         -63.4068         140.419      -0.00779387         150.888
0.505                  -0.115647        -123.878         -63.2776         139.159          -63.277         139.161      -0.00785751         150.823
0.506                   -0.11799         -124.34         -63.1435          137.89          -63.143         137.891      -0.00792188         150.757
0.507                  -0.120495        -124.806         -63.0051         136.608         -63.0046          136.61        -0.007987         150.692
0.508                  -0.123175        -125.276         -62.8622         135.315         -62.8617         135.316      -0.00805287         150.626
0.509                  -0.126043         -125.75         -62.7148         134.009         -62.7143          134.01      -0.00811951          150.56
0.51                   -0.129112        -126.228         -62.5628          132.69         -62.5624         132.691      -0.00818692         150.494
0.511                  -0.132399         -126.71          -62.406         131.359         -62.4057          131.36      -0.00825513         150.428
0.512                  -0.135919        -127.196         -62.2445         130.014         -62.2442         130.016      -0.00832414         150.362
0.513                  -0.139693        -127.687         -62.0781         128.656         -62.0778         128.657      -0.00839397         150.296
0.514                  -0.143739        -128.183         -61.9067         127.284         -61.9064         127.285      -0.00846463          150.23
0.515                  -0.148081        -128.683         -61.7303         125.898           -61.73         125.899      -0.00853613         150.163
0.516                  -0.152744        -129.189         -61.5487         124.496         -61.5484         124.497      -0.00860851         150.097
0.517                  -0.157755        -129.699         -61.3618         123.079         -61.3616          123.08      -0.00868176         150.031
0.518                  -0.163144        -130.215         -61.1697         121.646         -61.1695         121.647      -0.00875591         149.964
0.519                  -0.168944        -130.736         -60.9721         120.196         -60.9719         120.196      -0.00883099         149.897
0.52                   -0.175194        -131.262         -60.7689         118.727         -60.7688         118.728      -0.00890702         149.831
0.521                  -0.181933        -131.794         -60.5602          117.24         -60.5601          117.24      -0.00898401         149.764
0.522                  -0.189209        -132.332         -60.3458         115.733         -60.3457         115.733        -0.009062         149.697
0.523                   -0.19707        -132.876         -60.1256         114.205         -60.1255         114.205      -0.00914101          149.63
0.524                  -0.205575        -133.426         -59.8995         112.654         -59.8995         112.654      -0.00922108         149.563
0.525                  -0.214785        -133.983         -59.6676          111.08         -59.6675         111.079      -0.00930225         149.496
0.526                  -0.224772        -134.546         -59.4296          109.48         -59.4296          109.48      -0.00938454         149.428
0.527                  -0.235612        -135.116         -59.1855         107.853         -59.1855         107.853        -0.009468         149.361
0.528                  -0.247393        -135.692         -58.9353         106.197         -58.9353         106.196      -0.00955268         149.293
0.529                  -0.260212        -136.276         -58.6789          104.51         -58.6789         104.509      -0.00963862         149.226
0.53                   -0.274178        -136.866         -58.4162          102.79         -58.4163         102.789      -0.00972589         149.158
0.531                  -0.289411        -137.464         -58.1473         101.033         -58.1474         101.032      -0.00981454          149.09
0.532                  -0.306046        -138.068         -57.8721         99.2377         -57.8723         99.2364      -0.00990464         149.023
0.533                  -0.324231         -138.68         -57.5907         97.4006         -57.5909         97.3991      -0.00999626         148.955
0.534                  -0.344135        -139.298         -57.3031         95.5183         -57.3033         95.5167       -0.0100895         148.887
0.535                  -0.365938        -139.923         -57.0093         93.5874         -57.0095         93.5857       -0.0101844         148.818
0.536                  -0.389844        -140.554         -56.7094         91.6039         -56.7097          91.602       -0.0102811          148.75
0.537                  -0.416074        -141.191         -56.4037         89.5636          -56.404         89.5616       -0.0103798         148.682
0.538                  -0.444868        -141.832         -56.0923         87.4619         -56.0926         87.4598       -0.0104804         148.613
0.539                  -0.476485        -142.477         -55.7756          85.294         -55.7759         85.2918       -0.0105832         148.545
0.54                   -0.511198        -143.125         -55.4537         83.0546         -55.4541         83.0524       -0.0106884         148.476
0.541                  -0.549294        -143.773         -55.1273         80.7384         -55.1277         80.7361       -0.0107959         148.407
0.542                  -0.591061         -144.42         -54.7969         78.3394         -54.7973         78.3371       -0.0109061         148.338
0.543                  -0.636781        -145.063         -54.4631         75.8518         -54.4635         75.8494       -0.0110191         148.269
0.544                  -0.686714        -145.697         -54.1268         73.2693         -54.1272         73.2669       -0.0111351           148.2
0.545                  -0.741074         -146.32         -53.7889         70.5857         -53.7894         70.5833       -0.0112542         148.131
0.546                  -0.799999        -146.926         -53.4508         67.7951         -53.4512         67.7927       -0.0113766         148.062
0.547                  -0.863518        -147.509         -53.1136         64.8916         -53.1141         64.8893       -0.0115025         147.992
0.548                  -0.931502        -148.063         -52.7792           61.87         -52.7797         61.8678       -0.0116321         147.923
0.549                   -1.00361        -148.581         -52.4492          58.726         -52.4497         58.7239       -0.0117654         147.853
0.55                    -1.07925        -149.055         -52.1258         55.4565         -52.1263         55.4545       -0.0119026         147.783
0.551                   -1.15749        -149.478         -51.8112         52.0601         -51.8118         52.0582       -0.0120436         147.713
0.552                   -1.23708        -149.843         -51.5081         48.5372         -51.5086         48.5356       -0.0121885         147.643
0.553                    -1.3164        -150.145         -51.2188         44.8911         -51.2194         44.8897        -0.012337         147.573
0.554                   -1.39349        -150.381         -50.9464         41.1278         -50.9469         41.1266       -0.0124889         147.503
0.555                   -1.46619        -150.551         -50.6933         37.2567         -50.6938         37.2557       -0.0126438         147.433
0.556                   -1.53221        -150.659         -50.4622         33.2905         -50.4628         33.2897       -0.0128012         147.362
0.557                    -1.5894        -150.713         -50.2555         29.2454          -50.256         29.2449       -0.0129605         147.292
0.558                    -1.6359        -150.724         -50.0751         25.1407         -50.0756         25.1404        -0.013121         147.222
0.559                   -1.67037        -150.709         -49.9224         20.9983         -49.9228         20.9983        -0.013282         147.151
0.56                    -1.69213        -150.684         -49.7983          16.842         -49.7987         16.8421       -0.0134426          147.08
0.561                    -1.7012        -150.666          -49.703         12.6963         -49.7034         12.6966       -0.0136022         147.009
0.562                   -1.69828        -150.673          -49.636          8.5856         -49.6363         8.58594       -0.0137599         146.939
0.563                   -1.68461        -150.717         -49.5961         4.53293         -49.5964         4.53334       -0.0139152         146.868
0.564                   -1.66183        -150.811         -49.5817        0.559278         -49.5819        0.559704       -0.0140677         146.796
0.565                   -1.63176         -150.96         -49.5906        -3.31727         -49.5908        -3.31686       -0.0142172         146.725
0.566                   -1.59624        -151.169         -49.6203        -7.08192         -49.6204        -7.08158       -0.0143634         146.654
0.567                   -1.55704        -151.439         -49.6681        -10.7234         -49.6682        -10.7231       -0.0145066         146.582
0.568                   -1.51569        -151.769         -49.7313        -14.2338         -49.7313        -14.2336       -0.0146468         146.511
0.569                   -1.47354        -152.156         -49.8069        -17.6084         -49.8069        -17.6084       -0.0147845         146.439
0.57                    -1.43164        -152.596         -49.8926        -20.8455         -49.8925        -20.8457         -0.01492         146.367
0.571                   -1.39084        -153.084         -49.9856        -23.9456         -49.9855        -23.9459       -0.0150538         146.295
0.572                   -1.35178        -153.617         -50.0838        -26.9112         -50.0837        -26.9117       -0.0151863         146.223
0.573                    -1.3149         -154.19         -50.1852        -29.7464          -50.185        -29.7471        -0.015318          146.15
0.574                   -1.28052        -154.798         -50.2879        -32.4562         -50.2877        -32.4571       -0.0154495         146.078
0.575                   -1.24883        -155.438         -50.3904        -35.0468         -50.3902        -35.0478       -0.0155809         146.005
0.576                   -1.21994        -156.107         -50.4913        -37.5245         -50.4911        -37.5257       -0.0157129         145.932
0.577                   -1.19388        -156.801         -50.5894         -39.896         -50.5892        -39.8974       -0.0158457         145.859
0.578                   -1.17066        -157.518         -50.6838        -42.1682         -50.6836        -42.1697       -0.0159795         145.786
0.579                   -1.15025        -158.256         -50.7737        -44.3478         -50.7735        -44.3494       -0.0161147         145.713
0.58                    -1.13258        -159.013         -50.8583        -46.4415         -50.8581        -46.4432       -0.0162515         145.639
0.581                   -1.11759        -159.787         -50.9372        -48.4557          -50.937        -48.4575       -0.0163901         145.566
0.582                   -1.10522        -160.578         -51.0099        -50.3965         -51.0097        -50.3985       -0.0165306         145.492
0.583                   -1.09539        -161.384          -51.076          -52.27         -51.0758         -52.272       -0.0166732         145.418
0.584                   -1.08803        -162.204         -51.1353        -54.0816         -51.1351        -54.0837       -0.0168179         145.344
0.585                   -1.08309        -163.038         -51.1874        -55.8367         -51.1872        -55.8389       -0.0169649         145.269
0.586                   -1.08052        -163.885         -51.2324        -57.5404         -51.2322        -57.5426       -0.0171142         145.195
0.587                   -1.08026        -164.745           -51.27        -59.1974         -51.2698        -59.1996        -0.017266          145.12
0.588                   -1.08229        -165.619         -51.3001        -60.8121            -51.3        -60.8144       -0.0174202         145.045
0.589                   -1.08658        -166.504         -51.3228         -62.389         -51.3226        -62.3912        -0.017577          144.97
0.59                    -1.09313        -167.402          -51.338        -63.9318         -51.3378        -63.9341       -0.0177363         144.895
0.591                   -1.10193        -168.313         -51.3457        -65.4446         -51.3456        -65.4469       -0.0178982          144.82
0.592                   -1.11298        -169.236         -51.3459        -66.9309         -51.3458        -66.9331       -0.0180627         144.744
0.593                   -1.12632        -170.171         -51.3387         -68.394         -51.3386        -68.3962       -0.0182299         144.668
0.594                   -1.14197         -171.12         -51.3242        -69.8374         -51.3241        -69.8395       -0.0183999         144.592
0.595                   -1.15998        -172.081         -51.3023         -71.264         -51.3023        -71.2661       -0.0185725         144.516
0.596                   -1.18041        -173.055         -51.2733         -72.677         -51.2732         -72.679       -0.0187479          144.44
0.597                   -1.20332        -174.043         -51.2371         -74.079          -51.237        -74.0809        -0.018926         144.363
0.598                    -1.2288        -175.044         -51.1939        -75.4729         -51.1938        -75.4747        -0.019107         144.287
0.599                   -1.25694        -176.058         -51.1437        -76.8613         -51.1437         -76.863       -0.0192908          144.21
0.6                     -1.28784        -177.087         -51.0868        -78.2467         -51.0868        -78.2483       -0.0194775         144.133
0.601                   -1.32163         -178.13         -51.0232        -79.6315         -51.0232        -79.6331       -0.0196671         144.056
0.602                   -1.35845        -179.187          -50.953        -81.0183          -50.953        -81.0197       -0.0198597         143.978
0.603                   -1.39844         179.742         -50.8764        -82.4092         -50.8764        -82.4105       -0.0200552         143.901
0.604                   -1.44177         178.656         -50.7936        -83.8065         -50.7936        -83.8077       -0.0202537         143.823
0.605                   -1.48862         177.555         -50.7046        -85.2123         -50.7046        -85.2134       -0.0204552         143.745
0.606                    -1.5392         176.439         -50.6097        -86.6289         -50.6097        -86.6298       -0.0206599         143.667
0.607                   -1.59372         175.309          -50.509        -88.0581          -50.509         -88.059       -0.0208676         143.588
0.608                   -1.65241         174.164         -50.4027        -89.5022         -50.4027        -89.5029       -0.0210786          143.51
0.609                   -1.71553         173.004          -50.291        -90.9629          -50.291        -90.9636       -0.0212927         143.431
0.61                    -1.78337          171.83         -50.1741        -92.4423         -50.1742        -92.4428       -0.0215101         143.352
0.611                   -1.85621         170.642         -50.0523        -93.9421         -50.0523        -93.9425       -0.0217308         143.272
0.612                   -1.93439          169.44         -49.9256        -95.4642         -49.9256        -95.4645       -0.0219549         143.193
0.613                   -2.01823         168.226         -49.7944        -97.0103         -49.7945        -97.0105       -0.0221824         143.113
0.614                   -2.10812         166.999          -49.659        -98.5821          -49.659        -98.5822       -0.0224133         143.033
0.615                   -2.20443         165.761         -49.5195        -100.181         -49.5195        -100.181       -0.0226478         142.953
0.616                   -2.30759         164.514         -49.3764        -101.809         -49.3764        -101.809       -0.0228859         142.873
0.617                   -2.41803         163.258         -49.2297        -103.467         -49.2297        -103.467       -0.0231276         142.792
0.618                   -2.53622         161.996           -49.08        -105.157           -49.08        -105.157        -0.023373         142.711
0.619                   -2.66264          160.73         -48.9274        -106.879         -48.9274        -106.879       -0.0236223          142.63
0.62                    -2.79778         159.462         -48.7724        -108.636         -48.7724        -108.636       -0.0238754         142.548
0.621                   -2.94217         158.196         -48.6153        -110.428         -48.6153        -110.427       -0.0241324         142.467
0.622                   -3.09634         156.935         -48.4565        -112.255         -48.4564        -112.255       -0.0243934         142.385
0.623                   -3.26082         155.684         -48.2963        -114.119         -48.2962        -114.119       -0.0246586         142.303
0.624                   -3.43616         154.446         -48.1352        -116.021         -48.1351         -116.02       -0.0249279         142.221
0.625                   -3.62287         153.229         -47.9735        -117.959         -47.9734        -117.959       -0.0252015         142.138
0.626                   -3.82145         152.038         -47.8117        -119.936         -47.8116        -119.936       -0.0254795         142.055
0.627                   -4.03238         150.881         -47.6502         -121.95         -47.6501         -121.95        -0.025762         141.972
0.628                   -4.25607         149.766         -47.4895        -124.002         -47.4894        -124.002        -0.026049         141.889
0.629                   -4.49283         148.702           -47.33        -126.091         -47.3299         -126.09       -0.0263408         141.805
