! TOUCHSTONE file generated by CST MICROWAVE STUDIO
! Date and time: Sat Oct 24 10:47:51 2020
! Project name: Scenario_1_Planar_Body_Tissue_Center.cst
! Parameters = {hfat=3; hmuscle=50; hskin=1.5; hgap=25; Wtissue=700; Ltissue=700; L_HA=400; MT=2.54; Rad_Dielectric=30; Rad_Lower=7.3; Rad_Upper=30; a_HA=580; a_WG=246; b_HA=500; b_WG=121; c_HA=0; c_WG=187; d_feed=85; dx1=796.52; h_feed=15; h_lower=18; h_upper=40}
! Header version: 2018
! Port assignment regex: !\s*Touchstone port\s*([0-9]+)\s*=\s*(CST MWS port|CST DS port)\s*([0-9]+|Zmin|Zmax)\s*\(\"(.*)\"\)(\s*mode\s*([0-9]+))?.*
! Touchstone port assignment:
! Touchstone port 1 = CST MWS port 1 ("")
! Touchstone port 2 = CST MWS port 2 ("")
# GHz S DB R 50
0.5                   -0.0972925        -121.715         -64.0858         138.064         -64.0853         138.068      -0.00754526         151.137
0.501                 -0.0995494        -122.164         -63.9328         136.926         -63.9322          136.93        -0.007608         151.072
0.502                  -0.101939        -122.616         -63.7758         135.775         -63.7753         135.778      -0.00767129         151.006
0.503                  -0.104473        -123.072          -63.615          134.61         -63.6144         134.613      -0.00773516         150.941
0.504                   -0.10716        -123.531         -63.4501          133.43         -63.4495         133.433      -0.00779962         150.876
0.505                  -0.110015        -123.994         -63.2811         132.235         -63.2805         132.238      -0.00786468          150.81
0.506                  -0.113051        -124.461         -63.1078         131.025         -63.1072         131.027      -0.00793035         150.744
0.507                  -0.116282        -124.932         -62.9302         129.798         -62.9296         129.801      -0.00799666         150.679
0.508                  -0.119726        -125.408         -62.7481         128.555         -62.7475         128.557      -0.00806363         150.613
0.509                  -0.123399        -125.887         -62.5615         127.295         -62.5609         127.297      -0.00813126         150.547
0.51                   -0.127323        -126.371         -62.3702         126.016         -62.3696         126.018      -0.00819959         150.481
0.511                   -0.13152        -126.859         -62.1742         124.718         -62.1736          124.72      -0.00826864         150.415
0.512                  -0.136013        -127.352         -61.9733         123.401         -61.9727         123.403      -0.00833844         150.349
0.513                   -0.14083         -127.85         -61.7675         122.063         -61.7668         122.065      -0.00840901         150.283
0.514                  -0.146001        -128.353         -61.5565         120.704         -61.5559         120.705      -0.00848038         150.217
0.515                   -0.15156        -128.861         -61.3404         119.321         -61.3398         119.322      -0.00855259          150.15
0.516                  -0.157543        -129.374         -61.1189         117.915         -61.1183         117.916      -0.00862567         150.084
0.517                  -0.163991        -129.892         -60.8921         116.483         -60.8915         116.484      -0.00869967         150.017
0.518                   -0.17095        -130.416         -60.6597         115.024         -60.6591         115.025      -0.00877463         149.951
0.519                  -0.178472        -130.946         -60.4217         113.536         -60.4211         113.537       -0.0088506         149.884
0.52                   -0.186614        -131.482          -60.178         112.019         -60.1774          112.02      -0.00892763         149.817
0.521                  -0.195438        -132.023         -59.9285         110.469         -59.9279          110.47      -0.00900579          149.75
0.522                  -0.205016        -132.571         -59.6731         108.885         -59.6726         108.886      -0.00908514         149.683
0.523                  -0.215427        -133.125         -59.4117         107.265         -59.4112         107.265      -0.00916574         149.616
0.524                   -0.22676        -133.686         -59.1443         105.605         -59.1438         105.606       -0.0092477         149.549
0.525                  -0.239113        -134.252         -58.8708         103.904         -58.8703         103.904      -0.00933108         149.482
0.526                  -0.252596        -134.826         -58.5912         102.158         -58.5908         102.159      -0.00941599         149.415
0.527                  -0.267333        -135.406         -58.3055         100.365         -58.3051         100.365      -0.00950254         149.347
0.528                  -0.283459        -135.992         -58.0137         98.5196         -58.0133         98.5197      -0.00959083          149.28
0.529                  -0.301126        -136.584         -57.7158         96.6193         -57.7154         96.6193        -0.009681         149.212
0.53                     -0.3205        -137.183          -57.412         94.6597         -57.4117         94.6597      -0.00977317         149.144
0.531                  -0.341766        -137.787         -57.1024         92.6364         -57.1021         92.6363      -0.00986749         149.076
0.532                  -0.365124        -138.396         -56.7873         90.5444          -56.787         90.5443      -0.00996412         149.008
0.533                   -0.39079         -139.01         -56.4668         88.3788         -56.4666         88.3787       -0.0100632          148.94
0.534                  -0.418997        -139.627         -56.1415         86.1341         -56.1413         86.1339       -0.0101649         148.872
0.535                  -0.449986        -140.245         -55.8117         83.8044         -55.8115         83.8042       -0.0102694         148.804
0.536                   -0.48401        -140.864          -55.478         81.3837         -55.4779         81.3835       -0.0103769         148.736
0.537                  -0.521318        -141.481         -55.1412         78.8658         -55.1411         78.8655       -0.0104874         148.667
0.538                  -0.562145        -142.094         -54.8023         76.2442         -54.8022          76.244       -0.0106012         148.599
0.539                  -0.606699        -142.699         -54.4621         73.5126         -54.4621         73.5124       -0.0107184          148.53
0.54                   -0.655136        -143.292         -54.1222         70.6648         -54.1222         70.6646        -0.010839         148.461
0.541                  -0.707533        -143.869         -53.7838         67.6949         -53.7839         67.6948        -0.010963         148.393
0.542                   -0.76385        -144.425         -53.4489          64.598          -53.449         64.5979       -0.0110906         148.324
0.543                  -0.823891        -144.953         -53.1194         61.3699         -53.1195         61.3698       -0.0112215         148.255
0.544                  -0.887258        -145.449         -52.7975          58.008         -52.7976          58.008       -0.0113556         148.186
0.545                   -0.95331        -145.904         -52.4857         54.5116         -52.4858         54.5117       -0.0114928         148.116
0.546                   -1.02112        -146.314         -52.1867         50.8823         -52.1869         50.8826       -0.0116326         148.047
0.547                   -1.08947        -146.673         -51.9033         47.1249         -51.9034         47.1252       -0.0117748         147.978
0.548                   -1.15685        -146.977         -51.6383          43.247         -51.6385         43.2474       -0.0119188         147.908
0.549                   -1.22153        -147.226         -51.3945         39.2601         -51.3947         39.2606       -0.0120641         147.839
0.55                    -1.28164        -147.422         -51.1746         35.1793         -51.1748         35.1798       -0.0122103         147.769
0.551                   -1.33531        -147.568         -50.9807         31.0232         -50.9809         31.0237       -0.0123566         147.699
0.552                   -1.38089        -147.674         -50.8148         26.8134          -50.815          26.814       -0.0125026          147.63
0.553                   -1.41703        -147.752         -50.6781         22.5742         -50.6783         22.5747       -0.0126478          147.56
0.554                   -1.44291        -147.813          -50.571         18.3311         -50.5712         18.3316       -0.0127916          147.49
0.555                   -1.45823        -147.874         -50.4935         14.1099         -50.4936         14.1103       -0.0129339          147.42
0.556                    -1.4633        -147.947         -50.4446         9.93577         -50.4448         9.93608       -0.0130742         147.349
0.557                   -1.45889        -148.045         -50.4229         5.83195          -50.423         5.83213       -0.0132125         147.279
0.558                   -1.44617        -148.178         -50.4262         1.81893         -50.4264         1.81895       -0.0133486         147.209
0.559                   -1.42656        -148.355         -50.4521        -2.08614         -50.4523        -2.08629       -0.0134826         147.138
0.56                    -1.40153        -148.579         -50.4979        -5.86973         -50.4981        -5.87007       -0.0136146         147.067
0.561                   -1.37256        -148.853         -50.5607        -9.52204         -50.5609        -9.52259       -0.0137447         146.997
0.562                   -1.34101        -149.177         -50.6375        -13.0368         -50.6377        -13.0375       -0.0138733         146.926
0.563                   -1.30805         -149.55         -50.7256        -16.4108         -50.7258        -16.4117       -0.0140004         146.855
0.564                   -1.27468        -149.969         -50.8223        -19.6436         -50.8224        -19.6448       -0.0141265         146.783
0.565                   -1.24171        -150.431         -50.9251        -22.7371         -50.9253        -22.7385       -0.0142517         146.712
0.566                   -1.20975        -150.932         -51.0318         -25.695          -51.032        -25.6965       -0.0143764         146.641
0.567                   -1.17929         -151.47         -51.1406         -28.522         -51.1408        -28.5237       -0.0145009         146.569
0.568                   -1.15064         -152.04         -51.2496         -31.224         -51.2498        -31.2259       -0.0146254         146.497
0.569                   -1.12404        -152.639         -51.3574        -33.8075         -51.3576        -33.8096       -0.0147502         146.425
0.57                    -1.09963        -153.264         -51.4627        -36.2792          -51.463        -36.2815       -0.0148754         146.353
0.571                   -1.07751        -153.913         -51.5646        -38.6462         -51.5648        -38.6486       -0.0150014         146.281
0.572                    -1.0577        -154.584          -51.662        -40.9153         -51.6623        -40.9178       -0.0151283         146.209
0.573                    -1.0402        -155.275         -51.7542        -43.0934         -51.7545         -43.096       -0.0152562         146.136
0.574                   -1.02499        -155.983         -51.8407         -45.187         -51.8411        -45.1897       -0.0153854         146.063
0.575                   -1.01204        -156.708          -51.921        -47.2024         -51.9213        -47.2052       -0.0155159         145.991
0.576                   -1.00131        -157.449         -51.9946        -49.1458          -51.995        -49.1487       -0.0156479         145.918
0.577                  -0.992744        -158.204         -52.0613        -51.0229         -52.0617        -51.0258       -0.0157815         145.845
0.578                  -0.986302        -158.973         -52.1208         -52.839         -52.1212        -52.8419       -0.0159168         145.771
0.579                  -0.981941        -159.755          -52.173        -54.5993         -52.1734        -54.6023       -0.0160539         145.698
0.58                   -0.979624         -160.55         -52.2177        -56.3088         -52.2181        -56.3117       -0.0161928         145.624
0.581                   -0.97932        -161.357         -52.2547        -57.9718         -52.2552        -57.9748       -0.0163337          145.55
0.582                  -0.981005        -162.176         -52.2842        -59.5928         -52.2847        -59.5957       -0.0164765         145.477
0.583                  -0.984665        -163.007          -52.306        -61.1758         -52.3065        -61.1787       -0.0166214         145.402
0.584                  -0.990294         -163.85         -52.3201        -62.7246         -52.3206        -62.7274       -0.0167685         145.328
0.585                  -0.997895        -164.705         -52.3266        -64.2429         -52.3271        -64.2457       -0.0169177         145.254
0.586                   -1.00748        -165.572         -52.3254         -65.734         -52.3259        -65.7368       -0.0170691         145.179
0.587                   -1.01907         -166.45         -52.3167        -67.2014         -52.3172        -67.2041       -0.0172227         145.104
0.588                    -1.0327        -167.341         -52.3004        -68.6481         -52.3009        -68.6506       -0.0173787          145.03
0.589                    -1.0484        -168.243         -52.2767         -70.077         -52.2772        -70.0795        -0.017537         144.954
0.59                    -1.06624        -169.158         -52.2455        -71.4911         -52.2461        -71.4935       -0.0176977         144.879
0.591                   -1.08627        -170.085         -52.2071        -72.8931         -52.2077        -72.8953       -0.0178609         144.804
0.592                   -1.10857        -171.025         -52.1615        -74.2856         -52.1621        -74.2877       -0.0180265         144.728
0.593                   -1.13323        -171.978         -52.1088        -75.6711         -52.1093        -75.6732       -0.0181947         144.652
0.594                   -1.16033        -172.944         -52.0491        -77.0523         -52.0496        -77.0542       -0.0183654         144.576
0.595                   -1.18999        -173.922         -51.9824        -78.4313          -51.983        -78.4331       -0.0185387           144.5
0.596                   -1.22234        -174.914          -51.909        -79.8107         -51.9095        -79.8123       -0.0187147         144.424
0.597                   -1.25749         -175.92          -51.829        -81.1926         -51.8295        -81.1941       -0.0188933         144.347
0.598                   -1.29562        -176.939         -51.7424        -82.5793         -51.7429        -82.5807       -0.0190747         144.271
0.599                   -1.33687        -177.972         -51.6494         -83.973         -51.6499        -83.9743       -0.0192589         144.194
0.6                     -1.38144        -179.019         -51.5502        -85.3758         -51.5506        -85.3769        -0.019446         144.117
0.601                   -1.42951         179.921         -51.4448        -86.7898         -51.4453        -86.7908       -0.0196359         144.039
0.602                   -1.48129         178.847         -51.3336        -88.2171          -51.334         -88.218       -0.0198288         143.962
0.603                   -1.53703         177.759         -51.2166        -89.6597          -51.217        -89.6604       -0.0200246         143.884
0.604                   -1.59696         176.658          -51.094        -91.1197         -51.0944        -91.1202       -0.0202236         143.806
0.605                   -1.66136         175.544          -50.966        -92.5988         -50.9664        -92.5992       -0.0204256         143.728
0.606                   -1.73051         174.417         -50.8329        -94.0992         -50.8332        -94.0995       -0.0206308          143.65
0.607                   -1.80473         173.278         -50.6947        -95.6226         -50.6951        -95.6228       -0.0208392         143.571
0.608                   -1.88434         172.128         -50.5519         -97.171         -50.5522         -97.171       -0.0210509         143.493
0.609                    -1.9697         170.967         -50.4046        -98.7461         -50.4049         -98.746        -0.021266         143.414
0.61                    -2.06118         169.798          -50.253         -100.35         -50.2533        -100.349       -0.0214844         143.334
0.611                   -2.15918         168.621         -50.0975        -101.983         -50.0977        -101.983       -0.0217064         143.255
0.612                   -2.26411         167.437         -49.9383        -103.649         -49.9386        -103.648       -0.0219319         143.175
0.613                    -2.3764          166.25         -49.7758        -105.348          -49.776        -105.347       -0.0221611         143.096
0.614                    -2.4965         165.061         -49.6103        -107.081         -49.6105        -107.081       -0.0223939         143.016
0.615                   -2.62488         163.873         -49.4422        -108.851         -49.4423         -108.85       -0.0226306         142.935
0.616                   -2.76201          162.69         -49.2717        -110.658         -49.2718        -110.657       -0.0228711         142.855
0.617                   -2.90835         161.516         -49.0994        -112.503         -49.0995        -112.502       -0.0231155         142.774
0.618                   -3.06439         160.355         -48.9255        -114.388         -48.9256        -114.387       -0.0233639         142.693
0.619                   -3.23057         159.212         -48.7506        -116.313         -48.7506        -116.312       -0.0236165         142.612
0.62                    -3.40732         158.093          -48.575        -118.278          -48.575        -118.277       -0.0238732         142.531
0.621                   -3.59502         157.005         -48.3993        -120.285         -48.3993        -120.284       -0.0241342         142.449
0.622                   -3.79399         155.956         -48.2238        -122.332         -48.2238        -122.332       -0.0243995         142.367
0.623                   -4.00448         154.954         -48.0491        -124.421         -48.0491         -124.42       -0.0246692         142.285
0.624                   -4.22659         154.008         -47.8757        -126.551         -47.8756         -126.55       -0.0249435         142.202
0.625                   -4.46031          153.13         -47.7039         -128.72         -47.7039        -128.719       -0.0252223          142.12
0.626                   -4.70542         152.332         -47.5344        -130.928         -47.5343        -130.927       -0.0255058         142.037
0.627                   -4.96147         151.624         -47.3676        -133.174         -47.3675        -133.174       -0.0257941         141.953
0.628                   -5.22773         151.022         -47.2039        -135.457         -47.2038        -135.456       -0.0260871          141.87
0.629                   -5.50313         150.539         -47.0439        -137.773         -47.0437        -137.773       -0.0263851         141.786
