! TOUCHSTONE file generated by CST MICROWAVE STUDIO
! Date and time: Sat Oct 24 10:41:49 2020
! Project name: Scenario_1_Planar_Body_Tissue_Center.cst
! Parameters = {hfat=3; hmuscle=50; hskin=1.5; hgap=25; Wtissue=700; Ltissue=700; L_HA=400; MT=2.54; Rad_Dielectric=30; Rad_Lower=7.3; Rad_Upper=30; a_HA=580; a_WG=246; b_HA=500; b_WG=121; c_HA=0; c_WG=187; d_feed=85; dx1=224.96; h_feed=15; h_lower=18; h_upper=40}
! Header version: 2018
! Port assignment regex: !\s*Touchstone port\s*([0-9]+)\s*=\s*(CST MWS port|CST DS port)\s*([0-9]+|Zmin|Zmax)\s*\(\"(.*)\"\)(\s*mode\s*([0-9]+))?.*
! Touchstone port assignment:
! Touchstone port 1 = CST MWS port 1 ("")
! Touchstone port 2 = CST MWS port 2 ("")
# GHz S DB R 50
0.5                   -0.0534037         -122.25         -56.9155         118.903         -56.9158         118.903      -0.00707069         151.148
0.501                 -0.0575881        -122.568          -56.945         116.059          -56.945         116.059      -0.00721199         151.082
0.502                 -0.0618076        -122.888         -56.9674         113.175         -56.9673         113.176      -0.00735201         151.017
0.503                 -0.0660619         -123.21         -56.9823         110.254          -56.982         110.256      -0.00749077         150.952
0.504                 -0.0703504        -123.535         -56.9893           107.3         -56.9888         107.303      -0.00762829         150.887
0.505                 -0.0746727        -123.863          -56.988         104.317         -56.9872         104.321       -0.0077646         150.821
0.506                 -0.0790283        -124.193         -56.9781         101.309         -56.9771         101.314       -0.0078997         150.756
0.507                 -0.0834169        -124.526         -56.9592         98.2803         -56.9581         98.2858      -0.00803363          150.69
0.508                  -0.087838        -124.862         -56.9312         95.2359         -56.9299         95.2425       -0.0081664         150.625
0.509                 -0.0922912          -125.2          -56.894         92.1809         -56.8925         92.1885      -0.00829804         150.559
0.51                  -0.0967761        -125.542         -56.8474         89.1202         -56.8458         89.1289      -0.00842856         150.493
0.511                  -0.101292        -125.885         -56.7916          86.059         -56.7898         86.0688      -0.00855798         150.427
0.512                   -0.10584        -126.232         -56.7265         83.0022         -56.7246         83.0131      -0.00868634         150.361
0.513                  -0.110418        -126.582         -56.6523         79.9549         -56.6504         79.9669      -0.00881366         150.295
0.514                  -0.115027        -126.934         -56.5694         76.9219         -56.5673         76.9349      -0.00893995         150.229
0.515                  -0.119666        -127.289         -56.4779         73.9077         -56.4757         73.9217      -0.00906524         150.163
0.516                  -0.124335        -127.647         -56.3782         70.9166         -56.3759         70.9315      -0.00918955         150.097
0.517                  -0.129034        -128.008         -56.2707         67.9525         -56.2684         67.9684      -0.00931292         150.031
0.518                  -0.133762        -128.372         -56.1558          65.019         -56.1535         65.0357      -0.00943536         149.964
0.519                   -0.13852        -128.739         -56.0341         62.1193         -56.0318         62.1369      -0.00955691         149.898
0.52                   -0.143307        -129.109         -55.9061         59.2562         -55.9037         59.2746      -0.00967758         149.831
0.521                  -0.148123        -129.482         -55.7722         56.4322         -55.7698         56.4513       -0.0097974         149.764
0.522                  -0.152969        -129.858          -55.633         53.6492         -55.6305         53.6689      -0.00991641         149.698
0.523                  -0.157844        -130.237         -55.4889          50.909         -55.4865         50.9293       -0.0100346         149.631
0.524                  -0.162748        -130.619         -55.3406         48.2127         -55.3382         48.2336       -0.0101521         149.564
0.525                  -0.167681        -131.004         -55.1885         45.5615         -55.1861         45.5827       -0.0102688         149.497
0.526                  -0.172643        -131.393         -55.0332         42.9558         -55.0308         42.9774       -0.0103848          149.43
0.527                  -0.177634        -131.785          -54.875          40.396         -54.8727          40.418       -0.0105001         149.363
0.528                  -0.182655         -132.18         -54.7145         37.8824         -54.7122         37.9046       -0.0106148         149.295
0.529                  -0.187706        -132.579          -54.552         35.4146         -54.5497         35.4371       -0.0107288         149.228
0.53                   -0.192787        -132.981          -54.388         32.9925         -54.3857         33.0151       -0.0108423         149.161
0.531                  -0.197898        -133.386         -54.2228         30.6155         -54.2206         30.6382       -0.0109552         149.093
0.532                  -0.203039        -133.795         -54.0569         28.2831         -54.0547         28.3058       -0.0110676         149.025
0.533                  -0.208211        -134.207         -53.8903         25.9944         -53.8882         26.0172       -0.0111795         148.958
0.534                  -0.213415        -134.623         -53.7236         23.7487         -53.7215         23.7714       -0.0112909          148.89
0.535                   -0.21865        -135.043         -53.5569          21.545         -53.5548         21.5676       -0.0114019         148.822
0.536                  -0.223918        -135.466         -53.3905         19.3823         -53.3884         19.4048       -0.0115124         148.754
0.537                  -0.229218        -135.892         -53.2245         17.2597         -53.2225          17.282       -0.0116227         148.686
0.538                  -0.234552        -136.323         -53.0592          15.176         -53.0573         15.1981       -0.0117325         148.618
0.539                   -0.23992        -136.757         -52.8948         13.1303         -52.8928         13.1522       -0.0118421         148.549
0.54                   -0.245323        -137.195         -52.7313         11.1213         -52.7294          11.143       -0.0119514         148.481
0.541                  -0.250761        -137.637          -52.569         9.14819         -52.5671         9.16956       -0.0120605         148.412
0.542                  -0.256237        -138.082         -52.4078         7.20971          -52.406         7.23079       -0.0121693         148.344
0.543                   -0.26175        -138.532          -52.248         5.30486         -52.2462         5.32562        -0.012278         148.275
0.544                  -0.267301        -138.986         -52.0895         3.43258         -52.0877           3.453       -0.0123866         148.206
0.545                  -0.272893        -139.444         -51.9325         1.59184         -51.9308          1.6119       -0.0124951         148.137
0.546                  -0.278525        -139.906          -51.777       -0.218361         -51.7753       -0.198662       -0.0126035         148.068
0.547                    -0.2842        -140.372         -51.6231          -1.999         -51.6214        -1.97968       -0.0127119         147.999
0.548                  -0.289918        -140.842         -51.4708        -3.75103         -51.4691        -3.73211       -0.0128203          147.93
0.549                  -0.295681        -141.317           -51.32        -5.47539         -51.3184        -5.45686       -0.0129288          147.86
0.55                   -0.301492        -141.796         -51.1709        -7.17297         -51.1693        -7.15485       -0.0130374         147.791
0.551                   -0.30735         -142.28         -51.0234        -8.84465         -51.0218        -8.82694        -0.013146         147.721
0.552                  -0.313259        -142.768         -50.8775        -10.4913          -50.876         -10.474       -0.0132549         147.651
0.553                   -0.31922         -143.26         -50.7333        -12.1136         -50.7318        -12.0968       -0.0133639         147.581
0.554                  -0.325235        -143.758         -50.5906        -13.7125         -50.5891        -13.6961       -0.0134732         147.511
0.555                  -0.331306         -144.26         -50.4496        -15.2888         -50.4481        -15.2727       -0.0135828         147.441
0.556                  -0.337435        -144.766         -50.3101         -16.843         -50.3087        -16.8274       -0.0136927         147.371
0.557                  -0.343626        -145.278         -50.1722        -18.3761         -50.1708        -18.3609        -0.013803         147.301
0.558                   -0.34988        -145.795         -50.0358        -19.8885         -50.0345        -19.8738       -0.0139136          147.23
0.559                    -0.3562        -146.316         -49.9009        -21.3811         -49.8996        -21.3668       -0.0140247          147.16
0.56                   -0.362589        -146.843         -49.7675        -22.8544         -49.7662        -22.8406       -0.0141363         147.089
0.561                   -0.36905        -147.375         -49.6355        -24.3091         -49.6342        -24.2957       -0.0142484         147.018
0.562                  -0.375586        -147.913         -49.5049        -25.7458         -49.5037        -25.7328       -0.0143611         146.947
0.563                  -0.382201        -148.455         -49.3757         -27.165         -49.3744        -27.1524       -0.0144744         146.876
0.564                  -0.388898        -149.003         -49.2477        -28.5673         -49.2465        -28.5551       -0.0145883         146.805
0.565                  -0.395682        -149.557         -49.1211        -29.9533         -49.1199        -29.9415        -0.014703         146.733
0.566                  -0.402555        -150.116         -48.9957        -31.3235         -48.9945        -31.3121       -0.0148183         146.662
0.567                  -0.409522        -150.682         -48.8715        -32.6783         -48.8704        -32.6673       -0.0149345          146.59
0.568                  -0.416588        -151.253         -48.7484        -34.0183         -48.7473        -34.0077       -0.0150514         146.518
0.569                  -0.423758         -151.83         -48.6264         -35.344         -48.6254        -35.3337       -0.0151693         146.446
0.57                   -0.431035        -152.413         -48.5056        -36.6558         -48.5045        -36.6459        -0.015288         146.374
0.571                  -0.438427        -153.002         -48.3857        -37.9541         -48.3847        -37.9446       -0.0154077         146.302
0.572                  -0.445937        -153.598         -48.2668        -39.2395         -48.2658        -39.2303       -0.0155285          146.23
0.573                  -0.453573          -154.2         -48.1488        -40.5123         -48.1479        -40.5035       -0.0156502         146.157
0.574                   -0.46134        -154.809         -48.0318        -41.7729         -48.0308        -41.7645       -0.0157731         146.085
0.575                  -0.469244        -155.424         -47.9155        -43.0218         -47.9146        -43.0137       -0.0158971         146.012
0.576                  -0.477294        -156.046         -47.8001        -44.2593         -47.7993        -44.2515       -0.0160223         145.939
0.577                  -0.485495        -156.676         -47.6855        -45.4858         -47.6846        -45.4784       -0.0161487         145.866
0.578                  -0.493856        -157.312         -47.5715        -46.7018         -47.5707        -46.6947       -0.0162764         145.792
0.579                  -0.502385        -157.956         -47.4583        -47.9075         -47.4575        -47.9007       -0.0164055         145.719
0.58                    -0.51109        -158.607         -47.3456        -49.1033         -47.3449        -49.0968       -0.0165359         145.645
0.581                   -0.51998        -159.266         -47.2336        -50.2896         -47.2329        -50.2834       -0.0166677         145.572
0.582                  -0.529066        -159.932         -47.1221        -51.4667         -47.1214        -51.4608       -0.0168011         145.498
0.583                  -0.538357        -160.607         -47.0111        -52.6349         -47.0104        -52.6293       -0.0169359         145.424
0.584                  -0.547864        -161.289         -46.9006        -53.7947         -46.8999        -53.7893       -0.0170724          145.35
0.585                  -0.557598         -161.98         -46.7905        -54.9462         -46.7899        -54.9411       -0.0172105         145.275
0.586                  -0.567572        -162.679         -46.6808        -56.0898         -46.6802         -56.085       -0.0173502         145.201
0.587                  -0.577797        -163.387         -46.5714        -57.2259         -46.5708        -57.2213       -0.0174917         145.126
0.588                  -0.588289        -164.104         -46.4624        -58.3547         -46.4618        -58.3504        -0.017635         145.051
0.589                  -0.599059         -164.83         -46.3536        -59.4765          -46.353        -59.4725       -0.0177802         144.976
0.59                   -0.610125        -165.565          -46.245        -60.5917         -46.2445        -60.5879       -0.0179272         144.901
0.591                  -0.621501         -166.31         -46.1367        -61.7005         -46.1361        -61.6969       -0.0180762         144.826
0.592                  -0.633205        -167.065         -46.0284        -62.8032         -46.0279        -62.7998       -0.0182272          144.75
0.593                  -0.645254        -167.829         -45.9203        -63.9001         -45.9199         -63.897       -0.0183802         144.674
0.594                  -0.657668        -168.604         -45.8123        -64.9915         -45.8119        -64.9886       -0.0185353         144.598
0.595                  -0.670466         -169.39         -45.7043        -66.0778         -45.7039         -66.075       -0.0186927         144.522
0.596                   -0.68367        -170.186         -45.5963         -67.159         -45.5959        -67.1565       -0.0188522         144.446
0.597                  -0.697302        -170.993         -45.4883        -68.2357         -45.4879        -68.2333        -0.019014          144.37
0.598                  -0.711387        -171.812         -45.3802        -69.3079         -45.3799        -69.3057       -0.0191782         144.293
0.599                   -0.72595        -172.642         -45.2721        -70.3761         -45.2717         -70.374       -0.0193448         144.216
0.6                    -0.741017        -173.484         -45.1637        -71.4404         -45.1634        -71.4385       -0.0195138         144.139
0.601                  -0.756618        -174.339         -45.0552        -72.5012         -45.0549        -72.4995       -0.0196854         144.062
0.602                  -0.772783        -175.206         -44.9465        -73.5587         -44.9463        -73.5572       -0.0198595         143.984
0.603                  -0.789545        -176.086         -44.8376        -74.6133         -44.8373        -74.6119       -0.0200363         143.907
0.604                  -0.806938        -176.979         -44.7284        -75.6652         -44.7282        -75.6639       -0.0202158         143.829
0.605                  -0.824998        -177.886         -44.6189        -76.7146         -44.6187        -76.7134       -0.0203981         143.751
0.606                  -0.843765        -178.808          -44.509        -77.7619         -44.5088        -77.7609       -0.0205832         143.673
0.607                   -0.86328        -179.743         -44.3988        -78.8074         -44.3986        -78.8065       -0.0207712         143.594
0.608                  -0.883587         179.306         -44.2882        -79.8513          -44.288        -79.8505       -0.0209621         143.516
0.609                  -0.904734          178.34         -44.1771         -80.894          -44.177        -80.8933       -0.0211561         143.437
0.61                    -0.92677         177.358         -44.0656        -81.9357         -44.0655        -81.9351       -0.0213531         143.358
0.611                  -0.949749          176.36         -43.9536        -82.9768         -43.9535        -82.9762       -0.0215534         143.278
0.612                  -0.973727         175.345          -43.841        -84.0175         -43.8409         -84.017       -0.0217568         143.199
0.613                  -0.998767         174.313          -43.728        -85.0581         -43.7278        -85.0577       -0.0219636         143.119
0.614                   -1.02493         173.263         -43.6143         -86.099         -43.6142        -86.0987       -0.0221737         143.039
0.615                   -1.05229         172.194            -43.5        -87.1405         -43.4999        -87.1403       -0.0223873         142.959
0.616                   -1.08092         171.107          -43.385         -88.183          -43.385        -88.1828       -0.0226044         142.878
0.617                   -1.11089             170         -43.2694        -89.2267         -43.2694        -89.2266        -0.022825         142.798
0.618                    -1.1423         168.873         -43.1531         -90.272         -43.1531         -90.272       -0.0230494         142.717
0.619                   -1.17522         167.725         -43.0361        -91.3193         -43.0361        -91.3193       -0.0232774         142.636
0.62                    -1.20976         166.556         -42.9183         -92.369         -42.9183         -92.369       -0.0235093         142.554
0.621                   -1.24603         165.364         -42.7998        -93.4213         -42.7998        -93.4214       -0.0237451         142.473
0.622                   -1.28412          164.15         -42.6805        -94.4767         -42.6805        -94.4768       -0.0239848         142.391
0.623                   -1.32416         162.912         -42.5604        -95.5356         -42.5604        -95.5357       -0.0242286         142.309
0.624                   -1.36627          161.65         -42.4394        -96.5983         -42.4394        -96.5985       -0.0244765         142.226
0.625                   -1.41058         160.362         -42.3176        -97.6654         -42.3176        -97.6656       -0.0247287         142.144
0.626                   -1.45725         159.049         -42.1949        -98.7372         -42.1949        -98.7374       -0.0249851         142.061
0.627                   -1.50642         157.708         -42.0713        -99.8142         -42.0713        -99.8144       -0.0252459         141.978
0.628                   -1.55825          156.34         -41.9468        -100.897         -41.9469        -100.897       -0.0255112         141.894
0.629                   -1.61293         154.943         -41.8214        -101.985         -41.8215        -101.986        -0.025781          141.81
