! TOUCHSTONE file generated by CST MICROWAVE STUDIO
! Date and time: Sat Oct 24 10:48:24 2020
! Project name: Scenario_1_Planar_Body_Tissue_Center.cst
! Parameters = {hfat=3; hmuscle=50; hskin=1.5; hgap=25; Wtissue=700; Ltissue=700; L_HA=400; MT=2.54; Rad_Dielectric=30; Rad_Lower=7.3; Rad_Upper=30; a_HA=580; a_WG=246; b_HA=500; b_WG=121; c_HA=0; c_WG=187; d_feed=85; dx1=865.8; h_feed=15; h_lower=18; h_upper=40}
! Header version: 2018
! Port assignment regex: !\s*Touchstone port\s*([0-9]+)\s*=\s*(CST MWS port|CST DS port)\s*([0-9]+|Zmin|Zmax)\s*\(\"(.*)\"\)(\s*mode\s*([0-9]+))?.*
! Touchstone port assignment:
! Touchstone port 1 = CST MWS port 1 ("")
! Touchstone port 2 = CST MWS port 2 ("")
# GHz S DB R 50
0.5                   -0.0980114        -122.143         -63.5193         107.329         -63.5189         107.329      -0.00750392         151.135
0.501                  -0.103232        -122.606         -63.2511         105.794         -63.2508         105.793      -0.00757176          151.07
0.502                  -0.108844        -123.073         -62.9788         104.215         -62.9787         104.213      -0.00764053         151.005
0.503                  -0.114891        -123.545         -62.7025          102.59         -62.7025         102.587      -0.00771031         150.939
0.504                  -0.121423         -124.02         -62.4222         100.916         -62.4223         100.913      -0.00778115         150.874
0.505                  -0.128494        -124.501         -62.1379         99.1914         -62.1381         99.1876      -0.00785313         150.808
0.506                  -0.136166        -124.985         -61.8497         97.4126           -61.85         97.4083      -0.00792632         150.743
0.507                  -0.144507        -125.474         -61.5578         95.5766         -61.5581         95.5719       -0.0080008         150.677
0.508                  -0.153591        -125.967         -61.2622         93.6803         -61.2626         93.6753      -0.00807668         150.611
0.509                  -0.163501        -126.465         -60.9632         91.7202         -60.9636          91.715      -0.00815403         150.545
0.51                   -0.174326        -126.966          -60.661         89.6927         -60.6615         89.6874      -0.00823298         150.479
0.511                  -0.186165        -127.471         -60.3559          87.594         -60.3564         87.5887      -0.00831361         150.413
0.512                  -0.199123         -127.98         -60.0483         85.4202         -60.0488          85.415      -0.00839605         150.347
0.513                  -0.213311        -128.492         -59.7386         83.1673         -59.7392         83.1623       -0.0084804         150.281
0.514                  -0.228846        -129.006         -59.4275         80.8311         -59.4281         80.8265      -0.00856676         150.214
0.515                  -0.245847        -129.522         -59.1156         78.4077         -59.1162         78.4035      -0.00865523         150.148
0.516                  -0.264433        -130.039         -58.8036         75.8931         -58.8041         75.8893       -0.0087459         150.082
0.517                  -0.284713        -130.555         -58.4924         73.2834          -58.493         73.2801      -0.00883882         150.015
0.518                  -0.306786        -131.069         -58.1832          70.575         -58.1836         70.5724      -0.00893401         149.948
0.519                  -0.330723         -131.58         -57.8769         67.7651         -57.8773         67.7631      -0.00903148         149.882
0.52                   -0.356563        -132.085          -57.575         64.8513         -57.5754         64.8498      -0.00913117         149.815
0.521                  -0.384293        -132.582          -57.279         61.8319         -57.2792         61.8311      -0.00923297         149.748
0.522                  -0.413835        -133.069         -56.9903         58.7066         -56.9904         58.7064      -0.00933671         149.681
0.523                  -0.445027        -133.543         -56.7107         55.4763         -56.7107         55.4767      -0.00944217         149.614
0.524                  -0.477608        -134.001          -56.442         52.1434         -56.4418         52.1444      -0.00954906         149.547
0.525                  -0.511207         -134.44         -56.1859         48.7122         -56.1856         48.7137      -0.00965704          149.48
0.526                  -0.545336         -134.86         -55.9445         45.1889          -55.944         45.1908      -0.00976575         149.413
0.527                  -0.579397        -135.257         -55.7193         41.5819         -55.7187          41.584      -0.00987477         149.346
0.528                  -0.612702        -135.631         -55.5122         37.9014         -55.5114         37.9037      -0.00998371         149.278
0.529                  -0.644508        -135.983         -55.3246         34.1599         -55.3236         34.1623       -0.0100922         149.211
0.53                   -0.674062        -136.314         -55.1576         30.3716         -55.1565         30.3739       -0.0101999         149.143
0.531                  -0.700661        -136.626         -55.0122         26.5523          -55.011         26.5544       -0.0103065         149.076
0.532                  -0.723709        -136.925          -54.889         22.7185         -54.8876         22.7204       -0.0104118         149.008
0.533                  -0.742767        -137.214         -54.7879         18.8877         -54.7864         18.8892       -0.0105157          148.94
0.534                  -0.757584        -137.499         -54.7087         15.0768         -54.7071         15.0779       -0.0106182         148.872
0.535                  -0.768115        -137.785         -54.6508         11.3025         -54.6491          11.303       -0.0107192         148.804
0.536                  -0.774506        -138.078         -54.6131         7.58004         -54.6113         7.58007       -0.0108188         148.736
0.537                  -0.777065        -138.383         -54.5941         3.92327         -54.5924         3.92278       -0.0109171         148.668
0.538                  -0.776223        -138.703         -54.5923        0.344105         -54.5906        0.343117       -0.0110144           148.6
0.539                   -0.77249         -139.04         -54.6059        -3.14759         -54.6042        -3.14904       -0.0111109         148.531
0.54                   -0.766405        -139.398          -54.633         -6.5441         -54.6313        -6.54594       -0.0112066         148.463
0.541                  -0.758508        -139.778         -54.6716        -9.83976           -54.67        -9.84191       -0.0113019         148.394
0.542                  -0.749304        -140.179         -54.7199        -13.0309         -54.7184        -13.0333        -0.011397         148.326
0.543                   -0.73925        -140.601         -54.7759        -16.1155         -54.7745        -16.1181        -0.011492         148.257
0.544                  -0.728746        -141.045         -54.8379        -19.0933         -54.8366        -19.0959       -0.0115871         148.188
0.545                   -0.71813        -141.508         -54.9042        -21.9651          -54.903        -21.9676       -0.0116826         148.119
0.546                  -0.707679        -141.991         -54.9733        -24.7328         -54.9722        -24.7353       -0.0117785          148.05
0.547                  -0.697618        -142.492         -55.0437        -27.3994         -55.0428        -27.4016       -0.0118749          147.98
0.548                  -0.688124         -143.01         -55.1144        -29.9682         -55.1135        -29.9701       -0.0119722         147.911
0.549                  -0.679333        -143.544         -55.1841        -32.4431         -55.1833        -32.4447       -0.0120702         147.841
0.55                   -0.671348        -144.092         -55.2519        -34.8283         -55.2513        -34.8295       -0.0121691         147.772
0.551                  -0.664246        -144.655         -55.3169        -37.1283         -55.3164        -37.1289       -0.0122691         147.702
0.552                  -0.658081        -145.231         -55.3784        -39.3474          -55.378        -39.3476       -0.0123701         147.632
0.553                  -0.652894        -145.819         -55.4358        -41.4903         -55.4355        -41.4899       -0.0124723         147.562
0.554                  -0.648712        -146.418         -55.4884        -43.5614         -55.4882        -43.5604       -0.0125756         147.492
0.555                  -0.645555        -147.029         -55.5359        -45.5651         -55.5358        -45.5634       -0.0126802         147.422
0.556                  -0.643436        -147.651         -55.5777        -47.5056         -55.5777        -47.5033       -0.0127861         147.351
0.557                  -0.642365        -148.283         -55.6136        -49.3872         -55.6137        -49.3843       -0.0128933         147.281
0.558                  -0.642352        -148.926         -55.6433        -51.2138         -55.6434        -51.2102       -0.0130018          147.21
0.559                  -0.643405        -149.578         -55.6665        -52.9893         -55.6667        -52.9851       -0.0131118         147.139
0.56                   -0.645535         -150.24          -55.683        -54.7174         -55.6832        -54.7125       -0.0132231         147.069
0.561                  -0.648754        -150.911         -55.6926        -56.4017         -55.6929        -56.3962       -0.0133359         146.998
0.562                  -0.653078        -151.592         -55.6952        -58.0456         -55.6955        -58.0396       -0.0134501         146.926
0.563                  -0.658523        -152.282         -55.6906        -59.6525          -55.691        -59.6459       -0.0135659         146.855
0.564                  -0.665115        -152.982         -55.6788        -61.2256         -55.6792        -61.2184       -0.0136832         146.784
0.565                  -0.672879        -153.692         -55.6596        -62.7679         -55.6601        -62.7602        -0.013802         146.712
0.566                  -0.681847        -154.411         -55.6331        -64.2824         -55.6335        -64.2743       -0.0139224          146.64
0.567                  -0.692058        -155.139          -55.599        -65.7722         -55.5995        -65.7636       -0.0140443         146.569
0.568                  -0.703553        -155.877         -55.5575        -67.2399          -55.558        -67.2309       -0.0141679         146.497
0.569                  -0.716384        -156.625         -55.5084        -68.6885         -55.5089        -68.6791       -0.0142932         146.425
0.57                   -0.730605        -157.383         -55.4518        -70.1205         -55.4523        -70.1109       -0.0144201         146.352
0.571                   -0.74628        -158.152         -55.3876        -71.5388         -55.3881        -71.5289       -0.0145487          146.28
0.572                  -0.763479         -158.93         -55.3158        -72.9459         -55.3163        -72.9359        -0.014679         146.208
0.573                   -0.78228        -159.719         -55.2365        -74.3445         -55.2369        -74.3343       -0.0148111         146.135
0.574                  -0.802771        -160.518         -55.1496        -75.7372           -55.15        -75.7269       -0.0149449         146.062
0.575                  -0.825046        -161.328         -55.0552        -77.1266         -55.0556        -77.1162       -0.0150806         145.989
0.576                  -0.849213        -162.148         -54.9533        -78.5152         -54.9537        -78.5048       -0.0152182         145.916
0.577                  -0.875386         -162.98          -54.844        -79.9056         -54.8443        -79.8953       -0.0153576         145.843
0.578                  -0.903693        -163.822         -54.7272        -81.3005         -54.7275        -81.2903        -0.015499         145.769
0.579                  -0.934274        -164.675         -54.6031        -82.7024         -54.6034        -82.6923       -0.0156423         145.696
0.58                   -0.967279        -165.539         -54.4718         -84.114          -54.472        -84.1041       -0.0157877         145.622
0.581                   -1.00287        -166.415         -54.3333        -85.5378         -54.3335        -85.5282       -0.0159351         145.548
0.582                   -1.04124        -167.301         -54.1877        -86.9767         -54.1879        -86.9673       -0.0160846         145.474
0.583                   -1.08257        -168.198         -54.0352        -88.4331         -54.0353        -88.4241       -0.0162363           145.4
0.584                   -1.12707        -169.105         -53.8759          -89.91         -53.8759        -89.9013       -0.0163902         145.326
0.585                   -1.17497        -170.022         -53.7099        -91.4099         -53.7099        -91.4016       -0.0165464         145.251
0.586                   -1.22653        -170.949         -53.5374        -92.9356         -53.5374        -92.9277       -0.0167049         145.176
0.587                   -1.28199        -171.885         -53.3586        -94.4899         -53.3586        -94.4825       -0.0168658         145.102
0.588                   -1.34163        -172.829         -53.1738        -96.0756         -53.1737        -96.0687       -0.0170292         145.027
0.589                   -1.40577         -173.78         -52.9831        -97.6955          -52.983         -97.689       -0.0171952         144.951
0.59                    -1.47471        -174.737         -52.7869        -99.3523         -52.7868        -99.3463       -0.0173637         144.876
0.591                   -1.54879        -175.699         -52.5854        -101.049         -52.5853        -101.043        -0.017535           144.8
0.592                   -1.62835        -176.664          -52.379        -102.788         -52.3788        -102.783        -0.017709         144.725
0.593                   -1.71375        -177.628          -52.168        -104.572         -52.1679        -104.567       -0.0178858         144.649
0.594                   -1.80536        -178.591          -51.953        -106.404         -51.9528          -106.4       -0.0180657         144.573
0.595                   -1.90354        -179.549         -51.7342        -108.286          -51.734        -108.282       -0.0182485         144.496
0.596                   -2.00866         179.502         -51.5122        -110.221         -51.5121        -110.218       -0.0184345          144.42
0.597                   -2.12105         178.566         -51.2876         -112.21         -51.2875        -112.208       -0.0186237         144.343
0.598                   -2.24104         177.647         -51.0609        -114.257         -51.0608        -114.255       -0.0188163         144.267
0.599                   -2.36889         176.752         -50.8327        -116.363         -50.8326        -116.362       -0.0190123          144.19
0.6                     -2.50479         175.886         -50.6037        -118.529         -50.6036        -118.528       -0.0192118         144.112
0.601                   -2.64887         175.057         -50.3746        -120.757         -50.3745        -120.756       -0.0194149         144.035
0.602                   -2.80109         174.272         -50.1462        -123.047         -50.1461        -123.047       -0.0196217         143.957
0.603                   -2.96129         173.541         -49.9191          -125.4          -49.919          -125.4       -0.0198323          143.88
0.604                   -3.12911         172.873         -49.6943        -127.816         -49.6942        -127.817       -0.0200468         143.802
0.605                   -3.30392         172.277         -49.4725        -130.295         -49.4724        -130.295       -0.0202652         143.723
0.606                   -3.48483         171.764         -49.2546        -132.834         -49.2546        -132.835       -0.0204876         143.645
0.607                   -3.67062         171.345         -49.0414        -135.433         -49.0414        -135.433       -0.0207142         143.566
0.608                   -3.85967         171.029         -48.8337        -138.088         -48.8337        -138.089       -0.0209448         143.488
0.609                   -4.04998         170.826         -48.6324        -140.797         -48.6325        -140.798       -0.0211796         143.409
0.61                    -4.23915         170.743         -48.4382        -143.556         -48.4383        -143.557       -0.0214185         143.329
0.611                   -4.42437         170.784         -48.2518        -146.361         -48.2518        -146.362       -0.0216615          143.25
0.612                   -4.60251         170.953         -48.0738        -149.206         -48.0738        -149.207       -0.0219087          143.17
0.613                   -4.77018         171.245         -47.9048        -152.086         -47.9048        -152.087         -0.02216          143.09
0.614                   -4.92395         171.654         -47.7451        -154.996         -47.7451        -154.997       -0.0224154          143.01
0.615                   -5.06044         172.168         -47.5952        -157.928         -47.5952        -157.929       -0.0226747          142.93
0.616                   -5.17663          172.77         -47.4551        -160.877         -47.4552        -160.878        -0.022938          142.85
0.617                   -5.27002         173.436         -47.3251        -163.835         -47.3251        -163.836       -0.0232051         142.769
0.618                   -5.33884         174.142          -47.205        -166.797          -47.205        -166.798        -0.023476         142.688
0.619                   -5.38221          174.86         -47.0947        -169.756         -47.0947        -169.757       -0.0237505         142.607
0.62                     -5.4002         175.561         -46.9939        -172.706         -46.9939        -172.706       -0.0240286         142.525
0.621                   -5.39377         176.218         -46.9023         -175.64         -46.9023         -175.64       -0.0243103         142.444
0.622                   -5.36469         176.807         -46.8192        -178.554         -46.8192        -178.555       -0.0245953         142.362
0.623                   -5.31536         177.306         -46.7443         178.557         -46.7443         178.556       -0.0248837          142.28
0.624                   -5.24863         177.701         -46.6768         175.696         -46.6768         175.696       -0.0251754         142.197
0.625                   -5.16753         177.979         -46.6162         172.869         -46.6161         172.869       -0.0254704         142.115
0.626                   -5.07514         178.134         -46.5617         170.077         -46.5616         170.077       -0.0257687         142.032
0.627                   -4.97443         178.163         -46.5125         167.323         -46.5125         167.323       -0.0260701         141.949
0.628                   -4.86812         178.066         -46.4681         164.608          -46.468         164.608       -0.0263749         141.865
0.629                   -4.75866         177.846         -46.4276         161.935         -46.4275         161.935       -0.0266829         141.782
