! TOUCHSTONE file generated by CST MICROWAVE STUDIO
! Date and time: Sat Oct 24 10:48:32 2020
! Project name: Scenario_1_Planar_Body_Tissue_Center.cst
! Parameters = {hfat=3; hmuscle=50; hskin=1.5; hgap=25; Wtissue=700; Ltissue=700; L_HA=400; MT=2.54; Rad_Dielectric=30; Rad_Lower=7.3; Rad_Upper=30; a_HA=580; a_WG=246; b_HA=500; b_WG=121; c_HA=0; c_WG=187; d_feed=85; dx1=883.12; h_feed=15; h_lower=18; h_upper=40}
! Header version: 2018
! Port assignment regex: !\s*Touchstone port\s*([0-9]+)\s*=\s*(CST MWS port|CST DS port)\s*([0-9]+|Zmin|Zmax)\s*\(\"(.*)\"\)(\s*mode\s*([0-9]+))?.*
! Touchstone port assignment:
! Touchstone port 1 = CST MWS port 1 ("")
! Touchstone port 2 = CST MWS port 2 ("")
# GHz S DB R 50
0.5                    -0.109276        -122.244         -63.0714         98.0888         -63.0715          98.089      -0.00750161         151.127
0.501                  -0.120592        -122.617         -62.6265         96.8215         -62.6294         96.8166      -0.00758076         151.062
0.502                  -0.131677        -122.992         -62.1745         95.4596         -62.1803         95.4507      -0.00766021         150.997
0.503                  -0.142534         -123.37         -61.7153         93.9953          -61.724         93.9836      -0.00773998         150.931
0.504                  -0.153168         -123.75          -61.249         92.4198         -61.2607         92.4065      -0.00782006         150.866
0.505                  -0.163582        -124.132         -60.7758         90.7233         -60.7906           90.71      -0.00790047           150.8
0.506                  -0.173781        -124.517         -60.2961         88.8952         -60.3139         88.8832      -0.00798122         150.735
0.507                  -0.183767        -124.904         -59.8104         86.9234         -59.8313         86.9146      -0.00806231         150.669
0.508                  -0.193547        -125.293         -59.3196         84.7952         -59.3436         84.7915      -0.00814375         150.603
0.509                  -0.203124        -125.686         -58.8247         82.4966         -58.8518         82.5002      -0.00822554         150.538
0.51                   -0.212501        -126.081         -58.3273         80.0131         -58.3575         80.0262      -0.00830771         150.472
0.511                  -0.221685        -126.478         -57.8295         77.3293         -57.8627         77.3546      -0.00839024         150.406
0.512                  -0.230678        -126.879         -57.3338         74.4302         -57.3698         74.4705      -0.00847316          150.34
0.513                  -0.239486        -127.282         -56.8434         71.3014          -56.882         71.3596      -0.00855647         150.274
0.514                  -0.248114        -127.688         -56.3623         67.9303         -56.4033         68.0095      -0.00864018         150.207
0.515                  -0.256566        -128.098         -55.8954         64.3076         -55.9382         64.4109       -0.0087243         150.141
0.516                  -0.264847         -128.51          -55.448          60.429         -55.4922         60.5591      -0.00880883         150.075
0.517                  -0.272963        -128.925         -55.0264          56.297         -55.0714         56.4563      -0.00889379         150.008
0.518                  -0.280918        -129.344         -54.6371         51.9231         -54.6821          52.113      -0.00897919         149.942
0.519                  -0.288718        -129.766          -54.287         47.3293          -54.331         47.5503      -0.00906503         149.875
0.52                   -0.296369        -130.191         -53.9822         42.5491         -54.0244         42.8005      -0.00915132         149.808
0.521                  -0.303876         -130.62          -53.728         37.6271         -53.7674         37.9066      -0.00923807         149.741
0.522                  -0.311245        -131.052         -53.5281         32.6171          -53.564          32.921       -0.0093253         149.675
0.523                  -0.318483        -131.488         -53.3843         27.5789          -53.416         27.9023      -0.00941301         149.608
0.524                  -0.325595        -131.927         -53.2961         22.5735         -53.3231         22.9108      -0.00950122         149.541
0.525                  -0.332589        -132.371         -53.2607         17.6589         -53.2829         18.0039      -0.00958994         149.473
0.526                  -0.339471        -132.818         -53.2737         12.8856          -53.291         13.2322      -0.00967917         149.406
0.527                  -0.346248        -133.269         -53.3292          8.2938         -53.3418         8.63656      -0.00976893         149.339
0.528                  -0.352927        -133.724         -53.4206          3.9124         -53.4288         4.24667      -0.00985923         149.271
0.529                  -0.359517        -134.183         -53.5409       -0.241013         -53.5453       0.0810621      -0.00995008         149.204
0.53                   -0.366026        -134.646         -53.6837        -4.15883         -53.6847        -3.85169       -0.0100415         149.136
0.531                  -0.372461        -135.114         -53.8429        -7.84162          -53.841        -7.55126       -0.0101335         149.068
0.532                  -0.378833        -135.586          -54.013        -11.2961         -54.0089        -11.0236       -0.0102261         149.001
0.533                  -0.385149        -136.063         -54.1897        -14.5332         -54.1836         -14.279       -0.0103192         148.933
0.534                  -0.391419        -136.544         -54.3689        -17.5665         -54.3614        -17.3306        -0.010413         148.865
0.535                  -0.397655         -137.03         -54.5477        -20.4112         -54.5391        -20.1931       -0.0105074         148.797
0.536                  -0.403865        -137.521         -54.7236        -23.0825         -54.7141        -22.8817       -0.0106025         148.728
0.537                  -0.410062        -138.017         -54.8946         -25.596         -54.8846        -25.4116       -0.0106982          148.66
0.538                  -0.416258        -138.518         -55.0593        -27.9661          -55.049        -27.7973       -0.0107946         148.592
0.539                  -0.422464        -139.024         -55.2165        -30.2068          -55.206        -30.0527       -0.0108916         148.523
0.54                   -0.428694        -139.535         -55.3653         -32.331         -55.3549        -32.1905       -0.0109894         148.455
0.541                  -0.434962        -140.052         -55.5053        -34.3503          -55.495        -34.2226       -0.0110878         148.386
0.542                  -0.441282        -140.575          -55.636        -36.2757         -55.6259        -36.1598        -0.011187         148.317
0.543                   -0.44767        -141.103          -55.757        -38.1168         -55.7473        -38.0119       -0.0112869         148.248
0.544                  -0.454143        -141.637         -55.8683        -39.8825          -55.859        -39.7878       -0.0113876         148.179
0.545                  -0.460717        -142.178         -55.9698        -41.5809         -55.9609        -41.4956        -0.011489          148.11
0.546                  -0.467412        -142.724         -56.0615        -43.2193          -56.053        -43.1426       -0.0115912         148.041
0.547                  -0.474247        -143.277         -56.1433        -44.8042         -56.1354        -44.7354       -0.0116943         147.971
0.548                  -0.481244        -143.836         -56.2155        -46.3415          -56.208          -46.28       -0.0117981         147.902
0.549                  -0.488424        -144.402          -56.278        -47.8366         -56.2711        -47.7818       -0.0119029         147.832
0.55                   -0.495812        -144.975         -56.3311        -49.2945         -56.3247        -49.2458       -0.0120084         147.763
0.551                  -0.503432        -145.555         -56.3747        -50.7195         -56.3688        -50.6764       -0.0121149         147.693
0.552                  -0.511314        -146.142         -56.4092        -52.1158         -56.4038        -52.0779       -0.0122223         147.623
0.553                  -0.519485        -146.736         -56.4345        -53.4871         -56.4296        -53.4538       -0.0123306         147.553
0.554                  -0.527977        -147.338         -56.4509        -54.8368         -56.4465        -54.8078       -0.0124398         147.483
0.555                  -0.536823        -147.948         -56.4585        -56.1681         -56.4546         -56.143         -0.01255         147.412
0.556                  -0.546061        -148.566         -56.4575        -57.4839          -56.454        -57.4623       -0.0126612         147.342
0.557                  -0.555727        -149.192         -56.4479         -58.787         -56.4448        -58.7685       -0.0127735         147.271
0.558                  -0.565865        -149.826         -56.4298        -60.0799         -56.4272        -60.0643       -0.0128868         147.201
0.559                  -0.576519        -150.469         -56.4035         -61.365         -56.4013        -61.3519       -0.0130011          147.13
0.56                   -0.587737        -151.121         -56.3691        -62.6446         -56.3673        -62.6338       -0.0131166         147.059
0.561                  -0.599572        -151.782         -56.3266        -63.9208         -56.3251        -63.9121       -0.0132332         146.988
0.562                  -0.612079        -152.452         -56.2762        -65.1957          -56.275        -65.1888       -0.0133509         146.917
0.563                   -0.62532        -153.132         -56.2179        -66.4713         -56.2171        -66.4659       -0.0134699         146.845
0.564                   -0.63936        -153.822          -56.152        -67.7494         -56.1515        -67.7455       -0.0135901         146.774
0.565                   -0.65427        -154.521         -56.0784         -69.032         -56.0782        -69.0292       -0.0137115         146.702
0.566                  -0.670128        -155.231         -55.9973        -70.3207         -55.9974         -70.319       -0.0138343         146.631
0.567                  -0.687017        -155.952         -55.9088        -71.6174         -55.9091        -71.6166       -0.0139584         146.559
0.568                  -0.705028        -156.683          -55.813        -72.9239         -55.8135        -72.9237       -0.0140839         146.487
0.569                  -0.724257        -157.426           -55.71        -74.2417         -55.7107        -74.2422       -0.0142108         146.415
0.57                   -0.744813        -158.179         -55.5998        -75.5727         -55.6007        -75.5736       -0.0143392         146.342
0.571                  -0.766811        -158.944         -55.4827        -76.9185         -55.4837        -76.9198       -0.0144691          146.27
0.572                  -0.790375        -159.721         -55.3585        -78.2808         -55.3597        -78.2824       -0.0146006         146.197
0.573                  -0.815643        -160.509         -55.2276        -79.6615         -55.2289        -79.6633       -0.0147337         146.125
0.574                  -0.842763        -161.309         -55.0899        -81.0622         -55.0913         -81.064       -0.0148685         146.052
0.575                  -0.871895        -162.121         -54.9456        -82.4846         -54.9471        -82.4865        -0.015005         145.979
0.576                  -0.903215        -162.946         -54.7949        -83.9307         -54.7964        -83.9325       -0.0151434         145.906
0.577                   -0.93691        -163.782         -54.6377        -85.4022         -54.6393        -85.4039       -0.0152836         145.832
0.578                  -0.973188        -164.631         -54.4743        -86.9009         -54.4759        -86.9025       -0.0154258         145.759
0.579                   -1.01227        -165.491         -54.3048        -88.4288         -54.3064        -88.4303       -0.0155699         145.685
0.58                    -1.05439        -166.363         -54.1293        -89.9879          -54.131        -89.9891       -0.0157162         145.612
0.581                   -1.09982        -167.246          -53.948          -91.58         -53.9497         -91.581       -0.0158647         145.538
0.582                   -1.14883         -168.14         -53.7612        -93.2073         -53.7629         -93.208       -0.0160154         145.464
0.583                   -1.20173        -169.044          -53.569        -94.8718         -53.5706        -94.8723       -0.0161684         145.389
0.584                   -1.25882        -169.957         -53.3716        -96.5755         -53.3732        -96.5757       -0.0163239         145.315
0.585                   -1.32045        -170.878         -53.1693        -98.3207         -53.1708        -98.3206        -0.016482          145.24
0.586                   -1.38698        -171.805         -52.9623        -100.109         -52.9638        -100.109       -0.0166427         145.166
0.587                   -1.45879        -172.737          -52.751        -101.944         -52.7524        -101.943       -0.0168061         145.091
0.588                   -1.53627        -173.672         -52.5356        -103.826          -52.537        -103.825       -0.0169723         145.015
0.589                    -1.6198        -174.607         -52.3167        -105.758         -52.3179        -105.758       -0.0171415          144.94
0.59                    -1.70981        -175.539         -52.0944        -107.743         -52.0956        -107.742       -0.0173138         144.865
0.591                   -1.80669        -176.463         -51.8694        -109.782         -51.8704         -109.78       -0.0174892         144.789
0.592                   -1.91081        -177.377          -51.642        -111.876          -51.643        -111.875       -0.0176679         144.713
0.593                   -2.02252        -178.274         -51.4129        -114.029         -51.4137        -114.028         -0.01785         144.637
0.594                   -2.14212        -179.149         -51.1825        -116.241         -51.1832         -116.24       -0.0180356         144.561
0.595                   -2.26981        -179.995         -50.9514        -118.514          -50.952        -118.513       -0.0182247         144.485
0.596                    -2.4057         179.196         -50.7205        -120.849          -50.721        -120.848       -0.0184175         144.408
0.597                   -2.54975         178.432         -50.4902        -123.247         -50.4906        -123.246        -0.018614         144.332
0.598                   -2.70173         177.723         -50.2615        -125.709         -50.2618        -125.708       -0.0188144         144.255
0.599                   -2.86118         177.079         -50.0351        -128.234         -50.0353        -128.233       -0.0190186         144.178
0.6                     -3.02734          176.51         -49.8117        -130.822         -49.8118        -130.822       -0.0192268         144.101
0.601                   -3.19913         176.027         -49.5923        -133.472         -49.5923        -133.472       -0.0194389         144.023
0.602                   -3.37509         175.642         -49.3776        -136.183         -49.3775        -136.183        -0.019655         143.945
0.603                   -3.55331         175.364         -49.1686        -138.951         -49.1684        -138.952       -0.0198752         143.868
0.604                   -3.73148         175.201          -48.966        -141.775         -48.9658        -141.776       -0.0200993          143.79
0.605                   -3.90686         175.159         -48.7707        -144.651         -48.7704        -144.652       -0.0203273         143.711
0.606                   -4.07631         175.241         -48.5834        -147.574         -48.5831        -147.576       -0.0205593         143.633
0.607                   -4.23647         175.446         -48.4048        -150.539         -48.4045        -150.541       -0.0207951         143.554
0.608                   -4.38382         175.767         -48.2355        -153.541         -48.2352        -153.544       -0.0210346         143.475
0.609                   -4.51495         176.192         -48.0761        -156.575         -48.0758        -156.577       -0.0212779         143.396
0.61                    -4.62676         176.706          -47.927        -159.632         -47.9266        -159.635       -0.0215247         143.317
0.611                   -4.71668         177.285         -47.7883        -162.707         -47.7879         -162.71        -0.021775         143.238
0.612                   -4.78291         177.905         -47.6603        -165.792           -47.66        -165.796       -0.0220288         143.158
0.613                   -4.82455         178.537         -47.5431         -168.88         -47.5427        -168.884       -0.0222857         143.078
0.614                   -4.84167         179.154         -47.4364        -171.965         -47.4361        -171.969       -0.0225459         142.998
0.615                   -4.83526         179.728           -47.34        -175.039         -47.3397        -175.044       -0.0228091         142.918
0.616                   -4.80712        -179.765         -47.2536        -178.097         -47.2534        -178.101       -0.0230753         142.838
0.617                   -4.75966        -179.344         -47.1767         178.869         -47.1765         178.864       -0.0233443         142.757
0.618                   -4.69573        -179.025         -47.1087         175.862         -47.1085         175.858       -0.0236162         142.676
0.619                   -4.61835        -178.819         -47.0489         172.889         -47.0488         172.885       -0.0238909         142.595
0.62                    -4.53055        -178.732         -46.9967         169.953         -46.9966         169.949       -0.0241683         142.513
0.621                    -4.4352        -178.766         -46.9513         167.058         -46.9512         167.054       -0.0244484         142.432
0.622                   -4.33496         -178.92         -46.9119         164.205         -46.9119         164.202       -0.0247312          142.35
0.623                   -4.23216         -179.19         -46.8778         161.398         -46.8777         161.395       -0.0250167         142.268
0.624                   -4.12878        -179.572          -46.848         158.638          -46.848         158.635        -0.025305         142.185
0.625                    -4.0265         179.941         -46.8219         155.925         -46.8219         155.922       -0.0255961         142.103
0.626                   -3.92667         179.356         -46.7987          153.26         -46.7987         153.257         -0.02589          142.02
0.627                   -3.83039         178.679         -46.7778         150.642         -46.7778          150.64       -0.0261869         141.937
0.628                   -3.73849         177.919         -46.7583         148.071         -46.7583         148.069       -0.0264869         141.853
0.629                   -3.65161         177.081         -46.7397         145.545         -46.7397         145.543         -0.02679         141.769
