! TOUCHSTONE file generated by CST MICROWAVE STUDIO
! Date and time: Sat Oct 24 10:48:40 2020
! Project name: Scenario_1_Planar_Body_Tissue_Center.cst
! Parameters = {hfat=3; hmuscle=50; hskin=1.5; hgap=25; Wtissue=700; Ltissue=700; L_HA=400; MT=2.54; Rad_Dielectric=30; Rad_Lower=7.3; Rad_Upper=30; a_HA=580; a_WG=246; b_HA=500; b_WG=121; c_HA=0; c_WG=187; d_feed=85; dx1=900.44; h_feed=15; h_lower=18; h_upper=40}
! Header version: 2018
! Port assignment regex: !\s*Touchstone port\s*([0-9]+)\s*=\s*(CST MWS port|CST DS port)\s*([0-9]+|Zmin|Zmax)\s*\(\"(.*)\"\)(\s*mode\s*([0-9]+))?.*
! Touchstone port assignment:
! Touchstone port 1 = CST MWS port 1 ("")
! Touchstone port 2 = CST MWS port 2 ("")
# GHz S DB R 50
0.5                    -0.126672        -122.328         -62.5484         87.7868         -62.5476         87.7902      -0.00756495         151.142
0.501                  -0.134916        -122.788         -62.2547         85.8119         -62.2538         85.8149      -0.00768885         151.077
0.502                   -0.14381         -123.25         -61.9564         83.7634         -61.9553          83.766      -0.00780475         151.011
0.503                  -0.153418        -123.716          -61.654         81.6365         -61.6528         81.6386        -0.007914         150.946
0.504                  -0.163804        -124.184         -61.3481         79.4263         -61.3468         79.4279      -0.00801774         150.881
0.505                  -0.175038        -124.653         -61.0393         77.1279          -61.038         77.1289      -0.00811691         150.815
0.506                  -0.187186        -125.125         -60.7286         74.7363         -60.7271         74.7367      -0.00821229         150.749
0.507                  -0.200315        -125.597         -60.4168         72.2469         -60.4153         72.2466      -0.00830452         150.684
0.508                  -0.214483         -126.07         -60.1051         69.6549         -60.1035         69.6539      -0.00839415         150.618
0.509                  -0.229743        -126.542         -59.7948         66.9565         -59.7931         66.9547       -0.0084816         150.552
0.51                   -0.246129        -127.013         -59.4873         64.1481         -59.4856         64.1456      -0.00856728         150.487
0.511                  -0.263657        -127.481         -59.1842         61.2275         -59.1825         61.2242      -0.00865149         150.421
0.512                  -0.282313        -127.944         -58.8874         58.1932         -58.8856         58.1891      -0.00873452         150.355
0.513                  -0.302045        -128.403         -58.5987         55.0456          -58.597         55.0407      -0.00881658         150.288
0.514                  -0.322759        -128.854         -58.3203         51.7867         -58.3186          51.781      -0.00889789         150.222
0.515                  -0.344307        -129.297         -58.0543         48.4207         -58.0526         48.4142      -0.00897862         150.156
0.516                  -0.366481        -129.731         -57.8027          44.954         -57.8011         44.9469      -0.00905892          150.09
0.517                  -0.389014        -130.153         -57.5678         41.3957         -57.5662         41.3879      -0.00913893         150.023
0.518                  -0.411581        -130.564         -57.3513         37.7571         -57.3499         37.7488      -0.00921875         149.957
0.519                  -0.433807        -130.962         -57.1552         34.0522         -57.1538         34.0434       -0.0092985          149.89
0.52                   -0.455286        -131.348         -56.9806          30.297         -56.9794          30.288      -0.00937827         149.824
0.521                  -0.475597        -131.722         -56.8287         26.5094         -56.8277         26.5001      -0.00945814         149.757
0.522                  -0.494339        -132.086         -56.7001          22.708         -56.6991         22.6987      -0.00953818          149.69
0.523                  -0.511153        -132.441         -56.5946         18.9124         -56.5938         18.9032      -0.00961847         149.623
0.524                  -0.525753        -132.791         -56.5121         15.1417         -56.5114         15.1326      -0.00969905         149.556
0.525                  -0.537942        -133.137         -56.4515         11.4139         -56.4509         11.4051         -0.00978         149.489
0.526                  -0.547629        -133.484         -56.4115         7.74566         -56.4111         7.73735      -0.00986136         149.422
0.527                  -0.554828        -133.834         -56.3905         4.15159         -56.3902         4.14378      -0.00994317         149.354
0.528                  -0.559646         -134.19         -56.3867        0.643855         -56.3864        0.636591       -0.0100255         149.287
0.529                  -0.562274        -134.554         -56.3979        -2.76788         -56.3977        -2.77455       -0.0101083         149.219
0.53                    -0.56296        -134.929         -56.4219        -6.07648         -56.4218        -6.08253       -0.0101918         149.152
0.531                   -0.56199        -135.316         -56.4567        -9.27719         -56.4566        -9.28262       -0.0102758         149.084
0.532                  -0.559666        -135.716            -56.5        -12.3675            -56.5        -12.3723       -0.0103605         149.016
0.533                  -0.556288        -136.131           -56.55        -15.3467           -56.55        -15.3509       -0.0104459         148.948
0.534                  -0.552143         -136.56         -56.6046        -18.2159         -56.6046        -18.2195        -0.010532          148.88
0.535                  -0.547493        -137.003         -56.6623        -20.9773         -56.6623        -20.9804       -0.0106188         148.812
0.536                   -0.54257         -137.46         -56.7214        -23.6343         -56.7214        -23.6369       -0.0107064         148.744
0.537                  -0.537575        -137.931         -56.7806         -26.191         -56.7806        -26.1932       -0.0107948         148.676
0.538                   -0.53268        -138.416         -56.8387         -28.652         -56.8387        -28.6538        -0.010884         148.607
0.539                  -0.528026        -138.913         -56.8946        -31.0223         -56.8946        -31.0238       -0.0109741         148.539
0.54                    -0.52373        -139.423         -56.9475        -33.3071         -56.9475        -33.3083        -0.011065          148.47
0.541                  -0.519886        -139.944         -56.9965        -35.5116         -56.9965        -35.5126       -0.0111568         148.402
0.542                   -0.51657        -140.476         -57.0411        -37.6412         -57.0411        -37.6419       -0.0112496         148.333
0.543                  -0.513841        -141.019         -57.0807        -39.7008         -57.0807        -39.7014       -0.0113433         148.264
0.544                  -0.511747        -141.573         -57.1148        -41.6955         -57.1148        -41.6959       -0.0114379         148.195
0.545                  -0.510326        -142.136         -57.1432        -43.6301         -57.1431        -43.6304       -0.0115335         148.126
0.546                  -0.509608        -142.708         -57.1653        -45.5092         -57.1652        -45.5094       -0.0116302         148.056
0.547                   -0.50962         -143.29         -57.1811        -47.3371          -57.181        -47.3372       -0.0117278         147.987
0.548                  -0.510384        -143.881         -57.1904        -49.1179         -57.1903        -49.1181       -0.0118266         147.917
0.549                  -0.511919        -144.481         -57.1929        -50.8556         -57.1928        -50.8558       -0.0119264         147.848
0.55                   -0.514246        -145.089         -57.1887        -52.5539         -57.1885        -52.5541       -0.0120273         147.778
0.551                  -0.517384        -145.706         -57.1775        -54.2164         -57.1773        -54.2165       -0.0121293         147.708
0.552                  -0.521352        -146.331         -57.1593        -55.8461         -57.1592        -55.8464       -0.0122325         147.638
0.553                  -0.526175        -146.965         -57.1341        -57.4465          -57.134        -57.4467       -0.0123369         147.568
0.554                  -0.531876        -147.607         -57.1019        -59.0202         -57.1017        -59.0205       -0.0124424         147.498
0.555                  -0.538483        -148.258         -57.0625        -60.5703         -57.0624        -60.5707       -0.0125492         147.428
0.556                  -0.546028        -148.918         -57.0161        -62.0993          -57.016        -62.0997       -0.0126572         147.357
0.557                  -0.554544        -149.585         -56.9626        -63.6098         -56.9625        -63.6103       -0.0127666         147.287
0.558                  -0.564073        -150.262          -56.902        -65.1043         -56.9019        -65.1048       -0.0128772         147.216
0.559                  -0.574657        -150.948         -56.8343         -66.585         -56.8342        -66.5856       -0.0129892         147.145
0.56                   -0.586346        -151.642         -56.7595        -68.0543         -56.7595         -68.055       -0.0131025         147.074
0.561                  -0.599195        -152.345         -56.6776        -69.5144         -56.6776        -69.5151       -0.0132172         147.003
0.562                  -0.613266        -153.058         -56.5887        -70.9675         -56.5887        -70.9682       -0.0133334         146.932
0.563                  -0.628626         -153.78         -56.4926        -72.4158         -56.4926        -72.4165        -0.013451         146.861
0.564                   -0.64535        -154.511         -56.3895        -73.8613         -56.3896         -73.862       -0.0135702         146.789
0.565                  -0.663521        -155.252         -56.2794        -75.3061         -56.2794        -75.3069       -0.0136909         146.718
0.566                  -0.683232        -156.003         -56.1621        -76.7526         -56.1622        -76.7533       -0.0138131         146.646
0.567                  -0.704582        -156.763         -56.0378        -78.2027         -56.0379        -78.2035        -0.013937         146.574
0.568                  -0.727682        -157.533         -55.9065        -79.6588         -55.9066        -79.6595       -0.0140626         146.502
0.569                  -0.752653        -158.314         -55.7681         -81.123         -55.7682        -81.1237       -0.0141899          146.43
0.57                   -0.779629        -159.104         -55.6226        -82.5977         -55.6227        -82.5984       -0.0143189         146.357
0.571                  -0.808755        -159.904         -55.4702        -84.0853         -55.4703         -84.086       -0.0144498         146.285
0.572                  -0.840189        -160.714         -55.3107        -85.5883         -55.3108         -85.589       -0.0145825         146.212
0.573                  -0.874105        -161.535         -55.1443        -87.1092         -55.1445        -87.1099       -0.0147171          146.14
0.574                   -0.91069        -162.364          -54.971        -88.6507         -54.9712        -88.6513       -0.0148538         146.067
0.575                  -0.950149        -163.204         -54.7909        -90.2156          -54.791        -90.2162       -0.0149925         145.994
0.576                  -0.992704        -164.052          -54.604        -91.8067         -54.6041        -91.8072       -0.0151333         145.921
0.577                   -1.03859        -164.909         -54.4104        -93.4271         -54.4106        -93.4275       -0.0152764         145.847
0.578                   -1.08807        -165.774         -54.2104        -95.0797         -54.2106        -95.0801       -0.0154217         145.774
0.579                   -1.14142        -166.646          -54.004        -96.7679         -54.0042        -96.7683       -0.0155693           145.7
0.58                    -1.19894        -167.524         -53.7914        -98.4949         -53.7916        -98.4953       -0.0157194         145.626
0.581                   -1.26092        -168.407          -53.573        -100.264         -53.5731        -100.264        -0.015872         145.552
0.582                   -1.32771        -169.293         -53.3488        -102.079          -53.349        -102.079       -0.0160273         145.478
0.583                   -1.39964         -170.18         -53.1194        -103.943         -53.1196        -103.943       -0.0161852         145.404
0.584                   -1.47706        -171.066          -52.885         -105.86         -52.8852         -105.86        -0.016346         145.329
0.585                   -1.56033        -171.947         -52.6462        -107.833         -52.6463        -107.833       -0.0165097         145.255
0.586                   -1.64979        -172.821         -52.4033        -109.866         -52.4035        -109.866       -0.0166764          145.18
0.587                   -1.74577        -173.684         -52.1571        -111.962         -52.1572        -111.962       -0.0168462         145.105
0.588                   -1.84858        -174.531          -51.908        -114.124         -51.9081        -114.124       -0.0170192          145.03
0.589                   -1.95847        -175.356         -51.6569        -116.356          -51.657        -116.356       -0.0171956         144.955
0.59                    -2.07562        -176.153         -51.4045        -118.659         -51.4046         -118.66       -0.0173753         144.879
0.591                   -2.20011        -176.916         -51.1517        -121.038         -51.1518        -121.038       -0.0175586         144.803
0.592                   -2.33188        -177.636         -50.8995        -123.492         -50.8996        -123.493       -0.0177455         144.728
0.593                    -2.4707        -178.305         -50.6488        -126.024         -50.6489        -126.025       -0.0179361         144.652
0.594                   -2.61611        -178.913         -50.4007        -128.635         -50.4008        -128.635       -0.0181304         144.576
0.595                   -2.76739         -179.45         -50.1564        -131.323         -50.1565        -131.324       -0.0183286         144.499
0.596                   -2.92349        -179.907         -49.9171        -134.089         -49.9172        -134.089       -0.0185306         144.423
0.597                   -3.08299         179.727         -49.6838        -136.929         -49.6839         -136.93       -0.0187364         144.346
0.598                   -3.24409          179.46         -49.4579        -139.842         -49.4579        -139.842       -0.0189462         144.269
0.599                   -3.40454         179.299         -49.2404        -142.822         -49.2404        -142.823       -0.0191598         144.192
0.6                     -3.56173         179.251         -49.0324        -145.866         -49.0325        -145.866       -0.0193772         144.115
0.601                   -3.71267         179.317          -48.835        -148.966         -48.8351        -148.967       -0.0195984         144.037
0.602                   -3.85416         179.494         -48.6491        -152.115         -48.6492        -152.116       -0.0198233          143.96
0.603                   -3.98289         179.777         -48.4754        -155.307         -48.4755        -155.307       -0.0200518         143.882
0.604                   -4.09567        -179.848         -48.3146         -158.53         -48.3147        -158.531       -0.0202838         143.804
0.605                   -4.18967        -179.398          -48.167        -161.778          -48.167        -161.778       -0.0205192         143.726
0.606                   -4.26261        -178.893         -48.0328        -165.039         -48.0329         -165.04       -0.0207577         143.647
0.607                   -4.31299         -178.36         -47.9121        -168.305         -47.9122        -168.305       -0.0209994         143.569
0.608                   -4.34019        -177.824         -47.8047        -171.566         -47.8048        -171.566        -0.021244          143.49
0.609                   -4.34456        -177.314         -47.7102        -174.812         -47.7102        -174.813       -0.0214914         143.411
0.61                    -4.32729        -176.853          -47.628        -178.037         -47.6281        -178.037       -0.0217415         143.332
0.611                   -4.29034        -176.465         -47.5575         178.769         -47.5575         178.769       -0.0219941         143.252
0.612                   -4.23622        -176.166         -47.4979         175.612         -47.4979         175.611       -0.0222491         143.173
0.613                   -4.16778        -175.971         -47.4481         172.497         -47.4481         172.496       -0.0225064         143.093
0.614                   -4.08799        -175.888         -47.4073         169.429         -47.4073         169.429        -0.022766         143.013
0.615                   -3.99977         -175.92         -47.3744         166.413         -47.3743         166.413       -0.0230278         142.933
0.616                   -3.90586        -176.069         -47.3483         163.451         -47.3483         163.451       -0.0232917         142.852
0.617                   -3.80872        -176.333         -47.3282         160.545         -47.3281         160.544       -0.0235578         142.772
0.618                   -3.71049        -176.706         -47.3128         157.696         -47.3127         157.695       -0.0238261         142.691
0.619                   -3.61297        -177.183         -47.3013         154.903         -47.3013         154.903       -0.0240966         142.609
0.62                    -3.51763        -177.757         -47.2929         152.168         -47.2928         152.167       -0.0243694         142.528
0.621                   -3.42565        -178.421         -47.2865         149.488         -47.2864         149.488       -0.0246446         142.446
0.622                   -3.33795        -179.168         -47.2814         146.863         -47.2814         146.862       -0.0249221         142.364
0.623                   -3.25521        -179.991          -47.277         144.291         -47.2769          144.29       -0.0252023         142.282
0.624                   -3.17793         179.116         -47.2726         141.768         -47.2725         141.767       -0.0254851           142.2
0.625                   -3.10647          178.16         -47.2675         139.294         -47.2674         139.293       -0.0257707         142.117
0.626                   -3.04106         177.145         -47.2613         136.865         -47.2612         136.864       -0.0260592         142.034
0.627                   -2.98184         176.077         -47.2534         134.479         -47.2534         134.479       -0.0263508         141.951
0.628                   -2.92889          174.96         -47.2436         132.134         -47.2435         132.133       -0.0266457         141.868
0.629                   -2.88223         173.797         -47.2314         129.825         -47.2314         129.824       -0.0269439         141.784
