! TOUCHSTONE file generated by CST MICROWAVE STUDIO
! Date and time: Sat Oct 24 10:49:26 2020
! Project name: Scenario_1_Planar_Body_Tissue_Center.cst
! Parameters = {hfat=3; hmuscle=50; hskin=1.5; hgap=25; Wtissue=700; Ltissue=700; L_HA=400; MT=2.54; Rad_Dielectric=30; Rad_Lower=7.3; Rad_Upper=30; a_HA=580; a_WG=246; b_HA=500; b_WG=121; c_HA=0; c_WG=187; d_feed=85; dx1=987.04; h_feed=15; h_lower=18; h_upper=40}
! Header version: 2018
! Port assignment regex: !\s*Touchstone port\s*([0-9]+)\s*=\s*(CST MWS port|CST DS port)\s*([0-9]+|Zmin|Zmax)\s*\(\"(.*)\"\)(\s*mode\s*([0-9]+))?.*
! Touchstone port assignment:
! Touchstone port 1 = CST MWS port 1 ("")
! Touchstone port 2 = CST MWS port 2 ("")
# GHz S DB R 50
0.5                     -0.21775        -121.828           -61.58         19.1613         -61.5799         19.1623      -0.00773579         151.146
0.501                  -0.219623        -122.238         -61.5389         18.4598         -61.5463         18.4604      -0.00780297         151.081
0.502                  -0.221507        -122.651         -61.4964         17.7522         -61.5118         17.7512      -0.00787078         151.015
0.503                  -0.223406        -123.066         -61.4527         17.0385         -61.4763         17.0348      -0.00793921          150.95
0.504                  -0.225323        -123.485         -61.4077         16.3192           -61.44         16.3114      -0.00800826         150.885
0.505                  -0.227263        -123.906         -61.3613         15.5945         -61.4027         15.5809      -0.00807792         150.819
0.506                  -0.229228        -124.331         -61.3136         14.8647         -61.3645         14.8437       -0.0081482         150.754
0.507                  -0.231223        -124.759         -61.2645         14.1303         -61.3255            14.1      -0.00821908         150.688
0.508                  -0.233253         -125.19          -61.214         13.3918         -61.2856         13.3499      -0.00829057         150.622
0.509                  -0.235321        -125.624         -61.1622         12.6497         -61.2449         12.5938      -0.00836267         150.556
0.51                   -0.237434        -126.061         -61.1089         11.9046         -61.2034         11.8319      -0.00843537         150.491
0.511                  -0.239597        -126.502         -61.0544         11.1574         -61.1611         11.0646      -0.00850866         150.425
0.512                  -0.241815        -126.947         -60.9984         10.4087         -61.1183         10.2924      -0.00858256         150.359
0.513                  -0.244095        -127.395         -60.9412         9.65953         -61.0748         9.51571      -0.00865704         150.293
0.514                  -0.246442        -127.847         -60.8828           8.911         -61.0309         8.73506      -0.00873211         150.226
0.515                  -0.248865        -128.302         -60.8232         8.16432         -60.9866         7.95105      -0.00880777          150.16
0.516                  -0.251371        -128.761         -60.7625         7.42088         -60.9422         7.16435      -0.00888401         150.094
0.517                  -0.253968        -129.225         -60.7008         6.68228         -60.8977         6.37569      -0.00896083         150.027
0.518                  -0.256665        -129.692         -60.6384         5.95035         -60.8535         5.58591      -0.00903822         149.961
0.519                  -0.259471        -130.164         -60.5754         5.22715         -60.8098         4.79588      -0.00911618         149.894
0.52                   -0.262396        -130.639          -60.512         4.51505         -60.7669         4.00661      -0.00919471         149.827
0.521                  -0.265451        -131.119         -60.4487         3.81674         -60.7253         3.21913       -0.0092738         149.761
0.522                  -0.268648        -131.604         -60.3857          3.1353         -60.6853         2.43459      -0.00935344         149.694
0.523                  -0.271999        -132.093         -60.3236         2.47421         -60.6476         1.65414      -0.00943365         149.627
0.524                  -0.275518        -132.587         -60.2629         1.83747         -60.6128        0.878993       -0.0095144          149.56
0.525                   -0.27922        -133.085         -60.2046         1.22959         -60.5818        0.110328       -0.0095957         149.493
0.526                  -0.283121        -133.589         -60.1494        0.655689         -60.5555       -0.650765      -0.00967754         149.425
0.527                  -0.287237        -134.098         -60.0987        0.121557          -60.535        -1.40339      -0.00975993         149.358
0.528                  -0.291588        -134.611          -60.054        -0.36633          -60.522          -2.147      -0.00984285         149.291
0.529                  -0.296192        -135.131         -60.0172       -0.800783          -60.518        -2.88162       -0.0099263         149.223
0.53                   -0.301074        -135.655         -59.9908        -1.17395         -60.5252        -3.60818       -0.0100103         149.156
0.531                  -0.306255        -136.186         -59.9778        -1.47747          -60.546        -4.32905       -0.0100948         149.088
0.532                  -0.311762        -136.722         -59.9825        -1.70279         -60.5836        -5.04867       -0.0101799          149.02
0.533                  -0.317624        -137.264         -60.0099        -1.84184         -60.6417        -5.77469       -0.0102655         148.952
0.534                   -0.32387        -137.812         -60.0667        -1.88817         -60.7247        -6.51945       -0.0103516         148.884
0.535                  -0.330535        -138.367         -60.1618        -1.83904         -60.8379        -7.30219       -0.0104383         148.816
0.536                  -0.337656        -138.928         -60.3065        -1.69894         -60.9876        -8.15228       -0.0105255         148.748
0.537                  -0.345271        -139.495         -60.5157        -1.48564         -61.1809        -9.11385       -0.0106133          148.68
0.538                  -0.353427         -140.07         -60.8087        -1.24042         -61.4256        -10.2523       -0.0107017         148.611
0.539                  -0.362169        -140.651         -61.2102        -1.04537         -61.7299        -11.6633       -0.0107906         148.543
0.54                   -0.371553         -141.24         -61.7516        -1.05294         -62.1004        -13.4849       -0.0108802         148.474
0.541                  -0.381636        -141.837         -62.4701        -1.53681         -62.5396        -15.9106       -0.0109705         148.406
0.542                  -0.392482         -142.44         -63.4058        -2.98018         -63.0405        -19.2007       -0.0110614         148.337
0.543                  -0.404163        -143.052         -64.5855        -6.22417         -63.5772        -23.6749       -0.0111531         148.268
0.544                  -0.416755        -143.672         -65.9728        -12.6633         -64.0921         -29.655       -0.0112455         148.199
0.545                  -0.430346          -144.3          -67.332        -24.1542         -64.4865        -37.3063       -0.0113388          148.13
0.546                  -0.445031        -144.936          -68.059        -41.2428         -64.6342        -46.3822        -0.011433          148.06
0.547                  -0.460914        -145.581         -67.5674        -59.7781          -64.438        -56.0722       -0.0115282         147.991
0.548                  -0.478112        -146.234         -66.1462        -74.0634         -63.8958        -65.2732       -0.0116245         147.922
0.549                  -0.496753        -146.896         -64.4842         -83.051         -63.1027        -73.1556       -0.0117221         147.852
0.55                   -0.516979        -147.567         -62.9433        -88.3915         -62.1853        -79.4537        -0.011821         147.782
0.551                  -0.538948        -148.247         -61.6129        -91.6451         -61.2442        -84.3249       -0.0119213         147.712
0.552                  -0.562832        -148.935         -60.4829        -93.7853         -60.3386        -88.0923       -0.0120233         147.642
0.553                  -0.588823        -149.632         -59.5195        -95.3681         -59.4955         -91.081       -0.0121272         147.572
0.554                   -0.61713        -150.337         -58.6886        -96.7076         -58.7225        -93.5575       -0.0122331         147.502
0.555                  -0.647983         -151.05         -57.9612        -97.9823         -58.0171        -95.7213       -0.0123412         147.432
0.556                  -0.681635        -151.771         -57.3148        -99.2937         -57.3729        -97.7152       -0.0124517         147.361
0.557                  -0.718359        -152.498         -56.7316          -100.7         -56.7819         -99.639       -0.0125649         147.291
0.558                  -0.758449         -153.23         -56.1983        -102.232         -56.2363        -101.562        -0.012681          147.22
0.559                  -0.802222        -153.967         -55.7048        -103.909         -55.7292        -103.531       -0.0128002         147.149
0.56                   -0.850009        -154.706         -55.2432         -105.74         -55.2547        -105.579       -0.0129228         147.078
0.561                  -0.902157        -155.445          -54.808        -107.728         -54.8079        -107.727       -0.0130488         147.007
0.562                  -0.959017        -156.182         -54.3947        -109.874          -54.385        -109.991       -0.0131785         146.936
0.563                   -1.02093        -156.912         -54.0003        -112.178          -53.983        -112.379        -0.013312         146.864
0.564                   -1.08822        -157.633         -53.6228        -114.639         -53.5998        -114.898       -0.0134493         146.793
0.565                   -1.16116        -158.339         -53.2606        -117.253         -53.2337        -117.551       -0.0135905         146.721
0.566                   -1.23996        -159.024         -52.9131        -120.019         -52.8839         -120.34       -0.0137356         146.649
0.567                   -1.32468        -159.681         -52.5801        -122.932         -52.5499        -123.264       -0.0138845         146.577
0.568                   -1.41525        -160.303         -52.2617        -125.987         -52.2316        -126.321       -0.0140371         146.505
0.569                   -1.51137        -160.881         -51.9584         -129.18         -51.9295        -129.508       -0.0141931         146.433
0.57                    -1.61244        -161.406         -51.6711        -132.504         -51.6441        -132.818       -0.0143523         146.361
0.571                   -1.71752        -161.867         -51.4006        -135.949         -51.3761        -136.246       -0.0145145         146.289
0.572                   -1.82527        -162.257         -51.1481        -139.508         -51.1264        -139.782       -0.0146795         146.216
0.573                   -1.93388        -162.566         -50.9146        -143.167         -50.8959        -143.416       -0.0148468         146.143
0.574                    -2.0411        -162.789         -50.7011        -146.915         -50.6856        -147.135       -0.0150163         146.071
0.575                   -2.14429        -162.922         -50.5087        -150.737         -50.4962        -150.926       -0.0151875         145.998
0.576                   -2.24052        -162.966         -50.3378        -154.617         -50.3282        -154.774       -0.0153604         145.925
0.577                   -2.32677        -162.929         -50.1891        -158.538         -50.1821        -158.663       -0.0155345         145.852
0.578                   -2.40016        -162.822         -50.0625        -162.483         -50.0578        -162.576       -0.0157097         145.778
0.579                   -2.45829        -162.661         -49.9579        -166.436         -49.9552        -166.496       -0.0158859         145.705
0.58                     -2.4994        -162.467         -49.8748        -170.378         -49.8736        -170.408       -0.0160628         145.631
0.581                   -2.52265        -162.265         -49.8121        -174.294         -49.8122        -174.294       -0.0162403         145.558
0.582                   -2.52814        -162.079         -49.7689        -178.169         -49.7697        -178.142       -0.0164185         145.484
0.583                   -2.51689         -161.93         -49.7436         178.011         -49.7449         178.062       -0.0165972          145.41
0.584                   -2.49069        -161.839         -49.7347         174.255         -49.7362         174.329       -0.0167763         145.335
0.585                   -2.45185         -161.82         -49.7404         170.575         -49.7418         170.668        -0.016956         145.261
0.586                   -2.40298        -161.884         -49.7588         166.976           -49.76         167.086       -0.0171362         145.187
0.587                   -2.34672        -162.036         -49.7883         163.465          -49.789         163.588        -0.017317         145.112
0.588                   -2.28557        -162.277         -49.8269         160.045         -49.8272         160.179       -0.0174983         145.037
0.589                   -2.22178        -162.606          -49.873         156.717         -49.8727          156.86       -0.0176804         144.962
0.59                    -2.15725        -163.019         -49.9249         153.483         -49.9239         153.632       -0.0178632         144.887
0.591                   -2.09356         -163.51         -49.9811         150.342         -49.9795         150.495       -0.0180469         144.812
0.592                   -2.03193        -164.072         -50.0402         147.292          -50.038         147.447       -0.0182315         144.736
0.593                   -1.97328        -164.699          -50.101          144.33         -50.0982         144.486       -0.0184171         144.661
0.594                   -1.91829        -165.385         -50.1623         141.454          -50.159         141.609       -0.0186039         144.585
0.595                   -1.86741        -166.123         -50.2232          138.66         -50.2194         138.812       -0.0187918         144.509
0.596                   -1.82093        -166.907         -50.2827         135.944         -50.2784         136.093       -0.0189811         144.433
0.597                   -1.77902        -167.734         -50.3401         133.302         -50.3355         133.447       -0.0191717         144.356
0.598                   -1.74176        -168.598         -50.3947          130.73         -50.3898          130.87       -0.0193639          144.28
0.599                   -1.70914        -169.495          -50.446         128.224         -50.4409         128.358       -0.0195576         144.203
0.6                     -1.68113        -170.424         -50.4935          125.78         -50.4883         125.908       -0.0197531         144.126
0.601                   -1.65767         -171.38         -50.5368         123.393         -50.5314         123.514       -0.0199503         144.049
0.602                   -1.63868        -172.362         -50.5755         121.059         -50.5701         121.174       -0.0201494         143.972
0.603                   -1.62407        -173.367         -50.6094         118.776          -50.604         118.883       -0.0203505         143.894
0.604                   -1.61378        -174.395         -50.6382         116.537         -50.6329         116.638       -0.0205537         143.816
0.605                   -1.60772        -175.445         -50.6618         114.341         -50.6565         114.436       -0.0207591         143.738
0.606                   -1.60585        -176.515           -50.68         112.184         -50.6748         112.271       -0.0209667          143.66
0.607                   -1.60812        -177.604         -50.6926         110.061         -50.6876         110.142       -0.0211766         143.582
0.608                   -1.61452        -178.713         -50.6997         107.971         -50.6949         108.045        -0.021389         143.503
0.609                   -1.62504         -179.84         -50.7011         105.908         -50.6965         105.976        -0.021604         143.424
0.61                     -1.6397         179.014         -50.6969         103.872         -50.6925         103.933       -0.0218216         143.345
0.611                   -1.65855         177.849         -50.6869         101.857         -50.6827         101.913       -0.0220419         143.266
0.612                   -1.68165         176.666         -50.6713         99.8625         -50.6674         99.9127        -0.022265         143.187
0.613                   -1.70909         175.464           -50.65         97.8845         -50.6463         97.9294       -0.0224911         143.107
0.614                   -1.74099         174.244         -50.6231         95.9206         -50.6197         95.9605       -0.0227202         143.027
0.615                   -1.77748         173.005         -50.5906          93.968         -50.5875         94.0033       -0.0229525         142.947
0.616                   -1.81872         171.747         -50.5527         92.0243         -50.5498         92.0553        -0.023188         142.867
0.617                   -1.86492          170.47         -50.5094          90.087         -50.5068         90.1139       -0.0234268         142.786
0.618                    -1.9163         169.175         -50.4607         88.1535         -50.4584         88.1767        -0.023669         142.705
0.619                    -1.9731          167.86          -50.407         86.2216         -50.4049         86.2414       -0.0239148         142.624
0.62                    -2.03561         166.526         -50.3481         84.2888         -50.3463         84.3056       -0.0241643         142.543
0.621                   -2.10414         165.174         -50.2844          82.353         -50.2828          82.367       -0.0244175         142.461
0.622                   -2.17905         163.802         -50.2159         80.4119         -50.2145         80.4234       -0.0246746         142.379
0.623                   -2.26071         162.413         -50.1428         78.4634         -50.1417         78.4727       -0.0249356         142.297
0.624                   -2.34955         161.005         -50.0654         76.5053         -50.0645         76.5128       -0.0252008         142.215
0.625                   -2.44603         159.581         -49.9839         74.5358         -49.9831         74.5416       -0.0254702         142.132
0.626                   -2.55065          158.14         -49.8984         72.5527         -49.8978         72.5571       -0.0257439         142.049
0.627                   -2.66395         156.685         -49.8092         70.5544         -49.8088         70.5575        -0.026022         141.966
0.628                   -2.78651         155.216         -49.7167         68.5389         -49.7164         68.5411       -0.0263046         141.883
0.629                   -2.91897         153.736          -49.621         66.5047         -49.6208         66.5061        -0.026592         141.799
