! TOUCHSTONE file generated by CST MICROWAVE STUDIO
! Date and time: Sat Oct 24 10:49:46 2020
! Project name: Scenario_1_Planar_Body_Tissue_Center.cst
! Parameters = {hfat=3; hmuscle=50; hskin=1.5; hgap=25; Wtissue=700; Ltissue=700; L_HA=400; MT=2.54; Rad_Dielectric=30; Rad_Lower=7.3; Rad_Upper=30; a_HA=580; a_WG=246; b_HA=500; b_WG=121; c_HA=0; c_WG=187; d_feed=85; dx1=1021.68; h_feed=15; h_lower=18; h_upper=40}
! Header version: 2018
! Port assignment regex: !\s*Touchstone port\s*([0-9]+)\s*=\s*(CST MWS port|CST DS port)\s*([0-9]+|Zmin|Zmax)\s*\(\"(.*)\"\)(\s*mode\s*([0-9]+))?.*
! Touchstone port assignment:
! Touchstone port 1 = CST MWS port 1 ("")
! Touchstone port 2 = CST MWS port 2 ("")
# GHz S DB R 50
0.5                    -0.184877        -121.607         -62.6291        -6.27441         -62.6298        -6.26963      -0.00769333         151.148
0.501                  -0.185816        -122.032         -62.6913        -4.47483         -62.6967        -4.53267      -0.00775848         151.083
0.502                  -0.186811        -122.459         -62.8512        -2.39225          -62.859        -2.53955      -0.00782414         151.017
0.503                  -0.187866        -122.889          -63.148       -0.149222         -63.1534       -0.414629      -0.00789031         150.952
0.504                  -0.188984        -123.322         -63.6248         1.97469         -63.6191         1.57121      -0.00795698         150.887
0.505                  -0.190169        -123.758         -64.3148         3.47386         -64.2852         2.94139      -0.00802415         150.821
0.506                  -0.191425        -124.198         -65.2147         3.59655         -65.1469         3.00103      -0.00809182         150.756
0.507                  -0.192759        -124.641         -66.2483         1.47058         -66.1329        0.954475      -0.00815998          150.69
0.508                  -0.194173        -125.087         -67.2395        -3.50991         -67.0835        -3.75278      -0.00822864         150.624
0.509                  -0.195675        -125.536          -67.948        -11.0767         -67.7805         -10.908      -0.00829779         150.558
0.51                   -0.197271        -125.989         -68.2038        -19.8384         -68.0622        -19.2966      -0.00836742         150.492
0.511                  -0.198965        -126.446         -68.0288         -28.078         -67.9333        -27.3448      -0.00843754         150.426
0.512                  -0.200767        -126.906         -67.5815         -34.822         -67.5296        -34.0731      -0.00850815          150.36
0.513                  -0.202683         -127.37         -67.0197        -39.9729         -66.9991        -39.3028      -0.00857924         150.294
0.514                  -0.204721        -127.838         -66.4404        -43.8422         -66.4389        -43.2798      -0.00865082         150.228
0.515                  -0.206892        -128.309         -65.8879        -46.7954         -65.8971        -46.3374      -0.00872287         150.162
0.516                  -0.209204        -128.785         -65.3774        -49.1264         -65.3918        -48.7581       -0.0087954         150.095
0.517                  -0.211668        -129.265         -64.9104        -51.0435         -64.9269        -50.7488      -0.00886842         150.029
0.518                  -0.214297         -129.75         -64.4829         -52.688         -64.4996        -52.4523      -0.00894192         149.962
0.519                  -0.217103        -130.239         -64.0895        -54.1547         -64.1055         -53.966      -0.00901591         149.896
0.52                     -0.2201        -130.732         -63.7245        -55.5069         -63.7392        -55.3558      -0.00909038         149.829
0.521                  -0.223304         -131.23          -63.383        -56.7879         -63.3962        -56.6667      -0.00916535         149.762
0.522                  -0.226731        -131.733         -63.0607        -58.0269         -63.0723        -57.9298      -0.00924083         149.695
0.523                  -0.230401        -132.241         -62.7539        -59.2447          -62.764        -59.1671      -0.00931682         149.628
0.524                  -0.234333        -132.754         -62.4597        -60.4557         -62.4683        -60.3939      -0.00939334         149.561
0.525                   -0.23855        -133.273         -62.1755        -61.6704         -62.1828        -61.6216       -0.0094704         149.494
0.526                  -0.243077        -133.797         -61.8992        -62.8966         -61.9053        -62.8583      -0.00954803         149.427
0.527                  -0.247941        -134.326         -61.6292        -64.1399         -61.6341        -64.1105      -0.00962625         149.359
0.528                  -0.253174        -134.862         -61.3639         -65.405         -61.3677        -65.3828       -0.0097051         149.292
0.529                  -0.258807        -135.403         -61.1021        -66.6953          -61.105        -66.6792      -0.00978461         149.224
0.53                   -0.264879        -135.951         -60.8427        -68.0139         -60.8448        -68.0028      -0.00986483         149.157
0.531                  -0.271431        -136.505         -60.5848        -69.3632         -60.5862        -69.3564      -0.00994582         149.089
0.532                  -0.278509        -137.066         -60.3277        -70.7456         -60.3284        -70.7424       -0.0100276         149.021
0.533                  -0.286163        -137.633         -60.0707        -72.1631         -60.0708        -72.1629       -0.0101104         148.953
0.534                  -0.294452        -138.208         -59.8131        -73.6178         -59.8127        -73.6202       -0.0101941         148.885
0.535                  -0.303438         -138.79         -59.5545        -75.1117         -59.5537        -75.1162       -0.0102789         148.817
0.536                  -0.313192        -139.379         -59.2945        -76.6467         -59.2933        -76.6531        -0.010365         148.748
0.537                  -0.323795        -139.976         -59.0327         -78.225         -59.0311        -78.2329       -0.0104524          148.68
0.538                  -0.335334        -140.581         -58.7687        -79.8488         -58.7668         -79.858       -0.0105414         148.611
0.539                   -0.34791        -141.195         -58.5022        -81.5203         -58.5001        -81.5306        -0.010632         148.543
0.54                   -0.361633        -141.816         -58.2331        -83.2419         -58.2308        -83.2531       -0.0107245         148.474
0.541                  -0.376629        -142.446         -57.9612        -85.0163         -57.9587        -85.0283        -0.010819         148.405
0.542                  -0.393038        -143.085         -57.6863        -86.8461         -57.6836        -86.8588       -0.0109159         148.336
0.543                  -0.411016        -143.732         -57.4083        -88.7344         -57.4056        -88.7477       -0.0110152         148.267
0.544                  -0.430739        -144.388         -57.1273        -90.6843         -57.1244         -90.698       -0.0111172         148.198
0.545                  -0.452403        -145.052         -56.8432        -92.6991         -56.8403        -92.7131       -0.0112222         148.129
0.546                  -0.476226        -145.725         -56.5561        -94.7822         -56.5532        -94.7966       -0.0113303         148.059
0.547                  -0.502451        -146.406         -56.2662        -96.9375         -56.2633        -96.9521       -0.0114418          147.99
0.548                  -0.531346        -147.094         -55.9737        -99.1688         -55.9708        -99.1836       -0.0115567          147.92
0.549                  -0.563205        -147.789         -55.6789         -101.48          -55.676        -101.495       -0.0116752          147.85
0.55                   -0.598349         -148.49         -55.3822        -103.876         -55.3794        -103.891       -0.0117973         147.781
0.551                  -0.637122        -149.195         -55.0841         -106.36         -55.0815        -106.375        -0.011923         147.711
0.552                  -0.679888        -149.902         -54.7853        -108.937         -54.7828        -108.952       -0.0120523         147.641
0.553                  -0.727026        -150.608         -54.4865        -111.611         -54.4841        -111.626       -0.0121851          147.57
0.554                   -0.77891        -151.311         -54.1886        -114.386         -54.1863          -114.4       -0.0123211           147.5
0.555                  -0.835902        -152.007         -53.8926        -117.265         -53.8904         -117.28       -0.0124601          147.43
0.556                  -0.898314        -152.689         -53.5997        -120.253         -53.5976        -120.267       -0.0126018         147.359
0.557                  -0.966379        -153.354         -53.3111        -123.351         -53.3092        -123.364       -0.0127459         147.289
0.558                    -1.0402        -153.992         -53.0285        -126.561         -53.0268        -126.574       -0.0128921         147.218
0.559                   -1.11969        -154.597         -52.7535        -129.883         -52.7519        -129.896       -0.0130399         147.147
0.56                    -1.20449        -155.159         -52.4877        -133.317         -52.4863        -133.329       -0.0131892         147.076
0.561                   -1.29393        -155.669         -52.2331         -136.86         -52.2319        -136.872       -0.0133395         147.005
0.562                   -1.38689        -156.116         -51.9915        -140.507         -51.9905        -140.518       -0.0134906         146.934
0.563                    -1.4818        -156.492         -51.7649        -144.253          -51.764        -144.263       -0.0136422         146.863
0.564                   -1.57658        -156.789         -51.5552        -148.087         -51.5544        -148.096       -0.0137942         146.792
0.565                    -1.6687        -157.003         -51.3639        -151.999         -51.3633        -152.007       -0.0139464          146.72
0.566                    -1.7553        -157.134         -51.1927        -155.976         -51.1922        -155.983       -0.0140986         146.648
0.567                   -1.83339        -157.187         -51.0428        -160.003         -51.0424        -160.009       -0.0142509         146.577
0.568                   -1.90012        -157.174         -50.9149        -164.063         -50.9147        -164.068       -0.0144031         146.505
0.569                   -1.95311         -157.11         -50.8097        -168.138         -50.8095        -168.142       -0.0145554         146.433
0.57                    -1.99074        -157.016         -50.7271        -172.211          -50.727        -172.215       -0.0147076         146.361
0.571                   -2.01228        -156.916         -50.6668        -176.265         -50.6667        -176.267       -0.0148598         146.288
0.572                   -2.01803        -156.832         -50.6279         179.719         -50.6278         179.718       -0.0150122         146.216
0.573                   -2.00917        -156.785         -50.6092         175.756         -50.6092         175.755       -0.0151648         146.144
0.574                   -1.98757        -156.792         -50.6093         171.859         -50.6093         171.859       -0.0153176         146.071
0.575                   -1.95555        -156.866         -50.6264         168.041         -50.6264         168.041       -0.0154708         145.998
0.576                   -1.91556        -157.013         -50.6586          164.31         -50.6586         164.311       -0.0156245         145.925
0.577                   -1.87002        -157.238         -50.7039         160.676         -50.7039         160.677       -0.0157787         145.852
0.578                   -1.82112        -157.539         -50.7603         157.141         -50.7603         157.143       -0.0159336         145.779
0.579                   -1.77076        -157.914         -50.8258         153.711         -50.8258         153.713       -0.0160893         145.705
0.58                    -1.72045        -158.357         -50.8985         150.386         -50.8985         150.388       -0.0162457         145.632
0.581                   -1.67142        -158.864         -50.9765         147.165         -50.9765         147.167       -0.0164032         145.558
0.582                   -1.62457        -159.428         -51.0582         144.048         -51.0582          144.05       -0.0165617         145.484
0.583                   -1.58054        -160.043         -51.1421         141.032         -51.1421         141.034       -0.0167213          145.41
0.584                   -1.53977        -160.704         -51.2269         138.113         -51.2268         138.116       -0.0168821         145.336
0.585                   -1.50254        -161.406         -51.3112         135.288         -51.3112         135.291       -0.0170442         145.261
0.586                     -1.469        -162.143          -51.394         132.553          -51.394         132.555       -0.0172077         145.187
0.587                   -1.43922        -162.913         -51.4744         129.901         -51.4744         129.903       -0.0173727         145.112
0.588                    -1.4132        -163.712         -51.5516          127.33         -51.5516         127.332       -0.0175392         145.037
0.589                    -1.3909        -164.537         -51.6248         124.833         -51.6248         124.835       -0.0177073         144.962
0.59                    -1.37227        -165.386         -51.6935         122.407         -51.6935         122.409       -0.0178771         144.887
0.591                   -1.35723        -166.257         -51.7571         120.046         -51.7572         120.047       -0.0180487         144.811
0.592                    -1.3457        -167.148         -51.8153         117.745         -51.8154         117.747       -0.0182221         144.736
0.593                   -1.33762        -168.058         -51.8677         115.501         -51.8678         115.502       -0.0183974          144.66
0.594                   -1.33291        -168.987          -51.914         113.308         -51.9141         113.309       -0.0185746         144.584
0.595                   -1.33154        -169.933         -51.9539         111.163          -51.954         111.163       -0.0187539         144.508
0.596                   -1.33346        -170.895         -51.9873          109.06         -51.9874         109.061       -0.0189353         144.432
0.597                   -1.33866        -171.874         -52.0141         106.998         -52.0142         106.998       -0.0191189         144.355
0.598                   -1.34712         -172.87          -52.034          104.97         -52.0341         104.971       -0.0193047         144.278
0.599                   -1.35886        -173.881          -52.047         102.975         -52.0472         102.975       -0.0194928         144.202
0.6                     -1.37392        -174.908         -52.0532         101.008         -52.0533         101.008       -0.0196833         144.125
0.601                   -1.39235        -175.952         -52.0523          99.066         -52.0525         99.0662       -0.0198762         144.047
0.602                   -1.41423        -177.011         -52.0445         97.1456         -52.0447         97.1456       -0.0200716          143.97
0.603                   -1.43963        -178.086         -52.0298         95.2437           -52.03         95.2436       -0.0202697         143.892
0.604                   -1.46868        -179.178         -52.0082         93.3571         -52.0083         93.3569       -0.0204704         143.814
0.605                   -1.50152         179.715         -51.9797         91.4828         -51.9799         91.4826       -0.0206738         143.736
0.606                    -1.5383         178.591         -51.9444         89.6179         -51.9446         89.6177         -0.02088         143.658
0.607                    -1.5792          177.45         -51.9024         87.7596         -51.9026         87.7592       -0.0210891         143.579
0.608                   -1.62442         176.293         -51.8538         85.9049          -51.854         85.9045       -0.0213011         143.501
0.609                   -1.67421          175.12         -51.7987         84.0512         -51.7989         84.0508       -0.0215162         143.422
0.61                    -1.72882          173.93         -51.7373         82.1957         -51.7375         82.1952       -0.0217344         143.342
0.611                   -1.78852         172.724         -51.6697         80.3357         -51.6699         80.3353       -0.0219558         143.263
0.612                   -1.85364         171.503         -51.5961         78.4688         -51.5963         78.4683       -0.0221805         143.183
0.613                   -1.92452         170.266         -51.5167         76.5923         -51.5169         76.5918       -0.0224086         143.104
0.614                   -2.00153         169.014         -51.4317         74.7038         -51.4319         74.7033       -0.0226401         143.024
0.615                   -2.08508         167.748         -51.3413         72.8008         -51.3415         72.8002       -0.0228751         142.943
0.616                   -2.17561         166.469         -51.2459          70.881         -51.2461         70.8804       -0.0231138         142.863
0.617                   -2.27359         165.179         -51.1456         68.9422         -51.1458         68.9416       -0.0233562         142.782
0.618                   -2.37952         163.879         -51.0408         66.9821          -51.041         66.9815       -0.0236025         142.701
0.619                   -2.49393         162.571         -50.9319         64.9987         -50.9321         64.9981       -0.0238526          142.62
0.62                    -2.61741         161.258         -50.8191         62.9901         -50.8193         62.9895       -0.0241067         142.538
0.621                   -2.75053         159.942         -50.7029         60.9545         -50.7031         60.9539        -0.024365         142.457
0.622                   -2.89391         158.629         -50.5837         58.8903         -50.5838         58.8897       -0.0246274         142.375
0.623                    -3.0482         157.321         -50.4618         56.7961          -50.462         56.7954       -0.0248941         142.292
0.624                   -3.21403         156.024         -50.3378         54.6706          -50.338           54.67       -0.0251652          142.21
0.625                   -3.39204         154.744         -50.2122          52.513         -50.2124         52.5123       -0.0254408         142.127
0.626                   -3.58286         153.489         -50.0854         50.3224         -50.0855         50.3217        -0.025721         142.044
0.627                   -3.78706         152.266         -49.9579         48.0986         -49.9581         48.0979       -0.0260058         141.961
0.628                   -4.00517         151.084         -49.8303         45.8413         -49.8304         45.8407       -0.0262953         141.877
0.629                   -4.23763         149.956         -49.7031          43.551         -49.7032         43.5503       -0.0265897         141.794
