! TOUCHSTONE file generated by CST MICROWAVE STUDIO
! Date and time: Sat Oct 24 10:42:05 2020
! Project name: Scenario_1_Planar_Body_Tissue_Center.cst
! Parameters = {hfat=3; hmuscle=50; hskin=1.5; hgap=25; Wtissue=700; Ltissue=700; L_HA=400; MT=2.54; Rad_Dielectric=30; Rad_Lower=7.3; Rad_Upper=30; a_HA=580; a_WG=246; b_HA=500; b_WG=121; c_HA=0; c_WG=187; d_feed=85; dx1=259.6; h_feed=15; h_lower=18; h_upper=40}
! Header version: 2018
! Port assignment regex: !\s*Touchstone port\s*([0-9]+)\s*=\s*(CST MWS port|CST DS port)\s*([0-9]+|Zmin|Zmax)\s*\(\"(.*)\"\)(\s*mode\s*([0-9]+))?.*
! Touchstone port assignment:
! Touchstone port 1 = CST MWS port 1 ("")
! Touchstone port 2 = CST MWS port 2 ("")
# GHz S DB R 50
0.5                   -0.0918741        -122.605          -56.163         105.664         -56.1629         105.664      -0.00722716         151.143
0.501                 -0.0981291        -123.103         -55.8505         104.627         -55.8504         104.627      -0.00730091         151.078
0.502                  -0.105062        -123.607         -55.5334         103.558         -55.5333         103.558      -0.00737676         151.012
0.503                  -0.112736        -124.115         -55.2115         102.456         -55.2114         102.456      -0.00745482         150.947
0.504                  -0.121223        -124.629         -54.8847         101.318         -54.8847         101.318      -0.00753517         150.881
0.505                  -0.130604        -125.148         -54.5531         100.141          -54.553         100.141      -0.00761793         150.815
0.506                  -0.140964        -125.672         -54.2164         98.9217         -54.2164         98.9216       -0.0077032         150.749
0.507                  -0.152402        -126.201         -53.8748         97.6572         -53.8748         97.6572      -0.00779112         150.683
0.508                  -0.165026        -126.736         -53.5281          96.344         -53.5281          96.344      -0.00788182         150.617
0.509                  -0.178954        -127.276         -53.1764         94.9781         -53.1764         94.9781      -0.00797543         150.551
0.51                   -0.194316        -127.821         -52.8197         93.5554         -52.8197         93.5554       -0.0080721         150.485
0.511                  -0.211258        -128.371         -52.4581         92.0713         -52.4581         92.0713        -0.008172         150.419
0.512                  -0.229934        -128.925         -52.0917          90.521         -52.0917          90.521      -0.00827529         150.352
0.513                  -0.250515        -129.483         -51.7208         88.8993         -51.7208         88.8993      -0.00838216         150.286
0.514                  -0.273182        -130.044         -51.3455         87.2004         -51.3455         87.2004      -0.00849278          150.22
0.515                   -0.29813        -130.607         -50.9663         85.4185         -50.9663         85.4185      -0.00860735         150.153
0.516                  -0.325561        -131.172         -50.5835          83.547         -50.5835          83.547      -0.00872607         150.086
0.517                  -0.355684        -131.736         -50.1979         81.5794         -50.1979         81.5794      -0.00884914          150.02
0.518                  -0.388705        -132.298         -49.8101         79.5086         -49.8101         79.5086      -0.00897676         149.953
0.519                  -0.424825        -132.856         -49.4209         77.3275          -49.421         77.3275      -0.00910912         149.886
0.52                   -0.464221        -133.407         -49.0317         75.0288         -49.0317         75.0288      -0.00924643         149.819
0.521                  -0.507038        -133.948         -48.6435         72.6054         -48.6435         72.6053      -0.00938883         149.752
0.522                  -0.553363        -134.476         -48.2581         70.0505         -48.2581         70.0504      -0.00953649         149.685
0.523                  -0.603207        -134.986         -47.8772         67.3581         -47.8772          67.358       -0.0096895         149.618
0.524                  -0.656472        -135.473         -47.5029          64.523         -47.5029         64.5229      -0.00984792          149.55
0.525                   -0.71292        -135.934         -47.1377         61.5418         -47.1377         61.5417       -0.0100117         149.483
0.526                  -0.772141        -136.361         -46.7842          58.413         -46.7842         58.4128       -0.0101809         149.416
0.527                  -0.833523        -136.751         -46.4454         55.1375         -46.4454         55.1373       -0.0103552         149.348
0.528                  -0.896228        -137.098         -46.1242         51.7196         -46.1242         51.7195       -0.0105342         149.281
0.529                  -0.959189        -137.398         -45.8239         48.1673         -45.8239         48.1671       -0.0107177         149.213
0.53                    -1.02112        -137.649         -45.5475         44.4924         -45.5476         44.4922       -0.0109048         149.146
0.531                   -1.08056        -137.849         -45.2981         40.7111         -45.2981         40.7109       -0.0110949         149.078
0.532                   -1.13597            -138          -45.078         36.8436         -45.0781         36.8433        -0.011287         149.011
0.533                   -1.18579        -138.106         -44.8894         32.9136         -44.8895         32.9133       -0.0114799         148.943
0.534                    -1.2286        -138.174         -44.7337         28.9476         -44.7337         28.9473       -0.0116722         148.875
0.535                   -1.26324        -138.213         -44.6114          24.974         -44.6115         24.9737       -0.0118625         148.808
0.536                   -1.28891        -138.232         -44.5224         21.0212         -44.5224         21.0209       -0.0120491          148.74
0.537                   -1.30521        -138.245         -44.4656         17.1169         -44.4656         17.1166       -0.0122303         148.672
0.538                    -1.3122        -138.262         -44.4393         13.2863         -44.4393          13.286       -0.0124045         148.604
0.539                   -1.31035        -138.294         -44.4411          9.5517         -44.4412          9.5514       -0.0125702         148.537
0.54                    -1.30047        -138.351         -44.4684         5.93129         -44.4685         5.93101       -0.0127258         148.469
0.541                    -1.2836        -138.441          -44.518         2.43923          -44.518         2.43898       -0.0128703         148.401
0.542                   -1.26093        -138.569         -44.5867       -0.914519         -44.5868       -0.914739       -0.0130028         148.333
0.543                   -1.23368        -138.737         -44.6715        -4.12388         -44.6716        -4.12407       -0.0131229         148.265
0.544                   -1.20303        -138.948         -44.7692        -7.18621         -44.7693        -7.18636       -0.0132305         148.197
0.545                   -1.17007        -139.201         -44.8771        -10.1018         -44.8772        -10.1019        -0.013326         148.128
0.546                   -1.13575        -139.496         -44.9926        -12.8732         -44.9926        -12.8732       -0.0134099          148.06
0.547                   -1.10086        -139.828         -45.1133        -15.5047         -45.1134        -15.5047       -0.0134833         147.991
0.548                   -1.06608        -140.198         -45.2373        -18.0021         -45.2374        -18.0021       -0.0135474         147.922
0.549                    -1.0319          -140.6         -45.3628        -20.3718         -45.3629        -20.3717       -0.0136035         147.854
0.55                   -0.998733        -141.033         -45.4885        -22.6208         -45.4885        -22.6207        -0.013653         147.784
0.551                  -0.966862        -141.493         -45.6129        -24.7564          -45.613        -24.7562       -0.0136975         147.715
0.552                   -0.93649        -141.978         -45.7351        -26.7858         -45.7352        -26.7857       -0.0137384         147.646
0.553                  -0.907747        -142.485         -45.8543        -28.7163         -45.8544        -28.7161       -0.0137769         147.576
0.554                  -0.880709        -143.012         -45.9697        -30.5547         -45.9698        -30.5545       -0.0138143         147.506
0.555                  -0.855407        -143.557         -46.0809        -32.3077         -46.0809        -32.3075       -0.0138517         147.436
0.556                  -0.831843        -144.118         -46.1873        -33.9816         -46.1873        -33.9813         -0.01389         147.366
0.557                  -0.809993        -144.694         -46.2886        -35.5822         -46.2887        -35.5819         -0.01393         147.296
0.558                  -0.789816        -145.282         -46.3846         -37.115         -46.3847        -37.1147       -0.0139724         147.226
0.559                  -0.771262        -145.883         -46.4752        -38.5853         -46.4752         -38.585       -0.0140176         147.155
0.56                   -0.754272        -146.494           -46.56        -39.9978         -46.5601        -39.9974       -0.0140662         147.084
0.561                  -0.738786        -147.116         -46.6392        -41.3569         -46.6392        -41.3566       -0.0141184         147.013
0.562                  -0.724739        -147.747         -46.7125        -42.6669         -46.7125        -42.6665       -0.0141744         146.942
0.563                   -0.71207        -148.387         -46.7801        -43.9313         -46.7801        -43.9309       -0.0142345         146.871
0.564                  -0.700716        -149.035         -46.8418        -45.1539         -46.8418        -45.1534       -0.0142987           146.8
0.565                  -0.690621        -149.691         -46.8978        -46.3378         -46.8978        -46.3373       -0.0143671         146.728
0.566                  -0.681728        -150.355          -46.948         -47.486          -46.948        -47.4856       -0.0144397         146.656
0.567                  -0.673987        -151.026         -46.9926        -48.6014         -46.9926        -48.6009       -0.0145165         146.584
0.568                  -0.667348        -151.705         -47.0315        -49.6865         -47.0315         -49.686       -0.0145974         146.512
0.569                  -0.661769        -152.391         -47.0649        -50.7437         -47.0649        -50.7432       -0.0146825          146.44
0.57                   -0.657209        -153.083         -47.0928        -51.7752         -47.0928        -51.7748       -0.0147715         146.368
0.571                  -0.653632        -153.783         -47.1153        -52.7832         -47.1152        -52.7827       -0.0148646         146.296
0.572                  -0.651005        -154.489         -47.1324        -53.7695         -47.1324         -53.769       -0.0149615         146.223
0.573                    -0.6493        -155.203         -47.1443        -54.7359         -47.1443        -54.7354       -0.0150623          146.15
0.574                  -0.648491        -155.923         -47.1511        -55.6841         -47.1511        -55.6837       -0.0151667         146.077
0.575                  -0.648556        -156.651         -47.1528        -56.6158         -47.1527        -56.6153       -0.0152748         146.004
0.576                  -0.649478        -157.386         -47.1494        -57.5322         -47.1494        -57.5318       -0.0153865         145.931
0.577                   -0.65124        -158.128         -47.1412         -58.435         -47.1411        -58.4345       -0.0155016         145.858
0.578                  -0.653831        -158.877         -47.1281        -59.3252          -47.128        -59.3248       -0.0156201         145.784
0.579                  -0.657241        -159.634         -47.1102        -60.2043         -47.1101        -60.2038       -0.0157419         145.711
0.58                   -0.661464        -160.399         -47.0876        -61.0733         -47.0875        -61.0728       -0.0158671         145.637
0.581                  -0.666495        -161.172         -47.0604        -61.9334         -47.0603        -61.9329       -0.0159954         145.563
0.582                  -0.672336        -161.952         -47.0286        -62.7855         -47.0286        -62.7851       -0.0161268         145.489
0.583                  -0.678986        -162.741         -46.9924        -63.6308         -46.9923        -63.6304       -0.0162614         145.414
0.584                  -0.686452        -163.538         -46.9517        -64.4702         -46.9517        -64.4698       -0.0163989          145.34
0.585                  -0.694739        -164.344         -46.9067        -65.3045         -46.9066        -65.3041       -0.0165395         145.265
0.586                  -0.703859        -165.159         -46.8574        -66.1348         -46.8573        -66.1344        -0.016683         145.191
0.587                  -0.713823        -165.983         -46.8039        -66.9617         -46.8038        -66.9614       -0.0168294         145.116
0.588                  -0.724646        -166.817         -46.7462        -67.7862         -46.7461        -67.7859       -0.0169787         145.041
0.589                  -0.736348         -167.66         -46.6843        -68.6091         -46.6843        -68.6087       -0.0171309         144.965
0.59                   -0.748948        -168.513         -46.6185         -69.431         -46.6184        -69.4307       -0.0172858          144.89
0.591                   -0.76247        -169.376         -46.5486        -70.2528         -46.5485        -70.2525       -0.0174435         144.814
0.592                   -0.77694         -170.25         -46.4748        -71.0752         -46.4747         -71.075        -0.017604         144.739
0.593                  -0.792389        -171.135          -46.397         -71.899          -46.397        -71.8987       -0.0177673         144.663
0.594                  -0.808848        -172.031         -46.3155        -72.7247         -46.3154        -72.7245       -0.0179332         144.587
0.595                  -0.826354        -172.939         -46.2301        -73.5532           -46.23         -73.553       -0.0181019          144.51
0.596                  -0.844945        -173.858          -46.141        -74.3851         -46.1409        -74.3849       -0.0182733         144.434
0.597                  -0.864665         -174.79         -46.0482        -75.2211         -46.0481        -75.2209       -0.0184473         144.357
0.598                  -0.885561        -175.734         -45.9517        -76.0618         -45.9516        -76.0616       -0.0186241          144.28
0.599                  -0.907683        -176.691         -45.8516        -76.9079         -45.8515        -76.9077       -0.0188035         144.203
0.6                    -0.931086        -177.662          -45.748        -77.7601         -45.7479        -77.7599       -0.0189856         144.126
0.601                   -0.95583        -178.646         -45.6408         -78.619         -45.6408        -78.6189       -0.0191704         144.049
0.602                  -0.981978        -179.645         -45.5302        -79.4854         -45.5301        -79.4853       -0.0193579         143.971
0.603                    -1.0096         179.342         -45.4162        -80.3598         -45.4161        -80.3597        -0.019548         143.893
0.604                   -1.03877         178.313         -45.2988         -81.243         -45.2987        -81.2429       -0.0197408         143.815
0.605                   -1.06957         177.269         -45.1781        -82.1355          -45.178        -82.1355       -0.0199363         143.737
0.606                   -1.10208         176.208         -45.0541        -83.0382         -45.0541        -83.0381       -0.0201345         143.659
0.607                    -1.1364         175.132         -44.9269        -83.9516         -44.9269        -83.9515       -0.0203354          143.58
0.608                   -1.17263         174.038         -44.7966        -84.8764         -44.7965        -84.8764        -0.020539         143.501
0.609                   -1.21088         172.926         -44.6631        -85.8133          -44.663        -85.8133       -0.0207453         143.422
0.61                    -1.25125         171.796         -44.5266        -86.7631         -44.5265        -86.7631       -0.0209544         143.343
0.611                   -1.29388         170.647         -44.3871        -87.7264          -44.387        -87.7264       -0.0211662         143.264
0.612                    -1.3389         169.479         -44.2446        -88.7039         -44.2446         -88.704       -0.0213808         143.184
0.613                   -1.38645         168.291         -44.0993        -89.6964         -44.0993        -89.6965       -0.0215982         143.104
0.614                   -1.43669         167.082         -43.9512        -90.7046         -43.9511        -90.7047       -0.0218185         143.024
0.615                   -1.48978         165.852         -43.8004        -91.7292         -43.8003        -91.7293       -0.0220416         142.944
0.616                   -1.54591         164.601         -43.6469         -92.771         -43.6468        -92.7711       -0.0222676         142.863
0.617                   -1.60525         163.326         -43.4908        -93.8307         -43.4908        -93.8308       -0.0224966         142.782
0.618                   -1.66803         162.029         -43.3323        -94.9091         -43.3322        -94.9092       -0.0227285         142.701
0.619                   -1.73446         160.708         -43.1714        -96.0069         -43.1713         -96.007       -0.0229636          142.62
0.62                    -1.80477         159.362         -43.0081         -97.125         -43.0081        -97.1251       -0.0232017         142.538
0.621                   -1.87923         157.991         -42.8427         -98.264         -42.8427        -98.2641       -0.0234429         142.457
0.622                   -1.95812         156.594         -42.6752        -99.4248         -42.6752        -99.4249       -0.0236875         142.375
0.623                   -2.04173         155.171         -42.5058        -100.608         -42.5057        -100.608       -0.0239354         142.292
0.624                   -2.13037          153.72         -42.3345        -101.815         -42.3344        -101.815       -0.0241867          142.21
0.625                    -2.2244         152.242         -42.1615        -103.045         -42.1615        -103.045       -0.0244415         142.127
0.626                   -2.32419         150.734         -41.9869        -104.301         -41.9869        -104.301       -0.0247001         142.044
0.627                   -2.43013         149.198          -41.811        -105.582         -41.8109        -105.582       -0.0249624          141.96
0.628                   -2.54265         147.631         -41.6337        -106.889         -41.6337        -106.889       -0.0252287         141.877
0.629                   -2.66222         146.034         -41.4554        -108.223         -41.4554        -108.223       -0.0254992         141.793
