! TOUCHSTONE file generated by CST MICROWAVE STUDIO
! Date and time: Fri Dec 11 13:54:49 2020
! Project name: Scenario_1_Planar_Body_Tissue_Out_of_Line_v2.cst
! Parameters = {dy1=-190.3; L_HA=400; Ltissue=700; MT=2.54; Rad_Dielectric=30; Rad_Lower=7.3; Rad_Upper=30; Wtissue=700; a_HA=580; a_WG=246; b_HA=500; b_WG=121; c_HA=0; c_WG=187; d_feed=85; dx1=520; h_feed=15; h_lower=18; h_upper=40; hfat=3; hgap=25; hmuscle=50; hskin=1.5}
! Header version: 2018
! Port assignment regex: !\s*Touchstone port\s*([0-9]+)\s*=\s*(CST MWS port|CST DS port)\s*([0-9]+|Zmin|Zmax)\s*\(\"(.*)\"\)(\s*mode\s*([0-9]+))?.*
! Touchstone port assignment:
! Touchstone port 1 = CST MWS port 1 ("")
! Touchstone port 2 = CST MWS port 2 ("")
# GHz S DB R 50
0.5                   -0.0859619        -121.951         -62.6375        -58.8018         -62.6381        -58.8007      -0.00735778         151.151
0.501                  -0.089349        -122.406         -62.4454        -59.7819         -62.4461        -59.7794      -0.00741933         151.086
0.502                 -0.0929271        -122.866         -62.2474        -60.7783         -62.2482        -60.7746      -0.00748163         151.021
0.503                 -0.0967124        -123.328         -62.0434        -61.7921         -62.0444        -61.7873      -0.00754471         150.955
0.504                  -0.100723        -123.795         -61.8336        -62.8242         -61.8347        -62.8184      -0.00760858          150.89
0.505                  -0.104977        -124.266         -61.6179        -63.8758          -61.619        -63.8692      -0.00767327         150.824
0.506                  -0.109497        -124.741         -61.3964        -64.9479         -61.3975        -64.9406       -0.0077388         150.759
0.507                  -0.114306         -125.22         -61.1689        -66.0418         -61.1701        -66.0339       -0.0078052         150.693
0.508                   -0.11943        -125.703         -60.9356        -67.1587         -60.9368        -67.1503       -0.0078725         150.627
0.509                  -0.124896        -126.191         -60.6965           -68.3         -60.6977        -68.2911      -0.00794074         150.561
0.51                   -0.130736        -126.683         -60.4516        -69.4671         -60.4528        -69.4579      -0.00800993         150.495
0.511                  -0.136983         -127.18          -60.201        -70.6614         -60.2022        -70.6519      -0.00808013         150.429
0.512                  -0.143676        -127.682         -59.9446        -71.8845         -59.9457        -71.8749      -0.00815136         150.363
0.513                  -0.150855        -128.189         -59.6825        -73.1381         -59.6836        -73.1284      -0.00822368         150.297
0.514                  -0.158565          -128.7         -59.4148         -74.424         -59.4159        -74.4143      -0.00829714         150.231
0.515                  -0.166856        -129.217         -59.1416         -75.744         -59.1426        -75.7344      -0.00837178         150.164
0.516                  -0.175784        -129.739         -58.8628        -77.1002         -58.8637        -77.0906      -0.00844767         150.098
0.517                  -0.185408        -130.266         -58.5786        -78.4945         -58.5795        -78.4851      -0.00852487         150.031
0.518                  -0.195794        -130.798         -58.2891        -79.9294           -58.29        -79.9202      -0.00860344         149.965
0.519                  -0.207016        -131.335         -57.9944         -81.407         -57.9952        -81.3981      -0.00868347         149.898
0.52                   -0.219152        -131.878         -57.6946          -82.93         -57.6954        -82.9214      -0.00876504         149.831
0.521                   -0.23229        -132.426           -57.39        -84.5009         -57.3906        -84.4927      -0.00884824         149.764
0.522                  -0.246524        -132.979         -57.0806        -86.1226         -57.0812        -86.1148      -0.00893318         149.697
0.523                  -0.261958        -133.538         -56.7667        -87.7979         -56.7673        -87.7905      -0.00901995          149.63
0.524                  -0.278702          -134.1         -56.4486          -89.53         -56.4491        -89.5231      -0.00910867         149.563
0.525                  -0.296877        -134.668         -56.1266        -91.3221          -56.127        -91.3156      -0.00919949         149.496
0.526                   -0.31661        -135.239          -55.801        -93.1775         -55.8013        -93.1715      -0.00929252         149.428
0.527                  -0.338037        -135.814         -55.4721        -95.0995         -55.4725        -95.0941      -0.00938792         149.361
0.528                  -0.361299        -136.392         -55.1406        -97.0918         -55.1409        -97.0869      -0.00948585         149.293
0.529                  -0.386543        -136.972         -54.8069         -99.158         -54.8071        -99.1536      -0.00958646         149.226
0.53                   -0.413915        -137.553         -54.4715        -101.301         -54.4717        -101.298      -0.00968993         149.158
0.531                  -0.443561        -138.133         -54.1353        -103.526         -54.1355        -103.523      -0.00979641          149.09
0.532                  -0.475617        -138.712          -53.799        -105.835         -53.7991        -105.832      -0.00990609         149.022
0.533                  -0.510206        -139.287         -53.4635        -108.231         -53.4636        -108.229       -0.0100191         148.954
0.534                  -0.547425        -139.856         -53.1298        -110.717         -53.1298        -110.716       -0.0101356         148.886
0.535                  -0.587339        -140.418         -52.7989        -113.297         -52.7989        -113.295       -0.0102558         148.818
0.536                  -0.629961        -140.968         -52.4721         -115.97         -52.4721         -115.97       -0.0103796         148.749
0.537                  -0.675245        -141.505         -52.1507         -118.74         -52.1508         -118.74       -0.0105073         148.681
0.538                  -0.723063        -142.025         -51.8362        -121.606         -51.8362        -121.606       -0.0106386         148.613
0.539                   -0.77319        -142.525         -51.5299        -124.566         -51.5299        -124.567       -0.0107737         148.544
0.54                   -0.825293            -143         -51.2335         -127.62         -51.2335        -127.621       -0.0109123         148.475
0.541                  -0.878911        -143.449         -50.9485        -130.762         -50.9485        -130.764       -0.0110541         148.407
0.542                  -0.933456        -143.867         -50.6765        -133.989         -50.6766        -133.991       -0.0111989         148.338
0.543                  -0.988211        -144.254         -50.4191        -137.294         -50.4192        -137.295       -0.0113462         148.269
0.544                   -1.04234        -144.606         -50.1776        -140.667         -50.1777        -140.669       -0.0114954           148.2
0.545                   -1.09494        -144.924         -49.9534          -144.1         -49.9536        -144.102        -0.011646         148.131
0.546                   -1.14502        -145.208         -49.7476        -147.581         -49.7477        -147.583       -0.0117973         148.062
0.547                   -1.19165        -145.462         -49.5609        -151.098         -49.5611        -151.099       -0.0119485         147.993
0.548                    -1.2339        -145.688         -49.3941        -154.636         -49.3943        -154.638        -0.012099         147.923
0.549                   -1.27102        -145.891         -49.2472        -158.183         -49.2475        -158.184       -0.0122481         147.854
0.55                     -1.3024        -146.078         -49.1204        -161.724         -49.1206        -161.725       -0.0123951         147.784
0.551                   -1.32765        -146.256         -49.0132        -165.245         -49.0134        -165.246       -0.0125397         147.715
0.552                    -1.3466        -146.431         -48.9249        -168.734         -48.9251        -168.735       -0.0126813         147.645
0.553                   -1.35933         -146.61         -48.8546        -172.178         -48.8549        -172.179       -0.0128198         147.575
0.554                   -1.36611        -146.801         -48.8012        -175.567         -48.8015        -175.568        -0.012955         147.506
0.555                   -1.36741        -147.008         -48.7634        -178.892         -48.7636        -178.893       -0.0130871         147.436
0.556                   -1.36381        -147.237         -48.7397         177.855         -48.7399         177.854        -0.013216         147.366
0.557                   -1.35597         -147.49         -48.7286          174.68         -48.7287         174.679       -0.0133421         147.295
0.558                    -1.3446        -147.772         -48.7285         171.587         -48.7286         171.586       -0.0134657         147.225
0.559                   -1.33041        -148.083         -48.7379         168.579          -48.738         168.579       -0.0135871         147.154
0.56                    -1.31407        -148.424         -48.7553         165.657         -48.7555         165.657       -0.0137067         147.084
0.561                    -1.2962        -148.795         -48.7794         162.823         -48.7795         162.823        -0.013825         147.013
0.562                   -1.27736        -149.196         -48.8088         160.075         -48.8089         160.075       -0.0139424         146.942
0.563                   -1.25803        -149.625         -48.8422         157.411         -48.8423         157.411       -0.0140592         146.871
0.564                   -1.23862        -150.082         -48.8786          154.83         -48.8786          154.83       -0.0141758           146.8
0.565                   -1.21947        -150.564         -48.9169         152.329         -48.9169         152.329       -0.0142926         146.729
0.566                   -1.20088        -151.071         -48.9563         149.905         -48.9563         149.905       -0.0144098         146.657
0.567                   -1.18305          -151.6         -48.9959         147.554         -48.9959         147.554       -0.0145278         146.586
0.568                   -1.16617        -152.151         -49.0351         145.273         -49.0351         145.273       -0.0146468         146.514
0.569                   -1.15037        -152.722         -49.0732         143.058         -49.0732         143.059        -0.014767         146.442
0.57                    -1.13575        -153.311         -49.1098         140.907         -49.1097         140.907       -0.0148886          146.37
0.571                   -1.12239        -153.918         -49.1443         138.814         -49.1442         138.814       -0.0150117         146.298
0.572                   -1.11034        -154.541         -49.1764         136.776         -49.1763         136.777       -0.0151365         146.225
0.573                   -1.09962        -155.179         -49.2058         134.791         -49.2057         134.791       -0.0152631         146.153
0.574                   -1.09027        -155.832         -49.2321         132.855         -49.2321         132.855       -0.0153916          146.08
0.575                   -1.08228        -156.498         -49.2552         130.964         -49.2552         130.964       -0.0155221         146.007
0.576                   -1.07567        -157.177         -49.2749         129.115         -49.2748         129.115       -0.0156547         145.934
0.577                   -1.07044        -157.869          -49.291         127.306         -49.2909         127.306       -0.0157895         145.861
0.578                   -1.06657        -158.573         -49.3034         125.534         -49.3033         125.534       -0.0159264         145.788
0.579                   -1.06406        -159.289          -49.312         123.796         -49.3119         123.796       -0.0160655         145.715
0.58                    -1.06291        -160.016         -49.3167         122.089         -49.3167         122.089        -0.016207         145.641
0.581                   -1.06311        -160.753         -49.3175         120.411         -49.3174         120.411       -0.0163508         145.567
0.582                   -1.06466        -161.502         -49.3143          118.76         -49.3143          118.76       -0.0164969         145.493
0.583                   -1.06755        -162.261         -49.3071         117.134         -49.3071         117.134       -0.0166454         145.419
0.584                   -1.07178        -163.031          -49.296         115.531         -49.2959         115.531       -0.0167963         145.345
0.585                   -1.07736        -163.811         -49.2808         113.948         -49.2808         113.948       -0.0169497         145.271
0.586                    -1.0843        -164.602         -49.2616         112.384         -49.2616         112.384       -0.0171055         145.196
0.587                    -1.0926        -165.403         -49.2385         110.837         -49.2385         110.837       -0.0172639         145.121
0.588                   -1.10228        -166.215         -49.2113         109.306         -49.2114         109.306       -0.0174247         145.046
0.589                   -1.11335        -167.037         -49.1803         107.789         -49.1803         107.789       -0.0175881         144.971
0.59                    -1.12585         -167.87         -49.1453         106.284         -49.1454         106.284       -0.0177541         144.896
0.591                   -1.13979        -168.713         -49.1065          104.79         -49.1066          104.79       -0.0179227         144.821
0.592                    -1.1552        -169.567         -49.0639         103.306          -49.064         103.306       -0.0180939         144.745
0.593                   -1.17213        -170.432         -49.0175          101.83         -49.0175          101.83       -0.0182677         144.669
0.594                   -1.19062        -171.309         -48.9673         100.361         -48.9674         100.361       -0.0184443         144.593
0.595                    -1.2107        -172.196         -48.9134         98.8981         -48.9135         98.8983       -0.0186235         144.517
0.596                   -1.23243        -173.095         -48.8559         97.4398          -48.856           97.44       -0.0188055         144.441
0.597                   -1.25586        -174.006         -48.7948         95.9849         -48.7949         95.9851       -0.0189902         144.365
0.598                   -1.28106        -174.928         -48.7302         94.5325         -48.7303         94.5328       -0.0191778         144.288
0.599                    -1.3081        -175.862          -48.662         93.0815         -48.6621         93.0817       -0.0193682         144.211
0.6                     -1.33705        -176.808         -48.5904         91.6307         -48.5906          91.631       -0.0195614         144.134
0.601                   -1.36798        -177.767         -48.5154         90.1793         -48.5156         90.1796       -0.0197576         144.057
0.602                     -1.401        -178.738         -48.4372         88.7262         -48.4373         88.7266       -0.0199566         143.979
0.603                   -1.43618        -179.723         -48.3556         87.2704         -48.3558         87.2708       -0.0201587         143.902
0.604                   -1.47364         179.281         -48.2708         85.8111          -48.271         85.8115       -0.0203638         143.824
0.605                   -1.51348          178.27          -48.183         84.3472         -48.1831         84.3476       -0.0205719         143.746
0.606                   -1.55583         177.247          -48.092         82.8778         -48.0922         82.8783       -0.0207832         143.668
0.607                    -1.6008          176.21         -47.9981         81.4021         -47.9982         81.4026       -0.0209976         143.589
0.608                   -1.64854          175.16         -47.9012         79.9191         -47.9014         79.9196       -0.0212152          143.51
0.609                   -1.69919         174.096         -47.8015         78.4279         -47.8017         78.4285        -0.021436         143.432
0.61                    -1.75291         173.018          -47.699         76.9278         -47.6992         76.9284       -0.0216601         143.353
0.611                   -1.80986         171.926         -47.5938         75.4177          -47.594         75.4184       -0.0218875         143.273
0.612                   -1.87022         170.821         -47.4861          73.897         -47.4863         73.8976       -0.0221183         143.194
0.613                   -1.93419         169.702         -47.3759         72.3646          -47.376         72.3653       -0.0223526         143.114
0.614                   -2.00196         168.568         -47.2632         70.8198         -47.2634         70.8206       -0.0225903         143.034
0.615                   -2.07375         167.421         -47.1483         69.2619         -47.1485         69.2626       -0.0228316         142.954
0.616                    -2.1498         166.261         -47.0312         67.6898         -47.0314         67.6906       -0.0230765         142.874
0.617                   -2.23034         165.088          -46.912          66.103         -46.9122         66.1038       -0.0233251         142.793
0.618                   -2.31564         163.901         -46.7909         64.5006         -46.7911         64.5014       -0.0235774         142.712
0.619                   -2.40596         162.702          -46.668         62.8819         -46.6682         62.8827       -0.0238335         142.631
0.62                    -2.50161         161.491         -46.5434         61.2461         -46.5435         61.2469       -0.0240934          142.55
0.621                   -2.60288         160.269         -46.4173         59.5925         -46.4174         59.5933       -0.0243572         142.468
0.622                    -2.7101         159.036         -46.2897         57.9205         -46.2899         57.9214       -0.0246251         142.386
0.623                   -2.82362         157.794          -46.161         56.2295         -46.1612         56.2303        -0.024897         142.304
0.624                   -2.94379         156.543         -46.0313         54.5188         -46.0314         54.5196        -0.025173         142.222
0.625                   -3.07098         155.286         -45.9006         52.7879         -45.9008         52.7887       -0.0254532         142.139
0.626                    -3.2056         154.022         -45.7693         51.0364         -45.7694         51.0372       -0.0257377         142.056
0.627                   -3.34805         152.755         -45.6375         49.2637         -45.6376         49.2645       -0.0260266         141.973
0.628                   -3.49876         151.487         -45.5054         47.4696         -45.5055         47.4703       -0.0263199          141.89
0.629                   -3.65817         150.219         -45.3733         45.6537         -45.3734         45.6544       -0.0266177         141.806
