! TOUCHSTONE file generated by CST MICROWAVE STUDIO
! Date and time: Sat Nov 14 19:59:38 2020
! Project name: Scenario_1_Planar_Body_Tissue_Out_of_Line.cst
! Parameters = {dy1=190.3; L_HA=400; Ltissue=700; MT=2.54; Rad_Dielectric=30; Rad_Lower=7.3; Rad_Upper=30; Wtissue=700; a_HA=580; a_WG=246; b_HA=500; b_WG=121; c_HA=0; c_WG=187; d_feed=85; dx1=693; h_feed=15; h_lower=18; h_upper=40; hfat=3; hgap=25; hmuscle=50; hskin=1.5}
! Header version: 2018
! Port assignment regex: !\s*Touchstone port\s*([0-9]+)\s*=\s*(CST MWS port|CST DS port)\s*([0-9]+|Zmin|Zmax)\s*\(\"(.*)\"\)(\s*mode\s*([0-9]+))?.*
! Touchstone port assignment:
! Touchstone port 1 = CST MWS port 1 ("")
! Touchstone port 2 = CST MWS port 2 ("")
# GHz S DB R 50
0.5                    -0.188784        -121.619         -62.1442        -179.036         -62.1441        -179.034      -0.00779749          151.15
0.501                  -0.191013        -122.034         -62.0615         178.554         -62.0647         178.518      -0.00786055         151.084
0.502                  -0.193275        -122.452          -61.983         176.196         -61.9892         176.129      -0.00792409         151.019
0.503                  -0.195576        -122.872          -61.908          173.89         -61.9172         173.798      -0.00798812         150.954
0.504                  -0.197917        -123.296         -61.8358         171.634         -61.8478         171.522      -0.00805265         150.888
0.505                  -0.200304        -123.722         -61.7658         169.429         -61.7805         169.301       -0.0081177         150.823
0.506                   -0.20274        -124.152         -61.6976         167.272         -61.7147         167.133      -0.00818328         150.757
0.507                   -0.20523        -124.584         -61.6307         165.162         -61.6498         165.015      -0.00824939         150.692
0.508                  -0.207778         -125.02         -61.5644         163.098         -61.5855         162.946      -0.00831605         150.626
0.509                  -0.210389        -125.459         -61.4986         161.078         -61.5213         160.923      -0.00838327          150.56
0.51                   -0.213067        -125.901         -61.4326           159.1         -61.4567         158.945      -0.00845106         150.494
0.511                  -0.215819        -126.346         -61.3663         157.163         -61.3915          157.01      -0.00851944         150.428
0.512                   -0.21865        -126.795         -61.2991         155.265         -61.3253         155.114      -0.00858842         150.362
0.513                  -0.221565        -127.247          -61.231         153.403         -61.2579         153.257      -0.00865801         150.296
0.514                  -0.224572        -127.703         -61.1615         151.578         -61.1888         151.437      -0.00872823          150.23
0.515                  -0.227676        -128.163         -61.0904         149.785         -61.1181         149.651      -0.00879909         150.164
0.516                  -0.230885        -128.626         -61.0176         148.025         -61.0453         147.897       -0.0088706         150.097
0.517                  -0.234207        -129.092         -60.9427         146.295         -60.9704         146.174      -0.00894278         150.031
0.518                  -0.237648        -129.563         -60.8656         144.593         -60.8931          144.48      -0.00901563         149.964
0.519                  -0.241219        -130.037         -60.7862         142.919         -60.8133         142.813      -0.00908919         149.898
0.52                   -0.244927        -130.516         -60.7042          141.27         -60.7309         141.172      -0.00916346         149.831
0.521                  -0.248783        -130.998         -60.6195         139.644         -60.6457         139.554      -0.00923846         149.764
0.522                  -0.252796        -131.485         -60.5321         138.041         -60.5575         137.959       -0.0093142         149.697
0.523                  -0.256977        -131.975         -60.4417         136.459         -60.4664         136.384       -0.0093907          149.63
0.524                  -0.261338         -132.47         -60.3482         134.896         -60.3721         134.828      -0.00946798         149.563
0.525                  -0.265892         -132.97         -60.2517         133.352         -60.2747          133.29      -0.00954605         149.496
0.526                  -0.270652        -133.474         -60.1518         131.824         -60.1739         131.769      -0.00962493         149.429
0.527                  -0.275631        -133.982         -60.0486         130.311         -60.0698         130.263      -0.00970465         149.361
0.528                  -0.280844        -134.495          -59.942         128.813         -59.9622          128.77      -0.00978522         149.294
0.529                  -0.286309        -135.013         -59.8319         127.327          -59.851          127.29      -0.00986665         149.226
0.53                   -0.292042        -135.536         -59.7182         125.853         -59.7363         125.821      -0.00994897         149.158
0.531                  -0.298061        -136.064         -59.6008         124.389         -59.6179         124.362       -0.0100322         149.091
0.532                  -0.304388        -136.597         -59.4797         122.935         -59.4958         122.911       -0.0101164         149.023
0.533                  -0.311042        -137.136         -59.3548         121.488         -59.3699         121.469       -0.0102015         148.955
0.534                  -0.318047        -137.679         -59.2261         120.047         -59.2401         120.032       -0.0102876         148.887
0.535                  -0.325428        -138.228         -59.0934         118.613         -59.1064           118.6       -0.0103747         148.819
0.536                  -0.333212        -138.783         -58.9567         117.182         -58.9688         117.173       -0.0104628          148.75
0.537                  -0.341426        -139.344          -58.816         115.755         -58.8272         115.748       -0.0105519         148.682
0.538                  -0.350102         -139.91         -58.6713         114.329         -58.6815         114.325       -0.0106421         148.614
0.539                  -0.359272        -140.482         -58.5223         112.904         -58.5317         112.901       -0.0107335         148.545
0.54                   -0.368974        -141.061         -58.3692         111.478         -58.3777         111.477       -0.0108259         148.476
0.541                  -0.379244        -141.645         -58.2118         110.051         -58.2195         110.051       -0.0109195         148.407
0.542                  -0.390126        -142.236         -58.0502          108.62         -58.0571         108.622       -0.0110143         148.339
0.543                  -0.401664        -142.834         -57.8842         107.184         -57.8904         107.187       -0.0111103          148.27
0.544                  -0.413907        -143.438         -57.7138         105.743         -57.7193         105.747       -0.0112076           148.2
0.545                  -0.426908        -144.049          -57.539         104.295         -57.5439         104.298       -0.0113061         148.131
0.546                  -0.440723        -144.666         -57.3598         102.837          -57.364         102.842        -0.011406         148.062
0.547                  -0.455414        -145.291          -57.176          101.37         -57.1797         101.374       -0.0115072         147.992
0.548                  -0.471049        -145.922         -56.9878         99.8908          -56.991         99.8952       -0.0116098         147.923
0.549                  -0.487699        -146.561         -56.7951         98.3983         -56.7978         98.4026       -0.0117138         147.853
0.55                   -0.505441        -147.207         -56.5978         96.8909            -56.6          96.895       -0.0118194         147.783
0.551                  -0.524362         -147.86         -56.3959         95.3668         -56.3978         95.3706       -0.0119264         147.713
0.552                  -0.544551        -148.521         -56.1895         93.8242          -56.191         93.8277        -0.012035         147.643
0.553                  -0.566107        -149.188         -55.9786         92.2613         -55.9798         92.2644       -0.0121453         147.573
0.554                  -0.589137        -149.863         -55.7632         90.6762         -55.7641         90.6788       -0.0122572         147.503
0.555                  -0.613755        -150.545         -55.5432         89.0668         -55.5439         89.0689       -0.0123708         147.433
0.556                  -0.640083        -151.234         -55.3189          87.431         -55.3193         87.4326       -0.0124862         147.362
0.557                  -0.668255         -151.93         -55.0902         85.7667         -55.0904         85.7678       -0.0126035         147.291
0.558                  -0.698411        -152.632         -54.8572         84.0715         -54.8573         84.0721       -0.0127227         147.221
0.559                  -0.730703        -153.341         -54.6201         82.3432           -54.62         82.3433       -0.0128438          147.15
0.56                   -0.765291        -154.055         -54.3789         80.5792         -54.3788         80.5789        -0.012967         147.079
0.561                  -0.802344        -154.774         -54.1339         78.7771         -54.1336         78.7764       -0.0130923         147.008
0.562                   -0.84204        -155.497         -53.8851         76.9342         -53.8848         76.9332       -0.0132197         146.936
0.563                  -0.884565        -156.224         -53.6329         75.0479         -53.6326         75.0466       -0.0133495         146.865
0.564                  -0.930111        -156.953         -53.3775         73.1155         -53.3772         73.1139       -0.0134815         146.793
0.565                  -0.978872        -157.684         -53.1192         71.1342         -53.1188         71.1324        -0.013616         146.722
0.566                   -1.03105        -158.414         -52.8583         69.1012          -52.858         69.0993        -0.013753          146.65
0.567                   -1.08682        -159.141         -52.5953         67.0138          -52.595         67.0118       -0.0138926         146.578
0.568                   -1.14639        -159.865         -52.3306         64.8693         -52.3303         64.8673       -0.0140348         146.506
0.569                   -1.20991        -160.581         -52.0647          62.665         -52.0645         62.6631       -0.0141798         146.433
0.57                    -1.27753        -161.288         -51.7983         60.3986          -51.798         60.3968       -0.0143275         146.361
0.571                   -1.34935        -161.983         -51.5318         58.0676         -51.5316          58.066       -0.0144782         146.289
0.572                   -1.42543         -162.66         -51.2661         55.6701          -51.266         55.6687       -0.0146318         146.216
0.573                   -1.50577        -163.318          -51.002         53.2045         -51.0018         53.2032       -0.0147885         146.143
0.574                   -1.59027        -163.951         -50.7402         50.6694           -50.74         50.6684       -0.0149481          146.07
0.575                   -1.67876        -164.555         -50.4816          48.064         -50.4815         48.0633       -0.0151109         145.997
0.576                   -1.77092        -165.124         -50.2273         45.3883         -50.2272         45.3878       -0.0152767         145.924
0.577                   -1.86631        -165.654         -49.9782         42.6427         -49.9781         42.6425       -0.0154456         145.851
0.578                   -1.96432         -166.14         -49.7353         39.8286         -49.7353         39.8287       -0.0156175         145.777
0.579                   -2.06417        -166.577         -49.4998         36.9482         -49.4997         36.9485       -0.0157923         145.703
0.58                     -2.1649         -166.96         -49.2726         34.0044         -49.2726         34.0049       -0.0159701          145.63
0.581                   -2.26538        -167.287         -49.0548         31.0015         -49.0548         31.0021       -0.0161505         145.556
0.582                   -2.36429        -167.556         -48.8474         27.9443         -48.8473          27.945       -0.0163335         145.482
0.583                   -2.46019        -167.764         -48.6512         24.8388         -48.6512         24.8396        -0.016519         145.407
0.584                   -2.55156        -167.915         -48.4671          21.692         -48.4671         21.6929       -0.0167065         145.333
0.585                   -2.63684         -168.01         -48.2957         18.5115         -48.2957         18.5123       -0.0168961         145.259
0.586                   -2.71451        -168.055         -48.1376         15.3055         -48.1376         15.3063       -0.0170873         145.184
0.587                    -2.7832        -168.057         -47.9931         12.0829         -47.9931         12.0836       -0.0172799         145.109
0.588                   -2.84174        -168.026         -47.8623          8.8528         -47.8624         8.85339       -0.0174737         145.034
0.589                   -2.88923        -167.972         -47.7453         5.62424         -47.7454         5.62473       -0.0176684         144.959
0.59                    -2.92515        -167.907         -47.6418         2.40628         -47.6419         2.40665       -0.0178637         144.884
0.591                   -2.94931        -167.844         -47.5515        -0.79245         -47.5516       -0.792178       -0.0180595         144.808
0.592                   -2.96191        -167.794         -47.4737        -3.96384         -47.4739        -3.96366       -0.0182557         144.733
0.593                    -2.9635        -167.769         -47.4079        -7.10051          -47.408        -7.10039        -0.018452         144.657
0.594                    -2.9549         -167.78         -47.3531        -10.1959         -47.3533        -10.1958       -0.0186484         144.581
0.595                   -2.93718        -167.835         -47.3085        -13.2443         -47.3087        -13.2443        -0.018845         144.505
0.596                   -2.91157         -167.94         -47.2731        -16.2411         -47.2734         -16.241       -0.0190416         144.429
0.597                   -2.87937        -168.101         -47.2459        -19.1826         -47.2462        -19.1825       -0.0192385         144.352
0.598                   -2.84189        -168.321         -47.2258         -22.066         -47.2261        -22.0658       -0.0194357         144.275
0.599                   -2.80042        -168.601         -47.2118        -24.8895         -47.2122        -24.8891       -0.0196334         144.199
0.6                     -2.75617        -168.942          -47.203         -27.652         -47.2033        -27.6515       -0.0198318         144.121
0.601                   -2.71024        -169.342         -47.1982        -30.3532         -47.1987        -30.3526        -0.020031         144.044
0.602                    -2.6636        -169.801         -47.1967        -32.9936         -47.1972        -32.9928       -0.0202314         143.967
0.603                    -2.6171        -170.316         -47.1976         -35.574         -47.1981         -35.573       -0.0204331         143.889
0.604                   -2.57147        -170.884         -47.2001         -38.096         -47.2005        -38.0948       -0.0206364         143.811
0.605                    -2.5273        -171.502         -47.2034        -40.5613         -47.2038          -40.56       -0.0208415         143.733
0.606                    -2.4851        -172.167         -47.2068        -42.9721         -47.2072        -42.9707       -0.0210487         143.655
0.607                   -2.44526        -172.876         -47.2099        -45.3308         -47.2103        -45.3292       -0.0212582         143.576
0.608                    -2.4081        -173.627          -47.212        -47.6399         -47.2123        -47.6381       -0.0214701         143.497
0.609                   -2.37387        -174.416         -47.2126         -49.902          -47.213        -49.9002       -0.0216848         143.418
0.61                    -2.34275        -175.241         -47.2115        -52.1201         -47.2118        -52.1182       -0.0219023         143.339
0.611                   -2.31489        -176.099         -47.2081        -54.2967         -47.2084        -54.2948        -0.022123          143.26
0.612                   -2.29038         -176.99         -47.2023        -56.4348         -47.2025        -56.4329       -0.0223468          143.18
0.613                   -2.26931        -177.909         -47.1937        -58.5371         -47.1939        -58.5352       -0.0225741           143.1
0.614                   -2.25173        -178.857         -47.1821        -60.6064         -47.1822        -60.6045       -0.0228048          143.02
0.615                   -2.23767        -179.831         -47.1673        -62.6453         -47.1674        -62.6436       -0.0230393          142.94
0.616                   -2.22717         179.169         -47.1492        -64.6565         -47.1493        -64.6549       -0.0232775         142.859
0.617                   -2.22024         178.146         -47.1277        -66.6426         -47.1277         -66.641       -0.0235196         142.778
0.618                   -2.21691         177.099         -47.1026        -68.6058         -47.1027        -68.6044       -0.0237657         142.697
0.619                   -2.21719          176.03          -47.074        -70.5488          -47.074        -70.5476        -0.024016         142.616
0.62                    -2.22112         174.939         -47.0417        -72.4737         -47.0417        -72.4726       -0.0242704         142.534
0.621                   -2.22872         173.827         -47.0058        -74.3827         -47.0058        -74.3819       -0.0245292         142.453
0.622                   -2.24002         172.695         -46.9663         -76.278         -46.9662        -76.2774       -0.0247923          142.37
0.623                   -2.25507         171.541          -46.923        -78.1616         -46.9229        -78.1613       -0.0250599         142.288
0.624                   -2.27393         170.368         -46.8762        -80.0355         -46.8761        -80.0354        -0.025332         142.206
0.625                   -2.29667         169.174         -46.8258        -81.9014         -46.8257        -81.9016       -0.0256088         142.123
0.626                   -2.32335         167.961         -46.7719        -83.7614         -46.7717        -83.7617       -0.0258903          142.04
0.627                   -2.35406         166.728         -46.7145        -85.6169         -46.7143        -85.6175       -0.0261766         141.956
0.628                   -2.38892         165.475         -46.6537        -87.4697         -46.6536        -87.4705       -0.0264678         141.873
0.629                   -2.42803         164.202         -46.5897        -89.3214         -46.5895        -89.3224        -0.026764         141.789
