! TOUCHSTONE file generated by CST MICROWAVE STUDIO
! Date and time: Mon Nov 30 09:07:11 2020
! Project name: Scenario_1_Planar_Body_Tissue_Out_of_Line_v2.cst
! Parameters = {dy1=-173; L_HA=400; Ltissue=700; MT=2.54; Rad_Dielectric=30; Rad_Lower=7.3; Rad_Upper=30; Wtissue=700; a_HA=580; a_WG=246; b_HA=500; b_WG=121; c_HA=0; c_WG=187; d_feed=85; dx1=346; h_feed=15; h_lower=18; h_upper=40; hfat=3; hgap=25; hmuscle=50; hskin=1.5}
! Header version: 2018
! Port assignment regex: !\s*Touchstone port\s*([0-9]+)\s*=\s*(CST MWS port|CST DS port)\s*([0-9]+|Zmin|Zmax)\s*\(\"(.*)\"\)(\s*mode\s*([0-9]+))?.*
! Touchstone port assignment:
! Touchstone port 1 = CST MWS port 1 ("")
! Touchstone port 2 = CST MWS port 2 ("")
# GHz S DB R 50
0.5                    -0.264246        -121.816         -56.4796          25.362         -56.4796         25.3618      -0.00828378         151.143
0.501                  -0.265388        -122.204         -56.3951         22.8463         -56.3951         22.8462      -0.00834016         151.077
0.502                  -0.266557        -122.595         -56.3157         20.3544         -56.3158         20.3544      -0.00839706         151.012
0.503                  -0.267755        -122.988         -56.2412         17.8886         -56.2414         17.8887      -0.00845447         150.947
0.504                  -0.268983        -123.384         -56.1715          15.451         -56.1716         15.4511      -0.00851241         150.882
0.505                  -0.270242        -123.783         -56.1061         13.0435         -56.1063         13.0437      -0.00857088         150.816
0.506                  -0.271535        -124.185         -56.0449         10.6678         -56.0451         10.6681      -0.00862989         150.751
0.507                  -0.272863        -124.589         -55.9875         8.32544         -55.9878         8.32581      -0.00868945         150.685
0.508                  -0.274227        -124.997         -55.9337         6.01769          -55.934         6.01815      -0.00874956          150.62
0.509                  -0.275631        -125.407         -55.8832         3.74565         -55.8835         3.74619      -0.00881024         150.554
0.51                   -0.277074         -125.82         -55.8356         1.51019         -55.8359         1.51082      -0.00887148         150.488
0.511                   -0.27856        -126.237         -55.7906       -0.687987          -55.791       -0.687277      -0.00893331         150.422
0.512                  -0.280091        -126.656          -55.748        -2.84838         -55.7484        -2.84759      -0.00899572         150.356
0.513                  -0.281668        -127.079         -55.7074        -4.97067         -55.7078         -4.9698      -0.00905872          150.29
0.514                  -0.283295        -127.504         -55.6686        -7.05468          -55.669        -7.05374      -0.00912233         150.224
0.515                  -0.284973        -127.933         -55.6312        -9.10039         -55.6316        -9.09939      -0.00918655         150.158
0.516                  -0.286705        -128.365          -55.595        -11.1079         -55.5954        -11.1069      -0.00925139         150.091
0.517                  -0.288494        -128.801         -55.5598        -13.0775         -55.5601        -13.0764      -0.00931685         150.025
0.518                  -0.290343         -129.24         -55.5252        -15.0096         -55.5255        -15.0084      -0.00938296         149.959
0.519                  -0.292254        -129.682          -55.491        -16.9045         -55.4913        -16.9033      -0.00944972         149.892
0.52                   -0.294231        -130.128         -55.4569        -18.7629         -55.4573        -18.7616      -0.00951714         149.825
0.521                  -0.296277        -130.577         -55.4229        -20.5853         -55.4233         -20.584      -0.00958522         149.759
0.522                  -0.298395         -131.03         -55.3886        -22.3724          -55.389        -22.3711      -0.00965399         149.692
0.523                  -0.300588        -131.486         -55.3539        -24.1249         -55.3543        -24.1236      -0.00972344         149.625
0.524                  -0.302861        -131.947         -55.3186        -25.8437         -55.3189        -25.8424       -0.0097936         149.558
0.525                  -0.305218        -132.411         -55.2825        -27.5296         -55.2828        -27.5282      -0.00986446         149.491
0.526                  -0.307662        -132.878         -55.2454        -29.1834         -55.2457         -29.182      -0.00993605         149.424
0.527                  -0.310198         -133.35         -55.2073        -30.8059         -55.2076        -30.8045       -0.0100084         149.356
0.528                  -0.312831        -133.826         -55.1679        -32.3981         -55.1682        -32.3967       -0.0100815         149.289
0.529                  -0.315565        -134.306         -55.1272        -33.9608         -55.1275        -33.9595       -0.0101553         149.221
0.53                   -0.318406         -134.79          -55.085        -35.4951         -55.0853        -35.4937       -0.0102299         149.154
0.531                  -0.321358        -135.278         -55.0412        -37.0017         -55.0415        -37.0003       -0.0103053         149.086
0.532                  -0.324427         -135.77         -54.9957        -38.4816          -54.996        -38.4802       -0.0103815         149.018
0.533                   -0.32762        -136.267         -54.9485        -39.9357         -54.9488        -39.9344       -0.0104585         148.951
0.534                  -0.330942        -136.768         -54.8994        -41.3649         -54.8996        -41.3636       -0.0105363         148.883
0.535                  -0.334401        -137.274         -54.8483        -42.7701         -54.8486        -42.7688        -0.010615         148.815
0.536                  -0.338002        -137.785         -54.7952        -44.1522         -54.7954         -44.151       -0.0106945         148.746
0.537                  -0.341753          -138.3           -54.74        -45.5121         -54.7402        -45.5109       -0.0107749         148.678
0.538                  -0.345663         -138.82         -54.6827        -46.8506         -54.6829        -46.8494       -0.0108562          148.61
0.539                  -0.349739        -139.345         -54.6231        -48.1687         -54.6233        -48.1675       -0.0109384         148.541
0.54                    -0.35399        -139.874         -54.5612         -49.467         -54.5614        -49.4659       -0.0110215         148.473
0.541                  -0.358425        -140.409         -54.4971        -50.7466         -54.4973        -50.7455       -0.0111055         148.404
0.542                  -0.363053         -140.95         -54.4305        -52.0081         -54.4307         -52.007       -0.0111905         148.335
0.543                  -0.367885        -141.495         -54.3615        -53.2525         -54.3617        -53.2514       -0.0112765         148.266
0.544                  -0.372932        -142.046           -54.29        -54.4805         -54.2902        -54.4795       -0.0113635         148.197
0.545                  -0.378205        -142.603         -54.2161        -55.6929         -54.2162        -55.6919       -0.0114515         148.128
0.546                  -0.383716        -143.165         -54.1395        -56.8904         -54.1397        -56.8895       -0.0115405         148.059
0.547                  -0.389479        -143.733         -54.0604        -58.0739         -54.0605         -58.073       -0.0116305          147.99
0.548                  -0.395506        -144.307         -53.9787        -59.2441         -53.9788        -59.2432       -0.0117217          147.92
0.549                  -0.401812        -144.887         -53.8943        -60.4018         -53.8944        -60.4009       -0.0118139         147.851
0.55                   -0.408413        -145.473         -53.8072        -61.5476         -53.8073        -61.5468       -0.0119072         147.781
0.551                  -0.415324        -146.066         -53.7173        -62.6824         -53.7175        -62.6816       -0.0120017         147.711
0.552                  -0.422564        -146.665         -53.6248        -63.8069         -53.6249        -63.8061       -0.0120973         147.641
0.553                  -0.430151        -147.271         -53.5294        -64.9217         -53.5295        -64.9209       -0.0121942         147.571
0.554                  -0.438103        -147.883         -53.4313        -66.0276         -53.4314        -66.0269       -0.0122922         147.501
0.555                  -0.446443        -148.503         -53.3303        -67.1253         -53.3304        -67.1247       -0.0123915         147.431
0.556                  -0.455193         -149.13         -53.2264        -68.2156         -53.2265         -68.215        -0.012492          147.36
0.557                  -0.464375        -149.763         -53.1197        -69.2991         -53.1198        -69.2985       -0.0125939          147.29
0.558                  -0.474016        -150.405           -53.01        -70.3766         -53.0101         -70.376        -0.012697         147.219
0.559                  -0.484142        -151.054         -52.8974        -71.4488         -52.8975        -71.4482       -0.0128015         147.148
0.56                   -0.494783        -151.711         -52.7819        -72.5163          -52.782        -72.5158       -0.0129074         147.077
0.561                  -0.505968        -152.376         -52.6633          -73.58         -52.6634        -73.5794       -0.0130147         147.006
0.562                  -0.517731        -153.049         -52.5418        -74.6405         -52.5418          -74.64       -0.0131234         146.935
0.563                  -0.530107        -153.731         -52.4172        -75.6985         -52.4172        -75.6981       -0.0132337         146.864
0.564                  -0.543133        -154.421         -52.2895        -76.7549         -52.2896        -76.7545       -0.0133454         146.792
0.565                  -0.556849         -155.12         -52.1588        -77.8104         -52.1589          -77.81       -0.0134587         146.721
0.566                    -0.5713        -155.829          -52.025        -78.8657          -52.025        -78.8653       -0.0135735         146.649
0.567                   -0.58653        -156.546          -51.888        -79.9215         -51.8881        -79.9211         -0.01369         146.577
0.568                  -0.602589        -157.273         -51.7479        -80.9788          -51.748        -80.9784       -0.0138082         146.505
0.569                  -0.619531        -158.011         -51.6047        -82.0382         -51.6047        -82.0379       -0.0139281         146.433
0.57                   -0.637412        -158.758         -51.4583        -83.1007         -51.4583        -83.1003       -0.0140497         146.361
0.571                  -0.656293        -159.515         -51.3087        -84.1669         -51.3087        -84.1666       -0.0141731         146.288
0.572                  -0.676241        -160.283         -51.1558        -85.2379         -51.1559        -85.2376       -0.0142984         146.216
0.573                  -0.697326        -161.062         -50.9998        -86.3144         -50.9999        -86.3141       -0.0144255         146.143
0.574                  -0.719623        -161.852         -50.8405        -87.3974         -50.8406        -87.3971       -0.0145546          146.07
0.575                  -0.743216        -162.654          -50.678        -88.4877         -50.6781        -88.4874       -0.0146857         145.997
0.576                  -0.768191        -163.467         -50.5123        -89.5863         -50.5123        -89.5861       -0.0148188         145.924
0.577                  -0.794644        -164.292         -50.3432        -90.6943         -50.3433         -90.694       -0.0149541          145.85
0.578                  -0.822678        -165.129          -50.171        -91.8125          -50.171        -91.8122       -0.0150915         145.777
0.579                  -0.852402        -165.979         -49.9955         -92.942         -49.9955        -92.9418       -0.0152311         145.703
0.58                   -0.883936        -166.841         -49.8167         -94.084         -49.8168        -94.0837       -0.0153729         145.629
0.581                  -0.917407        -167.716         -49.6347        -95.2394         -49.6348        -95.2391       -0.0155172         145.556
0.582                  -0.952955        -168.605         -49.4495        -96.4094         -49.4496        -96.4092       -0.0156638         145.481
0.583                  -0.990729        -169.507         -49.2611        -97.5952         -49.2611         -97.595       -0.0158129         145.407
0.584                   -1.03089        -170.423         -49.0695         -98.798         -49.0696        -98.7977       -0.0159645         145.333
0.585                   -1.07361        -171.353         -48.8748        -100.019         -48.8749        -100.019       -0.0161188         145.258
0.586                   -1.11909        -172.296          -48.677        -101.259         -48.6771        -101.259       -0.0162757         145.183
0.587                   -1.16751        -173.254         -48.4762        -102.521         -48.4763        -102.521       -0.0164355         145.108
0.588                   -1.21911        -174.226         -48.2724        -103.804         -48.2725        -103.804        -0.016598         145.033
0.589                   -1.27412        -175.212         -48.0657        -105.111         -48.0658        -105.111       -0.0167635         144.958
0.59                    -1.33279        -176.213         -47.8562        -106.444         -47.8562        -106.443        -0.016932         144.883
0.591                    -1.3954        -177.227         -47.6439        -107.802          -47.644        -107.802       -0.0171036         144.807
0.592                   -1.46225        -178.255         -47.4291        -109.189         -47.4291        -109.189       -0.0172783         144.731
0.593                   -1.53365        -179.297         -47.2117        -110.605         -47.2118        -110.605       -0.0174563         144.655
0.594                   -1.60995         179.649         -46.9921        -112.052         -46.9921        -112.052       -0.0176377         144.579
0.595                   -1.69152         178.582         -46.7702        -113.532         -46.7703        -113.532       -0.0178224         144.503
0.596                   -1.77875         177.504         -46.5464        -115.046         -46.5464        -115.046       -0.0180107         144.426
0.597                   -1.87205         176.416         -46.3208        -116.596         -46.3208        -116.596       -0.0182027         144.349
0.598                   -1.97189         175.318         -46.0936        -118.183         -46.0936        -118.183       -0.0183983         144.272
0.599                   -2.07873         174.214         -45.8651        -119.809         -45.8652        -119.809       -0.0185977         144.195
0.6                     -2.19309         173.104         -45.6357        -121.476         -45.6357        -121.476       -0.0188009         144.118
0.601                   -2.31548         171.991         -45.4055        -123.184         -45.4055        -123.184       -0.0190081          144.04
0.602                   -2.44647         170.878         -45.1749        -124.936         -45.1749        -124.936       -0.0192193         143.963
0.603                   -2.58664         169.768         -44.9444        -126.733         -44.9444        -126.733       -0.0194347         143.885
0.604                   -2.73657         168.666         -44.7142        -128.575         -44.7143        -128.575       -0.0196541         143.807
0.605                   -2.89687         167.576         -44.4849        -130.464          -44.485        -130.464       -0.0198778         143.729
0.606                   -3.06814         166.504         -44.2569          -132.4          -44.257          -132.4       -0.0201058          143.65
0.607                   -3.25098         165.456         -44.0308        -134.385         -44.0308        -134.385       -0.0203381         143.571
0.608                   -3.44596          164.44         -43.8069        -136.418         -43.8069        -136.418       -0.0205748         143.492
0.609                   -3.65358         163.464         -43.5859        -138.499         -43.5859        -138.499       -0.0208159         143.413
0.61                    -3.87428         162.539         -43.3683        -140.629         -43.3683        -140.629       -0.0210613         143.334
0.611                   -4.10841         161.675         -43.1547        -142.807         -43.1547        -142.806       -0.0213112         143.255
0.612                   -4.35613         160.886         -42.9457         -145.03         -42.9457         -145.03       -0.0215655         143.175
0.613                   -4.61741         160.186          -42.742          -147.3          -42.742        -147.299       -0.0218241         143.095
0.614                   -4.89196         159.591          -42.544        -149.612          -42.544        -149.612       -0.0220871         143.015
0.615                   -5.17911         159.118         -42.3524        -151.965         -42.3524        -151.965       -0.0223544         142.934
0.616                   -5.47779         158.786         -42.1678        -154.356         -42.1678        -154.356       -0.0226259         142.854
0.617                   -5.78634         158.615         -41.9906        -156.783         -41.9906        -156.782       -0.0229016         142.773
0.618                   -6.10247         158.625         -41.8214         -159.24         -41.8214         -159.24       -0.0231813         142.692
0.619                   -6.42308         158.838         -41.6605        -161.724         -41.6605        -161.724       -0.0234649         142.611
0.62                    -6.74423         159.271         -41.5083        -164.231         -41.5083        -164.231       -0.0237524         142.529
0.621                   -7.06098          159.94         -41.3652        -166.756         -41.3652        -166.756       -0.0240436         142.448
0.622                   -7.36747         160.856         -41.2313        -169.294         -41.2313        -169.294       -0.0243383         142.366
0.623                   -7.65697         162.022         -41.1067        -171.839         -41.1067        -171.839       -0.0246366         142.283
0.624                   -7.92214          163.43         -40.9915        -174.387         -40.9915        -174.387       -0.0249381         142.201
0.625                   -8.15546         165.062         -40.8857        -176.932         -40.8857        -176.932       -0.0252428         142.118
0.626                   -8.34978         166.885          -40.789         -179.47          -40.789         -179.47       -0.0255505         142.035
0.627                   -8.49902         168.854         -40.7013         178.005         -40.7013         178.005       -0.0258611         141.952
0.628                   -8.59882         170.913         -40.6222         175.498         -40.6222         175.498       -0.0261745         141.869
0.629                   -8.64712             173         -40.5514         173.012         -40.5514         173.012       -0.0264906         141.785
