! TOUCHSTONE file generated by CST MICROWAVE STUDIO
! Date and time: Sat Nov 14 20:35:44 2020
! Project name: Scenario_1_Planar_Body_Tissue_Out_of_Line_v2.cst
! Parameters = {dy1=155.7; L_HA=400; Ltissue=700; MT=2.54; Rad_Dielectric=30; Rad_Lower=7.3; Rad_Upper=30; Wtissue=700; a_HA=580; a_WG=246; b_HA=500; b_WG=121; c_HA=0; c_WG=187; d_feed=85; dx1=173; h_feed=15; h_lower=18; h_upper=40; hfat=3; hgap=25; hmuscle=50; hskin=1.5}
! Header version: 2018
! Port assignment regex: !\s*Touchstone port\s*([0-9]+)\s*=\s*(CST MWS port|CST DS port)\s*([0-9]+|Zmin|Zmax)\s*\(\"(.*)\"\)(\s*mode\s*([0-9]+))?.*
! Touchstone port assignment:
! Touchstone port 1 = CST MWS port 1 ("")
! Touchstone port 2 = CST MWS port 2 ("")
# GHz S DB R 50
0.5                   -0.0470218        -121.744         -59.8773         127.882         -59.8779         127.882      -0.00690508         151.147
0.501                 -0.0483932         -122.19         -59.6951         127.283         -59.6956         127.283      -0.00695524         151.082
0.502                 -0.0498258        -122.639         -59.5107         126.683         -59.5113         126.682      -0.00700612         151.016
0.503                 -0.0513238        -123.092         -59.3243          126.08         -59.3248         126.079      -0.00705773         150.951
0.504                 -0.0528917        -123.549         -59.1357         125.474         -59.1362         125.474      -0.00711009         150.885
0.505                 -0.0545342        -124.009         -58.9449         124.866         -58.9454         124.865       -0.0071632          150.82
0.506                 -0.0562566        -124.474         -58.7518         124.255         -58.7523         124.254      -0.00721708         150.754
0.507                 -0.0580642        -124.942         -58.5564          123.64         -58.5569         123.639      -0.00727172         150.688
0.508                 -0.0599631        -125.415         -58.3587         123.022         -58.3592         123.021      -0.00732714         150.623
0.509                 -0.0619598        -125.892         -58.1585           122.4          -58.159         122.399      -0.00738335         150.557
0.51                  -0.0640611        -126.373         -57.9559         121.774         -57.9564         121.773      -0.00744036         150.491
0.511                 -0.0662746        -126.859         -57.7508         121.143         -57.7512         121.143      -0.00749818         150.425
0.512                 -0.0686082        -127.349          -57.543         120.508         -57.5435         120.507      -0.00755682         150.358
0.513                 -0.0710708        -127.843         -57.3327         119.868         -57.3331         119.867      -0.00761629         150.292
0.514                 -0.0736718        -128.343         -57.1196         119.222           -57.12         119.221      -0.00767661         150.226
0.515                 -0.0764214        -128.848         -56.9037         118.571         -56.9041          118.57      -0.00773777         150.159
0.516                 -0.0793307        -129.357          -56.685         117.914         -56.6854         117.913       -0.0077998         150.093
0.517                 -0.0824116        -129.872         -56.4634          117.25         -56.4638         117.249      -0.00786271         150.026
0.518                 -0.0856773        -130.392         -56.2388         116.579         -56.2391         116.578       -0.0079265          149.96
0.519                 -0.0891419        -130.918         -56.0111         115.901         -56.0115           115.9       -0.0079912         149.893
0.52                  -0.0928209         -131.45         -55.7803         115.215         -55.7807         115.214      -0.00805681         149.826
0.521                  -0.096731        -131.988         -55.5464          114.52         -55.5467         114.519      -0.00812336         149.759
0.522                  -0.100891        -132.531         -55.3091         113.817         -55.3094         113.816      -0.00819085         149.692
0.523                   -0.10532        -133.082         -55.0685         113.104         -55.0688         113.103       -0.0082593         149.625
0.524                  -0.110041        -133.638         -54.8244         112.382         -54.8247         112.381      -0.00832873         149.557
0.525                  -0.115078        -134.202         -54.5767         111.649         -54.5771         111.648      -0.00839915          149.49
0.526                  -0.120456        -134.772         -54.3255         110.904         -54.3258         110.903      -0.00847059         149.423
0.527                  -0.126206        -135.351         -54.0705         110.148         -54.0708         110.147      -0.00854306         149.355
0.528                  -0.132359        -135.936         -53.8117         109.378          -53.812         109.378       -0.0086166         149.287
0.529                   -0.13895         -136.53         -53.5489         108.596         -53.5492         108.595      -0.00869121          149.22
0.53                   -0.146018        -137.132         -53.2822         107.799         -53.2825         107.798      -0.00876692         149.152
0.531                  -0.153607        -137.742         -53.0113         106.986         -53.0116         106.985      -0.00884378         149.084
0.532                  -0.161763        -138.362         -52.7361         106.157         -52.7364         106.156      -0.00892179         149.016
0.533                  -0.170539        -138.991         -52.4566         105.311         -52.4569          105.31      -0.00900101         148.948
0.534                  -0.179995        -139.629         -52.1727         104.447          -52.173         104.446      -0.00908145         148.879
0.535                  -0.190195        -140.278         -51.8841         103.562         -51.8844         103.561      -0.00916318         148.811
0.536                  -0.201213        -140.938         -51.5909         102.657         -51.5912         102.656      -0.00924623         148.743
0.537                  -0.213129        -141.609         -51.2928         101.729         -51.2931         101.728      -0.00933065         148.674
0.538                  -0.226036        -142.291         -50.9898         100.777         -50.9901         100.776      -0.00941651         148.605
0.539                  -0.240035        -142.986         -50.6817         99.7993         -50.6819         99.7986      -0.00950386         148.536
0.54                   -0.255242        -143.694         -50.3683         98.7942         -50.3686         98.7935      -0.00959279         148.468
0.541                  -0.271785        -144.415         -50.0497         97.7597         -50.0499          97.759      -0.00968338         148.398
0.542                  -0.289811         -145.15         -49.7255         96.6936         -49.7258         96.6929      -0.00977572         148.329
0.543                  -0.309485          -145.9         -49.3958         95.5936         -49.3961          95.593      -0.00986992          148.26
0.544                  -0.330994        -146.665         -49.0604         94.4572         -49.0606         94.4567      -0.00996613         148.191
0.545                  -0.354549        -147.447         -48.7191         93.2818         -48.7193         93.2812       -0.0100645         148.121
0.546                  -0.380392        -148.246         -48.3719         92.0642         -48.3721         92.0637       -0.0101651         148.051
0.547                  -0.408798        -149.063         -48.0186         90.8013         -48.0188         90.8008       -0.0102683         147.982
0.548                  -0.440078        -149.898         -47.6592         89.4895         -47.6594          89.489       -0.0103742         147.912
0.549                  -0.474593        -150.752         -47.2935         88.1248         -47.2938         88.1244       -0.0104831         147.842
0.55                    -0.51275        -151.627         -46.9216         86.7032         -46.9219         86.7028       -0.0105954         147.771
0.551                  -0.555019        -152.523         -46.5435           85.22         -46.5437         85.2196       -0.0107114         147.701
0.552                  -0.601939        -153.439         -46.1591           83.67         -46.1593         83.6697       -0.0108315         147.631
0.553                  -0.654127        -154.378         -45.7686         82.0479         -45.7688         82.0476       -0.0109562          147.56
0.554                  -0.712293        -155.338          -45.372         80.3475         -45.3721         80.3473       -0.0110862         147.489
0.555                  -0.777251        -156.321         -44.9695         78.5626         -44.9697         78.5623        -0.011222         147.418
0.556                  -0.849934        -157.324         -44.5616         76.6859         -44.5618         76.6857       -0.0113646         147.347
0.557                  -0.931409        -158.347         -44.1485           74.71         -44.1487         74.7098       -0.0115149         147.276
0.558                   -1.02289        -159.388         -43.7309         72.6267         -43.7311         72.6266       -0.0116738         147.205
0.559                   -1.12576        -160.444         -43.3094         70.4276         -43.3096         70.4275       -0.0118427         147.133
0.56                    -1.24156        -161.508         -42.8851         68.1036         -42.8852         68.1035       -0.0120229         147.061
0.561                   -1.37201        -162.575         -42.4589         65.6455          -42.459         65.6454       -0.0122159          146.99
0.562                     -1.519        -163.635         -42.0324         63.0439         -42.0325         63.0438       -0.0124233         146.918
0.563                   -1.68452        -164.675         -41.6073         60.2897         -41.6074         60.2896       -0.0126468         146.845
0.564                   -1.87062        -165.677         -41.1857         57.3741         -41.1858          57.374       -0.0128881         146.773
0.565                   -2.07928        -166.618         -40.7699         54.2897           -40.77         54.2896       -0.0131486         146.701
0.566                   -2.31219        -167.468          -40.363         51.0303         -40.3631         51.0303       -0.0134294         146.629
0.567                   -2.57044        -168.191         -39.9682         47.5925         -39.9682         47.5925        -0.013731         146.556
0.568                   -2.85409        -168.741         -39.5889         43.9758          -39.589         43.9758       -0.0140529         146.484
0.569                   -3.16151        -169.063         -39.2293         40.1839         -39.2293         40.1838       -0.0143933         146.411
0.57                    -3.48863        -169.097         -38.8932         36.2253         -38.8933         36.2252       -0.0147489         146.339
0.571                   -3.82808        -168.781         -38.5848         32.1141         -38.5848          32.114        -0.015115         146.266
0.572                   -4.16841        -168.058         -38.3078         27.8702         -38.3079         27.8701        -0.015485         146.194
0.573                   -4.49382        -166.891         -38.0657         23.5191         -38.0657          23.519       -0.0158515         146.122
0.574                   -4.78482        -165.276          -37.861         19.0916          -37.861         19.0915       -0.0162068         146.049
0.575                   -5.02046        -163.257         -37.6953          14.622         -37.6954         14.6219       -0.0165435         145.977
0.576                   -5.18198        -160.937         -37.5694         10.1468         -37.5694         10.1467       -0.0168558         145.905
0.577                   -5.25702        -158.463         -37.4826          5.7024         -37.4826         5.70229       -0.0171398         145.833
0.578                   -5.24282        -156.007         -37.4333         1.32329         -37.4333         1.32318       -0.0173939         145.761
0.579                   -5.14666        -153.731          -37.419        -2.95977          -37.419        -2.95989       -0.0176188         145.688
0.58                    -4.98341        -151.756         -37.4362        -7.12102         -37.4362        -7.12113       -0.0178168         145.616
0.581                   -4.77167        -150.155         -37.4813        -11.1404         -37.4813        -11.1405       -0.0179917         145.543
0.582                   -4.52988        -148.949         -37.5502        -15.0037         -37.5502        -15.0038       -0.0181476          145.47
0.583                   -4.27392        -148.124         -37.6388        -18.7022         -37.6388        -18.7023       -0.0182889         145.397
0.584                   -4.01603        -147.643         -37.7433        -22.2322         -37.7432        -22.2323       -0.0184197         145.323
0.585                   -3.76478         -147.46           -37.86        -25.5939           -37.86         -25.594       -0.0185438         145.249
0.586                   -3.52569        -147.526         -37.9857         -28.791         -37.9857        -28.7911       -0.0186643         145.175
0.587                   -3.30188        -147.795         -38.1176        -31.8294         -38.1176        -31.8295       -0.0187838         145.101
0.588                   -3.09479        -148.228         -38.2532        -34.7165         -38.2531        -34.7167       -0.0189043         145.026
0.589                   -2.90472        -148.791         -38.3904        -37.4612         -38.3903        -37.4614       -0.0190275         144.951
0.59                    -2.73125        -149.456         -38.5274        -40.0726         -38.5274        -40.0728       -0.0191545         144.876
0.591                   -2.57353        -150.201         -38.6629        -42.5601         -38.6629        -42.5602       -0.0192864         144.801
0.592                   -2.43047        -151.008         -38.7958        -44.9329         -38.7957        -44.9331       -0.0194236         144.725
0.593                   -2.30093        -151.863          -38.925        -47.2002         -38.9249        -47.2004       -0.0195667         144.649
0.594                   -2.18371        -152.755         -39.0499        -49.3704         -39.0498        -49.3706       -0.0197161         144.573
0.595                   -2.07769        -153.675           -39.17        -51.4518         -39.1699         -51.452       -0.0198718         144.497
0.596                   -1.98182        -154.616         -39.2849        -53.4519         -39.2848        -53.4522       -0.0200341         144.421
0.597                    -1.8951        -155.573         -39.3942        -55.3779         -39.3941        -55.3782       -0.0202031         144.344
0.598                   -1.81666        -156.543         -39.4978        -57.2362         -39.4977        -57.2365       -0.0203786         144.267
0.599                   -1.74568        -157.522         -39.5956         -59.033         -39.5955        -59.0333       -0.0205609          144.19
0.6                     -1.68146        -158.509         -39.6875        -60.7736         -39.6874         -60.774       -0.0207498         144.113
0.601                   -1.62335        -159.501         -39.7735        -62.4634         -39.7734        -62.4637       -0.0209454         144.035
0.602                   -1.57078        -160.497         -39.8536        -64.1068         -39.8535        -64.1072       -0.0211475         143.958
0.603                   -1.52325        -161.497          -39.928        -65.7083         -39.9279        -65.7087       -0.0213563          143.88
0.604                    -1.4803          -162.5         -39.9966        -67.2716         -39.9965         -67.272       -0.0215717         143.802
0.605                   -1.44153        -163.506         -40.0597        -68.8005         -40.0596        -68.8009       -0.0217937         143.723
0.606                   -1.40659        -164.514         -40.1173        -70.2981         -40.1172        -70.2986       -0.0220223         143.645
0.607                   -1.37516        -165.525         -40.1696        -71.7675         -40.1695         -71.768       -0.0222575         143.566
0.608                   -1.34698        -166.539         -40.2168        -73.2115         -40.2167         -73.212       -0.0224993         143.487
0.609                   -1.32178        -167.556         -40.2589        -74.6325         -40.2588         -74.633       -0.0227477         143.408
0.61                    -1.29936        -168.576         -40.2961         -76.033         -40.2961        -76.0334       -0.0230028         143.329
0.611                   -1.27951          -169.6         -40.3287        -77.4149         -40.3286        -77.4154       -0.0232647         143.249
0.612                   -1.26208        -170.627         -40.3567        -78.7803         -40.3567        -78.7807       -0.0235332         143.169
0.613                   -1.24689        -171.659         -40.3804        -80.1309         -40.3803        -80.1313       -0.0238086         143.089
0.614                   -1.23383        -172.696         -40.3998        -81.4683         -40.3998        -81.4687       -0.0240908         143.009
0.615                   -1.22276        -173.737         -40.4152        -82.7941         -40.4152        -82.7945       -0.0243798         142.928
0.616                    -1.2136        -174.785         -40.4267        -84.1097         -40.4267        -84.1101       -0.0246758         142.848
0.617                   -1.20624        -175.838         -40.4345        -85.4162         -40.4345        -85.4165       -0.0249788         142.767
0.618                    -1.2006        -176.898         -40.4387        -86.7149         -40.4387        -86.7151       -0.0252888         142.686
0.619                   -1.19662        -177.965         -40.4395        -88.0067         -40.4395        -88.0069       -0.0256058         142.604
0.62                    -1.19423        -179.039          -40.437        -89.2926          -40.437        -89.2927       -0.0259298         142.523
0.621                   -1.19338         179.879         -40.4314        -90.5734         -40.4314        -90.5735       -0.0262609         142.441
0.622                   -1.19403         178.788         -40.4228          -91.85         -40.4228          -91.85        -0.026599         142.359
0.623                   -1.19613         177.689         -40.4114        -93.1229         -40.4114        -93.1228       -0.0269442         142.277
0.624                   -1.19967          176.58         -40.3973        -94.3928         -40.3973        -94.3926       -0.0272962         142.194
0.625                   -1.20462         175.461         -40.3806        -95.6602         -40.3807        -95.6599       -0.0276551         142.111
0.626                   -1.21095         174.332         -40.3616        -96.9256         -40.3616        -96.9252       -0.0280208         142.028
0.627                   -1.21866         173.191         -40.3402        -98.1894         -40.3403        -98.1888        -0.028393         141.945
0.628                   -1.22774          172.04         -40.3167        -99.4518         -40.3168        -99.4511       -0.0287715         141.862
0.629                   -1.23819         170.876         -40.2912        -100.713         -40.2912        -100.712       -0.0291561         141.778
