! TOUCHSTONE file generated by CST MICROWAVE STUDIO
! Date and time: Mon Nov 30 09:07:20 2020
! Project name: Scenario_1_Planar_Body_Tissue_Out_of_Line_v2.cst
! Parameters = {dy1=-155.7; L_HA=400; Ltissue=700; MT=2.54; Rad_Dielectric=30; Rad_Lower=7.3; Rad_Upper=30; Wtissue=700; a_HA=580; a_WG=246; b_HA=500; b_WG=121; c_HA=0; c_WG=187; d_feed=85; dx1=346; h_feed=15; h_lower=18; h_upper=40; hfat=3; hgap=25; hmuscle=50; hskin=1.5}
! Header version: 2018
! Port assignment regex: !\s*Touchstone port\s*([0-9]+)\s*=\s*(CST MWS port|CST DS port)\s*([0-9]+|Zmin|Zmax)\s*\(\"(.*)\"\)(\s*mode\s*([0-9]+))?.*
! Touchstone port assignment:
! Touchstone port 1 = CST MWS port 1 ("")
! Touchstone port 2 = CST MWS port 2 ("")
# GHz S DB R 50
0.5                    -0.268642        -121.801         -56.2829         27.6049          -56.283         27.6049      -0.00823929         151.146
0.501                  -0.271065        -122.202         -56.1871         25.5514         -56.1974         25.4707      -0.00830608         151.081
0.502                  -0.273487        -122.604         -56.0954         23.4974         -56.1159         23.3435      -0.00837313         151.016
0.503                   -0.27591        -123.009         -56.0076          21.445         -56.0383          21.225      -0.00844045         150.951
0.504                  -0.278334        -123.417         -55.9239          19.396         -55.9645         19.1173      -0.00850805         150.885
0.505                  -0.280761        -123.827         -55.8439         17.3525         -55.8944          17.022      -0.00857593          150.82
0.506                  -0.283192        -124.239         -55.7678         15.3163         -55.8279         14.9408       -0.0086441         150.754
0.507                  -0.285629        -124.653         -55.6953         13.2894         -55.7647         12.8753      -0.00871256         150.689
0.508                  -0.288074        -125.071         -55.6263         11.2733         -55.7046          10.827      -0.00878133         150.623
0.509                  -0.290528        -125.491         -55.5607         9.26976         -55.6475         8.79717      -0.00885041         150.557
0.51                   -0.292994        -125.913         -55.4983         7.28037         -55.5932         6.78705      -0.00891981         150.492
0.511                  -0.295472        -126.338         -55.4389         5.30656         -55.5414         4.79774      -0.00898954         150.426
0.512                  -0.297966        -126.766         -55.3822         3.34966         -55.4918          2.8302      -0.00905959          150.36
0.513                  -0.300476        -127.197         -55.3282          1.4109         -55.4444        0.885269      -0.00912999         150.294
0.514                  -0.303006         -127.63         -55.2766       -0.508611         -55.3988        -1.03632      -0.00920075         150.228
0.515                  -0.305558        -128.067         -55.2272         -2.4079         -55.3548        -2.93397      -0.00927186         150.162
0.516                  -0.308134        -128.506         -55.1797         -4.2861         -55.3123         -4.8072      -0.00934333         150.095
0.517                  -0.310736        -128.949         -55.1339        -6.14247         -55.2708        -6.65562      -0.00941519         150.029
0.518                  -0.313368        -129.394         -55.0897        -7.97638         -55.2304        -8.47896      -0.00948743         149.962
0.519                  -0.316032        -129.842         -55.0467        -9.78731         -55.1906         -10.277      -0.00956006         149.896
0.52                   -0.318731        -130.294         -55.0048        -11.5749         -55.1514        -12.0498       -0.0096331         149.829
0.521                  -0.321469        -130.749         -54.9637        -13.3387         -55.1124        -13.7972      -0.00970655         149.763
0.522                  -0.324247        -131.207         -54.9232        -15.0787         -55.0736        -15.5193      -0.00978043         149.696
0.523                  -0.327071        -131.669         -54.8831        -16.7946         -55.0347        -17.2162      -0.00985474         149.629
0.524                  -0.329943        -132.134         -54.8432        -18.4865         -54.9955        -18.8883       -0.0099295         149.562
0.525                  -0.332867        -132.602         -54.8033        -20.1544         -54.9559        -20.5357       -0.0100047         149.495
0.526                  -0.335848        -133.074         -54.7633        -21.7984         -54.9156        -22.1588       -0.0100804         149.428
0.527                  -0.338889         -133.55         -54.7228        -23.4187         -54.8746        -23.7579       -0.0101566         149.361
0.528                  -0.341995        -134.029         -54.6818        -25.0156         -54.8327        -25.3335       -0.0102332         149.293
0.529                  -0.345171        -134.513         -54.6401        -26.5892         -54.7897         -26.886       -0.0103104         149.226
0.53                   -0.348421            -135         -54.5975        -28.1401         -54.7455        -28.4158        -0.010388         149.158
0.531                  -0.351751         -135.49         -54.5539        -29.6685            -54.7        -29.9235       -0.0104662         149.091
0.532                  -0.355166        -135.985          -54.509        -31.1749          -54.653        -31.4095        -0.010545         149.023
0.533                  -0.358671        -136.485         -54.4629        -32.6598         -54.6044        -32.8746       -0.0106243         148.955
0.534                  -0.362274        -136.988         -54.4153        -34.1236         -54.5542        -34.3191       -0.0107042         148.887
0.535                  -0.365981        -137.495         -54.3661        -35.5669         -54.5022        -35.7436       -0.0107846         148.819
0.536                  -0.369797        -138.007         -54.3152        -36.9901         -54.4483        -37.1489       -0.0108657         148.751
0.537                  -0.373731        -138.524         -54.2625        -38.3939         -54.3924        -38.5353       -0.0109473         148.683
0.538                  -0.377789        -139.045         -54.2079        -39.7788         -54.3345        -39.9037       -0.0110296         148.615
0.539                  -0.381981         -139.57         -54.1513        -41.1455         -54.2745        -41.2545       -0.0111126         148.546
0.54                   -0.386314        -140.101         -54.0925        -42.4944         -54.2123        -42.5883       -0.0111962         148.478
0.541                  -0.390797        -140.636         -54.0316        -43.8262         -54.1478        -43.9059       -0.0112804         148.409
0.542                   -0.39544        -141.177         -53.9684        -45.1415          -54.081        -45.2077       -0.0113654          148.34
0.543                  -0.400253        -141.722         -53.9029        -46.4409         -54.0117        -46.4944       -0.0114511         148.271
0.544                  -0.405246        -142.273         -53.8349        -47.7251         -53.9401        -47.7667       -0.0115375         148.203
0.545                  -0.410431        -142.829         -53.7645        -48.9946         -53.8659        -49.0252       -0.0116247         148.133
0.546                   -0.41582         -143.39         -53.6915        -50.2501         -53.7891        -50.2704       -0.0117127         148.064
0.547                  -0.421425        -143.957         -53.6159        -51.4923         -53.7098         -51.503       -0.0118014         147.995
0.548                  -0.427259         -144.53         -53.5377        -52.7218         -53.6278        -52.7236        -0.011891         147.926
0.549                  -0.433338        -145.109         -53.4567        -53.9391         -53.5431        -53.9328       -0.0119814         147.856
0.55                   -0.439676        -145.694         -53.3729         -55.145         -53.4556        -55.1313       -0.0120726         147.786
0.551                  -0.446289        -146.285         -53.2864        -56.3401         -53.3654        -56.3196       -0.0121648         147.717
0.552                  -0.453195        -146.882         -53.1969        -57.5249         -53.2724        -57.4985       -0.0122578         147.647
0.553                  -0.460411        -147.486         -53.1046        -58.7003         -53.1765        -58.6684       -0.0123518         147.577
0.554                  -0.467958        -148.097         -53.0093        -59.8668         -53.0778          -59.83       -0.0124468         147.507
0.555                  -0.475856        -148.714         -52.9111         -61.025         -52.9761         -60.984       -0.0125427         147.437
0.556                  -0.484126        -149.338         -52.8098        -62.1757         -52.8715         -62.131       -0.0126397         147.366
0.557                  -0.492793         -149.97         -52.7055        -63.3194         -52.7639        -63.2716       -0.0127376         147.296
0.558                  -0.501882        -150.609         -52.5981        -64.4569         -52.6533        -64.4064       -0.0128367         147.225
0.559                   -0.51142        -151.255         -52.4876        -65.5888         -52.5397        -65.5361       -0.0129369         147.154
0.56                   -0.521435         -151.91          -52.374        -66.7158         -52.4231        -66.6614       -0.0130382         147.084
0.561                  -0.531957        -152.572         -52.2572        -67.8385         -52.3033        -67.7828       -0.0131407         147.013
0.562                   -0.54302        -153.242         -52.1372        -68.9577         -52.1805        -68.9012       -0.0132444         146.942
0.563                  -0.554659        -153.921         -52.0139        -70.0741         -52.0545         -70.017       -0.0133493          146.87
0.564                  -0.566911        -154.609         -51.8875        -71.1883         -51.9254        -71.1311       -0.0134555         146.799
0.565                  -0.579817        -155.305         -51.7577        -72.3011         -51.7931        -72.2441       -0.0135631         146.727
0.566                  -0.593419         -156.01         -51.6247        -73.4133         -51.6576        -73.3567        -0.013672         146.656
0.567                  -0.607764        -156.725         -51.4884        -74.5255         -51.5189        -74.4697       -0.0137823         146.584
0.568                  -0.622901         -157.45         -51.3487        -75.6385          -51.377        -75.5838       -0.0138941         146.512
0.569                  -0.638885        -158.184         -51.2057        -76.7531         -51.2318        -76.6997       -0.0140073          146.44
0.57                   -0.655772        -158.929         -51.0594        -77.8702         -51.0833        -77.8182       -0.0141222         146.368
0.571                  -0.673624        -159.684         -50.9096        -78.9904         -50.9316        -78.9402       -0.0142386         146.295
0.572                  -0.692507        -160.449         -50.7565        -80.1147         -50.7766        -80.0664       -0.0143567         146.223
0.573                  -0.712493        -161.226            -50.6         -81.244         -50.6183        -81.1977       -0.0144765          146.15
0.574                  -0.733658        -162.014         -50.4401         -82.379         -50.4567        -82.3348        -0.014598         146.078
0.575                  -0.756086        -162.813         -50.2768        -83.5207         -50.2918        -83.4789       -0.0147214         146.005
0.576                  -0.779866        -163.625           -50.11        -84.6701         -50.1235        -84.6306       -0.0148467         145.932
0.577                  -0.805095        -164.448         -49.9399         -85.828          -49.952        -85.7911        -0.014974         145.858
0.578                  -0.831875        -165.284         -49.7663        -86.9956          -49.777        -86.9611       -0.0151032         145.785
0.579                  -0.860321        -166.133         -49.5893        -88.1737         -49.5988        -88.1419       -0.0152346         145.711
0.58                   -0.890552        -166.995          -49.409        -89.3636         -49.4173        -89.3343       -0.0153682         145.638
0.581                  -0.922701        -167.871         -49.2252        -90.5662         -49.2325        -90.5396        -0.015504         145.564
0.582                  -0.956909         -168.76         -49.0381        -91.7826         -49.0443        -91.7587       -0.0156422          145.49
0.583                   -0.99333        -169.662         -48.8477        -93.0142          -48.853        -92.9928       -0.0157828         145.415
0.584                   -1.03213         -170.58         -48.6539        -94.2619         -48.6583        -94.2432       -0.0159259         145.341
0.585                   -1.07349        -171.511         -48.4569        -95.5272         -48.4605        -95.5111       -0.0160716         145.267
0.586                   -1.11759        -172.457         -48.2566        -96.8113         -48.2596        -96.7977         -0.01622         145.192
0.587                   -1.16467        -173.418         -48.0532        -98.1155         -48.0555        -98.1043       -0.0163712         145.117
0.588                   -1.21493        -174.394         -47.8467        -99.4411         -47.8484        -99.4323       -0.0165253         145.042
0.589                   -1.26862        -175.385         -47.6372         -100.79         -47.6384        -100.783       -0.0166825         144.967
0.59                    -1.32602        -176.391         -47.4247        -102.163         -47.4254        -102.158       -0.0168427         144.891
0.591                    -1.3874        -177.412         -47.2093        -103.561         -47.2097        -103.559       -0.0170062         144.816
0.592                   -1.45308        -178.447         -46.9912        -104.987         -46.9913        -104.987        -0.017173          144.74
0.593                   -1.52339        -179.497         -46.7706        -106.442         -46.7703        -106.444       -0.0173433         144.664
0.594                    -1.5987         179.439         -46.5474        -107.928         -46.5469        -107.931       -0.0175172         144.588
0.595                   -1.67939         178.362          -46.322        -109.445         -46.3213         -109.45       -0.0176947         144.512
0.596                   -1.76587         177.272         -46.0945        -110.997         -46.0936        -111.003       -0.0178761         144.435
0.597                    -1.8586         176.171         -45.8651        -112.583         -45.8641        -112.591       -0.0180615         144.359
0.598                   -1.95806         175.059          -45.634        -114.207         -45.6329        -114.216       -0.0182508         144.282
0.599                   -2.06474         173.939         -45.4015        -115.869         -45.4004        -115.879       -0.0184444         144.205
0.6                      -2.1792         172.812         -45.1679        -117.572         -45.1667        -117.582       -0.0186423         144.127
0.601                   -2.30201         171.681         -44.9334        -119.316         -44.9323        -119.327       -0.0188445          144.05
0.602                   -2.43377         170.549         -44.6986        -121.103         -44.6975        -121.115       -0.0190513         143.972
0.603                    -2.5751         169.419         -44.4636        -122.935         -44.4625        -122.947       -0.0192627         143.895
0.604                   -2.72665         168.295         -44.2289        -124.813         -44.2279        -124.825       -0.0194788         143.817
0.605                    -2.8891         167.183          -43.995        -126.738         -43.9941         -126.75       -0.0196996         143.738
0.606                   -3.06312         166.087         -43.7623         -128.71         -43.7615        -128.722       -0.0199253          143.66
0.607                   -3.24936         165.016         -43.5314        -130.731         -43.5307        -130.743        -0.020156         143.581
0.608                   -3.44848         163.976         -43.3027        -132.801         -43.3021        -132.813       -0.0203915         143.502
0.609                   -3.66106         162.977         -43.0769         -134.92         -43.0764        -134.931       -0.0206321         143.423
0.61                    -3.88763          162.03         -42.8545        -137.088          -42.854        -137.099       -0.0208777         143.344
0.611                   -4.12859         161.146         -42.6361        -139.305         -42.6357        -139.315       -0.0211282         143.265
0.612                   -4.38421          160.34         -42.4223        -141.569         -42.4221        -141.578       -0.0213837         143.185
0.613                   -4.65451         159.627         -42.2139        -143.879         -42.2137        -143.887       -0.0216441         143.105
0.614                   -4.93922         159.024         -42.0113        -146.234         -42.0112        -146.241       -0.0219093         143.025
0.615                   -5.23772         158.551         -41.8152         -148.63         -41.8152        -148.636       -0.0221793         142.945
0.616                   -5.54887         158.229         -41.6263        -151.066         -41.6262        -151.071       -0.0224539         142.864
0.617                   -5.87093         158.079         -41.4449        -153.538         -41.4449        -153.542        -0.022733         142.784
0.618                   -6.20141         158.125         -41.2718        -156.041         -41.2718        -156.044       -0.0230165         142.703
0.619                   -6.53693          158.39         -41.1073        -158.573         -41.1073        -158.575       -0.0233043         142.622
0.62                    -6.87308         158.895         -40.9518        -161.128         -40.9518         -161.13        -0.023596          142.54
0.621                   -7.20436         159.657         -40.8056        -163.702         -40.8057        -163.703       -0.0238916         142.459
0.622                   -7.52414         160.688         -40.6691        -166.289         -40.6691        -166.289       -0.0241909         142.377
0.623                   -7.82478         161.991         -40.5422        -168.884         -40.5422        -168.883       -0.0244936         142.295
0.624                   -8.09796         163.558         -40.4252        -171.482         -40.4251        -171.481       -0.0247997         142.213
0.625                   -8.33519         165.365         -40.3178        -174.077         -40.3177        -174.075       -0.0251088          142.13
0.626                   -8.52852         167.373         -40.2201        -176.663           -40.22        -176.661       -0.0254208         142.047
0.627                    -8.6714         169.528         -40.1318        -179.236         -40.1316        -179.234       -0.0257356         141.964
0.628                   -8.75944         171.766         -40.0525         178.209         -40.0523         178.211       -0.0260529         141.881
0.629                   -8.79107         174.013         -39.9819         175.677         -39.9817         175.679       -0.0263727         141.798
