! TOUCHSTONE file generated by CST MICROWAVE STUDIO
! Date and time: Fri Dec 11 13:55:07 2020
! Project name: Scenario_1_Planar_Body_Tissue_Out_of_Line_v2.cst
! Parameters = {dy1=-155.7; L_HA=400; Ltissue=700; MT=2.54; Rad_Dielectric=30; Rad_Lower=7.3; Rad_Upper=30; Wtissue=700; a_HA=580; a_WG=246; b_HA=500; b_WG=121; c_HA=0; c_WG=187; d_feed=85; dx1=520; h_feed=15; h_lower=18; h_upper=40; hfat=3; hgap=25; hmuscle=50; hskin=1.5}
! Header version: 2018
! Port assignment regex: !\s*Touchstone port\s*([0-9]+)\s*=\s*(CST MWS port|CST DS port)\s*([0-9]+|Zmin|Zmax)\s*\(\"(.*)\"\)(\s*mode\s*([0-9]+))?.*
! Touchstone port assignment:
! Touchstone port 1 = CST MWS port 1 ("")
! Touchstone port 2 = CST MWS port 2 ("")
# GHz S DB R 50
0.5                   -0.0824897        -121.954           -62.18        -54.8459         -62.1802        -54.8442      -0.00738795         151.151
0.501                 -0.0857528        -122.399         -61.9319        -55.9015         -61.9321         -55.902       -0.0074411         151.085
0.502                 -0.0891429        -122.847         -61.6809        -56.9745         -61.6811        -56.9771      -0.00749544          151.02
0.503                  -0.092673        -123.299          -61.427        -58.0656         -61.4273        -58.0703      -0.00755101         150.955
0.504                 -0.0963575        -123.755         -61.1701        -59.1757         -61.1704        -59.1824      -0.00760786         150.889
0.505                  -0.100212        -124.215         -60.9101        -60.3059         -60.9106        -60.3145      -0.00766604         150.823
0.506                  -0.104254        -124.679         -60.6471        -61.4571         -60.6476        -61.4676       -0.0077256         150.758
0.507                  -0.108503        -125.148          -60.381        -62.6305         -60.3816        -62.6428      -0.00778659         150.692
0.508                   -0.11298        -125.621         -60.1117        -63.8272         -60.1123        -63.8411      -0.00784908         150.626
0.509                  -0.117708        -126.098         -59.8392        -65.0483         -59.8398         -65.064      -0.00791313          150.56
0.51                   -0.122713         -126.58         -59.5634        -66.2954         -59.5641        -66.3125       -0.0079788         150.494
0.511                  -0.128025        -127.068         -59.2842        -67.5696         -59.2851        -67.5883      -0.00804618         150.428
0.512                  -0.133675         -127.56         -59.0018        -68.8726         -59.0027        -68.8927      -0.00811533         150.362
0.513                  -0.139699        -128.057          -58.716         -70.206          -58.717        -70.2274      -0.00818635         150.295
0.514                  -0.146137         -128.56         -58.4268        -71.5713         -58.4279         -71.594      -0.00825932         150.229
0.515                  -0.153032        -129.069         -58.1342        -72.9706         -58.1354        -72.9945      -0.00833433         150.163
0.516                  -0.160435        -129.583         -57.8383        -74.4056         -57.8395        -74.4306      -0.00841149         150.096
0.517                  -0.168399        -130.102          -57.539        -75.8785         -57.5403        -75.9046       -0.0084909         150.029
0.518                  -0.176986        -130.628         -57.2363        -77.3915         -57.2378        -77.4185      -0.00857267         149.963
0.519                  -0.186264         -131.16         -56.9304        -78.9468         -56.9319        -78.9747      -0.00865691         149.896
0.52                    -0.19631        -131.698         -56.6213         -80.547         -56.6229        -80.5756      -0.00874373         149.829
0.521                  -0.207208        -132.242         -56.3091        -82.1947         -56.3108         -82.224      -0.00883327         149.762
0.522                  -0.219053        -132.793         -55.9939        -83.8926         -55.9958        -83.9225      -0.00892563         149.695
0.523                  -0.231951         -133.35         -55.6759        -85.6436         -55.6779         -85.674      -0.00902093         149.628
0.524                  -0.246019        -133.914         -55.3553        -87.4508         -55.3575        -87.4817       -0.0091193         149.561
0.525                  -0.261387        -134.484         -55.0324        -89.3174         -55.0347        -89.3485      -0.00922084         149.493
0.526                  -0.278197         -135.06         -54.7075        -91.2466         -54.7099         -91.278      -0.00932565         149.426
0.527                  -0.296609        -135.642         -54.3808         -93.242         -54.3834        -93.2734      -0.00943383         149.358
0.528                  -0.316796         -136.23         -54.0529        -95.3068         -54.0556        -95.3382      -0.00954545         149.291
0.529                  -0.338944        -136.823         -53.7243        -97.4447         -53.7271        -97.4759      -0.00966055         149.223
0.53                   -0.363256        -137.421         -53.3955        -99.6591         -53.3984          -99.69      -0.00977916         149.155
0.531                  -0.389945        -138.021         -53.0671        -101.953         -53.0702        -101.984      -0.00990128         149.087
0.532                  -0.419236        -138.624           -52.74        -104.331         -52.7432        -104.361       -0.0100269         149.019
0.533                  -0.451355        -139.228         -52.4151        -106.795         -52.4184        -106.824       -0.0101558         148.951
0.534                  -0.486527         -139.83         -52.0932        -109.347         -52.0967        -109.376        -0.010288         148.883
0.535                   -0.52496        -140.429         -51.7755        -111.991         -51.7791        -112.018       -0.0104233         148.815
0.536                  -0.566837        -141.021         -51.4632        -114.727         -51.4668        -114.753       -0.0105614         148.747
0.537                  -0.612288        -141.602         -51.1575        -117.556         -51.1612        -117.581        -0.010702         148.679
0.538                  -0.661374         -142.17         -50.8598        -120.478         -50.8637        -120.502       -0.0108449          148.61
0.539                  -0.714054        -142.719         -50.5717        -123.492         -50.5756        -123.514       -0.0109895         148.542
0.54                   -0.770152        -143.244         -50.2945        -126.595         -50.2984        -126.615       -0.0111356         148.473
0.541                  -0.829323         -143.74         -50.0298        -129.782         -50.0338        -129.801       -0.0112825         148.404
0.542                  -0.891025        -144.202         -49.7792        -133.049         -49.7832        -133.066       -0.0114299         148.336
0.543                  -0.954488        -144.625         -49.5441        -136.387          -49.548        -136.402       -0.0115773         148.267
0.544                   -1.01871        -145.004         -49.3257        -139.788         -49.3296        -139.801       -0.0117242         148.198
0.545                   -1.08248        -145.336         -49.1253        -143.241         -49.1291        -143.253         -0.01187         148.129
0.546                   -1.14438        -145.621         -48.9439        -146.736         -48.9475        -146.746       -0.0120145          148.06
0.547                   -1.20293        -145.858          -48.782        -150.258         -48.7855        -150.267       -0.0121573         147.991
0.548                   -1.25661        -146.052         -48.6402        -153.795         -48.6435        -153.802        -0.012298         147.922
0.549                   -1.30405        -146.209         -48.5186        -157.333         -48.5217        -157.338       -0.0124364         147.852
0.55                    -1.34409        -146.337         -48.4168        -160.857         -48.4197        -160.861       -0.0125723         147.783
0.551                   -1.37592        -146.445         -48.3345        -164.355         -48.3372        -164.358       -0.0127057         147.713
0.552                   -1.39914        -146.545         -48.2709        -167.813         -48.2733        -167.815       -0.0128365         147.644
0.553                   -1.41374        -146.647         -48.2248        -171.222         -48.2271        -171.223       -0.0129648         147.574
0.554                   -1.42012        -146.763         -48.1952        -174.569         -48.1971        -174.569       -0.0130907         147.504
0.555                     -1.419        -146.901         -48.1805        -177.848         -48.1822        -177.847       -0.0132144         147.434
0.556                    -1.4113        -147.067         -48.1793          178.95         -48.1808         178.951        -0.013336         147.364
0.557                   -1.39811        -147.268           -48.19         175.829         -48.1913          175.83       -0.0134558         147.294
0.558                   -1.38052        -147.507         -48.2111         172.793         -48.2122         172.794       -0.0135741         147.223
0.559                   -1.35962        -147.785         -48.2411         169.844          -48.242         169.846       -0.0136911         147.153
0.56                     -1.3364        -148.102         -48.2785         166.985         -48.2792         166.986       -0.0138071         147.082
0.561                   -1.31172        -148.457         -48.3219         164.213         -48.3224         164.214       -0.0139224         147.011
0.562                   -1.28634        -148.849         -48.3699          161.53         -48.3703          161.53       -0.0140373         146.941
0.563                   -1.26088        -149.276         -48.4215         158.932         -48.4217         158.932        -0.014152         146.869
0.564                   -1.23583        -149.736         -48.4754         156.418         -48.4755         156.418       -0.0142668         146.798
0.565                   -1.21157        -150.225         -48.5308         153.984         -48.5308         153.984        -0.014382         146.727
0.566                    -1.1884        -150.741         -48.5867         151.629         -48.5866         151.628       -0.0144977         146.655
0.567                   -1.16653        -151.282         -48.6423         149.347         -48.6422         149.346       -0.0146142         146.584
0.568                   -1.14612        -151.847         -48.6971         147.136         -48.6969         147.135       -0.0147316         146.512
0.569                   -1.12724        -152.432         -48.7504         144.992         -48.7501         144.991       -0.0148502          146.44
0.57                    -1.10998        -153.036         -48.8016         142.911         -48.8013          142.91       -0.0149701         146.368
0.571                   -1.09435        -153.658         -48.8504         140.891           -48.85         140.889       -0.0150914         146.296
0.572                   -1.08037        -154.296         -48.8963         138.927         -48.8959         138.925       -0.0152143         146.223
0.573                   -1.06803        -154.949          -48.939         137.015         -48.9387         137.013       -0.0153389         146.151
0.574                    -1.0573        -155.616         -48.9784         135.154          -48.978         135.151       -0.0154653         146.078
0.575                   -1.04816        -156.297          -49.014         133.338         -49.0136         133.336       -0.0155935         146.005
0.576                   -1.04059        -156.989         -49.0458         131.566         -49.0454         131.564       -0.0157238         145.932
0.577                   -1.03454        -157.694         -49.0736         129.835         -49.0732         129.832       -0.0158561         145.859
0.578                      -1.03         -158.41         -49.0973         128.142         -49.0969         128.139       -0.0159905         145.786
0.579                   -1.02692        -159.138         -49.1167         126.483         -49.1163          126.48       -0.0161271         145.712
0.58                    -1.02529        -159.876         -49.1318         124.857         -49.1314         124.855       -0.0162659         145.639
0.581                   -1.02508        -160.624         -49.1425         123.262         -49.1421         123.259        -0.016407         145.565
0.582                   -1.02627        -161.383         -49.1488         121.694         -49.1485         121.692       -0.0165504         145.491
0.583                   -1.02884        -162.152         -49.1507         120.153         -49.1503          120.15       -0.0166963         145.417
0.584                   -1.03279        -162.931          -49.148         118.635         -49.1477         118.632       -0.0168445         145.343
0.585                    -1.0381         -163.72         -49.1409         117.139         -49.1406         117.136       -0.0169952         145.268
0.586                   -1.04478        -164.519         -49.1294         115.663         -49.1291          115.66       -0.0171484         145.194
0.587                   -1.05282        -165.328         -49.1133         114.205          -49.113         114.202       -0.0173041         145.119
0.588                   -1.06224        -166.148         -49.0928         112.764         -49.0926         112.761       -0.0174624         145.044
0.589                   -1.07305        -166.978         -49.0678         111.337         -49.0676         111.335       -0.0176232         144.969
0.59                    -1.08525        -167.818         -49.0385         109.925         -49.0383         109.923       -0.0177867         144.894
0.591                   -1.09889         -168.67         -49.0047         108.524         -49.0045         108.522       -0.0179528         144.818
0.592                   -1.11398        -169.531         -48.9666         107.134         -48.9665         107.132       -0.0181216         144.743
0.593                   -1.13056        -170.404         -48.9242         105.752          -48.924         105.751       -0.0182931         144.667
0.594                   -1.14866        -171.288         -48.8775         104.379         -48.8773         104.378       -0.0184673         144.591
0.595                   -1.16834        -172.183         -48.8265         103.012         -48.8264         103.011       -0.0186443         144.515
0.596                   -1.18963         -173.09         -48.7713         101.651         -48.7712          101.65       -0.0188241         144.438
0.597                    -1.2126        -174.009          -48.712         100.294         -48.7119         100.292       -0.0190067         144.362
0.598                    -1.2373        -174.939         -48.6485          98.939         -48.6485         98.9381       -0.0191922         144.285
0.599                   -1.26381        -175.882          -48.581         97.5863          -48.581         97.5856       -0.0193805         144.208
0.6                     -1.29219        -176.838         -48.5095         96.2342         -48.5095         96.2336       -0.0195718         144.131
0.601                   -1.32254        -177.806          -48.434         94.8816          -48.434         94.8811        -0.019766         144.054
0.602                   -1.35494        -178.787         -48.3546         93.5273         -48.3546          93.527       -0.0199632         143.976
0.603                   -1.38948        -179.782         -48.2714         92.1704         -48.2714         92.1702       -0.0201634         143.899
0.604                   -1.42626         179.211         -48.1844         90.8097         -48.1844         90.8096       -0.0203666         143.821
0.605                   -1.46541         178.189         -48.0936         89.4441         -48.0936         89.4441        -0.020573         143.743
0.606                   -1.50705         177.153         -47.9992         88.0726         -47.9992         88.0728       -0.0207824         143.664
0.607                   -1.55129         176.104         -47.9012         86.6942         -47.9013         86.6944       -0.0209951         143.586
0.608                    -1.5983          175.04         -47.7998         85.3078         -47.7998         85.3081       -0.0212109         143.507
0.609                   -1.64821         173.961         -47.6948         83.9123         -47.6948         83.9127         -0.02143         143.428
0.61                    -1.70118         172.867         -47.5866         82.5068         -47.5866         82.5072       -0.0216523         143.349
0.611                   -1.75741         171.759         -47.4751         81.0901         -47.4751         81.0907        -0.021878          143.27
0.612                   -1.81706         170.636         -47.3604         79.6613         -47.3604         79.6619        -0.022107          143.19
0.613                   -1.88034         169.497         -47.2427         78.2194         -47.2427           78.22       -0.0223395          143.11
0.614                   -1.94747         168.344          -47.122         76.7634          -47.122          76.764       -0.0225754          143.03
0.615                   -2.01867         167.176         -46.9985         75.2921         -46.9985         75.2928       -0.0228149          142.95
0.616                   -2.09418         165.992         -46.8723         73.8047         -46.8723         73.8054       -0.0230579          142.87
0.617                   -2.17428         164.794         -46.7435         72.3002         -46.7435         72.3008       -0.0233046         142.789
0.618                   -2.25923         163.581         -46.6122         70.7776         -46.6122         70.7781        -0.023555         142.708
0.619                   -2.34933         162.354         -46.4787         69.2359         -46.4787         69.2364       -0.0238092         142.627
0.62                    -2.44489         161.114         -46.3431         67.6742         -46.3431         67.6747       -0.0240671         142.545
0.621                   -2.54626          159.86         -46.2055         66.0917         -46.2055         66.0921        -0.024329         142.464
0.622                   -2.65377         158.593         -46.0661         64.4875         -46.0661         64.4878       -0.0245949         142.382
0.623                   -2.76782         157.315         -45.9252         62.8607         -45.9251         62.8609       -0.0248648           142.3
0.624                   -2.88879         156.026         -45.7828         61.2105         -45.7828         61.2107        -0.025139         142.217
0.625                    -3.0171         154.728         -45.6393         59.5364         -45.6393         59.5364       -0.0254173         142.134
0.626                   -3.15321         153.422         -45.4948         57.8375         -45.4948         57.8375          -0.0257         142.052
0.627                   -3.29756          152.11         -45.3496         56.1135         -45.3496         56.1133       -0.0259872         141.968
0.628                   -3.45065         150.793          -45.204         54.3636          -45.204         54.3633        -0.026279         141.885
0.629                   -3.61299         149.475         -45.0582         52.5876         -45.0582         52.5872       -0.0265755         141.801
