! TOUCHSTONE file generated by CST MICROWAVE STUDIO
! Date and time: Mon Nov 30 09:07:27 2020
! Project name: Scenario_1_Planar_Body_Tissue_Out_of_Line_v2.cst
! Parameters = {dy1=-138.4; L_HA=400; Ltissue=700; MT=2.54; Rad_Dielectric=30; Rad_Lower=7.3; Rad_Upper=30; Wtissue=700; a_HA=580; a_WG=246; b_HA=500; b_WG=121; c_HA=0; c_WG=187; d_feed=85; dx1=346; h_feed=15; h_lower=18; h_upper=40; hfat=3; hgap=25; hmuscle=50; hskin=1.5}
! Header version: 2018
! Port assignment regex: !\s*Touchstone port\s*([0-9]+)\s*=\s*(CST MWS port|CST DS port)\s*([0-9]+|Zmin|Zmax)\s*\(\"(.*)\"\)(\s*mode\s*([0-9]+))?.*
! Touchstone port assignment:
! Touchstone port 1 = CST MWS port 1 ("")
! Touchstone port 2 = CST MWS port 2 ("")
# GHz S DB R 50
0.5                    -0.273152        -121.771         -56.0614         29.5186         -56.0614         29.5187      -0.00819208         151.142
0.501                  -0.275536        -122.143         -55.9203         26.8737         -55.9144         27.1428       -0.0082566         151.077
0.502                  -0.277904        -122.518           -55.79         24.2552         -55.7763         24.7606      -0.00832121         151.012
0.503                  -0.280258        -122.895         -55.6702         21.6674          -55.647          22.377       -0.0083859         150.947
0.504                    -0.2826        -123.276         -55.5603         19.1144         -55.5265         19.9967      -0.00845071         150.881
0.505                   -0.28493        -123.659         -55.4597         16.5996         -55.4148         17.6242      -0.00851564         150.816
0.506                  -0.287252        -124.046         -55.3679         14.1261         -55.3116         15.2643       -0.0085807         150.751
0.507                  -0.289565        -124.436         -55.2843         11.6966         -55.2167         12.9212      -0.00864591         150.685
0.508                  -0.291873         -124.83         -55.2082         9.31318         -55.1298         10.5991      -0.00871129          150.62
0.509                  -0.294176        -125.226         -55.1389         6.97757         -55.0505          8.3018      -0.00877684         150.554
0.51                   -0.296477        -125.626         -55.0759         4.69107         -54.9785          6.0328      -0.00884259         150.488
0.511                  -0.298779        -126.029         -55.0185         2.45453         -54.9132         3.79524      -0.00890854         150.422
0.512                  -0.301082        -126.436          -54.966        0.268478         -54.8542         1.59188      -0.00897472         150.357
0.513                   -0.30339        -126.846          -54.918        -1.86695         -54.8009       -0.574897      -0.00904114         150.291
0.514                  -0.305704        -127.259         -54.8737        -3.95189         -54.7529        -2.70311      -0.00910781         150.225
0.515                  -0.308027        -127.676         -54.8327        -5.98678         -54.7095        -4.79116      -0.00917476         150.158
0.516                  -0.310362        -128.097         -54.7944        -7.97227         -54.6704        -6.83779      -0.00924199         150.092
0.517                  -0.312711        -128.521         -54.7584        -9.90922         -54.6348        -8.84213      -0.00930953         150.026
0.518                  -0.315077        -128.949         -54.7241        -11.7987         -54.6024        -10.8036      -0.00937738          149.96
0.519                  -0.317464         -129.38         -54.6912        -13.6417         -54.5726        -12.7219      -0.00944558         149.893
0.52                   -0.319873        -129.816         -54.6593        -15.4397         -54.5449        -14.5971      -0.00951413         149.826
0.521                  -0.322309        -130.255         -54.6279         -17.194         -54.5189        -16.4294      -0.00958306          149.76
0.522                  -0.324774        -130.698         -54.5968         -18.906         -54.4941        -18.2192      -0.00965238         149.693
0.523                  -0.327273        -131.145         -54.5657        -20.5771         -54.4701        -19.9672      -0.00972211         149.626
0.524                  -0.329809        -131.597         -54.5343        -22.2089         -54.4465        -21.6742      -0.00979227         149.559
0.525                  -0.332387        -132.052         -54.5022        -23.8028          -54.423         -23.341      -0.00986288         149.492
0.526                  -0.335009        -132.511         -54.4694        -25.3604         -54.3991        -24.9688      -0.00993396         149.425
0.527                  -0.337681        -132.975         -54.4355        -26.8832         -54.3747        -26.5586       -0.0100055         149.358
0.528                  -0.340407        -133.443         -54.4003        -28.3726         -54.3494        -28.1117       -0.0100776          149.29
0.529                  -0.343192        -133.916         -54.3638        -29.8302         -54.3229        -29.6292       -0.0101502         149.223
0.53                   -0.346041        -134.392         -54.3257        -31.2573          -54.295        -31.1125       -0.0102234         149.156
0.531                   -0.34896        -134.874         -54.2859        -32.6553         -54.2655        -32.5628       -0.0102971         149.088
0.532                  -0.351954         -135.36         -54.2443        -34.0256         -54.2341        -33.9815       -0.0103714          149.02
0.533                  -0.355028         -135.85         -54.2007        -35.3696         -54.2007        -35.3699       -0.0104463         148.952
0.534                  -0.358191        -136.346         -54.1551        -36.6885         -54.1652        -36.7293       -0.0105219         148.884
0.535                  -0.361447        -136.846         -54.1073        -37.9835         -54.1273        -38.0611       -0.0105981         148.816
0.536                  -0.364804        -137.352         -54.0573         -39.256          -54.087        -39.3664       -0.0106751         148.748
0.537                  -0.368269        -137.862         -54.0049         -40.507          -54.044        -40.6467       -0.0107527          148.68
0.538                  -0.371851        -138.378         -53.9501        -41.7376         -53.9984        -41.9031       -0.0108311         148.612
0.539                  -0.375557        -138.899         -53.8929        -42.9491         -53.9499        -43.1369       -0.0109102         148.543
0.54                   -0.379396        -139.425         -53.8332        -44.1424         -53.8986        -44.3492       -0.0109901         148.475
0.541                  -0.383377        -139.956         -53.7709        -45.3186         -53.8443        -45.5414       -0.0110708         148.406
0.542                  -0.387511        -140.494         -53.7059        -46.4787          -53.787        -46.7144       -0.0111524         148.337
0.543                  -0.391807        -141.037         -53.6383        -47.6235         -53.7265        -47.8695       -0.0112348         148.268
0.544                  -0.396276        -141.586          -53.568        -48.7542         -53.6629        -49.0077       -0.0113181         148.199
0.545                  -0.400931         -142.14         -53.4949        -49.8715         -53.5961        -50.1301       -0.0114024          148.13
0.546                  -0.405783        -142.701         -53.4191        -50.9763          -53.526        -51.2377       -0.0114875         148.061
0.547                  -0.410846        -143.268         -53.3404        -52.0696         -53.4526        -52.3316       -0.0115737         147.992
0.548                  -0.416133        -143.842         -53.2588         -53.152         -53.3759        -53.4128       -0.0116609         147.922
0.549                   -0.42166        -144.422         -53.1744        -54.2245         -53.2959        -54.4821       -0.0117491         147.853
0.55                   -0.427441        -145.008         -53.0871        -55.2879         -53.2124        -55.5406       -0.0118384         147.783
0.551                  -0.433494        -145.602         -52.9968        -56.3428         -53.1256        -56.5891       -0.0119288         147.713
0.552                  -0.439837        -146.202         -52.9036        -57.3901         -53.0353        -57.6287       -0.0120203         147.643
0.553                  -0.446489        -146.809         -52.8073        -58.4304         -52.9415          -58.66        -0.012113         147.573
0.554                  -0.453469        -147.424         -52.7081        -59.4646         -52.8443        -59.6842       -0.0122069         147.503
0.555                  -0.460799        -148.046         -52.6058        -60.4934         -52.7435        -60.7019        -0.012302         147.433
0.556                  -0.468503        -148.676         -52.5004        -61.5175         -52.6393        -61.7141       -0.0123984         147.362
0.557                  -0.476605        -149.314         -52.3919        -62.5375         -52.5315        -62.7215       -0.0124962         147.292
0.558                  -0.485131         -149.96         -52.2804        -63.5542         -52.4202         -63.725       -0.0125953         147.221
0.559                  -0.494109        -150.614         -52.1657        -64.5682         -52.3054        -64.7254       -0.0126957          147.15
0.56                    -0.50357        -151.276         -52.0478        -65.5804          -52.187        -65.7236       -0.0127976         147.079
0.561                  -0.513545        -151.947         -51.9268        -66.5913         -52.0651        -66.7203        -0.012901         147.008
0.562                  -0.524068        -152.627         -51.8026        -67.6017         -51.9396        -67.7163       -0.0130059         146.937
0.563                  -0.535177        -153.316         -51.6752        -68.6122         -51.8105        -68.7124       -0.0131123         146.866
0.564                  -0.546911        -154.014         -51.5445        -69.6237         -51.6778        -69.7095       -0.0132203         146.794
0.565                  -0.559313        -154.722         -51.4106        -70.6367         -51.5416        -70.7084         -0.01333         146.723
0.566                  -0.572427         -155.44         -51.2734        -71.6521         -51.4018        -71.7098       -0.0134413         146.651
0.567                  -0.586303        -156.168         -51.1329        -72.6705         -51.2584        -72.7145       -0.0135544         146.579
0.568                  -0.600993        -156.906         -50.9891        -73.6927         -51.1114        -73.7235       -0.0136692         146.507
0.569                  -0.616554        -157.655          -50.842        -74.7195         -50.9608        -74.7376       -0.0137859         146.435
0.57                   -0.633046        -158.415         -50.6915        -75.7516         -50.8066        -75.7575       -0.0139044         146.363
0.571                  -0.650535        -159.187         -50.5377        -76.7898         -50.6488        -76.7842       -0.0140249          146.29
0.572                  -0.669091        -159.969         -50.3805        -77.8349         -50.4874        -77.8185       -0.0141473         146.218
0.573                   -0.68879        -160.764         -50.2199        -78.8879         -50.3225        -78.8613       -0.0142718         146.145
0.574                  -0.709714         -161.57         -50.0558        -79.9495         -50.1539        -79.9136       -0.0143984         146.072
0.575                  -0.731952        -162.389         -49.8884        -81.0205         -49.9818        -80.9763       -0.0145271         145.999
0.576                  -0.755597        -163.221         -49.7176         -82.102         -49.8062        -82.0503        -0.014658         145.926
0.577                  -0.780755        -164.066         -49.5433        -83.1949          -49.627        -83.1367       -0.0147911         145.852
0.578                  -0.807535        -164.925         -49.3656        -84.3001         -49.4442        -84.2363       -0.0149266         145.779
0.579                  -0.836059        -165.797         -49.1845        -85.4187          -49.258        -85.3504       -0.0150644         145.705
0.58                   -0.866455        -166.683         -48.9999        -86.5516         -49.0682          -86.48       -0.0152046         145.631
0.581                  -0.898865        -167.583         -48.8119           -87.7          -48.875        -87.6261       -0.0153474         145.557
0.582                   -0.93344        -168.498         -48.6205        -88.8649         -48.6784        -88.7899       -0.0154927         145.483
0.583                  -0.970346        -169.428         -48.4258        -90.0476         -48.4783        -89.9726       -0.0156407         145.409
0.584                   -1.00976        -170.374         -48.2277        -91.2493          -48.275        -91.1753       -0.0157913         145.335
0.585                   -1.05188        -171.334         -48.0262        -92.4711         -48.0683        -92.3995       -0.0159447          145.26
0.586                    -1.0969         -172.31         -47.8215        -93.7144         -47.8584        -93.6463       -0.0161009         145.185
0.587                   -1.14506        -173.302         -47.6135        -94.9804         -47.6453         -94.917       -0.0162601          145.11
0.588                   -1.19661         -174.31         -47.4023        -96.2707         -47.4292        -96.2131       -0.0164222         145.035
0.589                   -1.25179        -175.334         -47.1881        -97.5866           -47.21        -97.5359       -0.0165873          144.96
0.59                    -1.31091        -176.374         -46.9708        -98.9296          -46.988         -98.887       -0.0167556         144.884
0.591                   -1.37427        -177.429         -46.7506        -100.301         -46.7632        -100.268       -0.0169271         144.809
0.592                    -1.4422          -178.5         -46.5275        -101.703         -46.5357         -101.68       -0.0171018         144.733
0.593                   -1.51506        -179.586         -46.3018        -103.137         -46.3058        -103.124       -0.0172799         144.657
0.594                   -1.59323         179.313         -46.0735        -104.604         -46.0735        -104.603       -0.0174614         144.581
0.595                   -1.67714         178.198         -45.8428        -106.106          -45.839        -106.118       -0.0176464         144.504
0.596                   -1.76723         177.071         -45.6099        -107.645         -45.6027        -107.671        -0.017835         144.428
0.597                   -1.86398         175.931         -45.3751        -109.222         -45.3646        -109.262       -0.0180272         144.351
0.598                   -1.96789         174.781         -45.1384         -110.84          -45.125        -110.895       -0.0182232         144.274
0.599                    -2.0795         173.623         -44.9004        -112.499         -44.8843        -112.569        -0.018423         144.197
0.6                     -2.19939         172.459         -44.6611        -114.203         -44.6427        -114.288       -0.0186267          144.12
0.601                   -2.32816         171.291          -44.421        -115.951         -44.4006        -116.051       -0.0188343         144.042
0.602                   -2.46644         170.124         -44.1803        -117.746         -44.1583        -117.862       -0.0190461         143.964
0.603                   -2.61488          168.96         -43.9396         -119.59         -43.9163         -119.72       -0.0192619         143.886
0.604                   -2.77414         167.804         -43.6992        -121.483          -43.675        -121.627       -0.0194819         143.808
0.605                   -2.94492         166.663         -43.4596        -123.427         -43.4349        -123.585       -0.0197062          143.73
0.606                   -3.12789         165.542         -43.2213        -125.422         -43.1964        -125.593       -0.0199348         143.652
0.607                    -3.3237         164.449         -42.9849         -127.47         -42.9601        -127.652       -0.0201678         143.573
0.608                   -3.53298         163.392         -42.7509        -129.571         -42.7266        -129.763       -0.0204053         143.494
0.609                   -3.75628         162.382         -42.5199        -131.725         -42.4964        -131.926       -0.0206473         143.415
0.61                    -3.99408          161.43         -42.2926        -133.932         -42.2702        -134.139       -0.0208938         143.336
0.611                   -4.24669          160.55         -42.0696        -136.191         -42.0486        -136.402        -0.021145         143.256
0.612                   -4.51424         159.755         -41.8516        -138.502         -41.8322        -138.715       -0.0214009         143.176
0.613                   -4.79662         159.063         -41.6392        -140.862         -41.6217        -141.074       -0.0216615         143.096
0.614                   -5.09336         158.493         -41.4333         -143.27         -41.4177        -143.478       -0.0219268         143.016
0.615                   -5.40358         158.063         -41.2343        -145.723         -41.2208        -145.925       -0.0221968         142.936
0.616                   -5.72583         157.795          -41.043        -148.217         -41.0316         -148.41       -0.0224717         142.855
0.617                   -6.05801         157.713         -40.8599         -150.75         -40.8506        -150.931       -0.0227513         142.774
0.618                    -6.3972         157.839         -40.6857        -153.317         -40.6783        -153.483       -0.0230358         142.693
0.619                   -6.73956         158.195         -40.5207        -155.913         -40.5152        -156.061        -0.023325         142.612
0.62                    -7.08019           158.8         -40.3654        -158.533         -40.3616        -158.661       -0.0236189          142.53
0.621                   -7.41308          159.67         -40.2202        -161.172         -40.2177        -161.278       -0.0239176         142.449
0.622                   -7.73119         160.812         -40.0852        -163.824         -40.0839        -163.905        -0.024221         142.367
0.623                   -8.02661         162.224         -39.9605        -166.483           -39.96        -166.539       -0.0245291         142.284
0.624                   -8.29097         163.891         -39.8463        -169.143         -39.8463        -169.172       -0.0248417         142.202
0.625                   -8.51604         165.783         -39.7425        -171.799         -39.7424        -171.799       -0.0251589         142.119
0.626                    -8.6945         167.855         -39.6487        -174.444         -39.6483        -174.415       -0.0254805         142.036
0.627                   -8.82074         170.049         -39.5649        -177.073         -39.5637        -177.016       -0.0258065         141.953
0.628                   -8.89158         172.297         -39.4905         -179.68         -39.4882        -179.595       -0.0261367          141.87
0.629                   -8.90665         174.527         -39.4251         177.738         -39.4213         177.851        -0.026471         141.786
