! TOUCHSTONE file generated by CST MICROWAVE STUDIO
! Date and time: Fri Dec 11 13:55:16 2020
! Project name: Scenario_1_Planar_Body_Tissue_Out_of_Line_v2.cst
! Parameters = {dy1=-138.4; L_HA=400; Ltissue=700; MT=2.54; Rad_Dielectric=30; Rad_Lower=7.3; Rad_Upper=30; Wtissue=700; a_HA=580; a_WG=246; b_HA=500; b_WG=121; c_HA=0; c_WG=187; d_feed=85; dx1=520; h_feed=15; h_lower=18; h_upper=40; hfat=3; hgap=25; hmuscle=50; hskin=1.5}
! Header version: 2018
! Port assignment regex: !\s*Touchstone port\s*([0-9]+)\s*=\s*(CST MWS port|CST DS port)\s*([0-9]+|Zmin|Zmax)\s*\(\"(.*)\"\)(\s*mode\s*([0-9]+))?.*
! Touchstone port assignment:
! Touchstone port 1 = CST MWS port 1 ("")
! Touchstone port 2 = CST MWS port 2 ("")
# GHz S DB R 50
0.5                   -0.0807751         -121.86          -62.045        -53.2054         -62.0452        -53.2029      -0.00730271         151.161
0.501                  -0.083568        -122.334          -61.826        -54.2202         -61.8262        -54.2179      -0.00735981         151.096
0.502                  -0.086654        -122.811         -61.6031        -55.2503         -61.6033        -55.2481      -0.00741348         151.032
0.503                 -0.0900516        -123.292         -61.3762        -56.2962         -61.3764        -56.2942      -0.00746352         150.967
0.504                  -0.093781        -123.776         -61.1453         -57.359         -61.1455        -57.3571      -0.00750972         150.902
0.505                 -0.0978642        -124.265         -60.9102        -58.4394         -60.9105        -58.4376      -0.00755188         150.837
0.506                  -0.102325        -124.757         -60.6711        -59.5384         -60.6713        -59.5367      -0.00758978         150.772
0.507                   -0.10719        -125.254         -60.4276         -60.657         -60.4279        -60.6555       -0.0076232         150.706
0.508                  -0.112487        -125.755         -60.1799        -61.7964         -60.1802         -61.795      -0.00765192         150.641
0.509                  -0.118248         -126.26         -59.9279        -62.9577         -59.9281        -62.9564      -0.00767576         150.576
0.51                   -0.124506        -126.769         -59.6714        -64.1422         -59.6716        -64.1409      -0.00769456          150.51
0.511                  -0.131298        -127.283         -59.4104        -65.3512         -59.4107        -65.3501      -0.00770822         150.445
0.512                  -0.138666        -127.801         -59.1449        -66.5862         -59.1452        -66.5852      -0.00771671         150.379
0.513                  -0.146653        -128.323         -58.8749        -67.8489         -58.8751        -67.8479      -0.00772014         150.313
0.514                  -0.155307        -128.851         -58.6002        -69.1408         -58.6004          -69.14      -0.00771878         150.247
0.515                  -0.164683        -129.383         -58.3208        -70.4639         -58.3211        -70.4631       -0.0077131         150.181
0.516                  -0.174837        -129.919         -58.0368          -71.82          -58.037        -71.8194      -0.00770386         150.114
0.517                  -0.185833        -130.461          -57.748        -73.2114         -57.7483        -73.2108       -0.0076922         150.048
0.518                  -0.197739        -131.006         -57.4545        -74.6403         -57.4548        -74.6398      -0.00767964         149.981
0.519                   -0.21063        -131.557         -57.1564         -76.109         -57.1566        -76.1086      -0.00766823         149.914
0.52                   -0.224588        -132.112         -56.8535        -77.6204         -56.8538          -77.62      -0.00766053         149.847
0.521                    -0.2397        -132.672         -56.5461        -79.1771         -56.5463        -79.1768      -0.00765963          149.78
0.522                  -0.256063        -133.236          -56.234        -80.7821         -56.2343        -80.7819      -0.00766906         149.713
0.523                  -0.273778        -133.804         -55.9176        -82.4387         -55.9178        -82.4386      -0.00769264         149.645
0.524                  -0.292956        -134.375         -55.5968        -84.1503          -55.597        -84.1502      -0.00773423         149.577
0.525                  -0.313714         -134.95         -55.2719        -85.9205         -55.2722        -85.9205      -0.00779735         149.509
0.526                  -0.336175        -135.528         -54.9432        -87.7531         -54.9434        -87.7532      -0.00788477         149.441
0.527                   -0.36047        -136.108         -54.6108        -89.6523          -54.611        -89.6524      -0.00799816         149.373
0.528                  -0.386731        -136.689         -54.2752        -91.6222         -54.2755        -91.6224      -0.00813778         149.305
0.529                  -0.415096        -137.271         -53.9369        -93.6672         -53.9371        -93.6674      -0.00830236         149.236
0.53                   -0.445698        -137.851         -53.5962        -95.7919         -53.5965        -95.7921      -0.00848919         149.168
0.531                  -0.478669         -138.43          -53.254        -98.0008         -53.2542        -98.0011      -0.00869447           149.1
0.532                  -0.514126        -139.005         -52.9108        -100.299          -52.911        -100.299      -0.00891366         149.032
0.533                  -0.552174        -139.575         -52.5676         -102.69         -52.5678         -102.69      -0.00914202         148.963
0.534                  -0.592886        -140.136         -52.2253        -105.179         -52.2255        -105.179      -0.00937503         148.895
0.535                  -0.636301        -140.687         -51.8851         -107.77         -51.8853         -107.77      -0.00960867         148.827
0.536                  -0.682408        -141.226         -51.5483        -110.466         -51.5485        -110.466      -0.00983965         148.759
0.537                  -0.731131        -141.748         -51.2164         -113.27         -51.2166         -113.27       -0.0100655         148.691
0.538                  -0.782312         -142.25         -50.8909        -116.184         -50.8911        -116.184       -0.0102843         148.623
0.539                  -0.835699         -142.73         -50.5735        -119.208         -50.5737        -119.209       -0.0104951         148.555
0.54                   -0.890926        -143.183         -50.2662        -122.342         -50.2664        -122.343       -0.0106974         148.486
0.541                  -0.947502        -143.607          -49.971        -125.583         -49.9712        -125.584       -0.0108909         148.418
0.542                   -1.00481        -143.998         -49.6898        -128.927           -49.69        -128.928       -0.0110758          148.35
0.543                   -1.06208        -144.355         -49.4246        -132.366         -49.4248        -132.367       -0.0112526         148.282
0.544                   -1.11846        -144.675         -49.1774        -135.892         -49.1776        -135.893       -0.0114218         148.213
0.545                   -1.17297        -144.958           -48.95        -139.494         -48.9502        -139.494        -0.011584         148.145
0.546                    -1.2246        -145.205         -48.7439        -143.157          -48.744        -143.158       -0.0117398         148.076
0.547                    -1.2723        -145.419         -48.5603        -146.867         -48.5605        -146.867       -0.0118899         148.007
0.548                   -1.31511        -145.603         -48.4002        -150.606         -48.4004        -150.606       -0.0120348         147.938
0.549                   -1.35217        -145.762         -48.2641        -154.356         -48.2642        -154.357       -0.0121752         147.869
0.55                    -1.38281        -145.904         -48.1518        -158.101          -48.152        -158.101       -0.0123116           147.8
0.551                   -1.40655        -146.035         -48.0631         -161.82         -48.0633        -161.821       -0.0124445         147.731
0.552                   -1.42321        -146.164         -47.9971        -165.499         -47.9972        -165.499       -0.0125745         147.662
0.553                   -1.43283        -146.298         -47.9524         -169.12         -47.9526        -169.121       -0.0127019         147.592
0.554                   -1.43571        -146.445         -47.9277        -172.671         -47.9279        -172.671       -0.0128271         147.522
0.555                   -1.43234        -146.611         -47.9211        -176.139         -47.9212         -176.14       -0.0129505         147.453
0.556                    -1.4234        -146.802         -47.9307        -179.516         -47.9308        -179.517       -0.0130724         147.383
0.557                   -1.40965        -147.023         -47.9545         177.205         -47.9546         177.205       -0.0131931         147.313
0.558                   -1.39191        -147.276         -47.9904          174.03         -47.9905         174.029       -0.0133128         147.243
0.559                   -1.37102        -147.563         -48.0365          170.96         -48.0366          170.96       -0.0134318         147.172
0.56                    -1.34776        -147.885         -48.0909         167.998          -48.091         167.997       -0.0135504         147.102
0.561                   -1.32288        -148.242         -48.1518         165.141         -48.1519         165.141       -0.0136687         147.031
0.562                   -1.29704        -148.633         -48.2176         162.389         -48.2177         162.389       -0.0137868         146.961
0.563                   -1.27081        -149.058         -48.2868         159.739         -48.2869         159.739       -0.0139051          146.89
0.564                   -1.24468        -149.513         -48.3581         157.187         -48.3582         157.187       -0.0140235         146.819
0.565                   -1.21906        -149.998         -48.4304          154.73         -48.4304          154.73       -0.0141423         146.748
0.566                   -1.19426        -150.511         -48.5025         152.362         -48.5025         152.362       -0.0142617         146.677
0.567                   -1.17055        -151.049         -48.5736         150.079         -48.5737         150.079       -0.0143816         146.605
0.568                   -1.14813        -151.611         -48.6431         147.876         -48.6431         147.876       -0.0145022         146.534
0.569                   -1.12713        -152.195         -48.7101         145.749         -48.7101         145.749       -0.0146237         146.462
0.57                    -1.10767        -152.799         -48.7742         143.693         -48.7743         143.693       -0.0147462          146.39
0.571                   -1.08981        -153.422          -48.835         141.703          -48.835         141.703       -0.0148697         146.318
0.572                   -1.07359        -154.063         -48.8919         139.775          -48.892         139.775       -0.0149943         146.246
0.573                   -1.05904        -154.719         -48.9449         137.905         -48.9449         137.905       -0.0151201         146.174
0.574                   -1.04616         -155.39         -48.9934         136.088         -48.9934         136.088       -0.0152472         146.102
0.575                   -1.03495        -156.076         -49.0375         134.321         -49.0375         134.321       -0.0153757         146.029
0.576                    -1.0254        -156.775         -49.0769         132.601         -49.0769         132.601       -0.0155057         145.956
0.577                   -1.01748        -157.486         -49.1115         130.923         -49.1115         130.923       -0.0156371         145.884
0.578                   -1.01117         -158.21         -49.1412         129.285         -49.1412         129.285       -0.0157702         145.811
0.579                   -1.00646        -158.945          -49.166         127.683          -49.166         127.683       -0.0159049         145.737
0.58                    -1.00331        -159.691         -49.1858         126.115         -49.1858         126.115       -0.0160413         145.664
0.581                   -1.00171        -160.448         -49.2006         124.577         -49.2005         124.577       -0.0161795         145.591
0.582                   -1.00163        -161.215         -49.2103         123.068         -49.2103         123.068       -0.0163196         145.517
0.583                   -1.00306        -161.993         -49.2151         121.585          -49.215         121.585       -0.0164616         145.443
0.584                   -1.00599        -162.781         -49.2148         120.126         -49.2148         120.126       -0.0166055         145.369
0.585                    -1.0104        -163.579         -49.2096         118.688         -49.2095         118.688       -0.0167515         145.295
0.586                   -1.01629        -164.388         -49.1994          117.27         -49.1994          117.27       -0.0168995         145.221
0.587                   -1.02366        -165.206         -49.1844         115.869         -49.1843         115.869       -0.0170497         145.146
0.588                   -1.03251        -166.034         -49.1645         114.485         -49.1644         114.485       -0.0172021         145.072
0.589                   -1.04284        -166.873         -49.1398         113.114         -49.1397         113.114       -0.0173568         144.997
0.59                    -1.05468        -167.722         -49.1104         111.756         -49.1103         111.756       -0.0175137         144.922
0.591                   -1.06803        -168.581         -49.0762         110.408         -49.0761         110.408        -0.017673         144.847
0.592                   -1.08292        -169.451         -49.0374         109.071         -49.0374         109.071       -0.0178347         144.772
0.593                   -1.09938        -170.331         -48.9941         107.741          -48.994         107.741       -0.0179989         144.696
0.594                   -1.11744        -171.222         -48.9462         106.417         -48.9461         106.417       -0.0181655         144.621
0.595                   -1.13714        -172.125         -48.8939           105.1         -48.8938           105.1       -0.0183348         144.545
0.596                   -1.15851        -173.038         -48.8372         103.786         -48.8371         103.786       -0.0185067         144.469
0.597                   -1.18162        -173.963         -48.7761         102.475          -48.776         102.475       -0.0186812         144.393
0.598                   -1.20652          -174.9         -48.7108         101.165         -48.7107         101.165       -0.0188584         144.316
0.599                   -1.23327        -175.848         -48.6413         99.8561         -48.6412          99.856       -0.0190385          144.24
0.6                     -1.26194        -176.809         -48.5676         98.5463         -48.5675         98.5463       -0.0192213         144.163
0.601                    -1.2926        -177.782         -48.4898         97.2348         -48.4898         97.2347        -0.019407         144.086
0.602                   -1.32535        -178.768         -48.4081         95.9203          -48.408         95.9202       -0.0195956         144.009
0.603                   -1.36026        -179.767         -48.3224         94.6019         -48.3223         94.6018       -0.0197872         143.932
0.604                   -1.39745         179.221         -48.2329         93.2784         -48.2328         93.2783       -0.0199818         143.854
0.605                   -1.43702         178.195         -48.1396         91.9489         -48.1395         91.9488       -0.0201795         143.777
0.606                   -1.47908         177.156         -48.0425         90.6123         -48.0425         90.6121       -0.0203803         143.699
0.607                   -1.52376         176.103         -47.9419         89.2675         -47.9418         89.2674       -0.0205843         143.621
0.608                   -1.57121         175.036         -47.8377         87.9136         -47.8376         87.9135       -0.0207915         143.542
0.609                   -1.62156         173.954           -47.73         86.5496         -47.7299         86.5494       -0.0210019         143.464
0.61                    -1.67498         172.858         -47.6189         85.1744         -47.6189         85.1742       -0.0212157         143.385
0.611                   -1.73165         171.746         -47.5046         83.7871         -47.5045         83.7869       -0.0214329         143.306
0.612                   -1.79173          170.62         -47.3871         82.3866          -47.387         82.3864       -0.0216535         143.227
0.613                   -1.85544         169.479         -47.2665         80.9721         -47.2664         80.9719       -0.0218776         143.148
0.614                   -1.92298         168.323         -47.1429         79.5424         -47.1429         79.5422       -0.0221052         143.068
0.615                   -1.99458         167.152         -47.0165         78.0967         -47.0164         78.0965       -0.0223364         142.988
0.616                   -2.07049         165.965         -46.8873          76.634         -46.8873         76.6338       -0.0225712         142.908
0.617                   -2.15097         164.764         -46.7556         75.1534         -46.7555         75.1531       -0.0228097         142.828
0.618                    -2.2363         163.547         -46.6213         73.6538         -46.6213         73.6536        -0.023052         142.747
0.619                   -2.32678         162.316         -46.4848         72.1343         -46.4847         72.1341       -0.0232981         142.667
0.62                    -2.42273         161.071          -46.346         70.5942          -46.346          70.594        -0.023548         142.586
0.621                   -2.52448         159.812         -46.2053         69.0324         -46.2052         69.0322       -0.0238019         142.505
0.622                   -2.63241         158.539         -46.0627         67.4481         -46.0627         67.4479       -0.0240597         142.423
0.623                    -2.7469         157.255         -45.9184         65.8405         -45.9184         65.8403       -0.0243216         142.342
0.624                   -2.86836         155.958         -45.7728         64.2089         -45.7727         64.2087       -0.0245876          142.26
0.625                   -2.99722         154.652         -45.6258         62.5524         -45.6258         62.5522       -0.0248577         142.178
0.626                   -3.13395         153.336         -45.4778         60.8705         -45.4778         60.8703        -0.025132         142.095
0.627                   -3.27904         152.013          -45.329         59.1624          -45.329         59.1622       -0.0254106         142.013
0.628                   -3.43299         150.685         -45.1797         57.4276         -45.1797         57.4275       -0.0256935          141.93
0.629                   -3.59636         149.353           -45.03         55.6658           -45.03         55.6657       -0.0259809         141.846
