! TOUCHSTONE file generated by CST MICROWAVE STUDIO
! Date and time: Tue Nov 17 07:11:41 2020
! Project name: Scenario_1_Planar_Body_Tissue_Out_of_Line.cst
! Header version: 2018
! Port assignment regex: !\s*Touchstone port\s*([0-9]+)\s*=\s*(CST MWS port|CST DS port)\s*([0-9]+|Zmin|Zmax)\s*\(\"(.*)\"\)(\s*mode\s*([0-9]+))?.*
! Touchstone port assignment:
! Touchstone port 1 = CST MWS port 1 ("")
! Touchstone port 2 = CST MWS port 2 ("")
# GHz S DB R 50
0.5                    -0.155412        -121.623         -64.1789        -19.4695         -64.1786        -19.4668      -0.00763173         151.153
0.501                  -0.166362        -122.008         -64.4709         -20.545         -64.4706        -20.5422      -0.00770009         151.088
0.502                  -0.177256        -122.394         -64.7724         -21.668         -64.7721        -21.6652      -0.00776917         151.023
0.503                  -0.188093        -122.781          -65.084        -22.8435         -65.0835        -22.8406      -0.00783897         150.958
0.504                  -0.198874         -123.17         -65.4061        -24.0769         -65.4056        -24.0739      -0.00790952         150.892
0.505                  -0.209599        -123.561         -65.7394        -25.3744          -65.739        -25.3714      -0.00798079         150.827
0.506                  -0.220268        -123.953         -66.0847        -26.7433         -66.0842        -26.7402      -0.00805282         150.761
0.507                  -0.230882        -124.347         -66.4425         -28.192          -66.442        -28.1887      -0.00812559         150.695
0.508                  -0.241441        -124.743         -66.8137          -29.73         -66.8131        -29.7266      -0.00819911          150.63
0.509                  -0.251947         -125.14         -67.1988        -31.3687         -67.1982        -31.3651       -0.0082734         150.564
0.51                   -0.262399        -125.539         -67.5988        -33.1212         -67.5981        -33.1174      -0.00834845         150.498
0.511                  -0.272797         -125.94         -68.0142         -35.003         -68.0135        -34.9989      -0.00842428         150.432
0.512                  -0.283144        -126.343         -68.4456        -37.0321         -68.4449        -37.0278      -0.00850088         150.366
0.513                  -0.293438        -126.748         -68.8937          -39.23         -68.8929        -39.2253      -0.00857827           150.3
0.514                  -0.303682        -127.154         -69.3585        -41.6219         -69.3576        -41.6168      -0.00865645         150.233
0.515                  -0.313876        -127.563         -69.8399        -44.2373         -69.8391        -44.2316      -0.00873543         150.167
0.516                   -0.32402        -127.973         -70.3374        -47.1109         -70.3365        -47.1047      -0.00881521         150.101
0.517                  -0.334115        -128.386         -70.8492        -50.2832         -70.8483        -50.2763      -0.00889581         150.034
0.518                  -0.344163          -128.8         -71.3728        -53.8003         -71.3719        -53.7927      -0.00897723         149.968
0.519                  -0.354165        -129.217         -71.9035         -57.714         -71.9026        -57.7056      -0.00905947         149.901
0.52                    -0.36412        -129.636         -72.4345        -62.0799         -72.4337        -62.0705      -0.00914254         149.834
0.521                  -0.374032        -130.057         -72.9557        -66.9534         -72.9549        -66.9429      -0.00922646         149.767
0.522                    -0.3839        -130.481         -73.4532        -72.3831         -73.4525        -72.3715      -0.00931122         149.701
0.523                  -0.393725        -130.907         -73.9086        -78.3989         -73.9081        -78.3863      -0.00939684         149.634
0.524                   -0.40351        -131.335         -74.2997        -84.9976         -74.2994         -84.984      -0.00948332         149.566
0.525                  -0.413256        -131.765         -74.6021         -92.125          -74.602        -92.1108      -0.00957068         149.499
0.526                  -0.422964        -132.198         -74.7924        -99.6653         -74.7926        -99.6508      -0.00965892         149.432
0.527                  -0.432635        -132.633         -74.8533        -107.442         -74.8539        -107.428      -0.00974804         149.365
0.528                  -0.442272        -133.071         -74.7781         -115.24         -74.7789        -115.227      -0.00983807         149.297
0.529                  -0.451876        -133.512          -74.572        -122.842          -74.573         -122.83        -0.009929          149.23
0.53                   -0.461448        -133.955         -74.2512        -130.064         -74.2524        -130.053       -0.0100208         149.162
0.531                  -0.470992        -134.401         -73.8384        -136.783         -73.8397        -136.774       -0.0101136         149.094
0.532                  -0.480508         -134.85         -73.3581        -142.937         -73.3596         -142.93       -0.0102073         149.027
0.533                  -0.489999        -135.302         -72.8332        -148.518         -72.8347        -148.511        -0.010302         148.959
0.534                  -0.499468        -135.756         -72.2823         -153.55         -72.2838        -153.545       -0.0103976         148.891
0.535                  -0.508916        -136.214           -71.72        -158.083         -71.7214        -158.079       -0.0104941         148.822
0.536                  -0.518346        -136.674         -71.1567         -162.17         -71.1581        -162.167       -0.0105916         148.754
0.537                  -0.527761        -137.138         -70.5998        -165.868         -70.6012        -165.866       -0.0106902         148.686
0.538                  -0.537164        -137.604          -70.054         -169.23         -70.0553        -169.228       -0.0107897         148.618
0.539                  -0.546558        -138.074         -69.5223        -172.301         -69.5235          -172.3       -0.0108902         148.549
0.54                   -0.555946        -138.548         -69.0062        -175.123         -69.0074        -175.123       -0.0109917          148.48
0.541                  -0.565331        -139.024         -68.5066        -177.733         -68.5077        -177.733       -0.0110943         148.412
0.542                  -0.574716        -139.504         -68.0236         179.841         -68.0247          179.84       -0.0111978         148.343
0.543                  -0.584107        -139.988         -67.5571         177.572         -67.5581         177.571       -0.0113025         148.274
0.544                  -0.593505        -140.475         -67.1065         175.437         -67.1074         175.436       -0.0114082         148.205
0.545                  -0.602916        -140.966         -66.6713          173.42         -66.6722         173.418        -0.011515         148.136
0.546                  -0.612344        -141.461         -66.2507         171.503         -66.2515         171.501       -0.0116228         148.067
0.547                  -0.621794        -141.959          -65.844         169.673         -65.8448         169.671       -0.0117318         147.997
0.548                  -0.631271        -142.461         -65.4505         167.919         -65.4513         167.917       -0.0118418         147.928
0.549                  -0.640779        -142.968         -65.0695          166.23         -65.0702         166.228        -0.011953         147.858
0.55                   -0.650324        -143.478         -64.7002         164.599         -64.7009         164.596       -0.0120654         147.788
0.551                  -0.659913        -143.993          -64.342         163.017         -64.3426         163.014       -0.0121788         147.719
0.552                   -0.66955        -144.512         -63.9942         161.477         -63.9948         161.475       -0.0122935         147.649
0.553                  -0.679244        -145.035         -63.6562         159.975         -63.6568         159.972       -0.0124093         147.579
0.554                     -0.689        -145.563         -63.3274         158.505          -63.328         158.502       -0.0125263         147.509
0.555                  -0.698826        -146.095         -63.0074         157.063          -63.008          157.06       -0.0126445         147.438
0.556                  -0.708731        -146.633         -62.6956         155.645         -62.6961         155.642        -0.012764         147.368
0.557                  -0.718721        -147.175         -62.3915         154.246          -62.392         154.243       -0.0128847         147.297
0.558                  -0.728806        -147.722         -62.0948         152.866         -62.0953         152.862       -0.0130066         147.227
0.559                  -0.738995        -148.274          -61.805         151.499         -61.8054         151.496       -0.0131298         147.156
0.56                   -0.749298        -148.831         -61.5217         150.144         -61.5221         150.141       -0.0132543         147.085
0.561                  -0.759725        -149.393         -61.2445         148.799          -61.245         148.796       -0.0133801         147.014
0.562                  -0.770288        -149.961         -60.9733         147.461         -60.9737         147.458       -0.0135072         146.943
0.563                  -0.780999        -150.535         -60.7075         146.129         -60.7079         146.125       -0.0136357         146.872
0.564                  -0.791869        -151.114          -60.447           144.8         -60.4474         144.797       -0.0137655           146.8
0.565                  -0.802912        -151.699         -60.1915         143.473         -60.1918          143.47       -0.0138967         146.729
0.566                  -0.814143         -152.29         -59.9407         142.147          -59.941         142.144       -0.0140293         146.657
0.567                  -0.825577        -152.887         -59.6944          140.82         -59.6947         140.817       -0.0141632         146.585
0.568                   -0.83723        -153.491         -59.4523         139.491         -59.4526         139.488       -0.0142987         146.513
0.569                  -0.849119        -154.101         -59.2143         138.159         -59.2146         138.156       -0.0144355         146.441
0.57                   -0.861262        -154.718         -58.9802         136.822         -58.9805         136.819       -0.0145739         146.369
0.571                  -0.873679        -155.341         -58.7498         135.479           -58.75         135.476       -0.0147137         146.297
0.572                  -0.886392        -155.972         -58.5228          134.13         -58.5231         134.127       -0.0148551         146.224
0.573                  -0.899421        -156.609         -58.2992         132.774         -58.2995         132.771        -0.014998         146.152
0.574                  -0.912792        -157.254         -58.0789         131.409         -58.0791         131.406       -0.0151424         146.079
0.575                   -0.92653        -157.907         -57.8616         130.034         -57.8618         130.031       -0.0152885         146.006
0.576                  -0.940662        -158.567         -57.6472         128.649         -57.6474         128.646       -0.0154361         145.933
0.577                  -0.955217        -159.236         -57.4356         127.253         -57.4359         127.251       -0.0155854          145.86
0.578                  -0.970227        -159.912         -57.2268         125.846          -57.227         125.843       -0.0157363         145.786
0.579                  -0.985725        -160.597         -57.0205         124.426         -57.0207         124.423       -0.0158889         145.713
0.58                    -1.00175        -161.291         -56.8167         122.992         -56.8169         122.989       -0.0160432         145.639
0.581                   -1.01833        -161.993         -56.6153         121.544         -56.6156         121.542       -0.0161992         145.565
0.582                   -1.03552        -162.704         -56.4163         120.082         -56.4165         120.079        -0.016357         145.491
0.583                   -1.05336        -163.425         -56.2195         118.604         -56.2197         118.602       -0.0165166         145.417
0.584                    -1.0719        -164.155         -56.0249          117.11         -56.0251         117.108        -0.016678         145.343
0.585                   -1.09118        -164.896         -55.8323           115.6         -55.8325         115.598       -0.0168413         145.269
0.586                   -1.11127        -165.646         -55.6419         114.072         -55.6421          114.07       -0.0170064         145.194
0.587                   -1.13222        -166.407         -55.4534         112.527         -55.4536         112.524       -0.0171734         145.119
0.588                    -1.1541        -167.178         -55.2669         110.962         -55.2671          110.96       -0.0173424         145.044
0.589                   -1.17697         -167.96         -55.0823         109.379         -55.0825         109.377       -0.0175133         144.969
0.59                    -1.20092        -168.753         -54.8996         107.777         -54.8998         107.775       -0.0176863         144.894
0.591                   -1.22601        -169.558         -54.7187         106.154         -54.7189         106.152       -0.0178612         144.818
0.592                   -1.25234        -170.374         -54.5397         104.511         -54.5399         104.509       -0.0180383         144.743
0.593                      -1.28        -171.203         -54.3625         102.846         -54.3627         102.845       -0.0182175         144.667
0.594                   -1.30909        -172.043         -54.1871          101.16         -54.1872         101.159       -0.0183989         144.591
0.595                   -1.33972        -172.896         -54.0135         99.4523         -54.0136         99.4511       -0.0185824         144.515
0.596                   -1.37201        -173.762         -53.8417          97.722         -53.8418          97.721       -0.0187682         144.438
0.597                   -1.40608        -174.641         -53.6717         95.9689         -53.6718          95.968       -0.0189562         144.362
0.598                   -1.44206        -175.533         -53.5035         94.1927         -53.5036          94.192       -0.0191466         144.285
0.599                   -1.48011        -176.439         -53.3371          92.393         -53.3372         92.3924       -0.0193394         144.208
0.6                     -1.52039        -177.358         -53.1726         90.5696         -53.1727         90.5691       -0.0195346         144.131
0.601                   -1.56305         -178.29           -53.01         88.7221         -53.0101         88.7218       -0.0197323         144.054
0.602                    -1.6083        -179.237         -52.8492         86.8504         -52.8493         86.8502       -0.0199325         143.976
0.603                   -1.65632         179.803         -52.6904         84.9543         -52.6905         84.9542       -0.0201353         143.899
0.604                   -1.70734         178.829         -52.5336         83.0336         -52.5337         83.0337       -0.0203407         143.821
0.605                   -1.76157         177.842         -52.3788         81.0882         -52.3788         81.0884       -0.0205489         143.743
0.606                   -1.81927         176.841          -52.226          79.118         -52.2261         79.1184       -0.0207598         143.664
0.607                   -1.88069         175.826         -52.0754         77.1232         -52.0754         77.1237       -0.0209735         143.586
0.608                   -1.94613         174.799         -51.9269         75.1037         -51.9269         75.1043       -0.0211902         143.507
0.609                   -2.01588          173.76         -51.7806         73.0596         -51.7806         73.0603       -0.0214099         143.428
0.61                    -2.09026          172.71         -51.6366         70.9911         -51.6366         70.9919       -0.0216326         143.349
0.611                   -2.16962         171.649         -51.4949         68.8984         -51.4949         68.8994       -0.0218584          143.27
0.612                    -2.2543         170.578         -51.3556         66.7818         -51.3556          66.783       -0.0220875          143.19
0.613                   -2.34468           169.5         -51.2187         64.6417         -51.2187          64.643       -0.0223199          143.11
0.614                   -2.44116         168.416         -51.0843         62.4785         -51.0843         62.4799       -0.0225556          143.03
0.615                   -2.54414         167.328         -50.9525         60.2927         -50.9524         60.2941       -0.0227949          142.95
0.616                   -2.65403         166.238         -50.8233         58.0848         -50.8232         58.0863       -0.0230378         142.869
0.617                   -2.77125          165.15         -50.6967         55.8554         -50.6966          55.857       -0.0232844         142.789
0.618                   -2.89622         164.068         -50.5728         53.6052         -50.5727         53.6069       -0.0235348         142.708
0.619                   -3.02936         162.994         -50.4517          51.335         -50.4516         51.3368        -0.023789         142.626
0.62                    -3.17103         161.934         -50.3333         49.0456         -50.3332         49.0474       -0.0240474         142.545
0.621                   -3.32161         160.893         -50.2178         46.7379         -50.2177         46.7397       -0.0243098         142.463
0.622                   -3.48138         159.877         -50.1051         44.4127         -50.1049         44.4146       -0.0245765         142.381
0.623                   -3.65058         158.894         -49.9952          42.071         -49.9951          42.073       -0.0248475         142.299
0.624                   -3.82933         157.951         -49.8882          39.714         -49.8881          39.716        -0.025123         142.216
0.625                   -4.01765         157.056         -49.7841         37.3427         -49.7839         37.3446        -0.025403         142.134
0.626                   -4.21538         156.218         -49.6828         34.9581         -49.6826         34.9601       -0.0256878         142.051
0.627                   -4.42216         155.449         -49.5843         32.5615         -49.5841         32.5634       -0.0259773         141.967
0.628                   -4.63742         154.758         -49.4887          30.154         -49.4885         30.1559       -0.0262716         141.884
0.629                   -4.86028         154.157         -49.3958         27.7369         -49.3956         27.7388       -0.0265709           141.8
0.63                    -5.08955         153.656         -49.3056         25.3113         -49.3054         25.3131       -0.0268752         141.716
0.631                   -5.32366         153.268          -49.218         22.8784         -49.2178         22.8802       -0.0271846         141.632
