! TOUCHSTONE file generated by CST MICROWAVE STUDIO
! Date and time: Mon Nov 30 09:07:36 2020
! Project name: Scenario_1_Planar_Body_Tissue_Out_of_Line_v2.cst
! Parameters = {dy1=-121.1; L_HA=400; Ltissue=700; MT=2.54; Rad_Dielectric=30; Rad_Lower=7.3; Rad_Upper=30; Wtissue=700; a_HA=580; a_WG=246; b_HA=500; b_WG=121; c_HA=0; c_WG=187; d_feed=85; dx1=346; h_feed=15; h_lower=18; h_upper=40; hfat=3; hgap=25; hmuscle=50; hskin=1.5}
! Header version: 2018
! Port assignment regex: !\s*Touchstone port\s*([0-9]+)\s*=\s*(CST MWS port|CST DS port)\s*([0-9]+|Zmin|Zmax)\s*\(\"(.*)\"\)(\s*mode\s*([0-9]+))?.*
! Touchstone port assignment:
! Touchstone port 1 = CST MWS port 1 ("")
! Touchstone port 2 = CST MWS port 2 ("")
# GHz S DB R 50
0.5                     -0.27766        -121.778         -55.8709         31.1609         -55.8708         31.1611        -0.008153         151.145
0.501                  -0.278694        -122.165         -55.8139         29.3947         -55.8117         29.4059      -0.00821487          151.08
0.502                  -0.279748        -122.555         -55.7567         27.6163         -55.7526         27.6378      -0.00827711         151.015
0.503                  -0.280823        -122.947         -55.6995         25.8266         -55.6934         25.8576      -0.00833971          150.95
0.504                   -0.28192        -123.342         -55.6423         24.0264         -55.6343         24.0661      -0.00840267         150.885
0.505                   -0.28304        -123.739         -55.5852         22.2165         -55.5753         22.2641        -0.008466         150.819
0.506                  -0.284186        -124.139         -55.5281         20.3978         -55.5164         20.4526       -0.0085297         150.754
0.507                  -0.285358        -124.542         -55.4712         18.5713         -55.4578         18.6324      -0.00859378         150.689
0.508                  -0.286558        -124.948         -55.4145          16.738         -55.3994         16.8045      -0.00865824         150.623
0.509                  -0.287787        -125.356          -55.358         14.8988         -55.3413           14.97      -0.00872308         150.557
0.51                   -0.289048        -125.767         -55.3018         13.0548         -55.2836           13.13      -0.00878831         150.492
0.511                  -0.290341        -126.181         -55.2459         11.2072         -55.2263         11.2854      -0.00885392         150.426
0.512                   -0.29167        -126.598         -55.1903         9.35698         -55.1695         9.43755      -0.00891994          150.36
0.513                  -0.293035        -127.018         -55.1351         7.50532         -55.1131         7.58749      -0.00898635         150.294
0.514                  -0.294439        -127.441         -55.0803         5.65338         -55.0571         5.73642      -0.00905317         150.228
0.515                  -0.295883        -127.868         -55.0259         3.80232         -55.0017         3.88557       -0.0091204         150.162
0.516                  -0.297371        -128.297         -54.9718         1.95334         -54.9468         2.03614      -0.00918804         150.095
0.517                  -0.298904        -128.729         -54.9182        0.107628         -54.8925        0.189359      -0.00925611         150.029
0.518                  -0.300484        -129.165          -54.865        -1.73363         -54.8386        -1.65353       -0.0093246         149.963
0.519                  -0.302116        -129.604         -54.8122        -3.56924         -54.7853         -3.4913      -0.00939353         149.896
0.52                     -0.3038        -130.047         -54.7597        -5.39802         -54.7325        -5.32271       -0.0094629          149.83
0.521                   -0.30554        -130.492         -54.7076        -7.21881         -54.6801        -7.14655      -0.00953272         149.763
0.522                   -0.30734        -130.942         -54.6559        -9.03044         -54.6282        -8.96161        -0.009603         149.696
0.523                  -0.309202        -131.395         -54.6043        -10.8318         -54.5766        -10.7667      -0.00967373         149.629
0.524                  -0.311129        -131.851          -54.553        -12.6218         -54.5254        -12.5607      -0.00974494         149.562
0.525                  -0.313125        -132.311         -54.5019        -14.3994         -54.4745        -14.3425      -0.00981663         149.495
0.526                  -0.315194        -132.775         -54.4509        -16.1634         -54.4239         -16.111      -0.00988881         149.428
0.527                  -0.317339        -133.243            -54.4        -17.9131         -54.3734        -17.8651      -0.00996148         149.361
0.528                  -0.319566        -133.715          -54.349        -19.6473         -54.3229        -19.6039       -0.0100347         149.294
0.529                  -0.321877        -134.191         -54.2979        -21.3653         -54.2725        -21.3264       -0.0101084         149.226
0.53                   -0.324278         -134.67         -54.2466        -23.0661          -54.222        -23.0318       -0.0101826         149.159
0.531                  -0.326773        -135.154          -54.195        -24.7491         -54.1712        -24.7191       -0.0102574         149.091
0.532                  -0.329368        -135.642          -54.143        -26.4133         -54.1202        -26.3877       -0.0103327         149.023
0.533                  -0.332068        -136.135         -54.0906        -28.0583         -54.0688        -28.0368       -0.0104086         148.956
0.534                  -0.334879        -136.632         -54.0376        -29.6834         -54.0168        -29.6657       -0.0104851         148.888
0.535                  -0.337806        -137.133         -53.9838         -31.288         -53.9642         -31.274       -0.0105621          148.82
0.536                  -0.340857        -137.639         -53.9293        -32.8717         -53.9109        -32.8611       -0.0106398         148.752
0.537                  -0.344037        -138.149         -53.8738        -34.4341         -53.8567        -34.4265       -0.0107181         148.683
0.538                  -0.347354        -138.665         -53.8173        -35.9748         -53.8015        -35.9699        -0.010797         148.615
0.539                  -0.350816        -139.185         -53.7597        -37.4935         -53.7451        -37.4911       -0.0108766         148.547
0.54                    -0.35443         -139.71         -53.7007          -38.99         -53.6876        -38.9897       -0.0109568         148.478
0.541                  -0.358205        -140.241         -53.6404        -40.4642         -53.6286        -40.4655       -0.0110378          148.41
0.542                  -0.362151        -140.776         -53.5786         -41.916         -53.5681        -41.9187       -0.0111194         148.341
0.543                  -0.366275        -141.317          -53.515        -43.3454         -53.5059         -43.349       -0.0112018         148.272
0.544                   -0.37059        -141.864         -53.4498        -44.7524          -53.442        -44.7565       -0.0112849         148.203
0.545                  -0.375105        -142.415         -53.3826         -46.137         -53.3762        -46.1414       -0.0113688         148.134
0.546                  -0.379832        -142.973         -53.3134        -47.4996         -53.3083        -47.5038       -0.0114535         148.065
0.547                  -0.384783        -143.537         -53.2421        -48.8403         -53.2383         -48.844        -0.011539         147.996
0.548                  -0.389971        -144.106         -53.1685        -50.1594          -53.166        -50.1622       -0.0116253         147.926
0.549                  -0.395411        -144.682         -53.0925        -51.4572         -53.0913        -51.4589       -0.0117125         147.857
0.55                   -0.401115        -145.264          -53.014        -52.7342          -53.014        -52.7343       -0.0118007         147.787
0.551                  -0.407102        -145.853         -52.9329        -53.9908          -52.934        -53.9891       -0.0118897         147.717
0.552                  -0.413386        -146.448         -52.8491        -55.2275         -52.8513        -55.2237       -0.0119797         147.647
0.553                  -0.419986         -147.05         -52.7625        -56.4448         -52.7657        -56.4387       -0.0120706         147.577
0.554                  -0.426921        -147.659         -52.6728        -57.6434         -52.6771        -57.6348       -0.0121626         147.507
0.555                  -0.434211        -148.275         -52.5802        -58.8239         -52.5853        -58.8126       -0.0122556         147.437
0.556                  -0.441879        -148.898         -52.4843         -59.987         -52.4903        -59.9728       -0.0123497         147.367
0.557                  -0.449946        -149.529         -52.3852        -61.1334          -52.392        -61.1162        -0.012445         147.296
0.558                  -0.458439        -150.167         -52.2828        -62.2641         -52.2903        -62.2437       -0.0125414         147.225
0.559                  -0.467383        -150.814         -52.1769        -63.3797          -52.185        -63.3561        -0.012639         147.155
0.56                   -0.476808        -151.469         -52.0674        -64.4812         -52.0761        -64.4542       -0.0127378         147.084
0.561                  -0.486743        -152.132         -51.9543        -65.5694         -51.9635        -65.5392       -0.0128379         147.013
0.562                  -0.497223        -152.804         -51.8375        -66.6454         -51.8471        -66.6118       -0.0129394         146.942
0.563                  -0.508281        -153.484         -51.7168        -67.7101         -51.7268        -67.6732       -0.0130422          146.87
0.564                  -0.519956        -154.174         -51.5923        -68.7646         -51.6026        -68.7244       -0.0131464         146.799
0.565                  -0.532289        -154.873         -51.4639        -69.8099         -51.4744        -69.7665       -0.0132522         146.727
0.566                  -0.545323        -155.581         -51.3314        -70.8471          -51.342        -70.8007       -0.0133594         146.656
0.567                  -0.559106          -156.3         -51.1948        -71.8775         -51.2055         -71.828       -0.0134682         146.584
0.568                  -0.573688        -157.029          -51.054         -72.902         -51.0648        -72.8498       -0.0135787         146.512
0.569                  -0.589123        -157.768          -50.909        -73.9221         -50.9198        -73.8672       -0.0136909          146.44
0.57                   -0.605472        -158.518         -50.7598        -74.9389         -50.7705        -74.8815       -0.0138049         146.368
0.571                  -0.622798        -159.279         -50.6063        -75.9537         -50.6169         -75.894       -0.0139206         146.295
0.572                  -0.641169        -160.052         -50.4484        -76.9678         -50.4588        -76.9061       -0.0140383         146.223
0.573                   -0.66066        -160.836         -50.2861        -77.9826         -50.2963         -77.919       -0.0141579          146.15
0.574                  -0.681351        -161.632         -50.1194        -78.9994         -50.1293        -78.9343       -0.0142796         146.077
0.575                  -0.703329        -162.441         -49.9482        -80.0198         -49.9578        -79.9534       -0.0144034         146.004
0.576                  -0.726688        -163.263         -49.7726        -81.0451         -49.7818        -80.9776       -0.0145293         145.931
0.577                   -0.75153        -164.098         -49.5925        -82.0768         -49.6013        -82.0086       -0.0146575         145.858
0.578                  -0.777966        -164.946         -49.4079        -83.1166         -49.4163        -83.0479        -0.014788         145.784
0.579                  -0.806116        -165.808         -49.2187        -84.1659         -49.2267         -84.097        -0.014921         145.711
0.58                   -0.836109        -166.684         -49.0251        -85.2264         -49.0326        -85.1576       -0.0150564         145.637
0.581                  -0.868087        -167.575          -48.827        -86.2997         -48.8341        -86.2314       -0.0151945         145.563
0.582                  -0.902202        -168.481         -48.6245        -87.3876          -48.631        -87.3199       -0.0153352         145.489
0.583                  -0.938623        -169.402         -48.4175        -88.4917         -48.4235        -88.4251       -0.0154787         145.414
0.584                  -0.977528        -170.339         -48.2061        -89.6139         -48.2117        -89.5485        -0.015625          145.34
0.585                   -1.01912        -171.292         -47.9904         -90.756         -47.9955        -90.6922       -0.0157743         145.265
0.586                    -1.0636        -172.261         -47.7704        -91.9198          -47.775        -91.8578       -0.0159266         145.191
0.587                   -1.11121        -173.246         -47.5463        -93.1073         -47.5503        -93.0475        -0.016082         145.116
0.588                    -1.1622        -174.248          -47.318        -94.3205         -47.3216         -94.263       -0.0162407         145.041
0.589                   -1.21685        -175.267         -47.0857        -95.5614         -47.0888        -95.5064       -0.0164027         144.965
0.59                    -1.27546        -176.303         -46.8495        -96.8319         -46.8522        -96.7798       -0.0165681          144.89
0.591                   -1.33834        -177.356         -46.6096        -98.1343         -46.6119        -98.0852       -0.0167371         144.814
0.592                   -1.40586        -178.425         -46.3661        -99.4706          -46.368        -99.4248       -0.0169096         144.738
0.593                   -1.47839        -179.511         -46.1192        -100.843         -46.1207        -100.801       -0.0170859         144.662
0.594                   -1.55635         179.387         -45.8691        -102.254         -45.8703        -102.215       -0.0172659         144.586
0.595                   -1.64019         178.269          -45.616        -103.705         -45.6169         -103.67       -0.0174499          144.51
0.596                   -1.73038         177.137         -45.3603        -105.199         -45.3609        -105.168       -0.0176378         144.433
0.597                   -1.82747         175.991         -45.1021        -106.739         -45.1025        -106.711       -0.0178297         144.357
0.598                     -1.932         174.833         -44.8418        -108.325          -44.842        -108.302       -0.0180259          144.28
0.599                   -2.04457         173.664         -44.5797        -109.961         -44.5798        -109.941       -0.0182262         144.203
0.6                     -2.16584         172.487         -44.3164        -111.648         -44.3164        -111.633       -0.0184308         144.125
0.601                   -2.29649         171.305         -44.0521        -113.389         -44.0521        -113.378       -0.0186398         144.048
0.602                   -2.43723          170.12         -43.7874        -115.186         -43.7874        -115.178       -0.0188532          143.97
0.603                   -2.58884         168.938         -43.5229         -117.04         -43.5229        -117.036       -0.0190712         143.892
0.604                   -2.75208         167.762          -43.259        -118.952          -43.259        -118.952       -0.0192936         143.814
0.605                   -2.92779           166.6         -42.9964        -120.925         -42.9966        -120.929       -0.0195206         143.736
0.606                   -3.11677         165.456         -42.7357        -122.959         -42.7361        -122.966       -0.0197523         143.658
0.607                   -3.31984         164.341         -42.4777        -125.055         -42.4783        -125.065       -0.0199885         143.579
0.608                   -3.53778         163.264         -42.2231        -127.213         -42.2239        -127.226       -0.0202295           143.5
0.609                   -3.77132         162.235         -41.9726        -129.434         -41.9737        -129.449       -0.0204751         143.421
0.61                    -4.02109         161.268         -41.7272        -131.715         -41.7286        -131.733       -0.0207254         143.342
0.611                   -4.28756         160.379         -41.4875        -134.057         -41.4892        -134.077       -0.0209803         143.262
0.612                   -4.57098         159.584         -41.2544        -136.457         -41.2565        -136.479       -0.0212399         143.183
0.613                   -4.87131         158.904         -41.0287        -138.913         -41.0312        -138.936       -0.0215042         143.103
0.614                   -5.18809          158.36         -40.8113        -141.422         -40.8142        -141.446        -0.021773         143.023
0.615                   -5.52032         157.977         -40.6029        -143.979         -40.6061        -144.003       -0.0220464         142.942
0.616                   -5.86631         157.782         -40.4043        -146.581         -40.4078        -146.605       -0.0223242         142.862
0.617                   -6.22348         157.802          -40.216        -149.221         -40.2198        -149.245       -0.0226066         142.781
0.618                   -6.58817         158.065         -40.0386        -151.896         -40.0428        -151.919       -0.0228933           142.7
0.619                   -6.95546           158.6         -39.8726        -154.597         -39.8771        -154.619       -0.0231843         142.619
0.62                      -7.319         159.429         -39.7183        -157.318         -39.7231         -157.34       -0.0234795         142.537
0.621                   -7.67095         160.569         -39.5761        -160.054          -39.581        -160.073       -0.0237789         142.456
0.622                   -8.00211         162.026         -39.4458        -162.795         -39.4509        -162.813       -0.0240824         142.374
0.623                   -8.30226         163.792         -39.3276        -165.537         -39.3328        -165.553       -0.0243898         142.292
0.624                    -8.5609         165.838         -39.2213         -168.27         -39.2265        -168.284       -0.0247012         142.209
0.625                    -8.7682         168.118         -39.1265         -170.99         -39.1318        -171.002       -0.0250164         142.127
0.626                   -8.91622         170.562         -39.0429        -173.689         -39.0481        -173.699       -0.0253353         142.044
0.627                         -9         173.089         -38.9699        -176.361         -38.9751        -176.369       -0.0256578         141.961
0.628                   -9.01836         175.608          -38.907        -179.002         -38.9121        -179.008       -0.0259839         141.877
0.629                   -8.97395         178.034         -38.8535         178.394         -38.8584          178.39       -0.0263134         141.794
