! TOUCHSTONE file generated by CST MICROWAVE STUDIO
! Date and time: Fri Dec 11 13:55:29 2020
! Project name: Scenario_1_Planar_Body_Tissue_Out_of_Line_v2.cst
! Parameters = {dy1=-121.1; L_HA=400; Ltissue=700; MT=2.54; Rad_Dielectric=30; Rad_Lower=7.3; Rad_Upper=30; Wtissue=700; a_HA=580; a_WG=246; b_HA=500; b_WG=121; c_HA=0; c_WG=187; d_feed=85; dx1=520; h_feed=15; h_lower=18; h_upper=40; hfat=3; hgap=25; hmuscle=50; hskin=1.5}
! Header version: 2018
! Port assignment regex: !\s*Touchstone port\s*([0-9]+)\s*=\s*(CST MWS port|CST DS port)\s*([0-9]+|Zmin|Zmax)\s*\(\"(.*)\"\)(\s*mode\s*([0-9]+))?.*
! Touchstone port assignment:
! Touchstone port 1 = CST MWS port 1 ("")
! Touchstone port 2 = CST MWS port 2 ("")
# GHz S DB R 50
0.5                    -0.079524        -121.949         -61.8261        -51.8006         -61.8264        -51.8008      -0.00737527         151.157
0.501                 -0.0878417        -122.528         -61.6429        -52.6896         -61.6431          -52.69      -0.00746906         151.092
0.502                 -0.0974289        -123.109         -61.4553        -53.5927         -61.4553        -53.5933      -0.00756377         151.026
0.503                  -0.108341        -123.693          -61.263        -54.5105         -61.2628        -54.5114      -0.00765938         150.961
0.504                  -0.120635        -124.279         -61.0659        -55.4437         -61.0656         -55.445      -0.00775583         150.895
0.505                  -0.134366        -124.867         -60.8641        -56.3932         -60.8635        -56.3947       -0.0078531         150.829
0.506                  -0.149586        -125.457         -60.6572        -57.3597         -60.6565        -57.3616      -0.00795115         150.764
0.507                  -0.166347        -126.047         -60.4453        -58.3442         -60.4445        -58.3464      -0.00804995         150.698
0.508                  -0.184698        -126.637         -60.2282        -59.3476         -60.2272        -59.3501      -0.00814946         150.632
0.509                  -0.204682        -127.227         -60.0058         -60.371         -60.0046        -60.3739      -0.00824965         150.566
0.51                   -0.226339        -127.815          -59.778        -61.4155         -59.7767        -61.4187      -0.00835049           150.5
0.511                    -0.2497        -128.402         -59.5446        -62.4823         -59.5431         -62.486      -0.00845196         150.434
0.512                   -0.27479        -128.987         -59.3056        -63.5729          -59.304         -63.577      -0.00855401         150.368
0.513                  -0.301623        -129.567         -59.0607        -64.6887          -59.059        -64.6932      -0.00865662         150.301
0.514                  -0.330205        -130.144           -58.81        -65.8312         -58.8082        -65.8362      -0.00875976         150.235
0.515                  -0.360526        -130.715         -58.5533        -67.0023         -58.5513        -67.0077      -0.00886341         150.169
0.516                  -0.392564        -131.279         -58.2904        -68.2038         -58.2883        -68.2097      -0.00896754         150.102
0.517                  -0.426282        -131.837         -58.0213        -69.4377         -58.0191        -69.4441      -0.00907213         150.036
0.518                  -0.461623        -132.386         -57.7458        -70.7063         -57.7435        -70.7132      -0.00917715         149.969
0.519                  -0.498513        -132.925         -57.4639         -72.012         -57.4615        -72.0195      -0.00928259         149.902
0.52                   -0.536858        -133.454         -57.1755        -73.3576          -57.173        -73.3656      -0.00938841         149.836
0.521                  -0.576543        -133.971         -56.8805        -74.7458          -56.878        -74.7544       -0.0094946         149.769
0.522                  -0.617432        -134.475         -56.5789        -76.1798         -56.5763        -76.1891      -0.00960114         149.702
0.523                  -0.659365        -134.966         -56.2706        -77.6631         -56.2679         -77.673      -0.00970801         149.635
0.524                  -0.702162        -135.442         -55.9556        -79.1993         -55.9528        -79.2099      -0.00981519         149.568
0.525                  -0.745623        -135.903          -55.634        -80.7926         -55.6312        -80.8039      -0.00992268         149.501
0.526                  -0.789528        -136.348         -55.3058        -82.4473         -55.3029        -82.4593       -0.0100305         149.433
0.527                  -0.833638        -136.777         -54.9711        -84.1682         -54.9682         -84.181       -0.0101385         149.366
0.528                  -0.877701        -137.189         -54.6301        -85.9604         -54.6272        -85.9739       -0.0102468         149.299
0.529                  -0.921454        -137.585         -54.2831        -87.8295         -54.2802        -87.8437       -0.0103554         149.231
0.53                   -0.964627        -137.963         -53.9303        -89.7812         -53.9275        -89.7962       -0.0104642         149.164
0.531                   -1.00695        -138.325         -53.5723         -91.822         -53.5695        -91.8378       -0.0105732         149.096
0.532                   -1.04814        -138.672         -53.2096        -93.9585         -53.2068        -93.9751       -0.0106825         149.028
0.533                   -1.08794        -139.003         -52.8428        -96.1976           -52.84         -96.215       -0.0107919          148.96
0.534                   -1.12609        -139.319         -52.4729        -98.5465         -52.4702        -98.5646       -0.0109016         148.892
0.535                   -1.16236        -139.623         -52.1008        -101.013         -52.0982        -101.031       -0.0110116         148.824
0.536                   -1.19654        -139.915          -51.728        -103.603         -51.7255        -103.622       -0.0111217         148.756
0.537                   -1.22842        -140.196         -51.3558        -106.324         -51.3534        -106.345        -0.011232         148.688
0.538                   -1.25785        -140.469         -50.9861        -109.184         -50.9839        -109.204       -0.0113426          148.62
0.539                    -1.2847        -140.735         -50.6209        -112.186         -50.6188        -112.207       -0.0114534         148.551
0.54                    -1.30886        -140.996         -50.2626        -115.335         -50.2607        -115.357       -0.0115643         148.483
0.541                   -1.33027        -141.254         -49.9138        -118.634         -49.9122        -118.656       -0.0116756         148.414
0.542                    -1.3489        -141.511         -49.5774        -122.081          -49.576        -122.104        -0.011787         148.345
0.543                   -1.36474        -141.767         -49.2565        -125.675         -49.2553        -125.697       -0.0118987         148.277
0.544                   -1.37782        -142.027         -48.9542        -129.406         -48.9533        -129.428       -0.0120106         148.208
0.545                   -1.38821         -142.29         -48.6738        -133.266         -48.6731        -133.287       -0.0121228         148.139
0.546                   -1.39599        -142.559         -48.4182        -137.238         -48.4178        -137.259       -0.0122353          148.07
0.547                   -1.40127        -142.835         -48.1902        -141.304           -48.19        -141.324       -0.0123481             148
0.548                   -1.40416         -143.12         -47.9919         -145.44         -47.9919        -145.459       -0.0124611         147.931
0.549                   -1.40481        -143.414          -47.825         -149.62         -47.8252        -149.637       -0.0125745         147.862
0.55                    -1.40337         -143.72         -47.6902        -153.816         -47.6906        -153.832       -0.0126882         147.792
0.551                   -1.40001        -144.037         -47.5877            -158         -47.5881        -158.014       -0.0128022         147.722
0.552                   -1.39488        -144.367         -47.5164        -162.143          -47.517        -162.156       -0.0129167         147.653
0.553                   -1.38817        -144.711          -47.475        -166.219         -47.4757         -166.23       -0.0130315         147.583
0.554                   -1.38004        -145.069         -47.4613        -170.206         -47.4619        -170.215       -0.0131468         147.513
0.555                   -1.37066        -145.441         -47.4724        -174.083         -47.4731        -174.091       -0.0132625         147.443
0.556                   -1.36019        -145.828         -47.5055        -177.837         -47.5061        -177.843       -0.0133787         147.372
0.557                    -1.3488         -146.23         -47.5573         178.545         -47.5579          178.54       -0.0134955         147.302
0.558                   -1.33664        -146.648         -47.6247         175.069         -47.6253         175.065       -0.0136127         147.231
0.559                   -1.32385        -147.081         -47.7047         171.738         -47.7052         171.735       -0.0137305         147.161
0.56                    -1.31058        -147.529         -47.7943         168.552         -47.7947          168.55        -0.013849          147.09
0.561                   -1.29695        -147.993          -47.891          165.51         -47.8913         165.509        -0.013968         147.019
0.562                    -1.2831        -148.472         -47.9923         162.606         -47.9926         162.606       -0.0140877         146.948
0.563                   -1.26913        -148.966         -48.0963         159.836         -48.0965         159.837       -0.0142081         146.877
0.564                   -1.25515        -149.475         -48.2012         157.194         -48.2013         157.194       -0.0143293         146.806
0.565                   -1.24127        -149.999         -48.3054          154.67         -48.3054         154.671       -0.0144512         146.734
0.566                   -1.22757        -150.538         -48.4076          152.26         -48.4076         152.261        -0.014574         146.663
0.567                   -1.21414        -151.091          -48.507         149.955         -48.5068         149.956       -0.0146976         146.591
0.568                   -1.20106        -151.658         -48.6025         147.747         -48.6023         147.749       -0.0148221         146.519
0.569                    -1.1884         -152.24         -48.6934          145.63         -48.6932         145.631       -0.0149475         146.448
0.57                    -1.17624        -152.835         -48.7793         143.596          -48.779         143.598       -0.0150739         146.375
0.571                   -1.16463        -153.444         -48.8597          141.64         -48.8594         141.642       -0.0152014         146.303
0.572                   -1.15363        -154.067         -48.9343         139.755         -48.9339         139.757       -0.0153299         146.231
0.573                    -1.1433        -154.703         -49.0028         137.935         -49.0024         137.937       -0.0154595         146.158
0.574                   -1.13369        -155.352          -49.065         136.175         -49.0646         136.177       -0.0155904         146.086
0.575                   -1.12484        -156.014         -49.1209          134.47         -49.1204         134.472       -0.0157224         146.013
0.576                    -1.1168        -156.689         -49.1703         132.815         -49.1698         132.817       -0.0158558          145.94
0.577                   -1.10962        -157.376         -49.2133         131.206         -49.2128         131.208       -0.0159904         145.867
0.578                   -1.10334        -158.076         -49.2498          129.64         -49.2493         129.641       -0.0161265         145.794
0.579                   -1.09799        -158.789         -49.2799         128.111         -49.2793         128.112        -0.016264          145.72
0.58                    -1.09362        -159.514         -49.3035         126.617          -49.303         126.618       -0.0164029         145.647
0.581                   -1.09026        -160.251         -49.3209         125.155         -49.3204         125.156       -0.0165435         145.573
0.582                   -1.08795        -161.001         -49.3321         123.721         -49.3315         123.722       -0.0166856         145.499
0.583                   -1.08674        -161.763          -49.337         122.313         -49.3365         122.314       -0.0168294         145.425
0.584                   -1.08665        -162.538          -49.336         120.928         -49.3355         120.929       -0.0169749         145.351
0.585                   -1.08773        -163.324          -49.329         119.564         -49.3285         119.565       -0.0171223         145.276
0.586                   -1.09003        -164.123         -49.3161         118.219         -49.3156         118.219       -0.0172714         145.202
0.587                   -1.09357        -164.935         -49.2975         116.889          -49.297          116.89       -0.0174225         145.127
0.588                   -1.09841        -165.758         -49.2732         115.575         -49.2728         115.575       -0.0175756         145.052
0.589                   -1.10459        -166.594         -49.2435         114.273          -49.243         114.273       -0.0177307         144.977
0.59                    -1.11216        -167.443         -49.2083         112.981         -49.2078         112.982       -0.0178879         144.902
0.591                   -1.12116        -168.304         -49.1678         111.699         -49.1674           111.7       -0.0180472         144.827
0.592                   -1.13166        -169.178         -49.1221         110.424         -49.1217         110.425       -0.0182088         144.751
0.593                    -1.1437        -170.064         -49.0714         109.156          -49.071         109.156       -0.0183727         144.675
0.594                   -1.15735        -170.964         -49.0156         107.892         -49.0153         107.892        -0.018539         144.599
0.595                   -1.17266        -171.877          -48.955         106.631         -48.9547         106.631       -0.0187077         144.523
0.596                    -1.1897        -172.802         -48.8897         105.372         -48.8894         105.373       -0.0188789         144.447
0.597                   -1.20855        -173.741         -48.8197         104.114         -48.8194         104.114       -0.0190527          144.37
0.598                   -1.22928        -174.694         -48.7451         102.855         -48.7448         102.856       -0.0192291         144.294
0.599                   -1.25198         -175.66         -48.6661         101.595         -48.6658         101.595       -0.0194082         144.217
0.6                     -1.27671         -176.64         -48.5827         100.332         -48.5825         100.332       -0.0195902          144.14
0.601                   -1.30359        -177.634         -48.4951         99.0643         -48.4949         99.0644       -0.0197749         144.063
0.602                   -1.33271        -178.643         -48.4033         97.7919         -48.4031          97.792       -0.0199626         143.985
0.603                   -1.36417        -179.665         -48.3075         96.5134         -48.3073         96.5135       -0.0201533         143.907
0.604                   -1.39808         179.298         -48.2078         95.2277         -48.2076         95.2278       -0.0203471          143.83
0.605                   -1.43457         178.246         -48.1042         93.9338          -48.104         93.9339        -0.020544         143.752
0.606                   -1.47376         177.179         -47.9969         92.6307         -47.9967         92.6308       -0.0207441         143.673
0.607                   -1.51579         176.098         -47.8859         91.3174         -47.8858         91.3175       -0.0209475         143.595
0.608                   -1.56082         175.001         -47.7715          89.993         -47.7713          89.993       -0.0211542         143.516
0.609                   -1.60899         173.889         -47.6536         88.6564         -47.6535         88.6565       -0.0213644         143.437
0.61                    -1.66047         172.761         -47.5324         87.3068         -47.5323         87.3069       -0.0215781         143.358
0.611                   -1.71545         171.618          -47.408         85.9431         -47.4079         85.9432       -0.0217953         143.279
0.612                   -1.77411          170.46         -47.2805         84.5645         -47.2805         84.5646       -0.0220162         143.199
0.613                   -1.83667         169.286         -47.1501           83.17         -47.1501         83.1701       -0.0222409         143.119
0.614                   -1.90334         168.096         -47.0169         81.7587         -47.0169         81.7588       -0.0224693         143.039
0.615                   -1.97436         166.891          -46.881         80.3297          -46.881         80.3297       -0.0227016         142.959
0.616                   -2.04997          165.67         -46.7426          78.882         -46.7425         78.8821       -0.0229378         142.879
0.617                   -2.13045         164.434         -46.6017         77.4149         -46.6017          77.415        -0.023178         142.798
0.618                   -2.21607         163.184         -46.4586         75.9275         -46.4586         75.9275       -0.0234224         142.717
0.619                   -2.30715         161.919         -46.3134         74.4188         -46.3133         74.4188       -0.0236709         142.636
0.62                    -2.40401         160.639         -46.1662         72.8881         -46.1662         72.8881       -0.0239236         142.554
0.621                   -2.50699         159.347         -46.0173         71.3346         -46.0173         71.3346       -0.0241806         142.473
0.622                   -2.61645         158.041         -45.8668         69.7575         -45.8668         69.7575       -0.0244421         142.391
0.623                   -2.73279         156.723         -45.7149          68.156         -45.7149          68.156       -0.0247079         142.309
0.624                   -2.85642         155.395         -45.5619         66.5296         -45.5619         66.5296       -0.0249783         142.226
0.625                   -2.98777         154.057         -45.4078         64.8775         -45.4078         64.8775       -0.0252533         142.144
0.626                   -3.12732         152.711          -45.253         63.1991         -45.2531         63.1991        -0.025533         142.061
0.627                   -3.27554         151.358         -45.0977         61.4941         -45.0977          61.494       -0.0258174         141.977
0.628                   -3.43296         150.001         -44.9421         59.7618         -44.9422         59.7617       -0.0261066         141.894
0.629                   -3.60011         148.642         -44.7865         58.0019         -44.7865         58.0018       -0.0264008          141.81
