! TOUCHSTONE file generated by CST MICROWAVE STUDIO
! Date and time: Sat Nov 14 20:36:19 2020
! Project name: Scenario_1_Planar_Body_Tissue_Out_of_Line_v2.cst
! Parameters = {dy1=103.8; L_HA=400; Ltissue=700; MT=2.54; Rad_Dielectric=30; Rad_Lower=7.3; Rad_Upper=30; Wtissue=700; a_HA=580; a_WG=246; b_HA=500; b_WG=121; c_HA=0; c_WG=187; d_feed=85; dx1=173; h_feed=15; h_lower=18; h_upper=40; hfat=3; hgap=25; hmuscle=50; hskin=1.5}
! Header version: 2018
! Port assignment regex: !\s*Touchstone port\s*([0-9]+)\s*=\s*(CST MWS port|CST DS port)\s*([0-9]+|Zmin|Zmax)\s*\(\"(.*)\"\)(\s*mode\s*([0-9]+))?.*
! Touchstone port assignment:
! Touchstone port 1 = CST MWS port 1 ("")
! Touchstone port 2 = CST MWS port 2 ("")
# GHz S DB R 50
0.5                   -0.0447064        -121.741         -58.2294         130.056         -58.2299         130.055      -0.00700358         151.147
0.501                 -0.0458109         -122.19         -58.0545         129.454          -58.055         129.453      -0.00705665         151.083
0.502                 -0.0469825        -122.642         -57.8774         128.848         -57.8778         128.847       -0.0071077         151.018
0.503                 -0.0482249        -123.098         -57.6979         128.239         -57.6984         128.238      -0.00715709         150.953
0.504                 -0.0495422        -123.557         -57.5161         127.627         -57.5166         127.626      -0.00720516         150.887
0.505                 -0.0509386         -124.02          -57.332         127.011         -57.3324         127.011       -0.0072522         150.822
0.506                 -0.0524186        -124.486         -57.1454         126.392         -57.1458         126.391      -0.00729848         150.757
0.507                 -0.0539872        -124.957         -56.9564         125.769         -56.9568         125.768      -0.00734424         150.691
0.508                 -0.0556497        -125.431         -56.7648         125.141         -56.7653          125.14       -0.0073897         150.626
0.509                 -0.0574118        -125.909         -56.5708          124.51         -56.5712         124.509      -0.00743506          150.56
0.51                  -0.0592797        -126.392         -56.3741         123.874         -56.3745         123.873      -0.00748051         150.494
0.511                   -0.06126        -126.879         -56.1747         123.233         -56.1751         123.232       -0.0075262         150.428
0.512                   -0.06336         -127.37         -55.9727         122.587         -55.9731         122.586       -0.0075723         150.362
0.513                 -0.0655876        -127.866         -55.7679         121.936         -55.7683         121.935      -0.00761893         150.296
0.514                 -0.0679511        -128.366         -55.5603          121.28         -55.5607         121.279      -0.00766624         150.229
0.515                 -0.0704597        -128.872         -55.3498         120.618         -55.3502         120.617      -0.00771432         150.163
0.516                 -0.0731235        -129.382         -55.1364         119.949         -55.1368         119.949       -0.0077633         150.097
0.517                 -0.0759533        -129.898           -54.92         119.275         -54.9204         119.274      -0.00781327          150.03
0.518                 -0.0789608        -130.419         -54.7006         118.594         -54.7009         118.593      -0.00786433         149.963
0.519                 -0.0821591        -130.945          -54.478         117.905         -54.4783         117.905      -0.00791656         149.896
0.52                  -0.0855621        -131.477         -54.2522          117.21         -54.2525         117.209      -0.00797006          149.83
0.521                 -0.0891852        -132.015         -54.0231         116.506         -54.0235         116.505      -0.00802488         149.763
0.522                 -0.0930453         -132.56         -53.7907         115.794         -53.7911         115.793      -0.00808112         149.695
0.523                 -0.0971607         -133.11         -53.5549         115.073         -53.5552         115.073      -0.00813884         149.628
0.524                  -0.101552        -133.667         -53.3156         114.343         -53.3159         114.343       -0.0081981         149.561
0.525                   -0.10624        -134.231         -53.0726         113.603         -53.0729         113.603      -0.00825898         149.493
0.526                  -0.111252        -134.802          -52.826         112.853         -52.8263         112.852      -0.00832154         149.426
0.527                  -0.116612        -135.381         -52.5756         112.091         -52.5759         112.091      -0.00838583         149.358
0.528                  -0.122351        -135.967         -52.3213         111.318         -52.3216         111.317      -0.00845193          149.29
0.529                  -0.128502        -136.561          -52.063         110.532         -52.0633         110.532      -0.00851989         149.223
0.53                   -0.135102        -137.164         -51.8007         109.733          -51.801         109.732      -0.00858979         149.155
0.531                   -0.14219        -137.776         -51.5341          108.92         -51.5344         108.919      -0.00866167         149.086
0.532                  -0.149812        -138.396         -51.2633         108.091         -51.2636         108.091      -0.00873561         149.018
0.533                  -0.158017        -139.026          -50.988         107.247         -50.9883         107.247      -0.00881168          148.95
0.534                  -0.166862        -139.667         -50.7082         106.386         -50.7085         106.385      -0.00888995         148.882
0.535                  -0.176409        -140.317         -50.4237         105.506         -50.4239         105.506      -0.00897048         148.813
0.536                  -0.186726        -140.979         -50.1344         104.607         -50.1346         104.607      -0.00905337         148.744
0.537                  -0.197894        -141.653         -49.8401         103.687         -49.8404         103.687       -0.0091387         148.676
0.538                  -0.209999        -142.338         -49.5408         102.745          -49.541         102.745      -0.00922656         148.607
0.539                  -0.223141        -143.036         -49.2362         101.779         -49.2364         101.778      -0.00931706         148.538
0.54                   -0.237431        -143.748         -48.9262         100.787         -48.9265         100.787      -0.00941029         148.469
0.541                  -0.252995        -144.474         -48.6107         99.7673          -48.611         99.7671      -0.00950639         148.399
0.542                  -0.269978        -145.215         -48.2896         98.7182         -48.2898          98.718       -0.0096055          148.33
0.543                  -0.288541        -145.972         -47.9625         97.6371         -47.9627          97.637      -0.00970775          148.26
0.544                  -0.308869        -146.745         -47.6295         96.5216         -47.6297         96.5216      -0.00981333         148.191
0.545                  -0.331176        -147.536         -47.2903          95.369         -47.2905         95.3689      -0.00992243         148.121
0.546                  -0.355701        -148.345         -46.9448         94.1761          -46.945         94.1761       -0.0100353         148.051
0.547                  -0.382722        -149.174         -46.5928         92.9398          -46.593         92.9398       -0.0101521         147.981
0.548                  -0.412558        -150.023         -46.2342         91.6564         -46.2344         91.6564       -0.0102731         147.911
0.549                  -0.445575        -150.893         -45.8689         90.3218          -45.869         90.3219       -0.0103987         147.841
0.55                   -0.482196        -151.787         -45.4967         88.9318         -45.4968         88.9318       -0.0105293          147.77
0.551                   -0.52291        -152.704         -45.1176         87.4813         -45.1177         87.4814       -0.0106652           147.7
0.552                  -0.568283        -153.645         -44.7315         85.9651         -44.7316         85.9653        -0.010807         147.629
0.553                  -0.618973        -154.613         -44.3384         84.3773         -44.3385         84.3775       -0.0109551         147.558
0.554                  -0.675742        -155.606         -43.9383         82.7114         -43.9384         82.7116       -0.0111103         147.488
0.555                  -0.739477        -156.627         -43.5314         80.9603         -43.5315         80.9604       -0.0112733         147.416
0.556                  -0.811208        -157.674         -43.1178          79.116         -43.1179         79.1162       -0.0114449         147.345
0.557                  -0.892133        -158.747         -42.6979         77.1702          -42.698         77.1704        -0.011626         147.274
0.558                  -0.983639        -159.846         -42.2721         75.1135         -42.2722         75.1137       -0.0118179         147.202
0.559                   -1.08733        -160.967         -41.8411          72.936         -41.8412         72.9362       -0.0120217         147.131
0.56                    -1.20506        -162.107         -41.4057         70.6268         -41.4058          70.627        -0.012239         147.059
0.561                   -1.33892        -163.259          -40.967         68.1746         -40.9671         68.1749       -0.0124712         146.987
0.562                   -1.49129        -164.414         -40.5265         65.5678         -40.5265          65.568       -0.0127202         146.915
0.563                   -1.66478        -165.559         -40.0859         62.7944         -40.0859         62.7946       -0.0129879         146.843
0.564                   -1.86223        -166.676         -39.6475         59.8427         -39.6475         59.8429       -0.0132763          146.77
0.565                   -2.08654        -167.739         -39.2139         56.7018          -39.214          56.702       -0.0135872         146.698
0.566                   -2.34046        -168.714         -38.7886         53.3624         -38.7886         53.3625       -0.0139224         146.625
0.567                   -2.62628        -169.557         -38.3752         49.8176         -38.3752         49.8178       -0.0142831         146.553
0.568                   -2.94517        -170.211         -37.9781         46.0644         -37.9781         46.0645       -0.0146701          146.48
0.569                   -3.29637        -170.606         -37.6021         42.1045         -37.6021         42.1046       -0.0150824         146.408
0.57                    -3.67598        -170.657         -37.2523         37.9461         -37.2523         37.9461       -0.0155179         146.335
0.571                   -4.07546        -170.276         -36.9339         33.6044         -36.9339         33.6044        -0.015972         146.263
0.572                   -4.48014        -169.374          -36.652         29.1029          -36.652         29.1029       -0.0164376         146.191
0.573                   -4.86828         -167.89         -36.4109         24.4732         -36.4109         24.4732       -0.0169051         146.119
0.574                   -5.21176         -165.81         -36.2141         19.7538         -36.2141         19.7538       -0.0173628         146.047
0.575                   -5.47968        -163.202         -36.0637          14.989         -36.0637         14.9889       -0.0177979         145.975
0.576                   -5.64501        -160.222         -35.9605         10.2253         -35.9605         10.2252       -0.0181977         145.904
0.577                   -5.69235        -157.104         -35.9035         5.50946         -35.9035         5.50933       -0.0185519         145.832
0.578                   -5.62286        -154.102         -35.8903        0.884705         -35.8903         0.88456       -0.0188537         145.761
0.579                   -5.45323        -151.433         -35.9172        -3.61139         -35.9172        -3.61154       -0.0191006         145.689
0.58                    -5.20963        -149.238         -35.9797        -7.94863         -35.9798        -7.94878       -0.0192948         145.618
0.581                   -4.92017         -147.57         -36.0728         -12.105         -36.0728        -12.1051       -0.0194421         145.546
0.582                   -4.60941        -146.416         -36.1911        -16.0663         -36.1912        -16.0664       -0.0195505         145.474
0.583                     -4.296        -145.722         -36.3297        -19.8258         -36.3297        -19.8259       -0.0196294         145.401
0.584                   -3.99248        -145.418         -36.4837        -23.3825         -36.4838        -23.3826       -0.0196878         145.328
0.585                   -3.70641        -145.431          -36.649        -26.7404          -36.649        -26.7405        -0.019734         145.255
0.586                   -3.44165        -145.696         -36.8217        -29.9069         -36.8217        -29.9069       -0.0197749         145.181
0.587                    -3.1996        -146.158         -36.9988        -32.8917         -36.9988        -32.8917       -0.0198161         145.107
0.588                   -2.98008         -146.77         -37.1775        -35.7059         -37.1775        -35.7059       -0.0198615         145.032
0.589                   -2.78204        -147.496         -37.3557        -38.3614         -37.3557        -38.3614       -0.0199142         144.958
0.59                    -2.60394        -148.308         -37.5317        -40.8704         -37.5317        -40.8703       -0.0199762         144.883
0.591                   -2.44405        -149.183         -37.7041        -43.2445         -37.7041        -43.2444       -0.0200487         144.807
0.592                   -2.30062        -150.105         -37.8718        -45.4952         -37.8718        -45.4951       -0.0201324         144.732
0.593                   -2.17197        -151.061          -38.034        -47.6332         -38.0341        -47.6331       -0.0202276         144.656
0.594                   -2.05654        -152.042         -38.1902        -49.6686         -38.1902        -49.6684       -0.0203342          144.58
0.595                   -1.95289         -153.04         -38.3398        -51.6107         -38.3398        -51.6105       -0.0204521         144.504
0.596                   -1.85974        -154.049         -38.4825        -53.4681         -38.4826        -53.4679       -0.0205809         144.427
0.597                   -1.77597        -155.067         -38.6183        -55.2488         -38.6184        -55.2485       -0.0207202          144.35
0.598                   -1.70056        -156.089          -38.747        -56.9599         -38.7471        -56.9596       -0.0208697         144.273
0.599                   -1.63262        -157.115         -38.8686         -58.608         -38.8686        -58.6077       -0.0210289         144.196
0.6                     -1.57138        -158.143         -38.9831        -60.1992         -38.9831        -60.1989       -0.0211973         144.119
0.601                   -1.51615        -159.171         -39.0905         -61.739         -39.0906        -61.7387       -0.0213746         144.042
0.602                   -1.46633          -160.2         -39.1911        -63.2324         -39.1911        -63.2321       -0.0215604         143.964
0.603                    -1.4214        -161.228         -39.2849        -64.6841         -39.2849        -64.6837       -0.0217543         143.886
0.604                   -1.38088        -162.257          -39.372        -66.0982          -39.372        -66.0978        -0.021956         143.808
0.605                   -1.34438        -163.286         -39.4527        -67.4785         -39.4528        -67.4781       -0.0221651          143.73
0.606                   -1.31153        -164.315         -39.5272        -68.8287         -39.5272        -68.8283       -0.0223814         143.651
0.607                   -1.28203        -165.344         -39.5956         -70.152         -39.5956        -70.1515       -0.0226046         143.572
0.608                   -1.25559        -166.375         -39.6581        -71.4513         -39.6581        -71.4508       -0.0228346         143.493
0.609                   -1.23198        -167.407          -39.715        -72.7294          -39.715        -72.7289        -0.023071         143.414
0.61                    -1.21097        -168.442         -39.7664        -73.9888         -39.7664        -73.9883       -0.0233138         143.335
0.611                   -1.19237        -169.478         -39.8126        -75.2318         -39.8126        -75.2313       -0.0235627         143.256
0.612                   -1.17603        -170.518         -39.8538        -76.4606         -39.8538        -76.4601       -0.0238176         143.176
0.613                   -1.16179        -171.561         -39.8903         -77.677         -39.8903        -77.6765       -0.0240783         143.096
0.614                   -1.14952        -172.608         -39.9222        -78.8829         -39.9222        -78.8823       -0.0243447         143.016
0.615                   -1.13911        -173.659         -39.9499        -80.0796         -39.9499        -80.0791       -0.0246168         142.935
0.616                   -1.13045        -174.716         -39.9736        -81.2688         -39.9735        -81.2682       -0.0248943         142.855
0.617                   -1.12347        -175.778         -39.9934        -82.4515         -39.9934        -82.4509       -0.0251773         142.774
0.618                   -1.11808        -176.847         -40.0098        -83.6287         -40.0097        -83.6281       -0.0254656         142.693
0.619                   -1.11421        -177.922         -40.0229        -84.8013         -40.0228        -84.8007       -0.0257592         142.612
0.62                    -1.11182        -179.005         -40.0329        -85.9698         -40.0329        -85.9692       -0.0260579          142.53
0.621                   -1.11084         179.905         -40.0403        -87.1346         -40.0402        -87.1341       -0.0263617         142.449
0.622                   -1.11124         178.806         -40.0451        -88.2958          -40.045        -88.2953       -0.0266706         142.367
0.623                   -1.11298         177.698         -40.0476        -89.4533         -40.0475        -89.4529       -0.0269845         142.284
0.624                   -1.11604         176.581         -40.0481        -90.6068          -40.048        -90.6064       -0.0273034         142.202
0.625                   -1.12039         175.454         -40.0467        -91.7557         -40.0466        -91.7554       -0.0276271         142.119
0.626                   -1.12603         174.316         -40.0436        -92.8991         -40.0436        -92.8989       -0.0279556         142.037
0.627                   -1.13292         173.167          -40.039        -94.0361         -40.0389        -94.0359       -0.0282889         141.953
0.628                   -1.14108         172.006         -40.0329        -95.1654         -40.0328        -95.1652        -0.028627          141.87
0.629                    -1.1505         170.832         -40.0254        -96.2857         -40.0253        -96.2856       -0.0289697         141.786
