! TOUCHSTONE file generated by CST MICROWAVE STUDIO
! Date and time: Mon Nov 30 09:07:44 2020
! Project name: Scenario_1_Planar_Body_Tissue_Out_of_Line_v2.cst
! Parameters = {dy1=-103.8; L_HA=400; Ltissue=700; MT=2.54; Rad_Dielectric=30; Rad_Lower=7.3; Rad_Upper=30; Wtissue=700; a_HA=580; a_WG=246; b_HA=500; b_WG=121; c_HA=0; c_WG=187; d_feed=85; dx1=346; h_feed=15; h_lower=18; h_upper=40; hfat=3; hgap=25; hmuscle=50; hskin=1.5}
! Header version: 2018
! Port assignment regex: !\s*Touchstone port\s*([0-9]+)\s*=\s*(CST MWS port|CST DS port)\s*([0-9]+|Zmin|Zmax)\s*\(\"(.*)\"\)(\s*mode\s*([0-9]+))?.*
! Touchstone port assignment:
! Touchstone port 1 = CST MWS port 1 ("")
! Touchstone port 2 = CST MWS port 2 ("")
# GHz S DB R 50
0.5                     -0.28188        -121.773          -55.673         32.5851         -55.6729          32.585      -0.00812932          151.14
0.501                  -0.284436        -122.136         -55.4888         29.9682         -55.4915         29.9535      -0.00820247         151.075
0.502                  -0.287041        -122.502         -55.3234         27.3518         -55.3287          27.327      -0.00827532          151.01
0.503                  -0.289693        -122.871         -55.1763         24.7484         -55.1837         24.7173       -0.0083479         150.945
0.504                  -0.292391        -123.243         -55.0463          22.169         -55.0556         22.1348      -0.00842024          150.88
0.505                  -0.295132        -123.619         -54.9325         19.6236         -54.9432         19.5889      -0.00849236         150.815
0.506                  -0.297918        -123.998         -54.8337         17.1209         -54.8454         17.0876      -0.00856429         150.749
0.507                  -0.300744        -124.381         -54.7484         14.6677         -54.7609         14.6373      -0.00863605         150.684
0.508                  -0.303612        -124.767         -54.6755           12.27         -54.6882         12.2432      -0.00870767         150.618
0.509                  -0.306519        -125.157         -54.6133         9.93181         -54.6261          9.9093      -0.00877917         150.553
0.51                   -0.309465        -125.551         -54.5607         7.65624         -54.5731         7.63813      -0.00885059         150.487
0.511                  -0.312448        -125.948         -54.5163         5.44513         -54.5281          5.4313      -0.00892194         150.421
0.512                  -0.315469        -126.349         -54.4788         3.29929         -54.4899         3.28942      -0.00899325         150.355
0.513                  -0.318525        -126.753         -54.4471         1.21869         -54.4572         1.21231      -0.00906455         150.289
0.514                  -0.321617        -127.162           -54.42       -0.797417          -54.429       -0.800879      -0.00913586         150.223
0.515                  -0.324743        -127.574         -54.3966        -2.75037         -54.4044        -2.75153      -0.00920721         150.157
0.516                  -0.327905         -127.99          -54.376        -4.64196         -54.3825        -4.64147      -0.00927861         150.091
0.517                  -0.331101         -128.41         -54.3573        -6.47431         -54.3625        -6.47282      -0.00935011         150.024
0.518                  -0.334331        -128.835         -54.3399        -8.24982         -54.3437        -8.24793      -0.00942171         149.958
0.519                  -0.337596        -129.263          -54.323        -9.97104         -54.3255        -9.96934      -0.00949345         149.892
0.52                   -0.340896        -129.695         -54.3062        -11.6406         -54.3073        -11.6396      -0.00956535         149.825
0.521                  -0.344232        -130.132         -54.2888        -13.2612         -54.2886        -13.2614      -0.00963744         149.758
0.522                  -0.347605        -130.572         -54.2706        -14.8356         -54.2691        -14.8374      -0.00970974         149.691
0.523                  -0.351014        -131.017         -54.2511        -16.3663         -54.2484        -16.3702      -0.00978228         149.625
0.524                  -0.354463        -131.467           -54.23         -17.856         -54.2261        -17.8622      -0.00985508         149.558
0.525                  -0.357951         -131.92          -54.207        -19.3073          -54.202         -19.316      -0.00992817         149.491
0.526                  -0.361482        -132.379         -54.1819        -20.7225         -54.1759         -20.734       -0.0100016         149.423
0.527                  -0.365057        -132.841         -54.1545        -22.1039         -54.1475        -22.1184       -0.0100753         149.356
0.528                  -0.368678        -133.309         -54.1246        -23.4539         -54.1166        -23.4713       -0.0101494         149.289
0.529                  -0.372348         -133.78          -54.092        -24.7744         -54.0832         -24.795       -0.0102239         149.221
0.53                    -0.37607        -134.257         -54.0567        -26.0675         -54.0471        -26.0913       -0.0102988         149.154
0.531                  -0.379848        -134.738         -54.0185        -27.3351         -54.0083         -27.362       -0.0103741         149.086
0.532                  -0.383685        -135.225         -53.9774         -28.579         -53.9665         -28.609       -0.0104499         149.018
0.533                  -0.387586        -135.716         -53.9333        -29.8008         -53.9218         -29.834       -0.0105262          148.95
0.534                  -0.391554        -136.212         -53.8861        -31.0022         -53.8741        -31.0384        -0.010603         148.883
0.535                  -0.395595        -136.713         -53.8358        -32.1846         -53.8234        -32.2237       -0.0106803         148.814
0.536                  -0.399715         -137.22         -53.7824        -33.3495         -53.7695        -33.3914       -0.0107582         148.746
0.537                  -0.403918        -137.731         -53.7258        -34.4981         -53.7126        -34.5427       -0.0108367         148.678
0.538                  -0.408212        -138.248          -53.666        -35.6317         -53.6525         -35.679       -0.0109158          148.61
0.539                  -0.412603         -138.77          -53.603        -36.7516         -53.5893        -36.8013       -0.0109956         148.541
0.54                   -0.417099        -139.298         -53.5368        -37.8588         -53.5229        -37.9109        -0.011076         148.473
0.541                  -0.421707        -139.832         -53.4674        -38.9544         -53.4533        -39.0086       -0.0111571         148.404
0.542                  -0.426437        -140.371         -53.3947        -40.0393         -53.3806        -40.0956        -0.011239         148.335
0.543                  -0.431297        -140.916         -53.3189        -41.1146         -53.3047        -41.1728       -0.0113215         148.266
0.544                  -0.436298        -141.466         -53.2398        -42.1811         -53.2256         -42.241       -0.0114049         148.197
0.545                   -0.44145        -142.023         -53.1575        -43.2397         -53.1433        -43.3011       -0.0114891         148.128
0.546                  -0.446764        -142.586          -53.072        -44.2911         -53.0578         -44.354       -0.0115741         148.059
0.547                  -0.452253        -143.156         -52.9833        -45.3363         -52.9692        -45.4004       -0.0116599         147.989
0.548                   -0.45793        -143.731         -52.8914        -46.3758         -52.8774         -46.441       -0.0117466          147.92
0.549                  -0.463809        -144.313         -52.7963        -47.4104         -52.7824        -47.4766       -0.0118343          147.85
0.55                   -0.469905        -144.902         -52.6979        -48.4409         -52.6842        -48.5079       -0.0119228         147.781
0.551                  -0.476234        -145.498         -52.5964        -49.4678         -52.5829        -49.5355       -0.0120124         147.711
0.552                  -0.482812          -146.1         -52.4918        -50.4919         -52.4784          -50.56       -0.0121029         147.641
0.553                  -0.489659         -146.71         -52.3839        -51.5137         -52.3708        -51.5822       -0.0121945         147.571
0.554                  -0.496793        -147.326         -52.2729        -52.5338           -52.26        -52.6027       -0.0122871           147.5
0.555                  -0.504237        -147.951         -52.1587        -53.5529          -52.146        -53.6219       -0.0123808          147.43
0.556                  -0.512011        -148.582         -52.0413        -54.5716         -52.0289        -54.6405       -0.0124757          147.36
0.557                   -0.52014        -149.222         -51.9207        -55.5903         -51.9087        -55.6592       -0.0125716         147.289
0.558                   -0.52865        -149.869          -51.797        -56.6098         -51.7852        -56.6784       -0.0126688         147.218
0.559                  -0.537567        -150.525         -51.6702        -57.6305         -51.6587        -57.6988       -0.0127671         147.147
0.56                   -0.546921        -151.189         -51.5401         -58.653          -51.529        -58.7209       -0.0128667         147.077
0.561                  -0.556744        -151.861          -51.407        -59.6779         -51.3961        -59.7452       -0.0129676         147.005
0.562                  -0.567068        -152.542         -51.2706        -60.7057         -51.2601        -60.7725       -0.0130698         146.934
0.563                   -0.57793        -153.232         -51.1311        -61.7371         -51.1209        -61.8031       -0.0131733         146.863
0.564                  -0.589369        -153.932         -50.9884        -62.7725         -50.9785        -62.8378       -0.0132782         146.791
0.565                  -0.601425         -154.64         -50.8425        -63.8127          -50.833         -63.877       -0.0133845          146.72
0.566                  -0.614142        -155.359         -50.6935        -64.8581         -50.6843        -64.9214       -0.0134923         146.648
0.567                  -0.627569        -156.087         -50.5413        -65.9093         -50.5324        -65.9717       -0.0136016         146.576
0.568                  -0.641757        -156.826         -50.3859        -66.9671         -50.3774        -67.0283       -0.0137124         146.504
0.569                  -0.656761        -157.575         -50.2273        -68.0319         -50.2192         -68.092       -0.0138247         146.432
0.57                   -0.672639        -158.334         -50.0655        -69.1045         -50.0578        -69.1634       -0.0139387         146.359
0.571                  -0.689456        -159.105         -49.9006        -70.1856         -49.8931        -70.2431       -0.0140543         146.287
0.572                  -0.707279        -159.887         -49.7324        -71.2757         -49.7253         -71.332       -0.0141716         146.214
0.573                  -0.726184        -160.681         -49.5611        -72.3757         -49.5543        -72.4305       -0.0142907         146.141
0.574                  -0.746249        -161.487         -49.3865        -73.4862         -49.3801        -73.5396       -0.0144116         146.068
0.575                  -0.767561        -162.305         -49.2088         -74.608         -49.2027          -74.66       -0.0145343         145.995
0.576                  -0.790212        -163.135         -49.0279        -75.7419         -49.0221        -75.7924       -0.0146589         145.922
0.577                  -0.814304        -163.979         -48.8437        -76.8887         -48.8383        -76.9377       -0.0147854         145.849
0.578                  -0.839945        -164.836         -48.6564        -78.0493         -48.6513        -78.0967        -0.014914         145.775
0.579                  -0.867251        -165.706         -48.4659        -79.2245         -48.4612        -79.2704       -0.0150446         145.701
0.58                   -0.896351        -166.591         -48.2723        -80.4153         -48.2678        -80.4595       -0.0151774         145.628
0.581                  -0.927383        -167.489         -48.0755        -81.6226         -48.0713        -81.6652       -0.0153123         145.554
0.582                  -0.960495        -168.403         -47.8756        -82.8474         -47.8716        -82.8884       -0.0154496         145.479
0.583                  -0.995849        -169.331         -47.6725        -84.0908         -47.6689        -84.1301       -0.0155891         145.405
0.584                   -1.03362        -170.275         -47.4664        -85.3538          -47.463        -85.3915       -0.0157311          145.33
0.585                     -1.074        -171.234         -47.2572        -86.6376         -47.2541        -86.6736       -0.0158756         145.256
0.586                    -1.1172        -172.209          -47.045        -87.9434         -47.0422        -87.9777       -0.0160227         145.181
0.587                   -1.16344          -173.2         -46.8299        -89.2723         -46.8273        -89.3049       -0.0161725         145.106
0.588                   -1.21296        -174.208         -46.6119        -90.6256         -46.6095        -90.6566       -0.0163251         145.031
0.589                   -1.26603        -175.232         -46.3911        -92.0047         -46.3889        -92.0341       -0.0164805         144.955
0.59                    -1.32294        -176.272         -46.1675         -93.411         -46.1655        -93.4387        -0.016639          144.88
0.591                     -1.384        -177.329         -45.9412        -94.8458         -45.9395        -94.8718       -0.0168006         144.804
0.592                   -1.44954        -178.403         -45.7124        -96.3106         -45.7109         -96.335       -0.0169654         144.728
0.593                   -1.51994        -179.493         -45.4812         -97.807         -45.4799        -97.8298       -0.0171335         144.652
0.594                    -1.5956         179.402         -45.2477        -99.3364         -45.2466        -99.3577       -0.0173052         144.575
0.595                   -1.67694         178.281         -45.0121        -100.901         -45.0111         -100.92       -0.0174806         144.499
0.596                   -1.76443         177.145         -44.7746        -102.501         -44.7737        -102.519       -0.0176598         144.422
0.597                   -1.85857         175.996         -44.5353        -104.139         -44.5345        -104.156       -0.0178429         144.345
0.598                   -1.95991         174.834         -44.2945        -105.817         -44.2939        -105.832       -0.0180303         144.268
0.599                   -2.06903         173.661         -44.0525        -107.536         -44.0519         -107.55       -0.0182219         144.191
0.6                     -2.18655          172.48         -43.8094        -109.298          -43.809         -109.31       -0.0184181         144.114
0.601                   -2.31314         171.292         -43.5657        -111.104         -43.5654        -111.115        -0.018619         144.036
0.602                    -2.4495         170.101         -43.3218        -112.956         -43.3215        -112.966       -0.0188248         143.958
0.603                   -2.59639          168.91         -43.0778        -114.855         -43.0776        -114.864       -0.0190358          143.88
0.604                   -2.75457         167.724         -42.8344        -116.803         -42.8343        -116.811        -0.019252         143.802
0.605                   -2.92486         166.548         -42.5919        -118.801         -42.5918        -118.808       -0.0194738         143.723
0.606                    -3.1081         165.388         -42.3508         -120.85         -42.3508        -120.855       -0.0197013         143.644
0.607                   -3.30511         164.253         -42.1117        -122.951         -42.1117        -122.955       -0.0199348         143.566
0.608                   -3.51673          163.15         -41.8752        -125.103         -41.8751        -125.107       -0.0201743         143.486
0.609                   -3.74375         162.091         -41.6417        -127.308         -41.6417        -127.311       -0.0204202         143.407
0.61                    -3.98688         161.088          -41.412        -129.566          -41.412        -129.568       -0.0206724         143.328
0.611                   -4.24673         160.155         -41.1866        -131.875         -41.1866        -131.876       -0.0209312         143.248
0.612                   -4.52374         159.308         -40.9664        -134.235         -40.9663        -134.236       -0.0211966         143.168
0.613                   -4.81807         158.566         -40.7518        -136.645         -40.7518        -136.645       -0.0214688         143.088
0.614                   -5.12958         157.951         -40.5436        -139.102         -40.5436        -139.101       -0.0217476         143.007
0.615                   -5.45762         157.487         -40.3426        -141.604         -40.3425        -141.603       -0.0220331         142.927
0.616                   -5.80093           157.2         -40.1492        -144.148         -40.1491        -144.147       -0.0223251         142.846
0.617                   -6.15746         157.118         -39.9642        -146.731         -39.9641         -146.73       -0.0226237         142.765
0.618                   -6.52412         157.272         -39.7881        -149.349         -39.7879        -149.347       -0.0229284         142.684
0.619                   -6.89659         157.691         -39.6214        -151.996         -39.6212        -151.995       -0.0232392         142.602
0.62                    -7.26912         158.404         -39.4645        -154.668         -39.4644        -154.667       -0.0235557          142.52
0.621                   -7.63432         159.433         -39.3179         -157.36         -39.3177        -157.359       -0.0238775         142.439
0.622                   -7.98322         160.793         -39.1818        -160.066         -39.1816        -160.065       -0.0242044         142.356
0.623                   -8.30541         162.483         -39.0563         -162.78         -39.0561        -162.778       -0.0245358         142.274
0.624                   -8.58967         164.487         -38.9415        -165.496         -38.9413        -165.494       -0.0248713         142.192
0.625                   -8.82485         166.765         -38.8373        -168.207         -38.8371        -168.206       -0.0252106         142.109
0.626                   -9.00114         169.253         -38.7437        -170.909         -38.7435        -170.907       -0.0255531         142.026
0.627                   -9.11141         171.872         -38.6603        -173.594         -38.6601        -173.593       -0.0258984         141.942
0.628                   -9.15236         174.524         -38.5868        -176.259         -38.5866        -176.258       -0.0262462         141.859
0.629                   -9.12499         177.115         -38.5227        -178.897         -38.5225        -178.896       -0.0265961         141.775
