! TOUCHSTONE file generated by CST MICROWAVE STUDIO
! Date and time: Sat Nov 14 20:00:13 2020
! Project name: Scenario_1_Planar_Body_Tissue_Out_of_Line.cst
! Parameters = {dy1=103.8; L_HA=400; Ltissue=700; MT=2.54; Rad_Dielectric=30; Rad_Lower=7.3; Rad_Upper=30; Wtissue=700; a_HA=580; a_WG=246; b_HA=500; b_WG=121; c_HA=0; c_WG=187; d_feed=85; dx1=693; h_feed=15; h_lower=18; h_upper=40; hfat=3; hgap=25; hmuscle=50; hskin=1.5}
! Header version: 2018
! Port assignment regex: !\s*Touchstone port\s*([0-9]+)\s*=\s*(CST MWS port|CST DS port)\s*([0-9]+|Zmin|Zmax)\s*\(\"(.*)\"\)(\s*mode\s*([0-9]+))?.*
! Touchstone port assignment:
! Touchstone port 1 = CST MWS port 1 ("")
! Touchstone port 2 = CST MWS port 2 ("")
# GHz S DB R 50
0.5                    -0.201597        -121.574         -61.2719        -173.237         -61.2718        -173.237      -0.00776776         151.149
0.501                  -0.202771        -121.988         -61.1575        -174.283         -61.1504        -174.401      -0.00783284         151.084
0.502                   -0.20399        -122.405         -61.0399        -175.357         -61.0266        -175.598      -0.00789823         151.019
0.503                  -0.205256        -122.825         -60.9193        -176.458         -60.9004        -176.829      -0.00796395         150.953
0.504                  -0.206572        -123.247         -60.7954        -177.591         -60.7718        -178.097         -0.00803         150.888
0.505                   -0.20794        -123.673         -60.6683        -178.757          -60.641        -179.405      -0.00809637         150.822
0.506                  -0.209364        -124.101         -60.5378        -179.959         -60.5081         179.244      -0.00816309         150.757
0.507                  -0.210846        -124.533         -60.4039         178.799         -60.3733         177.848      -0.00823015         150.691
0.508                  -0.212391        -124.967         -60.2667         177.515         -60.2369         176.402      -0.00829755         150.626
0.509                  -0.214001        -125.405         -60.1262         176.184         -60.0992         174.905      -0.00836531          150.56
0.51                    -0.21568        -125.846         -59.9824         174.801         -59.9609         173.351      -0.00843343         150.494
0.511                  -0.217433         -126.29         -59.8357         173.361         -59.8223         171.737      -0.00850192         150.428
0.512                  -0.219263        -126.737         -59.6864         171.858         -59.6844         170.059      -0.00857079         150.362
0.513                  -0.221175        -127.188         -59.5349         170.285          -59.548         168.314      -0.00864005         150.296
0.514                  -0.223174        -127.642         -59.3819         168.635         -59.4142         166.498       -0.0087097          150.23
0.515                  -0.225265          -128.1         -59.2285         166.899         -59.2844         164.608      -0.00877976         150.164
0.516                  -0.227454        -128.561          -59.076          165.07         -59.1603         162.644      -0.00885023         150.097
0.517                  -0.229746        -129.026         -58.9262         163.138         -59.0436         160.604      -0.00892114         150.031
0.518                  -0.232148        -129.495         -58.7814         161.095         -58.9366         158.491       -0.0089925         149.964
0.519                  -0.234667        -129.968         -58.6448         158.935         -58.8416          156.31      -0.00906431         149.898
0.52                    -0.23731        -130.444         -58.5201         156.654          -58.761          154.07       -0.0091366         149.831
0.521                  -0.240084        -130.925         -58.4119         154.254         -58.6975         151.784      -0.00920937         149.764
0.522                  -0.242999         -131.41         -58.3258         151.745         -58.6533          149.47      -0.00928266         149.697
0.523                  -0.246063        -131.899         -58.2675         149.147         -58.6304         147.153      -0.00935647          149.63
0.524                  -0.249285        -132.392         -58.2429         146.497           -58.63         144.861      -0.00943083         149.563
0.525                  -0.252677         -132.89         -58.2569         143.847         -58.6524         142.629      -0.00950576         149.496
0.526                  -0.256249        -133.392         -58.3123         141.266         -58.6965         140.492      -0.00958127         149.429
0.527                  -0.260014        -133.899         -58.4084         138.835         -58.7599         138.486      -0.00965739         149.362
0.528                  -0.263985        -134.411         -58.5404         136.638         -58.8384         136.643      -0.00973415         149.294
0.529                  -0.268175        -134.928         -58.6985          134.75         -58.9267         134.991      -0.00981158         149.227
0.53                     -0.2726        -135.449         -58.8691         133.223         -59.0183         133.545      -0.00988969         149.159
0.531                  -0.277276        -135.976         -59.0362         132.074         -59.1062         132.311      -0.00996852         149.091
0.532                  -0.282221        -136.508         -59.1838         131.283         -59.1834         131.281       -0.0100481         149.024
0.533                  -0.287455        -137.046         -59.2985         130.796         -59.2437         130.437       -0.0101285         148.956
0.534                  -0.292998        -137.589         -59.3709          130.54         -59.2818         129.752       -0.0102096         148.888
0.535                  -0.298873        -138.138         -59.3962         130.428         -59.2937         129.193       -0.0102917          148.82
0.536                  -0.305104        -138.693         -59.3739         130.381         -59.2771         128.722       -0.0103746         148.751
0.537                   -0.31172        -139.254         -59.3068         130.331         -59.2311         128.303       -0.0104584         148.683
0.538                  -0.318748        -139.821         -59.1999         130.224          -59.156         127.903       -0.0105432         148.615
0.539                   -0.32622        -140.395         -59.0587         130.025         -59.0532         127.492       -0.0106291         148.546
0.54                   -0.334172        -140.976         -58.8891         129.713         -58.9246         127.046       -0.0107159         148.477
0.541                   -0.34264        -141.563         -58.6962         129.278         -58.7725         126.547       -0.0108039         148.409
0.542                  -0.351667        -142.157         -58.4848         128.715         -58.5994          125.98       -0.0108931          148.34
0.543                  -0.361298        -142.758         -58.2585         128.027         -58.4078         125.336       -0.0109834         148.271
0.544                  -0.371581        -143.367         -58.0204          127.22         -58.2001         124.609        -0.011075         148.202
0.545                  -0.382572        -143.983         -57.7729           126.3         -57.9782         123.797       -0.0111679         148.133
0.546                  -0.394329        -144.608         -57.5177         125.275         -57.7442         122.898       -0.0112622         148.063
0.547                  -0.406918         -145.24         -57.2562         124.151         -57.4995         121.912       -0.0113579         147.994
0.548                  -0.420409         -145.88         -56.9895         122.935         -57.2457          120.84       -0.0114551         147.924
0.549                  -0.434883        -146.529         -56.7184         121.633         -56.9838         119.685       -0.0115539         147.855
0.55                   -0.450424        -147.187         -56.4434         120.249         -56.7148         118.449       -0.0116543         147.785
0.551                  -0.467127        -147.853         -56.1649         118.789         -56.4395         117.134       -0.0117564         147.715
0.552                  -0.485097        -148.528         -55.8832         117.256         -56.1587         115.742       -0.0118603         147.645
0.553                  -0.504449        -149.213         -55.5987         115.653         -55.8728         114.274        -0.011966         147.575
0.554                  -0.525308        -149.907         -55.3114         113.982         -55.5823         112.732       -0.0120737         147.505
0.555                  -0.547813         -150.61         -55.0215         112.245         -55.2878         111.119       -0.0121834         147.434
0.556                  -0.572117        -151.322         -54.7291         110.443         -54.9895         109.433       -0.0122951         147.364
0.557                  -0.598386        -152.044         -54.4345         108.576         -54.6877         107.677        -0.012409         147.293
0.558                  -0.626804        -152.776         -54.1377         106.645         -54.3829          105.85       -0.0125252         147.222
0.559                  -0.657573        -153.516         -53.8389         104.651         -54.0752         103.953       -0.0126437         147.151
0.56                   -0.690911        -154.266         -53.5383         102.592         -53.7651         101.985       -0.0127647          147.08
0.561                  -0.727057        -155.024         -53.2361         100.467         -53.4528         99.9459       -0.0128882         147.009
0.562                  -0.766272         -155.79         -52.9326         98.2772         -53.1387         97.8344       -0.0130143         146.938
0.563                  -0.808835        -156.563          -52.628         96.0198         -52.8232         95.6498        -0.013143         146.867
0.564                  -0.855048        -157.343         -52.3228          93.694         -52.5067          93.391       -0.0132746         146.795
0.565                   -0.90523        -158.127         -52.0172         91.2984         -52.1897         91.0567        -0.013409         146.723
0.566                  -0.959721        -158.915         -51.7119         88.8317         -51.8728         88.6455       -0.0135464         146.652
0.567                   -1.01887        -159.704         -51.4073         86.2924         -51.5564         86.1562       -0.0136867          146.58
0.568                   -1.08304        -160.492          -51.104         83.6793         -51.2413         83.5876       -0.0138302         146.508
0.569                   -1.15258        -161.275         -50.8027         80.9912         -50.9281         80.9384       -0.0139769         146.435
0.57                    -1.22785         -162.05         -50.5041         78.2272         -50.6178         78.2079       -0.0141267         146.363
0.571                   -1.30915        -162.813          -50.209         75.3867         -50.3111         75.3955       -0.0142799         146.291
0.572                   -1.39675        -163.558         -49.9184         72.4695          -50.009         72.5011       -0.0144364         146.218
0.573                   -1.49083         -164.28         -49.6331         69.4761         -49.7125         69.5251       -0.0145962         146.145
0.574                   -1.59147         -164.97         -49.3542         66.4074         -49.4227         66.4686       -0.0147594         146.072
0.575                   -1.69858        -165.623         -49.0827         63.2651         -49.1406         63.3334        -0.014926         145.999
0.576                   -1.81186        -166.228         -48.8196         60.0518         -48.8674         60.1224       -0.0150959         145.926
0.577                   -1.93079        -166.777         -48.5662         56.7709         -48.6044         56.8391       -0.0152692         145.853
0.578                   -2.05449        -167.261         -48.3233         53.4268         -48.3525         53.4882       -0.0154458         145.779
0.579                   -2.18178        -167.669         -48.0921         50.0249         -48.1129         50.0756       -0.0156256         145.706
0.58                    -2.31105        -167.994         -47.8735         46.5715         -47.8866          46.608       -0.0158086         145.632
0.581                    -2.4403        -168.229         -47.6683          43.074         -47.6745         43.0933       -0.0159947         145.558
0.582                   -2.56716        -168.369         -47.4774         39.5404         -47.4775         39.5402       -0.0161837         145.484
0.583                   -2.68894        -168.412         -47.3013         35.9798          -47.296         35.9582       -0.0163755          145.41
0.584                   -2.80277         -168.36         -47.1404         32.4015         -47.1307         32.3574       -0.0165699         145.336
0.585                   -2.90576        -168.222          -46.995         28.8154         -46.9816         28.7484       -0.0167669         145.261
0.586                    -2.9952        -168.009         -46.8651         25.2314         -46.8488         25.1416       -0.0169661         145.187
0.587                    -3.0688        -167.736         -46.7506         21.6595         -46.7321         21.5476       -0.0171674         145.112
0.588                   -3.12486        -167.424         -46.6511         18.1091         -46.6311         17.9765       -0.0173706         145.037
0.589                   -3.16246        -167.095          -46.566         14.5894         -46.5453         14.4378       -0.0175754         144.962
0.59                    -3.18146        -166.772         -46.4948         11.1087         -46.4738         10.9401       -0.0177818         144.887
0.591                   -3.18255        -166.476         -46.4365         7.67448         -46.4158         7.49143       -0.0179894         144.811
0.592                   -3.16711        -166.227         -46.3903         4.29337         -46.3702         4.09835        -0.018198         144.736
0.593                   -3.13705        -166.041         -46.3551        0.970888         -46.3359        0.766541       -0.0184075          144.66
0.594                   -3.09463         -165.93         -46.3298        -2.28845         -46.3119        -2.49949       -0.0186177         144.584
0.595                   -3.04225        -165.902         -46.3135        -5.48116         -46.2969         -5.6963       -0.0188285         144.508
0.596                   -2.98229        -165.961         -46.3049        -8.60472         -46.2898        -8.82152       -0.0190396         144.432
0.597                   -2.91701        -166.109          -46.303        -11.6575         -46.2895        -11.8737       -0.0192511         144.356
0.598                   -2.84843        -166.344         -46.3067        -14.6388         -46.2948        -14.8522       -0.0194627         144.279
0.599                   -2.77831        -166.662         -46.3152        -17.5484         -46.3048        -17.7573       -0.0196746         144.203
0.6                     -2.70811         -167.06         -46.3273        -20.3871         -46.3185        -20.5898       -0.0198867         144.126
0.601                   -2.63904        -167.531         -46.3423        -23.1559         -46.3349        -23.3509       -0.0200989         144.049
0.602                   -2.57202         -168.07         -46.3594        -25.8563         -46.3533        -26.0426       -0.0203113         143.971
0.603                   -2.50779        -168.671         -46.3778        -28.4904         -46.3729        -28.6669       -0.0205241         143.894
0.604                   -2.44686        -169.328         -46.3968        -31.0603          -46.393        -31.2263       -0.0207373         143.816
0.605                   -2.38963        -170.037         -46.4158        -33.5684         -46.4131        -33.7233        -0.020951         143.738
0.606                   -2.33632        -170.793         -46.4344        -36.0173         -46.4325        -36.1607       -0.0211654          143.66
0.607                   -2.28711         -171.59          -46.452        -38.4097         -46.4508        -38.5414       -0.0213806         143.582
0.608                   -2.24206        -172.426         -46.4682        -40.7483         -46.4676        -40.8681       -0.0215969         143.503
0.609                   -2.20121        -173.298         -46.4826        -43.0359         -46.4825        -43.1439       -0.0218145         143.425
0.61                    -2.16452        -174.201         -46.4949        -45.2752         -46.4952        -45.3715       -0.0220334         143.346
0.611                   -2.13197        -175.134         -46.5048         -47.469         -46.5055        -47.5538       -0.0222541         143.266
0.612                    -2.1035        -176.095         -46.5121          -49.62          -46.513        -49.6936       -0.0224766         143.187
0.613                   -2.07902        -177.082         -46.5166        -51.7308         -46.5175        -51.7935       -0.0227011         143.107
0.614                   -2.05848        -178.094          -46.518         -53.804         -46.5191        -53.8562        -0.022928         143.028
0.615                    -2.0418        -179.128         -46.5163         -55.842         -46.5173        -55.8843       -0.0231574         142.947
0.616                   -2.02891         179.815         -46.5114        -57.8474         -46.5123        -57.8801       -0.0233895         142.867
0.617                   -2.01977         178.737          -46.503        -59.8225         -46.5038        -59.8461       -0.0236246         142.786
0.618                   -2.01431         177.637         -46.4912        -61.7694         -46.4917        -61.7846       -0.0238628         142.706
0.619                   -2.01252         176.518         -46.4758        -63.6906         -46.4761        -63.6978       -0.0241043         142.625
0.62                    -2.01437         175.378         -46.4569         -65.588         -46.4569        -65.5879       -0.0243494         142.543
0.621                   -2.01984         174.218         -46.4344        -67.4637         -46.4341        -67.4568       -0.0245981         142.462
0.622                   -2.02895         173.037         -46.4082        -69.3198         -46.4076        -69.3066       -0.0248507          142.38
0.623                   -2.04172         171.837         -46.3784        -71.1581         -46.3774        -71.1393       -0.0251073         142.298
0.624                   -2.05817         170.617         -46.3449        -72.9806         -46.3436        -72.9566       -0.0253681         142.215
0.625                   -2.07838         169.377         -46.3078         -74.789         -46.3062        -74.7604       -0.0256333         142.133
0.626                   -2.10239         168.116         -46.2671         -76.585         -46.2651        -76.5524       -0.0259029          142.05
0.627                   -2.13031         166.834         -46.2229        -78.3704         -46.2205        -78.3343       -0.0261771         141.967
0.628                   -2.16223         165.531          -46.175        -80.1469         -46.1723        -80.1078       -0.0264561         141.883
0.629                   -2.19827         164.207         -46.1237         -81.916         -46.1206        -81.8744       -0.0267399         141.799
