! TOUCHSTONE file generated by CST MICROWAVE STUDIO
! Date and time: Mon Nov 30 08:36:15 2020
! Project name: Scenario_1_Planar_Body_Tissue_Out_of_Line.cst
! Parameters = {dy1=-103.8; L_HA=400; Ltissue=700; MT=2.54; Rad_Dielectric=30; Rad_Lower=7.3; Rad_Upper=30; Wtissue=700; a_HA=580; a_WG=246; b_HA=500; b_WG=121; c_HA=0; c_WG=187; d_feed=85; dx1=866; h_feed=15; h_lower=18; h_upper=40; hfat=3; hgap=25; hmuscle=50; hskin=1.5}
! Header version: 2018
! Port assignment regex: !\s*Touchstone port\s*([0-9]+)\s*=\s*(CST MWS port|CST DS port)\s*([0-9]+|Zmin|Zmax)\s*\(\"(.*)\"\)(\s*mode\s*([0-9]+))?.*
! Touchstone port assignment:
! Touchstone port 1 = CST MWS port 1 ("")
! Touchstone port 2 = CST MWS port 2 ("")
# GHz S DB R 50
0.5                    -0.103213        -122.128          -63.735         105.099         -63.7348         105.103      -0.00751248         151.144
0.501                  -0.112847        -122.527         -63.6361          105.22         -63.6401         105.213      -0.00758871         151.078
0.502                   -0.12242        -122.927         -63.5329          105.37         -63.5413         105.353      -0.00766542         151.013
0.503                  -0.131931        -123.329          -63.425         105.551          -63.438         105.523      -0.00774264         150.948
0.504                  -0.141381        -123.733          -63.312         105.766           -63.33         105.726      -0.00782035         150.882
0.505                   -0.15077        -124.138         -63.1937         106.017         -63.2169         105.965      -0.00789857         150.817
0.506                  -0.160097        -124.544         -63.0695         106.306         -63.0982         106.241       -0.0079773         150.751
0.507                  -0.169362        -124.953          -62.939         106.636         -62.9736         106.559      -0.00805655         150.686
0.508                  -0.178565        -125.363         -62.8017         107.011         -62.8426          106.92      -0.00813631          150.62
0.509                  -0.187708        -125.775         -62.6571         107.432         -62.7047         107.328      -0.00821661         150.554
0.51                   -0.196789        -126.189         -62.5045         107.905         -62.5592         107.786      -0.00829744         150.488
0.511                  -0.205809        -126.605         -62.3434         108.432         -62.4057         108.299      -0.00837881         150.422
0.512                  -0.214769        -127.023          -62.173         109.017         -62.2433          108.87      -0.00846073         150.356
0.513                   -0.22367        -127.443         -61.9924         109.665         -62.0714         109.503       -0.0085432          150.29
0.514                  -0.232511        -127.865         -61.8009         110.382         -61.8892         110.203      -0.00862622         150.224
0.515                  -0.241294        -128.289         -61.5974         111.171         -61.6956         110.976      -0.00870981         150.157
0.516                   -0.25002        -128.715          -61.381         112.039         -61.4898         111.828      -0.00879397         150.091
0.517                  -0.258689        -129.144         -61.1504         112.992         -61.2707         112.764      -0.00887871         150.024
0.518                  -0.267303        -129.575         -60.9045         114.037          -61.037         113.791      -0.00896403         149.958
0.519                  -0.275862        -130.008         -60.6418         115.182         -60.7875         114.918      -0.00904995         149.891
0.52                   -0.284369        -130.444         -60.3608         116.436         -60.5207         116.153      -0.00913646         149.824
0.521                  -0.292826        -130.883           -60.06         117.809         -60.2351         117.506      -0.00922357         149.758
0.522                  -0.301232        -131.324         -59.7376         119.313         -59.9291         118.988       -0.0093113         149.691
0.523                  -0.309592        -131.767         -59.3916         120.959         -59.6009          120.61      -0.00939965         149.624
0.524                  -0.317905        -132.214           -59.02         122.764         -59.2484         122.389      -0.00948863         149.557
0.525                  -0.326176        -132.663         -58.6208         124.744         -58.8699          124.34      -0.00957824          149.49
0.526                  -0.334406        -133.115         -58.1918         126.922         -58.4631         126.483      -0.00966849         149.422
0.527                  -0.342599         -133.57         -57.7306         129.322         -58.0261         128.842       -0.0097594         149.355
0.528                  -0.350756        -134.028         -57.2353         131.975         -57.5568         131.445      -0.00985096         149.287
0.529                  -0.358881         -134.49          -56.704         134.917         -57.0534         134.325      -0.00994319          149.22
0.53                   -0.366978        -134.954         -56.1353         138.195         -56.5146         137.522       -0.0100361         149.152
0.531                  -0.375051        -135.422         -55.5289         141.863           -55.94         141.087       -0.0101297         149.085
0.532                  -0.383102        -135.893          -54.886         145.989         -55.3305         145.079        -0.010224         149.017
0.533                  -0.391137        -136.368         -54.2105         150.654         -54.6889         149.569        -0.010319         148.949
0.534                  -0.399161        -136.846         -53.5101          155.95         -54.0218         154.638       -0.0104147         148.881
0.535                  -0.407177        -137.328         -52.7987         161.979         -53.3404         160.376       -0.0105111         148.813
0.536                  -0.415193        -137.813         -52.0982         168.835         -52.6626         166.869       -0.0106082         148.744
0.537                  -0.423213        -138.303         -51.4408         176.583         -52.0151         174.184       -0.0107061         148.676
0.538                  -0.431243        -138.797         -50.8682        -174.788         -51.4332        -177.669       -0.0108048         148.608
0.539                  -0.439291        -139.294         -50.4272        -165.409         -50.9583        -168.772       -0.0109042         148.539
0.54                   -0.447364        -139.796         -50.1583        -155.559         -50.6299         -159.33       -0.0110044         148.471
0.541                  -0.455468        -140.302         -50.0823        -145.637         -50.4746        -149.672       -0.0111054         148.402
0.542                  -0.463614        -140.813         -50.1916        -136.067         -50.4964        -140.181       -0.0112073         148.333
0.543                  -0.471808        -141.328         -50.4538        -127.192          -50.675        -131.209       -0.0113099         148.264
0.544                  -0.480062        -141.848         -50.8239         -119.21         -50.9738        -123.001       -0.0114133         148.195
0.545                  -0.488386        -142.373         -51.2571        -112.182         -51.3513         -115.67       -0.0115175         148.126
0.546                   -0.49679        -142.902         -51.7167         -106.07         -51.7704        -109.227       -0.0116226         148.057
0.547                  -0.505287        -143.437         -52.1765        -100.787         -52.2021        -103.614       -0.0117285         147.987
0.548                  -0.513889        -143.977         -52.6192        -96.2318         -52.6262        -98.7474       -0.0118353         147.918
0.549                   -0.52261        -144.523         -53.0346        -92.3025         -53.0298        -94.5331        -0.011943         147.848
0.55                   -0.531465        -145.074         -53.4172          -88.91         -53.4055         -90.884       -0.0120516         147.778
0.551                  -0.540469         -145.63         -53.7646        -85.9782         -53.7493        -87.7233       -0.0121611         147.709
0.552                  -0.549641        -146.193         -54.0765        -83.4438         -54.0597        -84.9855       -0.0122715         147.639
0.553                  -0.558997        -146.762         -54.3538        -81.2546         -54.3368        -82.6157       -0.0123829         147.569
0.554                  -0.568559        -147.337         -54.5978        -79.3678         -54.5816        -80.5685       -0.0124952         147.498
0.555                  -0.578347        -147.918         -54.8105        -77.7481         -54.7954        -78.8062       -0.0126085         147.428
0.556                  -0.588384        -148.506         -54.9937        -76.3665         -54.9801        -77.2975       -0.0127229         147.358
0.557                  -0.598694          -149.1         -55.1494        -75.1985         -55.1374        -76.0162       -0.0128382         147.287
0.558                  -0.609306        -149.702         -55.2796        -74.2238         -55.2691        -74.9401       -0.0129546         147.216
0.559                  -0.620246        -150.311          -55.386        -73.4253          -55.377        -74.0507        -0.013072         147.146
0.56                   -0.631546        -150.927         -55.4704         -72.788         -55.4627         -73.332       -0.0131905         147.075
0.561                  -0.643241         -151.55         -55.5343        -72.2995         -55.5278        -72.7704       -0.0133101         147.004
0.562                  -0.655364        -152.182         -55.5791        -71.9488         -55.5737        -72.3539       -0.0134308         146.933
0.563                  -0.667956        -152.821         -55.6061        -71.7264         -55.6018        -72.0723       -0.0135526         146.861
0.564                  -0.681059        -153.469         -55.6167        -71.6239         -55.6132        -71.9166       -0.0136757          146.79
0.565                  -0.694719        -154.126         -55.6118         -71.634          -55.609        -71.8788       -0.0137999         146.718
0.566                  -0.708983        -154.791         -55.5925        -71.7503         -55.5903         -71.952       -0.0139254         146.646
0.567                  -0.723907        -155.465         -55.5597         -71.967          -55.558        -72.1298       -0.0140521         146.575
0.568                  -0.739547        -156.148         -55.5142        -72.2789         -55.5129        -72.4068       -0.0141801         146.503
0.569                  -0.755966        -156.841         -55.4568        -72.6815         -55.4558        -72.7781       -0.0143094         146.431
0.57                   -0.773232        -157.543         -55.3881        -73.1708         -55.3874        -73.2392       -0.0144401         146.358
0.571                  -0.791417        -158.256         -55.3088        -73.7431         -55.3084        -73.7862       -0.0145722         146.286
0.572                  -0.810603        -158.978         -55.2195        -74.3951         -55.2192        -74.4157       -0.0147057         146.213
0.573                  -0.830875        -159.711         -55.1207         -75.124         -55.1205        -75.1245       -0.0148407         146.141
0.574                  -0.852326        -160.455          -55.013        -75.9272         -55.0128        -75.9099       -0.0149772         146.068
0.575                  -0.875059         -161.21         -54.8967        -76.8024         -54.8965        -76.7692       -0.0151153         145.995
0.576                  -0.899184        -161.976         -54.7723        -77.7475         -54.7721        -77.7004        -0.015255         145.922
0.577                   -0.92482        -162.753         -54.6402        -78.7609         -54.6399        -78.7015       -0.0153964         145.848
0.578                  -0.952097        -163.542         -54.5008        -79.8408         -54.5004        -79.7708       -0.0155396         145.775
0.579                  -0.981156        -164.342         -54.3544         -80.986          -54.354        -80.9069       -0.0156845         145.701
0.58                    -1.01215        -165.154         -54.2015        -82.1952         -54.2009        -82.1083       -0.0158314         145.627
0.581                   -1.04524        -165.978         -54.0423        -83.4675         -54.0415         -83.374       -0.0159802         145.553
0.582                   -1.08062        -166.814         -53.8772         -84.802         -53.8763        -84.7031        -0.016131         145.479
0.583                   -1.11846        -167.662         -53.7065        -86.1981         -53.7054        -86.0947       -0.0162839         145.405
0.584                   -1.15899        -168.522         -53.5305         -87.655         -53.5292        -87.5483       -0.0164389         145.331
0.585                   -1.20242        -169.393         -53.3496        -89.1725         -53.3481        -89.0633       -0.0165963         145.256
0.586                   -1.24901        -170.275         -53.1641          -90.75         -53.1624        -90.6393        -0.016756         145.181
0.587                     -1.299        -171.168         -52.9743        -92.3875         -52.9724        -92.2759       -0.0169182         145.106
0.588                   -1.35268        -172.071         -52.7806        -94.0847         -52.7785        -93.9729       -0.0170829         145.031
0.589                   -1.41034        -172.984         -52.5834        -95.8414         -52.5811        -95.7302       -0.0172503         144.956
0.59                    -1.47231        -173.904          -52.383        -97.6576         -52.3804        -97.5476       -0.0174205         144.881
0.591                    -1.5389        -174.832         -52.1797        -99.5332          -52.177         -99.425       -0.0175936         144.805
0.592                   -1.61046        -175.765          -51.974        -101.468         -51.9711        -101.362       -0.0177697         144.729
0.593                   -1.68735        -176.702         -51.7664        -103.463         -51.7633        -103.359       -0.0179488         144.653
0.594                   -1.76995         -177.64         -51.5572        -105.516         -51.5539        -105.416       -0.0181313         144.577
0.595                    -1.8586        -178.576         -51.3469        -107.629         -51.3435        -107.532        -0.018317         144.501
0.596                   -1.95369        -179.507         -51.1359          -109.8         -51.1324        -109.707       -0.0185062         144.424
0.597                   -2.05556          179.57         -50.9248        -112.029         -50.9212        -111.941       -0.0186989         144.347
0.598                   -2.16453          178.66         -50.7141        -114.317         -50.7105        -114.233       -0.0188953          144.27
0.599                   -2.28088         177.768         -50.5044        -116.661         -50.5006        -116.582       -0.0190954         144.193
0.6                     -2.40483           176.9          -50.296        -119.062         -50.2922        -118.988       -0.0192994         144.116
0.601                    -2.5365         176.063         -50.0897        -121.518         -50.0859        -121.448       -0.0195072         144.038
0.602                   -2.67591         175.263         -49.8859        -124.027         -49.8822        -123.963       -0.0197189         143.961
0.603                   -2.82294          174.51         -49.6853        -126.588         -49.6816        -126.529       -0.0199347         143.883
0.604                   -2.97726         173.811         -49.4884        -129.199         -49.4848        -129.145       -0.0201545         143.805
0.605                   -3.13835         173.175         -49.2957        -131.857         -49.2922        -131.809       -0.0203783         143.727
0.606                   -3.30539         172.613         -49.1078         -134.56         -49.1044        -134.517       -0.0206061         143.648
0.607                   -3.47731         172.134         -48.9251        -137.305          -48.922        -137.267       -0.0208379         143.569
0.608                   -3.65266         171.746         -48.7483        -140.089         -48.7454        -140.055       -0.0210738          143.49
0.609                   -3.82966         171.459         -48.5777        -142.907          -48.575        -142.878       -0.0213136         143.411
0.61                    -4.00619         171.278         -48.4137        -145.756         -48.4113        -145.732       -0.0215572         143.332
0.611                   -4.17976         171.208         -48.2566        -148.631         -48.2545        -148.612       -0.0218047         143.253
0.612                   -4.34764          171.25         -48.1068        -151.529          -48.105        -151.514       -0.0220559         143.173
0.613                   -4.50688         171.403         -47.9644        -154.445          -47.963        -154.433       -0.0223108         143.093
0.614                   -4.65449         171.661         -47.8296        -157.373         -47.8286        -157.365       -0.0225692         143.013
0.615                   -4.78754         172.014         -47.7025         -160.31         -47.7018        -160.305       -0.0228311         142.932
0.616                   -4.90339         172.446         -47.5831         -163.25         -47.5827        -163.248       -0.0230965         142.852
0.617                   -4.99986         172.939         -47.4712        -166.189         -47.4712        -166.189       -0.0233652         142.771
0.618                   -5.07535         173.472         -47.3668        -169.122         -47.3671        -169.125       -0.0236371          142.69
0.619                   -5.12897         174.022         -47.2697        -172.046         -47.2703         -172.05       -0.0239123         142.609
0.62                    -5.16061         174.564         -47.1795        -174.955         -47.1804        -174.961       -0.0241906         142.527
0.621                   -5.17092         175.075         -47.0959        -177.847         -47.0972        -177.854        -0.024472         142.445
0.622                    -5.1612         175.534         -47.0186         179.283         -47.0202         179.275       -0.0247565         142.363
0.623                   -5.13331         175.923         -46.9472         176.436          -46.949         176.428       -0.0250441         142.281
0.624                    -5.0895         176.227         -46.8811         173.617         -46.8832         173.607       -0.0253348         142.199
0.625                   -5.03224         176.435           -46.82         170.826         -46.8223         170.817       -0.0256286         142.116
0.626                   -4.96407         176.539         -46.7634         168.067         -46.7658         168.057       -0.0259256         142.033
0.627                   -4.88749         176.536         -46.7106          165.34         -46.7132          165.33       -0.0262257          141.95
0.628                   -4.80484         176.425         -46.6614         162.646         -46.6641         162.637       -0.0265291         141.866
0.629                   -4.71827         176.206         -46.6151         159.987         -46.6179         159.978       -0.0268357         141.782
