! TOUCHSTONE file generated by CST MICROWAVE STUDIO
! Date and time: Sat Nov 14 20:36:31 2020
! Project name: Scenario_1_Planar_Body_Tissue_Out_of_Line_v2.cst
! Parameters = {dy1=86.5; L_HA=400; Ltissue=700; MT=2.54; Rad_Dielectric=30; Rad_Lower=7.3; Rad_Upper=30; Wtissue=700; a_HA=580; a_WG=246; b_HA=500; b_WG=121; c_HA=0; c_WG=187; d_feed=85; dx1=173; h_feed=15; h_lower=18; h_upper=40; hfat=3; hgap=25; hmuscle=50; hskin=1.5}
! Header version: 2018
! Port assignment regex: !\s*Touchstone port\s*([0-9]+)\s*=\s*(CST MWS port|CST DS port)\s*([0-9]+|Zmin|Zmax)\s*\(\"(.*)\"\)(\s*mode\s*([0-9]+))?.*
! Touchstone port assignment:
! Touchstone port 1 = CST MWS port 1 ("")
! Touchstone port 2 = CST MWS port 2 ("")
# GHz S DB R 50
0.5                   -0.0442464        -121.736         -57.8265         130.574         -57.8265         130.575      -0.00703828         151.151
0.501                 -0.0471355        -122.169         -57.6505         130.033         -57.6505         130.034      -0.00707857         151.086
0.502                 -0.0499887        -122.605         -57.4723         129.487         -57.4723         129.488      -0.00712023          151.02
0.503                  -0.052811        -123.046         -57.2919         128.935         -57.2919         128.936      -0.00716327         150.955
0.504                 -0.0556077         -123.49         -57.1093         128.377         -57.1093         128.378      -0.00720769         150.889
0.505                 -0.0583844        -123.938         -56.9244         127.813         -56.9244         127.814      -0.00725351         150.823
0.506                  -0.061147        -124.391         -56.7372         127.243         -56.7372         127.244      -0.00730073         150.758
0.507                 -0.0639016        -124.847         -56.5476         126.667         -56.5476         126.668      -0.00734936         150.692
0.508                 -0.0666549        -125.308         -56.3556         126.084         -56.3556         126.085      -0.00739939         150.626
0.509                 -0.0694137        -125.773         -56.1612         125.494         -56.1611         125.495      -0.00745084          150.56
0.51                  -0.0721856        -126.243         -55.9642         124.898         -55.9642         124.899      -0.00750371         150.493
0.511                 -0.0749785        -126.718         -55.7646         124.295         -55.7646         124.295      -0.00755801         150.427
0.512                 -0.0778006        -127.197         -55.5625         123.684         -55.5625         123.684      -0.00761374         150.361
0.513                 -0.0806612        -127.681         -55.3577         123.065         -55.3576         123.066      -0.00767092         150.294
0.514                 -0.0835698        -128.171         -55.1501         122.439         -55.1501          122.44      -0.00772955         150.228
0.515                 -0.0865367        -128.666         -54.9397         121.805         -54.9397         121.806      -0.00778963         150.161
0.516                 -0.0895732        -129.166         -54.7265         121.163         -54.7265         121.163      -0.00785118         150.095
0.517                 -0.0926913        -129.671         -54.5103         120.511         -54.5103         120.512       -0.0079142         150.028
0.518                 -0.0959038        -130.183         -54.2912         119.851         -54.2912         119.852       -0.0079787         149.961
0.519                  -0.099225          -130.7          -54.069         119.182          -54.069         119.183      -0.00804468         149.894
0.52                    -0.10267        -131.224         -53.8437         118.503         -53.8437         118.504      -0.00811216         149.827
0.521                  -0.106255        -131.754         -53.6152         117.814         -53.6152         117.815      -0.00818114          149.76
0.522                  -0.109999         -132.29         -53.3834         117.115         -53.3834         117.115      -0.00825164         149.693
0.523                   -0.11392        -132.834         -53.1482         116.404         -53.1482         116.405      -0.00832365         149.626
0.524                  -0.118041        -133.384         -52.9096         115.682         -52.9096         115.683       -0.0083972         149.558
0.525                  -0.122384        -133.942         -52.6675         114.949         -52.6674         114.949      -0.00847228         149.491
0.526                  -0.126976        -134.508         -52.4217         114.203         -52.4217         114.203      -0.00854892         149.424
0.527                  -0.131844        -135.081         -52.1722         113.444         -52.1722         113.444      -0.00862713         149.356
0.528                   -0.13702        -135.663         -51.9189         112.671         -51.9189         112.671       -0.0087069         149.288
0.529                  -0.142537        -136.253         -51.6617         111.884         -51.6617         111.884      -0.00878826          149.22
0.53                   -0.148435        -136.853         -51.4005         111.081         -51.4004         111.082      -0.00887123         149.152
0.531                  -0.154754        -137.462         -51.1351         110.263         -51.1351         110.264       -0.0089558         149.084
0.532                  -0.161542         -138.08         -50.8655         109.428         -50.8655         109.429      -0.00904201         149.016
0.533                   -0.16885        -138.709         -50.5915         108.575         -50.5915         108.576      -0.00912986         148.948
0.534                  -0.176735        -139.349          -50.313         107.704          -50.313         107.704      -0.00921938          148.88
0.535                  -0.185263            -140           -50.03         106.813           -50.03         106.813      -0.00931057         148.811
0.536                  -0.194505        -140.663         -49.7422           105.9         -49.7422         105.901      -0.00940348         148.743
0.537                  -0.204542        -141.338         -49.4495         104.966         -49.4495         104.966      -0.00949811         148.674
0.538                  -0.215465        -142.026         -49.1518         104.007         -49.1518         104.008       -0.0095945         148.606
0.539                  -0.227378        -142.728         -48.8489         103.023         -48.8489         103.024      -0.00969267         148.537
0.54                   -0.240395        -143.444         -48.5407         102.013         -48.5407         102.013      -0.00979266         148.468
0.541                  -0.254647        -144.176          -48.227         100.973         -48.2271         100.974       -0.0098945         148.399
0.542                  -0.270285        -144.923         -47.9078         99.9025         -47.9078         99.9031      -0.00999824          148.33
0.543                  -0.287476        -145.688         -47.5827          98.799         -47.5827         98.7996       -0.0101039          148.26
0.544                  -0.306413         -146.47         -47.2517           97.66         -47.2518         97.6605       -0.0102116         148.191
0.545                  -0.327318        -147.271         -46.9147         96.4828         -46.9147         96.4834       -0.0103214         148.122
0.546                  -0.350444        -148.092         -46.5714         95.2646         -46.5714         95.2651       -0.0104333         148.052
0.547                  -0.376079        -148.933         -46.2216         94.0021         -46.2217         94.0026       -0.0105474         147.982
0.548                  -0.404558        -149.797         -45.8654         92.6917         -45.8654         92.6922       -0.0106639         147.912
0.549                  -0.436267        -150.684         -45.5025         91.3295         -45.5025           91.33       -0.0107829         147.842
0.55                   -0.471652        -151.596         -45.1328         89.9113         -45.1328         89.9118       -0.0109044         147.772
0.551                  -0.511228        -152.533         -44.7562         88.4322         -44.7562         88.4327       -0.0110288         147.702
0.552                  -0.555596        -153.497         -44.3727         86.8871         -44.3727         86.8876       -0.0111562         147.632
0.553                  -0.605452        -154.489         -43.9823         85.2701         -43.9823         85.2707       -0.0112868         147.561
0.554                  -0.661607        -155.509         -43.5849          83.575         -43.5849         83.5755       -0.0114211          147.49
0.555                  -0.725008        -156.559         -43.1807         81.7945         -43.1808          81.795       -0.0115593          147.42
0.556                  -0.796755        -157.638           -42.77         79.9211           -42.77         79.9216        -0.011702         147.349
0.557                  -0.878131        -158.746         -42.3529         77.9464         -42.3529         77.9469       -0.0118498         147.278
0.558                  -0.970627        -159.882         -41.9299         75.8612         -41.9299         75.8617       -0.0120035         147.206
0.559                   -1.07597        -161.043         -41.5016         73.6556         -41.5017         73.6561       -0.0121639         147.135
0.56                    -1.19615        -162.225         -41.0689         71.3189          -41.069         71.3194       -0.0123322         147.063
0.561                   -1.33344        -163.422         -40.6329         68.8399         -40.6329         68.8404         -0.01251         146.992
0.562                    -1.4904        -164.622         -40.1948         66.2069         -40.1949         66.2074       -0.0126992          146.92
0.563                   -1.66987        -165.814         -39.7566          63.408         -39.7566         63.4085       -0.0129022         146.848
0.564                   -1.87489        -166.975         -39.3202         60.4314         -39.3203         60.4319        -0.013122         146.775
0.565                   -2.10858        -168.079         -38.8886         57.2661         -38.8886         57.2666       -0.0133626         146.703
0.566                   -2.37391        -169.089         -38.4647         53.9024         -38.4647         53.9029       -0.0136288          146.63
0.567                   -2.67323        -169.956         -38.0524         50.3332         -38.0524         50.3337       -0.0139266         146.557
0.568                   -3.00765        -170.617          -37.656         46.5547          -37.656         46.5552       -0.0142632         146.484
0.569                   -3.37608        -170.997         -37.2802         42.5682         -37.2802         42.5686       -0.0146465         146.411
0.57                    -3.77383        -171.005         -36.9302         38.3808         -36.9302         38.3812       -0.0150845         146.338
0.571                   -4.19106        -170.546         -36.6113         34.0071         -36.6113         34.0075       -0.0155834         146.265
0.572                   -4.61111        -169.528         -36.3284         29.4696         -36.3284           29.47       -0.0161437         146.192
0.573                   -5.00974        -167.892         -36.0862         24.7992         -36.0862         24.7995        -0.016756          146.12
0.574                   -5.35634        -165.637         -35.8882         20.0339         -35.8882         20.0342        -0.017395         146.048
0.575                   -5.61839         -162.85         -35.7369         15.2176         -35.7369         15.2178       -0.0180187         145.977
0.576                   -5.76914        -159.717         -35.6331         10.3973         -35.6331         10.3975       -0.0185741         145.906
0.577                   -5.79575        -156.493         -35.5761          5.6201          -35.576         5.62018       -0.0190131         145.836
0.578                   -5.70331        -153.442         -35.5635        0.930167         -35.5635        0.930188       -0.0193099         145.766
0.579                   -5.51234        -150.776          -35.592        -3.63381         -35.5919        -3.63385       -0.0194692         145.696
0.58                    -5.25145         -148.62         -35.6569        -8.04046         -35.6569        -8.04055       -0.0195194         145.626
0.581                   -4.94951         -147.01         -35.7532        -12.2666         -35.7532        -12.2667       -0.0194986         145.554
0.582                   -4.63071        -145.918         -35.8758         -16.297         -35.8758        -16.2971       -0.0194422         145.482
0.583                   -4.31273        -145.283         -36.0193        -20.1239         -36.0193        -20.1241       -0.0193771         145.409
0.584                   -4.00708        -145.029         -36.1791        -23.7458         -36.1791        -23.7461       -0.0193206         145.336
0.585                   -3.72041        -145.084         -36.3508        -27.1661         -36.3508        -27.1664       -0.0192824         145.262
0.586                   -3.45591        -145.381         -36.5306        -30.3918         -36.5306        -30.3921       -0.0192667         145.188
0.587                   -3.21452        -145.867         -36.7152        -33.4323         -36.7152        -33.4326       -0.0192749         145.114
0.588                   -2.99575        -146.496         -36.9019        -36.2987          -36.902         -36.299       -0.0193061         145.039
0.589                   -2.79837        -147.235         -37.0886        -39.0027         -37.0886         -39.003        -0.019359         144.964
0.59                    -2.62074        -148.056         -37.2734        -41.5563         -37.2734        -41.5567       -0.0194315         144.888
0.591                   -2.46109        -148.937         -37.4549        -43.9713         -37.4549        -43.9716       -0.0195219         144.813
0.592                   -2.31766        -149.864          -37.632         -46.259          -37.632        -46.2593       -0.0196282         144.737
0.593                   -2.18878        -150.824         -37.8038        -48.4302         -37.8039        -48.4305       -0.0197489         144.661
0.594                   -2.07288        -151.807         -37.9698        -50.4948         -37.9699        -50.4951       -0.0198824         144.585
0.595                   -1.96859        -152.807         -38.1295        -52.4621         -38.1296        -52.4625       -0.0200275         144.509
0.596                   -1.87463        -153.819         -38.2826        -54.3408         -38.2827        -54.3411       -0.0201831         144.432
0.597                   -1.78991        -154.839         -38.4288        -56.1385         -38.4289        -56.1389       -0.0203483         144.356
0.598                   -1.71343        -155.864         -38.5681        -57.8625         -38.5682        -57.8628       -0.0205223         144.279
0.599                   -1.64433        -156.893         -38.7005        -59.5191         -38.7005        -59.5194       -0.0207043         144.202
0.6                     -1.58186        -157.924         -38.8258        -61.1144         -38.8259        -61.1147       -0.0208938         144.125
0.601                   -1.52534        -158.956         -38.9443        -62.6536         -38.9444        -62.6539       -0.0210903         144.047
0.602                   -1.47418        -159.989          -39.056        -64.1416          -39.056        -64.1419       -0.0212934          143.97
0.603                   -1.42788        -161.022         -39.1609        -65.5829          -39.161        -65.5832       -0.0215026         143.892
0.604                   -1.38598        -162.056         -39.2592        -66.9815         -39.2593        -66.9817       -0.0217177         143.814
0.605                   -1.34808         -163.09         -39.3511        -68.3409         -39.3512        -68.3412       -0.0219385         143.736
0.606                   -1.31384        -164.126         -39.4368        -69.6647         -39.4368        -69.6649       -0.0221646         143.658
0.607                   -1.28294        -165.162         -39.5162        -70.9558         -39.5163         -70.956       -0.0223958         143.579
0.608                   -1.25512          -166.2         -39.5897        -72.2169         -39.5898        -72.2171       -0.0226321         143.501
0.609                   -1.23014        -167.239         -39.6574        -73.4506         -39.6575        -73.4508       -0.0228732         143.422
0.61                    -1.20778        -168.281         -39.7194        -74.6593         -39.7194        -74.6595        -0.023119         143.343
0.611                   -1.18786        -169.326         -39.7758        -75.8451         -39.7759        -75.8453       -0.0233695         143.263
0.612                   -1.17022        -170.374         -39.8269        -77.0099          -39.827          -77.01       -0.0236245         143.184
0.613                   -1.15471        -171.425         -39.8728        -78.1555         -39.8729        -78.1557       -0.0238839         143.104
0.614                    -1.1412        -172.481         -39.9136        -79.2837         -39.9137        -79.2838       -0.0241477         143.024
0.615                   -1.12958        -173.542         -39.9495        -80.3959         -39.9496         -80.396       -0.0244158         142.944
0.616                   -1.11975        -174.608         -39.9806        -81.4936         -39.9806        -81.4937       -0.0246881         142.864
0.617                   -1.11163        -175.681          -40.007        -82.5781          -40.007        -82.5782       -0.0249647         142.783
0.618                   -1.10513        -176.759         -40.0288        -83.6507         -40.0289        -83.6508       -0.0252455         142.702
0.619                    -1.1002        -177.844         -40.0463        -84.7125         -40.0463        -84.7126       -0.0255304         142.621
0.62                    -1.09677        -178.937         -40.0594        -85.7645         -40.0595        -85.7646       -0.0258195          142.54
0.621                   -1.09479         179.962         -40.0684        -86.8078         -40.0684        -86.8079       -0.0261127         142.458
0.622                   -1.09424         178.852         -40.0732        -87.8434         -40.0733        -87.8434         -0.02641         142.377
0.623                   -1.09506         177.734         -40.0741         -88.872         -40.0742         -88.872       -0.0267113         142.295
0.624                   -1.09723         176.606         -40.0712        -89.8946         -40.0712        -89.8946       -0.0270168         142.213
0.625                   -1.10073         175.467         -40.0644        -90.9119         -40.0645        -90.9119       -0.0273264          142.13
0.626                   -1.10555         174.318          -40.054        -91.9247          -40.054        -91.9247         -0.02764         142.047
0.627                   -1.11167         173.158           -40.04        -92.9336           -40.04        -92.9337       -0.0279577         141.964
0.628                   -1.11908         171.986         -40.0225        -93.9395         -40.0225        -93.9395       -0.0282795         141.881
0.629                   -1.12779         170.801         -40.0016        -94.9428         -40.0016        -94.9428       -0.0286055         141.798
