! TOUCHSTONE file generated by CST MICROWAVE STUDIO
! Date and time: Mon Nov 30 09:07:52 2020
! Project name: Scenario_1_Planar_Body_Tissue_Out_of_Line_v2.cst
! Parameters = {dy1=-86.5; L_HA=400; Ltissue=700; MT=2.54; Rad_Dielectric=30; Rad_Lower=7.3; Rad_Upper=30; Wtissue=700; a_HA=580; a_WG=246; b_HA=500; b_WG=121; c_HA=0; c_WG=187; d_feed=85; dx1=346; h_feed=15; h_lower=18; h_upper=40; hfat=3; hgap=25; hmuscle=50; hskin=1.5}
! Header version: 2018
! Port assignment regex: !\s*Touchstone port\s*([0-9]+)\s*=\s*(CST MWS port|CST DS port)\s*([0-9]+|Zmin|Zmax)\s*\(\"(.*)\"\)(\s*mode\s*([0-9]+))?.*
! Touchstone port assignment:
! Touchstone port 1 = CST MWS port 1 ("")
! Touchstone port 2 = CST MWS port 2 ("")
# GHz S DB R 50
0.5                    -0.285942        -121.768         -55.4998         33.7355         -55.4996         33.7361      -0.00807284         151.149
0.501                  -0.287118        -122.145          -55.306          30.804         -55.3078         30.8052      -0.00813773         151.084
0.502                  -0.288299        -122.524         -55.1364         27.8924         -55.1398         27.8956      -0.00820288         151.019
0.503                  -0.289486        -122.907         -54.9893         25.0164         -54.9941         25.0227      -0.00826829         150.954
0.504                  -0.290679        -123.292         -54.8634         22.1901         -54.8692            22.2      -0.00833397         150.888
0.505                   -0.29188         -123.68         -54.7567          19.425         -54.7633         19.4389      -0.00839992         150.823
0.506                  -0.293091        -124.071         -54.6673         16.7303         -54.6745         16.7483      -0.00846615         150.758
0.507                  -0.294312        -124.465         -54.5933          14.113         -54.6008          14.135      -0.00853266         150.692
0.508                  -0.295546        -124.862         -54.5325          11.578         -54.5403         11.6037      -0.00859945         150.627
0.509                  -0.296795        -125.262         -54.4832          9.1281          -54.491         9.15705      -0.00866653         150.561
0.51                   -0.298059        -125.665         -54.4435         6.76462         -54.4512         6.79632      -0.00873391         150.495
0.511                   -0.29934        -126.071         -54.4117         4.48736         -54.4192         4.52129      -0.00880158         150.429
0.512                  -0.300642         -126.48         -54.3863         2.29503         -54.3934         2.33064      -0.00886956         150.364
0.513                  -0.301964        -126.892         -54.3659        0.185426         -54.3726        0.222178      -0.00893784         150.298
0.514                   -0.30331        -127.307         -54.3491        -1.84431         -54.3555        -1.80692      -0.00900644         150.232
0.515                  -0.304682        -127.726          -54.335        -3.79752         -54.3409        -3.75997      -0.00907535         150.165
0.516                  -0.306082        -128.148         -54.3225        -5.67786          -54.328        -5.64059      -0.00914459         150.099
0.517                  -0.307512        -128.573         -54.3109        -7.48919         -54.3159        -7.45258      -0.00921416         150.033
0.518                  -0.308975        -129.002         -54.2993        -9.23543         -54.3039        -9.19982      -0.00928406         149.966
0.519                  -0.310473        -129.434         -54.2873        -10.9205         -54.2914        -10.8862      -0.00935431           149.9
0.52                   -0.312009         -129.87         -54.2741        -12.5483         -54.2778        -12.5155       -0.0094249         149.833
0.521                  -0.313587        -130.309         -54.2595        -14.1225         -54.2628        -14.0915      -0.00949584         149.767
0.522                  -0.315208        -130.752         -54.2431        -15.6468         -54.2459        -15.6177      -0.00956715           149.7
0.523                  -0.316877        -131.199         -54.2244        -17.1246         -54.2269        -17.0975      -0.00963882         149.633
0.524                  -0.318597         -131.65         -54.2034        -18.5592         -54.2055        -18.5343      -0.00971086         149.566
0.525                  -0.320371        -132.104         -54.1797        -19.9537         -54.1815         -19.931      -0.00978329         149.499
0.526                  -0.322203        -132.563         -54.1531         -21.311         -54.1547        -21.2906      -0.00985611         149.432
0.527                  -0.324098        -133.025         -54.1237        -22.6339          -54.125        -22.6158      -0.00992932         149.365
0.528                  -0.326058        -133.492         -54.0912        -23.9249         -54.0922        -23.9091       -0.0100029         149.298
0.529                  -0.328089        -133.963         -54.0555        -25.1864         -54.0564        -25.1729        -0.010077          149.23
0.53                   -0.330195        -134.438         -54.0167        -26.4207         -54.0173        -26.4095       -0.0101514         149.163
0.531                  -0.332381        -134.917         -53.9746        -27.6298          -53.975        -27.6209       -0.0102263         149.095
0.532                  -0.334652        -135.401         -53.9292        -28.8157         -53.9294         -28.809       -0.0103017         149.028
0.533                  -0.337014        -135.889         -53.8805        -29.9802         -53.8806        -29.9757       -0.0103774          148.96
0.534                  -0.339473        -136.382         -53.8285         -31.125         -53.8284        -31.1226       -0.0104537         148.892
0.535                  -0.342033        -136.879         -53.7731        -32.2518         -53.7729        -32.2513       -0.0105304         148.824
0.536                  -0.344703        -137.381         -53.7144        -33.3619         -53.7141        -33.3634       -0.0106076         148.756
0.537                  -0.347488        -137.888         -53.6524        -34.4567          -53.652        -34.4602       -0.0106853         148.688
0.538                  -0.350396          -138.4          -53.587        -35.5376         -53.5866        -35.5429       -0.0107635         148.619
0.539                  -0.353435        -138.917         -53.5184        -36.6058         -53.5179        -36.6128       -0.0108423         148.551
0.54                   -0.356612         -139.44         -53.4464        -37.6624         -53.4459         -37.671       -0.0109215         148.483
0.541                  -0.359936        -139.967         -53.3712        -38.7084         -53.3706        -38.7186       -0.0110014         148.414
0.542                  -0.363416          -140.5         -53.2927        -39.7449         -53.2921        -39.7566       -0.0110817         148.345
0.543                  -0.367061        -141.039          -53.211        -40.7728         -53.2103        -40.7859       -0.0111627         148.276
0.544                  -0.370882        -141.583         -53.1261         -41.793         -53.1253        -41.8075       -0.0112443         148.207
0.545                   -0.37489        -142.133         -53.0379        -42.8064         -53.0372        -42.8221       -0.0113264         148.138
0.546                  -0.379095        -142.689         -52.9466        -43.8137         -52.9458        -43.8306       -0.0114093         148.069
0.547                  -0.383511        -143.251          -52.852        -44.8158         -52.8513        -44.8338       -0.0114927             148
0.548                   -0.38815        -143.819         -52.7544        -45.8134         -52.7536        -45.8324       -0.0115768         147.931
0.549                  -0.393026        -144.393         -52.6535        -46.8071         -52.6528        -46.8271       -0.0116616         147.861
0.55                   -0.398153        -144.974         -52.5496        -47.7977         -52.5489        -47.8185       -0.0117472         147.791
0.551                  -0.403547        -145.562         -52.4425        -48.7858         -52.4419        -48.8075       -0.0118334         147.722
0.552                  -0.409226        -146.156         -52.3324        -49.7721         -52.3317        -49.7944       -0.0119205         147.652
0.553                  -0.415205        -146.758         -52.2191        -50.7571         -52.2185        -50.7801       -0.0120083         147.582
0.554                  -0.421505        -147.366         -52.1028        -51.7414         -52.1022         -51.765       -0.0120969         147.512
0.555                  -0.428146        -147.982         -51.9834        -52.7257         -51.9828        -52.7498       -0.0121863         147.442
0.556                  -0.435149        -148.605         -51.8609        -53.7104         -51.8604         -53.735       -0.0122767         147.371
0.557                  -0.442537        -149.237         -51.7354        -54.6963         -51.7349        -54.7213       -0.0123679         147.301
0.558                  -0.450336        -149.876         -51.6068        -55.6837         -51.6063        -55.7091         -0.01246          147.23
0.559                  -0.458571        -150.523         -51.4751        -56.6734         -51.4747         -56.699       -0.0125531         147.159
0.56                    -0.46727        -151.178         -51.3404        -57.6658           -51.34        -57.6916       -0.0126473         147.088
0.561                  -0.476465        -151.842         -51.2026        -58.6614         -51.2023        -58.6874       -0.0127424         147.017
0.562                  -0.486187        -152.515         -51.0618        -59.6609         -51.0616         -59.687       -0.0128387         146.946
0.563                  -0.496472        -153.197          -50.918        -60.6647         -50.9178         -60.691       -0.0129361         146.875
0.564                  -0.507357        -153.888         -50.7711        -61.6735         -50.7709        -61.6998       -0.0130346         146.804
0.565                  -0.518883        -154.589         -50.6211        -62.6879          -50.621        -62.7141       -0.0131344         146.732
0.566                  -0.531092          -155.3         -50.4681        -63.7083          -50.468        -63.7345       -0.0132355          146.66
0.567                  -0.544031        -156.021          -50.312        -64.7354          -50.312        -64.7615       -0.0133379         146.589
0.568                  -0.557751        -156.752         -50.1529        -65.7698         -50.1529        -65.7957       -0.0134416         146.517
0.569                  -0.572305        -157.494         -49.9906        -66.8121         -49.9907        -66.8378       -0.0135468         146.444
0.57                   -0.587753        -158.247         -49.8254        -67.8629         -49.8255        -67.8884       -0.0136536         146.372
0.571                  -0.604156        -159.011          -49.657        -68.9229         -49.6571        -68.9482       -0.0137619           146.3
0.572                  -0.621583        -159.787         -49.4855        -69.9928         -49.4857        -70.0177       -0.0138718         146.227
0.573                  -0.640108        -160.575          -49.311        -71.0732         -49.3113        -71.0978       -0.0139835         146.154
0.574                   -0.65981        -161.375         -49.1334         -72.165         -49.1337        -72.1892        -0.014097         146.082
0.575                  -0.680775        -162.188         -48.9527        -73.2687          -48.953        -73.2925       -0.0142124         146.009
0.576                  -0.703096        -163.014         -48.7689        -74.3852         -48.7693        -74.4086       -0.0143298         145.935
0.577                  -0.726873        -163.853          -48.582        -75.5153         -48.5824        -75.5383       -0.0144492         145.862
0.578                  -0.752217        -164.706          -48.392        -76.6599         -48.3925        -76.6823       -0.0145709         145.789
0.579                  -0.779246        -165.574          -48.199        -77.8197         -48.1995        -77.8417       -0.0146948         145.715
0.58                   -0.808089        -166.455         -48.0028        -78.9958         -48.0034        -79.0172       -0.0148211         145.641
0.581                  -0.838885        -167.352         -47.8037         -80.189         -47.8042        -80.2099       -0.0149499         145.567
0.582                  -0.871788        -168.265         -47.6014        -81.4003          -47.602        -81.4206       -0.0150814         145.493
0.583                  -0.906961        -169.192         -47.3962        -82.6309         -47.3968        -82.6506       -0.0152155         145.419
0.584                  -0.944585        -170.136         -47.1879        -83.8816         -47.1886        -83.9007       -0.0153526         145.344
0.585                  -0.984856        -171.097         -46.9767        -85.1538         -46.9774        -85.1723       -0.0154927         145.269
0.586                   -1.02799        -172.074         -46.7625        -86.4485         -46.7633        -86.4663        -0.015636         145.195
0.587                   -1.07421        -173.068         -46.5455        -87.7669         -46.5463        -87.7841       -0.0157826          145.12
0.588                   -1.12377         -174.08         -46.3257        -89.1103         -46.3264        -89.1268       -0.0159326         145.044
0.589                   -1.17695        -175.109          -46.103        -90.4801         -46.1038        -90.4959       -0.0160863         144.969
0.59                    -1.23405        -176.155         -45.8777        -91.8775         -45.8785        -91.8927       -0.0162438         144.893
0.591                    -1.2954        -177.219         -45.6498        -93.3041         -45.6506        -93.3186       -0.0164052         144.818
0.592                   -1.36134        -178.301         -45.4194        -94.7613         -45.4202         -94.775       -0.0165707         144.742
0.593                   -1.43226        -179.401         -45.1866        -96.2505         -45.1874        -96.2636       -0.0167405         144.666
0.594                   -1.50859         179.483         -44.9516        -97.7734         -44.9524        -97.7858       -0.0169147         144.589
0.595                   -1.59077          178.35         -44.7145        -99.3315         -44.7153        -99.3432       -0.0170936         144.513
0.596                   -1.67929           177.2         -44.4754        -100.926         -44.4762        -100.937       -0.0172773         144.436
0.597                    -1.7747         176.036         -44.2347         -102.56         -44.2355         -102.57        -0.017466         144.359
0.598                   -1.87757         174.857         -43.9924        -104.234         -43.9932        -104.243       -0.0176597         144.282
0.599                   -1.98851         173.667         -43.7489        -105.949         -43.7497        -105.958       -0.0178588         144.205
0.6                      -2.1082         172.466         -43.5045        -107.708         -43.5053        -107.716       -0.0180633         144.128
0.601                   -2.23734         171.258         -43.2594        -109.512         -43.2601        -109.519       -0.0182734          144.05
0.602                    -2.3767         170.045          -43.014        -111.363         -43.0147        -111.369       -0.0184891         143.972
0.603                   -2.52706         168.832         -42.7686        -113.261         -42.7693        -113.267       -0.0187108         143.894
0.604                   -2.68928         167.623         -42.5238         -115.21         -42.5244        -115.215       -0.0189383         143.816
0.605                   -2.86423         166.423         -42.2798        -117.209         -42.2805        -117.213       -0.0191718         143.738
0.606                   -3.05281          165.24         -42.0373        -119.259         -42.0379        -119.264       -0.0194114         143.659
0.607                   -3.25591         164.082         -41.7968        -121.363         -41.7974        -121.367       -0.0196572          143.58
0.608                   -3.47445         162.957         -41.5588         -123.52         -41.5593        -123.523       -0.0199091         143.501
0.609                   -3.70926         161.878         -41.3239         -125.73         -41.3244        -125.733       -0.0201671         143.422
0.61                    -3.96114         160.858         -41.0927        -127.994         -41.0932        -127.996       -0.0204312         143.342
0.611                   -4.23072         159.912          -40.866        -130.311         -40.8664        -130.313       -0.0207014         143.263
0.612                   -4.51848         159.058         -40.6443         -132.68         -40.6446        -132.681       -0.0209776         143.183
0.613                   -4.82457         158.316         -40.4285          -135.1         -40.4287        -135.101       -0.0212597         143.103
0.614                    -5.1488          157.71          -40.219        -137.569         -40.2192        -137.569       -0.0215476         143.023
0.615                    -5.4904         157.266         -40.0168        -140.084         -40.0169        -140.084       -0.0218411         142.942
0.616                   -5.84794         157.012         -39.8223        -142.643         -39.8224        -142.643         -0.02214         142.862
0.617                   -6.21904          156.98         -39.6363        -145.242         -39.6363        -145.242       -0.0224442         142.781
0.618                   -6.60019         157.202         -39.4594        -147.877         -39.4593        -147.877       -0.0227535           142.7
0.619                   -6.98647         157.709          -39.292        -150.543         -39.2919        -150.543       -0.0230676         142.618
0.62                    -7.37133         158.532         -39.1347        -153.235         -39.1346        -153.235       -0.0233863         142.537
0.621                   -7.74644         159.693         -38.9878        -155.948         -38.9876        -155.948       -0.0237093         142.455
0.622                   -8.10172         161.204         -38.8516        -158.676         -38.8514        -158.676       -0.0240365         142.373
0.623                   -8.42568         163.061         -38.7262        -161.413          -38.726        -161.413       -0.0243675         142.291
0.624                   -8.70615         165.238         -38.6118        -164.153         -38.6116        -164.153       -0.0247022         142.209
0.625                   -8.93147         167.685         -38.5084        -166.889         -38.5081        -166.889       -0.0250402         142.126
0.626                    -9.0919         170.327         -38.4157        -169.615         -38.4154        -169.615       -0.0253815         142.043
0.627                   -9.18119          173.07         -38.3335        -172.326         -38.3332        -172.326       -0.0257257          141.96
0.628                   -9.19751          175.81         -38.2614        -175.015         -38.2611        -175.015       -0.0260727         141.877
0.629                   -9.14382         178.446         -38.1991        -177.678         -38.1988        -177.678       -0.0264223         141.793
