! TOUCHSTONE file generated by CST MICROWAVE STUDIO
! Date and time: Mon Nov 30 08:36:05 2020
! Project name: Scenario_1_Planar_Body_Tissue_Out_of_Line.cst
! Parameters = {dy1=-86.5; L_HA=400; Ltissue=700; MT=2.54; Rad_Dielectric=30; Rad_Lower=7.3; Rad_Upper=30; Wtissue=700; a_HA=580; a_WG=246; b_HA=500; b_WG=121; c_HA=0; c_WG=187; d_feed=85; dx1=866; h_feed=15; h_lower=18; h_upper=40; hfat=3; hgap=25; hmuscle=50; hskin=1.5}
! Header version: 2018
! Port assignment regex: !\s*Touchstone port\s*([0-9]+)\s*=\s*(CST MWS port|CST DS port)\s*([0-9]+|Zmin|Zmax)\s*\(\"(.*)\"\)(\s*mode\s*([0-9]+))?.*
! Touchstone port assignment:
! Touchstone port 1 = CST MWS port 1 ("")
! Touchstone port 2 = CST MWS port 2 ("")
# GHz S DB R 50
0.5                     -0.10162         -122.14         -63.6668         105.885         -63.6664          105.89      -0.00747941         151.158
0.501                  -0.106736        -122.601          -63.408         104.254         -63.4076         104.259      -0.00754898         151.093
0.502                  -0.112254        -123.066         -63.1448         102.586         -63.1445          102.59      -0.00761947         151.027
0.503                  -0.118219        -123.535         -62.8773         100.878         -62.8771         100.882      -0.00769092         150.962
0.504                  -0.124684        -124.009         -62.6056         99.1273         -62.6055         99.1309      -0.00776337         150.896
0.505                  -0.131705        -124.486         -62.3297         97.3317         -62.3296          97.335      -0.00783687         150.831
0.506                  -0.139346        -124.969         -62.0497         95.4881         -62.0497         95.4912      -0.00791146         150.765
0.507                  -0.147676        -125.455         -61.7658         93.5936         -61.7658         93.5965       -0.0079872           150.7
0.508                  -0.156771        -125.946          -61.478         91.6448         -61.4781         91.6475      -0.00806415         150.634
0.509                  -0.166714         -126.44         -61.1868         89.6385         -61.1869         89.6409      -0.00814237         150.568
0.51                   -0.177594        -126.939         -60.8922         87.5709         -60.8923         87.5731      -0.00822193         150.502
0.511                  -0.189506        -127.441         -60.5946         85.4384         -60.5948         85.4405      -0.00830289         150.436
0.512                  -0.202549        -127.946         -60.2944         83.2373         -60.2946         83.2391      -0.00838535          150.37
0.513                  -0.216827        -128.453         -59.9922         80.9635         -59.9924         80.9652      -0.00846938         150.304
0.514                  -0.232444        -128.962         -59.6884         78.6132         -59.6886         78.6146      -0.00855507         150.238
0.515                    -0.2495        -129.473         -59.3838         76.1823         -59.3839         76.1836      -0.00864249         150.171
0.516                  -0.268088        -129.983          -59.079         73.6671         -59.0791         73.6682      -0.00873174         150.105
0.517                  -0.288286        -130.491          -58.775          71.064         -58.7751         71.0649      -0.00882288         150.038
0.518                  -0.310149        -130.997         -58.4728         68.3696         -58.4729         68.3703      -0.00891599         149.972
0.519                    -0.3337        -131.498         -58.1735         65.5812         -58.1736         65.5817       -0.0090111         149.905
0.52                   -0.358917        -131.992         -57.8784         62.6966         -57.8784         62.6968      -0.00910824         149.838
0.521                  -0.385724        -132.478         -57.5889         59.7143         -57.5889         59.7143      -0.00920741         149.772
0.522                  -0.413973        -132.953         -57.3065         56.6342         -57.3065         56.6339      -0.00930856         149.705
0.523                  -0.443439        -133.415         -57.0329         53.4572         -57.0327         53.4566      -0.00941157         149.638
0.524                  -0.473809        -133.862         -56.7696         50.1858         -56.7694         50.1849       -0.0095163         149.571
0.525                  -0.504685        -134.292         -56.5184          46.824         -56.5182         46.8227      -0.00962252         149.504
0.526                  -0.535584        -134.704         -56.2811         43.3777         -56.2809         43.3761      -0.00972994         149.436
0.527                  -0.565964        -135.098         -56.0594         39.8549         -56.0591          39.853      -0.00983822         149.369
0.528                   -0.59524        -135.473         -55.8546         36.2652         -55.8544         36.2629      -0.00994696         149.302
0.529                  -0.622826        -135.832         -55.6683         32.6203          -55.668         32.6176       -0.0100557         149.234
0.53                   -0.648173        -136.175         -55.5016         28.9333         -55.5013         28.9303       -0.0101641         149.167
0.531                  -0.670805        -136.506         -55.3552         25.2188         -55.3549         25.2155       -0.0102716         149.099
0.532                   -0.69036        -136.828         -55.2296         21.4923         -55.2293         21.4888       -0.0103779         149.032
0.533                  -0.706606        -137.146          -55.125         17.7697         -55.1247         17.7659       -0.0104827         148.964
0.534                  -0.719457        -137.464          -55.041         14.0668         -55.0407         14.0629       -0.0105859         148.896
0.535                  -0.728968        -137.785         -54.9771          10.399         -54.9768         10.3949       -0.0106872         148.828
0.536                  -0.735313        -138.113         -54.9322         6.78055          -54.932         6.77636       -0.0107867          148.76
0.537                  -0.738767        -138.452         -54.9052         3.22421          -54.905            3.22       -0.0108846         148.692
0.538                  -0.739673        -138.804         -54.8945       -0.258809         -54.8943       -0.262983        -0.010981         148.624
0.539                  -0.738414        -139.171         -54.8984        -3.65926         -54.8983        -3.66334       -0.0110761         148.555
0.54                   -0.735385        -139.555         -54.9152        -6.96981         -54.9151        -6.97374       -0.0111702         148.487
0.541                  -0.730972        -139.956         -54.9431        -10.1851          -54.943        -10.1888       -0.0112636         148.418
0.542                   -0.72554        -140.374         -54.9802        -13.3014         -54.9802        -13.3049       -0.0113567          148.35
0.543                  -0.719416         -140.81         -55.0248         -16.317         -55.0248        -16.3203       -0.0114496         148.281
0.544                  -0.712893        -141.263         -55.0753        -19.2313         -55.0753        -19.2343       -0.0115427         148.212
0.545                  -0.706221        -141.733         -55.1299        -22.0452         -55.1299        -22.0478       -0.0116361         148.143
0.546                  -0.699611        -142.219         -55.1873        -24.7603         -55.1874        -24.7626       -0.0117302         148.074
0.547                   -0.69324         -142.72         -55.2462        -27.3794         -55.2462        -27.3813        -0.011825         148.005
0.548                  -0.687252        -143.236         -55.3052        -29.9057         -55.3053        -29.9072       -0.0119208         147.935
0.549                  -0.681763        -143.765         -55.3635        -32.3429         -55.3635        -32.3441       -0.0120176         147.866
0.55                   -0.676867        -144.308         -55.4199        -34.6952         -55.4199         -34.696       -0.0121155         147.796
0.551                  -0.672639        -144.864         -55.4737        -36.9667         -55.4737        -36.9671       -0.0122147         147.726
0.552                  -0.669136        -145.431         -55.5241        -39.1619         -55.5241         -39.162       -0.0123153         147.657
0.553                  -0.666407         -146.01         -55.5706        -41.2852         -55.5705        -41.2849       -0.0124171         147.587
0.554                  -0.664488          -146.6         -55.6125        -43.3409         -55.6124        -43.3404       -0.0125204         147.517
0.555                  -0.663412          -147.2         -55.6494        -45.3336         -55.6493        -45.3327       -0.0126251         147.446
0.556                  -0.663204        -147.811         -55.6808        -47.2673         -55.6808        -47.2662       -0.0127313         147.376
0.557                  -0.663886        -148.432         -55.7066        -49.1462         -55.7065        -49.1448        -0.012839         147.306
0.558                  -0.665482        -149.063         -55.7263        -50.9744         -55.7262        -50.9727       -0.0129482         147.235
0.559                  -0.668011        -149.704         -55.7397        -52.7555         -55.7396        -52.7537       -0.0130589         147.164
0.56                   -0.671496        -150.354         -55.7467        -54.4935         -55.7465        -54.4914       -0.0131712         147.093
0.561                  -0.675959        -151.014          -55.747        -56.1918         -55.7469        -56.1895        -0.013285         147.022
0.562                  -0.681424        -151.683         -55.7406        -57.8538         -55.7404        -57.8514       -0.0134003         146.951
0.563                   -0.68792        -152.361         -55.7273        -59.4829         -55.7271        -59.4803       -0.0135172          146.88
0.564                  -0.695476        -153.049          -55.707        -61.0821         -55.7068        -61.0795       -0.0136358         146.809
0.565                  -0.704127        -153.747         -55.6797        -62.6547         -55.6794         -62.652       -0.0137559         146.737
0.566                  -0.713911        -154.453         -55.6453        -64.2035          -55.645        -64.2007       -0.0138776         146.665
0.567                  -0.724871        -155.169         -55.6038        -65.7313         -55.6035        -65.7285        -0.014001         146.594
0.568                  -0.737055        -155.895         -55.5552        -67.2409         -55.5548        -67.2381        -0.014126         146.522
0.569                  -0.750514        -156.631         -55.4994         -68.735          -55.499        -68.7322       -0.0142526          146.45
0.57                   -0.765308        -157.376         -55.4364        -70.2163         -55.4361        -70.2134       -0.0143809         146.378
0.571                  -0.781502        -158.131         -55.3664        -71.6871          -55.366        -71.6843        -0.014511         146.305
0.572                  -0.799166        -158.896         -55.2892        -73.1501         -55.2889        -73.1473       -0.0146427         146.233
0.573                  -0.818378        -159.672          -55.205        -74.6076         -55.2046        -74.6049       -0.0147762          146.16
0.574                  -0.839226        -160.457         -55.1137        -76.0621         -55.1133        -76.0595       -0.0149115         146.087
0.575                  -0.861802        -161.253         -55.0154        -77.5159          -55.015        -77.5134       -0.0150486         146.014
0.576                  -0.886208        -162.059         -54.9102        -78.9714         -54.9098         -78.969       -0.0151875         145.941
0.577                  -0.912558        -162.875         -54.7981        -80.4308         -54.7977        -80.4285       -0.0153283         145.868
0.578                  -0.940972        -163.702         -54.6792        -81.8966         -54.6788        -81.8944        -0.015471         145.795
0.579                  -0.971582        -164.539         -54.5536         -83.371         -54.5532        -83.3689       -0.0156156         145.721
0.58                    -1.00453        -165.386         -54.4213        -84.8562         -54.4209        -84.8543       -0.0157623         145.648
0.581                   -1.03998        -166.244         -54.2825        -86.3547         -54.2822        -86.3529       -0.0159109         145.574
0.582                   -1.07808        -167.112         -54.1372        -87.8686         -54.1369         -87.867       -0.0160617           145.5
0.583                   -1.11903         -167.99         -53.9857        -89.4004         -53.9854        -89.3988       -0.0162146         145.426
0.584                   -1.16301        -168.878          -53.828        -90.9522         -53.8277        -90.9508       -0.0163697         145.351
0.585                   -1.21024        -169.774         -53.6643        -92.5265         -53.6641        -92.5252        -0.016527         145.277
0.586                   -1.26093         -170.68         -53.4948        -94.1256         -53.4945        -94.1244       -0.0166867         145.202
0.587                   -1.31533        -171.593         -53.3195        -95.7517         -53.3193        -95.7507       -0.0168488         145.127
0.588                   -1.37368        -172.514         -53.1389        -97.4074         -53.1387        -97.4064       -0.0170133         145.052
0.589                   -1.43625        -173.441          -52.953        -99.0948         -52.9528         -99.094       -0.0171804         144.977
0.59                    -1.50333        -174.373         -52.7621        -100.816          -52.762        -100.816         -0.01735         144.902
0.591                   -1.57519        -175.309         -52.5665        -102.575         -52.5664        -102.574       -0.0175224         144.827
0.592                   -1.65215        -176.247         -52.3665        -104.371         -52.3664        -104.371       -0.0176975         144.751
0.593                   -1.73452        -177.184         -52.1624        -106.209         -52.1623        -106.209       -0.0178755         144.675
0.594                   -1.82259        -178.119         -51.9545        -108.091         -51.9545         -108.09       -0.0180565         144.599
0.595                   -1.91669        -179.048         -51.7433        -110.017         -51.7434        -110.017       -0.0182405         144.523
0.596                   -2.01711        -179.969         -51.5292        -111.992         -51.5293        -111.991       -0.0184277         144.446
0.597                   -2.12413         179.123         -51.3127        -114.015         -51.3128        -114.015       -0.0186181          144.37
0.598                   -2.23799         178.232         -51.0942         -116.09         -51.0943         -116.09       -0.0188119         144.293
0.599                   -2.35891         177.362         -50.8742        -118.218         -50.8743        -118.218       -0.0190091         144.216
0.6                     -2.48701          176.52         -50.6534          -120.4         -50.6535          -120.4       -0.0192098         144.139
0.601                   -2.62237         175.711         -50.4323        -122.638         -50.4325        -122.637       -0.0194141         144.062
0.602                   -2.76492         174.943         -50.2116        -124.932         -50.2118        -124.931       -0.0196221         143.984
0.603                   -2.91448         174.223          -49.992        -127.283         -49.9922        -127.282       -0.0198339         143.906
0.604                   -3.07069         173.558         -49.7741        -129.691         -49.7743         -129.69       -0.0200496         143.828
0.605                     -3.233         172.958         -49.5587        -132.155         -49.5589        -132.154       -0.0202691          143.75
0.606                   -3.40061         172.431         -49.3466        -134.676         -49.3468        -134.675       -0.0204926         143.672
0.607                   -3.57245         171.986         -49.1384        -137.251         -49.1386         -137.25       -0.0207201         143.593
0.608                   -3.74717          171.63         -48.9349        -139.878         -48.9351        -139.877       -0.0209516         143.515
0.609                   -3.92309         171.372         -48.7369        -142.557          -48.737        -142.555       -0.0211871         143.436
0.61                    -4.09819         171.217          -48.545        -145.282         -48.5452        -145.281       -0.0214266         143.356
0.611                   -4.27017          171.17         -48.3599        -148.051         -48.3601         -148.05       -0.0216701         143.277
0.612                   -4.43645         171.233         -48.1823         -150.86         -48.1824        -150.859       -0.0219176         143.198
0.613                   -4.59424         171.403         -48.0127        -153.705         -48.0127        -153.703        -0.022169         143.118
0.614                   -4.74069         171.676         -47.8514        -156.579         -47.8515        -156.578       -0.0224242         143.038
0.615                   -4.87298         172.042          -47.699        -159.478         -47.6991        -159.477       -0.0226832         142.958
0.616                   -4.98851         172.488         -47.5557        -162.397         -47.5557        -162.395        -0.022946         142.877
0.617                   -5.08504         172.998         -47.4217        -165.328         -47.4217        -165.327       -0.0232124         142.796
0.618                   -5.16087          173.55          -47.297        -168.267          -47.297        -168.265       -0.0234823         142.716
0.619                   -5.21495         174.123         -47.1816        -171.206         -47.1815        -171.205       -0.0237557         142.634
0.62                    -5.24694         174.692         -47.0754        -174.142         -47.0752        -174.141       -0.0240325         142.553
0.621                   -5.25726         175.235          -46.978        -177.067         -46.9778        -177.066       -0.0243127         142.471
0.622                     -5.247          175.73         -46.8891        -179.976          -46.889        -179.976       -0.0245961          142.39
0.623                   -5.21783         176.158         -46.8084         177.134         -46.8082         177.135       -0.0248827         142.308
0.624                   -5.17188         176.502         -46.7352         174.269          -46.735          174.27       -0.0251725         142.225
0.625                   -5.11155          176.75         -46.6691         171.433         -46.6689         171.433       -0.0254655         142.143
0.626                   -5.03939         176.894         -46.6094         168.628         -46.6092         168.628       -0.0257616          142.06
0.627                   -4.95794         176.929         -46.5554         165.858         -46.5552         165.858       -0.0260609         141.977
0.628                   -4.86964         176.851         -46.5066         163.124         -46.5064         163.124       -0.0263634         141.893
0.629                   -4.77676         176.662         -46.4622         160.429          -46.462         160.428       -0.0266692          141.81
