! TOUCHSTONE file generated by CST MICROWAVE STUDIO
! Date and time: Tue Nov 17 07:12:54 2020
! Project name: Scenario_1_Planar_Body_Tissue_Out_of_Line.cst
! Header version: 2018
! Port assignment regex: !\s*Touchstone port\s*([0-9]+)\s*=\s*(CST MWS port|CST DS port)\s*([0-9]+|Zmin|Zmax)\s*\(\"(.*)\"\)(\s*mode\s*([0-9]+))?.*
! Touchstone port assignment:
! Touchstone port 1 = CST MWS port 1 ("")
! Touchstone port 2 = CST MWS port 2 ("")
# GHz S DB R 50
0.5                    -0.159928        -121.584         -63.6308        -17.2582         -63.6302        -17.2571      -0.00759699         151.161
0.501                    -0.1576        -122.084         -63.5502        -18.6164         -63.5501        -18.6081      -0.00765396         151.095
0.502                  -0.155702        -122.586         -63.4669        -19.9913         -63.4675        -19.9759      -0.00771199          151.03
0.503                  -0.154244        -123.091         -63.3811        -21.3833         -63.3822         -21.361      -0.00777107         150.965
0.504                  -0.153236        -123.598         -63.2924        -22.7927         -63.2942        -22.7636      -0.00783121         150.899
0.505                  -0.152689        -124.108          -63.201        -24.2197         -63.2033         -24.184      -0.00789241         150.834
0.506                  -0.152614        -124.621         -63.1066        -25.6647         -63.1095        -25.6226      -0.00795468         150.768
0.507                  -0.153022        -125.136         -63.0093         -27.128         -63.0127        -27.0796      -0.00801803         150.702
0.508                  -0.153925        -125.654          -62.909        -28.6099         -62.9129        -28.5554      -0.00808245         150.637
0.509                  -0.155334        -126.174         -62.8055        -30.1108         -62.8099        -30.0503      -0.00814796         150.571
0.51                   -0.157262        -126.697         -62.6988        -31.6309         -62.7037        -31.5647      -0.00821457         150.505
0.511                  -0.159721        -127.222         -62.5888        -33.1708         -62.5942        -33.0991      -0.00828227         150.439
0.512                  -0.162724         -127.75         -62.4754        -34.7307         -62.4813        -34.6537      -0.00835107         150.373
0.513                  -0.166284         -128.28         -62.3586        -36.3111          -62.365         -36.229      -0.00842098         150.307
0.514                  -0.170414        -128.812         -62.2382        -37.9124          -62.245        -37.8254      -0.00849201          150.24
0.515                  -0.175129        -129.347         -62.1143        -39.5351         -62.1215        -39.4435      -0.00856416         150.174
0.516                  -0.180443        -129.885         -61.9867        -41.1796         -61.9942        -41.0836      -0.00863743         150.108
0.517                  -0.186369        -130.425         -61.8553        -42.8464         -61.8632        -42.7463      -0.00871184         150.041
0.518                  -0.192922        -130.966           -61.72        -44.5362         -61.7283        -44.4321      -0.00878739         149.975
0.519                  -0.200118        -131.511         -61.5809        -46.2494         -61.5894        -46.1417      -0.00886408         149.908
0.52                   -0.207971        -132.057         -61.4377        -47.9866         -61.4465        -47.8756      -0.00894193         149.841
0.521                  -0.216497        -132.605         -61.2906        -49.7485         -61.2996        -49.6344      -0.00902093         149.774
0.522                   -0.22571        -133.156         -61.1393        -51.5359         -61.1485         -51.419       -0.0091011         149.708
0.523                  -0.235628        -133.708         -60.9838        -53.3493         -60.9931        -53.2299      -0.00918245         149.641
0.524                  -0.246264        -134.262          -60.824        -55.1896         -60.8335        -55.0681      -0.00926497         149.573
0.525                  -0.257636        -134.818           -60.66        -57.0577         -60.6696        -56.9344      -0.00934868         149.506
0.526                  -0.269758        -135.376         -60.4917        -58.9545         -60.5013        -58.8296      -0.00943359         149.439
0.527                  -0.282646        -135.935         -60.3189        -60.8808         -60.3286        -60.7547       -0.0095197         149.372
0.528                  -0.296316        -136.495         -60.1418        -62.8378         -60.1514        -62.7109      -0.00960701         149.304
0.529                  -0.310782        -137.057         -59.9602        -64.8265         -59.9697        -64.6992      -0.00969554         149.237
0.53                   -0.326059        -137.619         -59.7742        -66.8482         -59.7836        -66.7207       -0.0097853         149.169
0.531                  -0.342161        -138.183         -59.5837         -68.904         -59.5929        -68.7769      -0.00987629         149.101
0.532                  -0.359101        -138.748         -59.3889        -70.9954         -59.3978         -70.869      -0.00996852         149.034
0.533                  -0.376892        -139.313         -59.1896        -73.1238         -59.1983        -72.9984        -0.010062         148.966
0.534                  -0.395546        -139.878         -58.9859        -75.2906         -58.9944        -75.1669       -0.0101567         148.898
0.535                  -0.415072        -140.444          -58.778        -77.4976         -58.7861        -77.3759       -0.0102527         148.829
0.536                   -0.43548         -141.01         -58.5659        -79.7464         -58.5736        -79.6272         -0.01035         148.761
0.537                  -0.456777        -141.575         -58.3496        -82.0389         -58.3569        -81.9226       -0.0104485         148.693
0.538                  -0.478967         -142.14         -58.1295        -84.3769         -58.1363        -84.2642       -0.0105484         148.625
0.539                  -0.502055        -142.704         -57.9055        -86.7625         -57.9118        -86.6539       -0.0106495         148.556
0.54                    -0.52604        -143.267          -57.678        -89.1978         -57.6838        -89.0937        -0.010752         148.487
0.541                   -0.55092        -143.828         -57.4472        -91.6849         -57.4524         -91.586       -0.0108557         148.419
0.542                   -0.57669        -144.388         -57.2133         -94.226          -57.218        -94.1329       -0.0109608          148.35
0.543                  -0.603341        -144.946         -56.9768        -96.8235         -56.9809        -96.7367       -0.0110672         148.281
0.544                  -0.630858        -145.501          -56.738        -99.4794         -56.7415        -99.3996        -0.011175         148.212
0.545                  -0.659225        -146.054         -56.4973        -102.196         -56.5002        -102.124       -0.0112841         148.143
0.546                  -0.688418        -146.604         -56.2553        -104.976         -56.2577        -104.912       -0.0113946         148.074
0.547                   -0.71841         -147.15         -56.0126        -107.821         -56.0144        -107.766       -0.0115064         148.004
0.548                  -0.749167        -147.692         -55.7697        -110.733          -55.771        -110.687       -0.0116196         147.935
0.549                  -0.780648         -148.23         -55.5275        -113.713         -55.5283        -113.678       -0.0117342         147.865
0.55                   -0.812807        -148.764         -55.2866        -116.764         -55.2871         -116.74       -0.0118502         147.796
0.551                   -0.84559        -149.292         -55.0481        -119.886         -55.0482        -119.873       -0.0119676         147.726
0.552                  -0.878934        -149.816         -54.8127        -123.079         -54.8126        -123.078       -0.0120864         147.656
0.553                  -0.912769        -150.333         -54.5816        -126.344         -54.5814        -126.355       -0.0122067         147.586
0.554                  -0.947019        -150.845         -54.3557        -129.679         -54.3555        -129.703       -0.0123284         147.516
0.555                  -0.981595         -151.35         -54.1362        -133.084         -54.1362         -133.12       -0.0124515         147.446
0.556                    -1.0164        -151.849         -53.9243        -136.555         -53.9245        -136.604        -0.012576         147.375
0.557                   -1.05134        -152.341         -53.7209        -140.089         -53.7216        -140.151       -0.0127021         147.305
0.558                   -1.08629        -152.826         -53.5273        -143.682         -53.5286        -143.757       -0.0128296         147.234
0.559                   -1.12114        -153.304         -53.3446        -147.328         -53.3466        -147.415       -0.0129585         147.163
0.56                    -1.15575        -153.775         -53.1737         -151.02         -53.1766        -151.119        -0.013089         147.092
0.561                      -1.19        -154.239         -53.0155        -154.751         -53.0195        -154.861       -0.0132209         147.022
0.562                   -1.22374        -154.696         -52.8708        -158.513         -52.8761        -158.632       -0.0133544          146.95
0.563                   -1.25683        -155.147         -52.7402        -162.295         -52.7468        -162.424       -0.0134893         146.879
0.564                   -1.28911        -155.591         -52.6241        -166.089         -52.6322        -166.225       -0.0136258         146.808
0.565                   -1.32045        -156.029         -52.5228        -169.884         -52.5324        -170.026       -0.0137638         146.736
0.566                   -1.35069        -156.462         -52.4361         -173.67         -52.4473        -173.817       -0.0139033         146.665
0.567                   -1.37968         -156.89          -52.364        -177.436         -52.3768        -177.586       -0.0140443         146.593
0.568                   -1.40728        -157.315          -52.306         178.828         -52.3204         178.676       -0.0141869         146.521
0.569                   -1.43337        -157.737         -52.2614          175.13         -52.2774         174.978       -0.0143311         146.449
0.57                    -1.45781        -158.157         -52.2297         171.479         -52.2471         171.328       -0.0144767         146.377
0.571                    -1.4805        -158.576         -52.2097         167.883         -52.2285         167.734       -0.0146239         146.305
0.572                   -1.50134        -158.996         -52.2006         164.348         -52.2207         164.203       -0.0147727         146.232
0.573                   -1.52025        -159.418         -52.2012         160.879         -52.2224         160.739        -0.014923          146.16
0.574                   -1.53719        -159.844         -52.2104         157.481         -52.2326         157.347       -0.0150749         146.087
0.575                    -1.5521        -160.275          -52.227         154.158           -52.25          154.03       -0.0152283         146.014
0.576                   -1.56499        -160.713         -52.2499         150.911         -52.2736          150.79       -0.0153833         145.941
0.577                   -1.57586         -161.16         -52.2778         147.741         -52.3021         147.628       -0.0155398         145.868
0.578                   -1.58476        -161.616         -52.3098          144.65         -52.3344         144.545       -0.0156978         145.795
0.579                   -1.59175        -162.085         -52.3448         141.636         -52.3696         141.539       -0.0158574         145.721
0.58                    -1.59692        -162.567         -52.3817         138.699         -52.4065          138.61       -0.0160185         145.648
0.581                   -1.60039        -163.064         -52.4197         135.837         -52.4444         135.756       -0.0161811         145.574
0.582                    -1.6023        -163.578         -52.4579         133.047         -52.4824         132.975       -0.0163452           145.5
0.583                   -1.60283         -164.11         -52.4955         130.329         -52.5197         130.264       -0.0165108         145.426
0.584                   -1.60214        -164.662         -52.5319         127.679         -52.5557         127.622       -0.0166779         145.352
0.585                   -1.60046        -165.235         -52.5664         125.094         -52.5896         125.044       -0.0168465         145.278
0.586                     -1.598         -165.83         -52.5984         122.571          -52.621         122.528       -0.0170165         145.203
0.587                   -1.59501        -166.448         -52.6274         120.107         -52.6493         120.071       -0.0171879         145.129
0.588                   -1.59173         -167.09         -52.6531         117.698         -52.6741         117.669       -0.0173608         145.054
0.589                   -1.58842        -167.757         -52.6748         115.342         -52.6951         115.319       -0.0175351         144.979
0.59                    -1.58537         -168.45         -52.6924         113.036         -52.7118         113.017       -0.0177109         144.904
0.591                   -1.58285         -169.17         -52.7056         110.775          -52.724         110.761        -0.017888         144.828
0.592                   -1.58114        -169.915         -52.7139         108.557         -52.7314         108.548       -0.0180665         144.753
0.593                   -1.58054        -170.688         -52.7173         106.378         -52.7338         106.373       -0.0182465         144.677
0.594                   -1.58133        -171.488         -52.7156         104.236          -52.731         104.235       -0.0184279         144.601
0.595                   -1.58381        -172.316         -52.7084         102.127         -52.7229         102.128       -0.0186107         144.525
0.596                   -1.58828         -173.17         -52.6959         100.048         -52.7093         100.052       -0.0187949         144.449
0.597                   -1.59504        -174.052         -52.6777         97.9954         -52.6901          98.002       -0.0189807         144.373
0.598                   -1.60439         -174.96         -52.6538         95.9671         -52.6653         95.9757        -0.019168         144.296
0.599                   -1.61663        -175.896         -52.6243         93.9599         -52.6347           93.97       -0.0193569         144.219
0.6                     -1.63208        -176.857         -52.5889         91.9709         -52.5984         91.9821       -0.0195475         144.142
0.601                   -1.65104        -177.845         -52.5478         89.9971         -52.5563          90.009       -0.0197398         144.065
0.602                   -1.67383        -178.857         -52.5008         88.0357         -52.5085         88.0481       -0.0199341         143.988
0.603                   -1.70079        -179.894         -52.4481          86.084         -52.4549         86.0965       -0.0201303          143.91
0.604                   -1.73223         179.045         -52.3896         84.1392         -52.3956         84.1514       -0.0203286         143.832
0.605                    -1.7685         177.961         -52.3255         82.1985         -52.3306         82.2103       -0.0205293         143.754
0.606                   -1.80995         176.855         -52.2557         80.2593         -52.2601         80.2704       -0.0207324         143.676
0.607                   -1.85694         175.729         -52.1805         78.3189         -52.1842         78.3292       -0.0209381         143.598
0.608                   -1.90984         174.583         -52.0998         76.3748         -52.1029         76.3839       -0.0211467         143.519
0.609                   -1.96904         173.419         -52.0139         74.4244         -52.0164         74.4322       -0.0213583          143.44
0.61                    -2.03493         172.239         -51.9229         72.4651         -51.9249         72.4716       -0.0215731         143.361
0.611                   -2.10793         171.044         -51.8271         70.4945         -51.8285         70.4996       -0.0217913         143.282
0.612                   -2.18846         169.838         -51.7265         68.5103         -51.7275         68.5138       -0.0220131         143.202
0.613                   -2.27694         168.622         -51.6215         66.5102         -51.6221         66.5121       -0.0222387         143.122
0.614                   -2.37382           167.4         -51.5123         64.4919         -51.5126         64.4922       -0.0224683         143.042
0.615                   -2.47956         166.175         -51.3992         62.4533         -51.3992          62.452       -0.0227019         142.962
0.616                   -2.59458          164.95         -51.2825         60.3924         -51.2823         60.3896       -0.0229399         142.882
0.617                   -2.71933          163.73         -51.1625         58.3074         -51.1621         58.3032       -0.0231822         142.801
0.618                   -2.85425          162.52         -51.0396         56.1966          -51.039         56.1911        -0.023429          142.72
0.619                   -2.99972         161.326         -50.9142         54.0585         -50.9135         54.0518       -0.0236805         142.639
0.62                    -3.15611         160.153         -50.7866         51.8918         -50.7859          51.884       -0.0239365         142.558
0.621                   -3.32374         159.008         -50.6574         49.6954         -50.6566         49.6867       -0.0241973         142.476
0.622                   -3.50284         157.901         -50.5269         47.4685         -50.5261          47.459       -0.0244628         142.394
0.623                   -3.69355         156.838         -50.3955         45.2104         -50.3948         45.2004       -0.0247332         142.312
0.624                   -3.89588          155.83         -50.2639         42.9209         -50.2632         42.9105       -0.0250083         142.229
0.625                    -4.1097         154.887         -50.1324            40.6         -50.1318         40.5895       -0.0252882         142.147
0.626                   -4.33466         154.021         -50.0015          38.248          -50.001         38.2375        -0.025573         142.064
0.627                   -4.57017         153.243         -49.8718         35.8656         -49.8713         35.8554       -0.0258626         141.981
0.628                   -4.81537         152.566         -49.7436         33.4539         -49.7432         33.4441        -0.026157         141.897
0.629                   -5.06905         152.003         -49.6174         31.0141         -49.6171         31.0049       -0.0264563         141.814
0.63                     -5.3296         151.568         -49.4937          28.548         -49.4935         28.5395       -0.0267604          141.73
0.631                   -5.59497         151.272         -49.3729         26.0574         -49.3727         26.0498       -0.0270693         141.645
