! TOUCHSTONE file generated by CST MICROWAVE STUDIO
! Date and time: Sat Nov 14 20:36:44 2020
! Project name: Scenario_1_Planar_Body_Tissue_Out_of_Line_v2.cst
! Parameters = {dy1=69.2; L_HA=400; Ltissue=700; MT=2.54; Rad_Dielectric=30; Rad_Lower=7.3; Rad_Upper=30; Wtissue=700; a_HA=580; a_WG=246; b_HA=500; b_WG=121; c_HA=0; c_WG=187; d_feed=85; dx1=173; h_feed=15; h_lower=18; h_upper=40; hfat=3; hgap=25; hmuscle=50; hskin=1.5}
! Header version: 2018
! Port assignment regex: !\s*Touchstone port\s*([0-9]+)\s*=\s*(CST MWS port|CST DS port)\s*([0-9]+|Zmin|Zmax)\s*\(\"(.*)\"\)(\s*mode\s*([0-9]+))?.*
! Touchstone port assignment:
! Touchstone port 1 = CST MWS port 1 ("")
! Touchstone port 2 = CST MWS port 2 ("")
# GHz S DB R 50
0.5                   -0.0439004        -121.759         -57.4817         130.984          -57.481         130.986      -0.00709573         151.143
0.501                 -0.0452739        -122.215         -57.3135         130.347         -57.3128         130.348      -0.00711449         151.078
0.502                 -0.0467209        -122.673          -57.143         129.708         -57.1423         129.709      -0.00713462         151.013
0.503                 -0.0482446        -123.135         -56.9702         129.066         -56.9695         129.068      -0.00715613         150.947
0.504                 -0.0498485          -123.6         -56.7951         128.423         -56.7944         128.424      -0.00717905         150.882
0.505                 -0.0515364        -124.069         -56.6175         127.776         -56.6169         127.778      -0.00720339         150.816
0.506                 -0.0533126        -124.541         -56.4375         127.128         -56.4369         127.129      -0.00722917          150.75
0.507                 -0.0551815        -125.017          -56.255         126.476         -56.2545         126.478      -0.00725641         150.684
0.508                  -0.057148        -125.497           -56.07         125.822         -56.0695         125.823      -0.00728513         150.618
0.509                 -0.0592172         -125.98         -55.8824         125.164         -55.8819         125.166      -0.00731536         150.552
0.51                   -0.061395        -126.468         -55.6922         124.503         -55.6917         124.505      -0.00734711         150.486
0.511                 -0.0636875        -126.959         -55.4992         123.839         -55.4988         123.841      -0.00738041          150.42
0.512                 -0.0661014        -127.455         -55.3036         123.171         -55.3031         123.173      -0.00741529         150.354
0.513                 -0.0686441        -127.955         -55.1051           122.5         -55.1047         122.501      -0.00745177         150.288
0.514                 -0.0713234         -128.46         -54.9038         121.824         -54.9034         121.825      -0.00748987         150.221
0.515                 -0.0741481         -128.97         -54.6996         121.144         -54.6992         121.145      -0.00752963         150.155
0.516                 -0.0771275        -129.484         -54.4924         120.459          -54.492          120.46      -0.00757106         150.088
0.517                  -0.080272        -130.003         -54.2821         119.769         -54.2818         119.771      -0.00761422         150.021
0.518                 -0.0835927        -130.528         -54.0688         119.074         -54.0685         119.076      -0.00765911         149.954
0.519                  -0.087102        -131.057         -53.8522         118.373          -53.852         118.375      -0.00770579         149.888
0.52                  -0.0908132        -131.593         -53.6324         117.667         -53.6322         117.668      -0.00775428         149.821
0.521                 -0.0947411        -132.134         -53.4093         116.954         -53.4091         116.956      -0.00780463         149.753
0.522                 -0.0989018        -132.681         -53.1827         116.234         -53.1825         116.236      -0.00785686         149.686
0.523                  -0.103313        -133.234         -52.9527         115.507         -52.9525         115.509      -0.00791104         149.619
0.524                  -0.107994        -133.794          -52.719         114.773         -52.7189         114.774       -0.0079672         149.552
0.525                  -0.112967         -134.36         -52.4817          114.03         -52.4815         114.031      -0.00802539         149.484
0.526                  -0.118254        -134.933         -52.2406         113.278         -52.2404          113.28      -0.00808567         149.416
0.527                  -0.123883        -135.514         -51.9956         112.517         -51.9955         112.519      -0.00814809         149.349
0.528                  -0.129882        -136.102         -51.7466         111.746         -51.7465         111.747      -0.00821271         149.281
0.529                  -0.136283        -136.699         -51.4936         110.964         -51.4934         110.965       -0.0082796         149.213
0.53                   -0.143121        -137.303         -51.2363          110.17         -51.2362         110.172      -0.00834883         149.145
0.531                  -0.150435        -137.916         -50.9747         109.364         -50.9746         109.366      -0.00842047         149.077
0.532                   -0.15827        -138.538         -50.7086         108.545         -50.7086         108.547      -0.00849461         149.009
0.533                  -0.166675         -139.17          -50.438         107.712         -50.4379         107.713      -0.00857135          148.94
0.534                  -0.175703        -139.811         -50.1627         106.863         -50.1626         106.865      -0.00865077         148.872
0.535                  -0.185416        -140.464         -49.8825         105.998         -49.8824         105.999      -0.00873299         148.803
0.536                  -0.195882        -141.127         -49.5973         105.115         -49.5973         105.116      -0.00881813         148.735
0.537                  -0.207178        -141.801          -49.307         104.213          -49.307         104.214      -0.00890631         148.666
0.538                  -0.219391        -142.488         -49.0114          103.29         -49.0113         103.292      -0.00899769         148.597
0.539                  -0.232617        -143.187         -48.7103         102.346         -48.7102         102.347      -0.00909241         148.528
0.54                   -0.246968          -143.9         -48.4036         101.377         -48.4035         101.379      -0.00919065         148.459
0.541                  -0.262567        -144.627          -48.091         100.383          -48.091         100.384       -0.0092926         148.389
0.542                  -0.279556         -145.37         -47.7725         99.3601         -47.7725         99.3617      -0.00939848          148.32
0.543                  -0.298098        -146.128         -47.4479         98.3074         -47.4479          98.309      -0.00950852         148.251
0.544                  -0.318375        -146.903         -47.1169         97.2219         -47.1169         97.2235      -0.00962299         148.181
0.545                  -0.340598        -147.695         -46.7794         96.1008         -46.7793         96.1023      -0.00974218         148.111
0.546                  -0.365008        -148.507         -46.4351          94.941         -46.4351         94.9425      -0.00986641         148.041
0.547                  -0.391882        -149.338          -46.084          93.739          -46.084         93.7405      -0.00999604         147.971
0.548                  -0.421538         -150.19         -45.7259         92.4913         -45.7259         92.4927       -0.0101315         147.901
0.549                  -0.454346        -151.064         -45.3605         91.1935         -45.3605          91.195       -0.0102732         147.831
0.55                   -0.490729        -151.962         -44.9877         89.8412         -44.9877         89.8426       -0.0104217          147.76
0.551                  -0.531184        -152.884         -44.6075         88.4292         -44.6075         88.4306       -0.0105775          147.69
0.552                  -0.576283        -153.832         -44.2196         86.9519         -44.2196         86.9533       -0.0107412         147.619
0.553                  -0.626695        -154.806         -43.8241         85.4033         -43.8241         85.4046       -0.0109136         147.548
0.554                  -0.683199        -155.808          -43.421         83.7763          -43.421         83.7776       -0.0110955         147.477
0.555                  -0.746705        -156.839         -43.0102         82.0634         -43.0102         82.0646       -0.0112876         147.406
0.556                  -0.818277        -157.898         -42.5921         80.2563         -42.5921         80.2575        -0.011491         147.335
0.557                  -0.899156        -158.986         -42.1667         78.3458         -42.1667         78.3469       -0.0117066         147.263
0.558                  -0.990793        -160.101         -41.7347         76.3218         -41.7346         76.3229       -0.0119356         147.192
0.559                   -1.09488        -161.243         -41.2965         74.1734         -41.2964         74.1745       -0.0121792          147.12
0.56                    -1.21336        -162.406         -40.8529          71.889         -40.8529           71.89       -0.0124386         147.049
0.561                   -1.34851        -163.585         -40.4052         69.4558         -40.4052         69.4567       -0.0127151         146.977
0.562                   -1.50288        -164.771         -39.9547         66.8609         -39.9547         66.8617       -0.0130101         146.905
0.563                   -1.67936        -165.952         -39.5034         64.0906         -39.5034         64.0914       -0.0133248         146.833
0.564                   -1.88109        -167.108         -39.0536         61.1317         -39.0535         61.1324       -0.0136602          146.76
0.565                    -2.1114        -168.214         -38.6081         57.9714         -38.6081          57.972       -0.0140173         146.688
0.566                   -2.37355        -169.234         -38.1706         54.5987         -38.1706         54.5993       -0.0143964         146.616
0.567                   -2.67038         -170.12         -37.7452         51.0053         -37.7452         51.0057       -0.0147974         146.544
0.568                   -3.00364        -170.811         -37.3367         47.1867         -37.3367         47.1871       -0.0152194         146.471
0.569                   -3.37306        -171.229         -36.9505         43.1444         -36.9505         43.1448       -0.0156604         146.399
0.57                     -3.7749        -171.279         -36.5923         38.8868         -36.5923         38.8871       -0.0161172         146.327
0.571                   -4.20018        -170.857          -36.268         34.4311          -36.268         34.4313       -0.0165852         146.255
0.572                   -4.63262         -169.86         -35.9832         29.8036         -35.9832         29.8038       -0.0170584         146.183
0.573                   -5.04736        -168.212         -35.7429         25.0403         -35.7429         25.0406       -0.0175293         146.112
0.574                    -5.4116        -165.897         -35.5508         20.1855         -35.5508         20.1857       -0.0179894          146.04
0.575                   -5.68905        -162.994         -35.4091         15.2893         -35.4092         15.2895       -0.0184296         145.969
0.576                   -5.84854        -159.697         -35.3184         10.4046         -35.3184         10.4048       -0.0188409         145.897
0.577                   -5.87397        -156.285         -35.2771         5.58319         -35.2771         5.58345       -0.0192153         145.826
0.578                   -5.76998        -153.058         -35.2821        0.872376         -35.2821        0.872667       -0.0195462         145.755
0.579                   -5.55943        -150.256         -35.3291        -3.68795         -35.3291        -3.68763       -0.0198298         145.684
0.58                    -5.27468        -148.016         -35.4125        -8.06695         -35.4126        -8.06662       -0.0200647         145.612
0.581                   -4.94826        -146.373         -35.5267        -12.2434         -35.5268         -12.243       -0.0202521         145.541
0.582                    -4.6069        -145.292         -35.6658        -16.2049         -35.6659        -16.2046       -0.0203956         145.469
0.583                   -4.26964        -144.698         -35.8243        -19.9474         -35.8243         -19.947       -0.0205006         145.397
0.584                   -3.94845        -144.505         -35.9969        -23.4726          -35.997        -23.4723       -0.0205737         145.324
0.585                   -3.64987         -144.63         -36.1794        -26.7875         -36.1794        -26.7872       -0.0206217         145.252
0.586                    -3.3767        -145.001         -36.3679        -29.9022         -36.3679        -29.9019       -0.0206516         145.178
0.587                   -3.12934        -145.559         -36.5591        -32.8286         -36.5591        -32.8284       -0.0206695         145.105
0.588                   -2.90685        -146.258         -36.7506        -35.5801         -36.7506        -35.5799       -0.0206812         145.031
0.589                   -2.70751        -147.061         -36.9403        -38.1703         -36.9403        -38.1702       -0.0206913         144.957
0.59                     -2.5293         -147.94         -37.1265        -40.6127         -37.1265        -40.6125       -0.0207036         144.882
0.591                   -2.37012        -148.873          -37.308          -42.92          -37.308        -42.9199       -0.0207212         144.807
0.592                   -2.22796        -149.846         -37.4838        -45.1046         -37.4838        -45.1046       -0.0207463         144.732
0.593                   -2.10093        -150.846         -37.6534        -47.1778         -37.6534        -47.1779       -0.0207806         144.657
0.594                   -1.98732        -151.865         -37.8162        -49.1502         -37.8162        -49.1503       -0.0208251         144.581
0.595                    -1.8856        -152.895         -37.9719        -51.0314         -37.9719        -51.0315       -0.0208806         144.505
0.596                   -1.79441        -153.934         -38.1204        -52.8301         -38.1204        -52.8303       -0.0209474         144.428
0.597                   -1.71257        -154.976         -38.2615        -54.5543         -38.2615        -54.5545       -0.0210259         144.352
0.598                   -1.63904         -156.02         -38.3954        -56.2112         -38.3954        -56.2115       -0.0211158         144.275
0.599                    -1.5729        -157.064          -38.522        -57.8073          -38.522        -57.8075       -0.0212172         144.198
0.6                     -1.51336        -158.108         -38.6415        -59.3483         -38.6415        -59.3486       -0.0213297         144.121
0.601                   -1.45972         -159.15          -38.754        -60.8396          -38.754        -60.8399        -0.021453         144.043
0.602                   -1.41138        -160.191         -38.8598        -62.2859         -38.8598        -62.2862       -0.0215869         143.966
0.603                   -1.36781        -161.231          -38.959        -63.6913          -38.959        -63.6916       -0.0217311         143.888
0.604                   -1.32854        -162.269         -39.0518        -65.0597         -39.0518          -65.06        -0.021885          143.81
0.605                   -1.29318        -163.306         -39.1385        -66.3945         -39.1385        -66.3948       -0.0220485         143.731
0.606                   -1.26137        -164.343         -39.2192        -67.6986         -39.2192        -67.6989       -0.0222212         143.653
0.607                   -1.23279        -165.379         -39.2942        -68.9748         -39.2943        -68.9751       -0.0224027         143.574
0.608                   -1.20718        -166.416         -39.3638        -70.2255         -39.3638        -70.2258       -0.0225928         143.495
0.609                    -1.1843        -167.454          -39.428        -71.4529          -39.428        -71.4531       -0.0227912         143.416
0.61                    -1.16392        -168.493         -39.4871        -72.6587         -39.4871         -72.659       -0.0229977         143.336
0.611                   -1.14588        -169.534         -39.5414        -73.8448         -39.5414         -73.845       -0.0232119         143.257
0.612                      -1.13        -170.578         -39.5909        -75.0126         -39.5909        -75.0127       -0.0234337         143.177
0.613                   -1.11615        -171.625         -39.6359        -76.1634         -39.6359        -76.1635       -0.0236628         143.097
0.614                   -1.10419        -172.676         -39.6765        -77.2983         -39.6765        -77.2984       -0.0238991         143.017
0.615                   -1.09402        -173.731         -39.7129        -78.4186         -39.7129        -78.4186       -0.0241424         142.936
0.616                   -1.08553        -174.791         -39.7452        -79.5249         -39.7452        -79.5249       -0.0243925         142.855
0.617                   -1.07865        -175.857         -39.7735        -80.6182         -39.7735        -80.6182       -0.0246493         142.774
0.618                    -1.0733        -176.929          -39.798        -81.6992          -39.798        -81.6991       -0.0249126         142.693
0.619                   -1.06942        -178.008         -39.8187        -82.7685         -39.8187        -82.7684       -0.0251823         142.612
0.62                    -1.06694        -179.094         -39.8357        -83.8268         -39.8357        -83.8267       -0.0254582          142.53
0.621                   -1.06584         179.812         -39.8491        -84.8745         -39.8491        -84.8744       -0.0257404         142.448
0.622                   -1.06606          178.71         -39.8591        -85.9123          -39.859        -85.9122       -0.0260286         142.366
0.623                   -1.06757         177.598         -39.8655        -86.9405         -39.8655        -86.9404       -0.0263228         142.284
0.624                   -1.07036         176.477         -39.8685        -87.9598         -39.8685        -87.9597       -0.0266228         142.201
0.625                   -1.07439         175.345         -39.8681        -88.9705         -39.8681        -88.9704       -0.0269287         142.119
0.626                   -1.07966         174.203         -39.8643        -89.9732         -39.8643        -89.9731       -0.0272402         142.036
0.627                   -1.08615         173.049         -39.8572        -90.9683         -39.8571        -90.9682       -0.0275574         141.952
0.628                   -1.09387         171.883         -39.8467        -91.9563         -39.8467        -91.9562       -0.0278802         141.869
0.629                    -1.1028         170.704         -39.8329        -92.9378         -39.8328        -92.9378       -0.0282084         141.785
