! TOUCHSTONE file generated by CST MICROWAVE STUDIO
! Date and time: Mon Nov 30 09:08:00 2020
! Project name: Scenario_1_Planar_Body_Tissue_Out_of_Line_v2.cst
! Parameters = {dy1=-69.2; L_HA=400; Ltissue=700; MT=2.54; Rad_Dielectric=30; Rad_Lower=7.3; Rad_Upper=30; Wtissue=700; a_HA=580; a_WG=246; b_HA=500; b_WG=121; c_HA=0; c_WG=187; d_feed=85; dx1=346; h_feed=15; h_lower=18; h_upper=40; hfat=3; hgap=25; hmuscle=50; hskin=1.5}
! Header version: 2018
! Port assignment regex: !\s*Touchstone port\s*([0-9]+)\s*=\s*(CST MWS port|CST DS port)\s*([0-9]+|Zmin|Zmax)\s*\(\"(.*)\"\)(\s*mode\s*([0-9]+))?.*
! Touchstone port assignment:
! Touchstone port 1 = CST MWS port 1 ("")
! Touchstone port 2 = CST MWS port 2 ("")
# GHz S DB R 50
0.5                    -0.289415        -121.757         -55.3513         34.6636         -55.3511          34.664      -0.00803617         151.153
0.501                   -0.29118        -122.132         -55.0184         26.4092         -54.9766         26.2388       -0.0080998         151.088
0.502                  -0.292886        -122.511         -54.8899         19.8224         -54.8343         19.5162      -0.00816373         151.023
0.503                  -0.294535        -122.892         -54.8611         14.5546         -54.8043         14.1656      -0.00822799         150.958
0.504                   -0.29613        -123.276         -54.8774         10.2785         -54.8245         9.84906      -0.00829256         150.893
0.505                  -0.297673        -123.664         -54.9109         6.73933         -54.8636         6.29767      -0.00835746         150.827
0.506                  -0.299167        -124.054         -54.9481         3.75017         -54.9065         3.31384      -0.00842269         150.762
0.507                  -0.300616        -124.447         -54.9821         1.17648         -54.9458        0.755739      -0.00848826         150.697
0.508                   -0.30202        -124.844           -55.01        -1.07893         -54.9784        -1.47843      -0.00855416         150.631
0.509                  -0.303384        -125.243         -55.0305        -3.08693          -55.003         -3.4624      -0.00862041         150.565
0.51                    -0.30471        -125.646         -55.0433        -4.89993         -55.0194        -5.25033      -0.00868702           150.5
0.511                  -0.306001        -126.052         -55.0487        -6.55726         -55.0277        -6.88261      -0.00875397         150.434
0.512                  -0.307261        -126.461         -55.0469        -8.08884         -55.0285        -8.38979       -0.0088213         150.368
0.513                  -0.308492        -126.874         -55.0385        -9.51778         -55.0223        -9.79533      -0.00888898         150.302
0.514                  -0.309699         -127.29         -55.0239        -10.8621         -55.0097        -11.1175      -0.00895705         150.236
0.515                  -0.310884        -127.709         -55.0036        -12.1363         -54.9911        -12.3706      -0.00902549          150.17
0.516                   -0.31205        -128.132          -54.978        -13.3516         -54.9669        -13.5663      -0.00909432         150.104
0.517                  -0.313203        -128.559         -54.9476        -14.5174         -54.9377        -14.7137      -0.00916355         150.038
0.518                  -0.314345        -128.989         -54.9126        -15.6413         -54.9038        -15.8204      -0.00923317         149.971
0.519                   -0.31548        -129.423         -54.8733        -16.7296         -54.8656        -16.8925       -0.0093032         149.905
0.52                   -0.316613        -129.861         -54.8301        -17.7874         -54.8232        -17.9353      -0.00937365         149.838
0.521                  -0.317748        -130.303         -54.7831        -18.8191          -54.777        -18.9531      -0.00944451         149.772
0.522                   -0.31889        -130.748         -54.7326        -19.8284         -54.7272        -19.9493       -0.0095158         149.705
0.523                  -0.320042        -131.197         -54.6788        -20.8184          -54.674        -20.9272      -0.00958753         149.638
0.524                   -0.32121        -131.651         -54.6218        -21.7919         -54.6176        -21.8894       -0.0096597         149.571
0.525                  -0.322399        -132.108         -54.5618        -22.7511          -54.558         -22.838      -0.00973232         149.504
0.526                  -0.323615         -132.57         -54.4988        -23.6981         -54.4955        -23.7751      -0.00980539         149.437
0.527                  -0.324861        -133.036         -54.4331        -24.6345         -54.4302        -24.7024      -0.00987893          149.37
0.528                  -0.326145        -133.506         -54.3646         -25.562         -54.3621        -25.6213      -0.00995295         149.303
0.529                  -0.327472         -133.98         -54.2935        -26.4818         -54.2913        -26.5331       -0.0100274         149.235
0.53                   -0.328848        -134.459         -54.2199        -27.3952          -54.218         -27.439       -0.0101024         149.168
0.531                   -0.33028        -134.943         -54.1437        -28.3032         -54.1421        -28.3401       -0.0101779           149.1
0.532                  -0.331774        -135.431         -54.0651        -29.2068         -54.0638        -29.2372       -0.0102539         149.032
0.533                  -0.333338        -135.924         -53.9842        -30.1068         -53.9831        -30.1312       -0.0103304         148.965
0.534                  -0.334979        -136.422         -53.9008         -31.004         -53.8999        -31.0228       -0.0104075         148.897
0.535                  -0.336705        -136.925         -53.8152        -31.8991         -53.8145        -31.9126       -0.0104851         148.829
0.536                  -0.338523        -137.433         -53.7273        -32.7927         -53.7267        -32.8014       -0.0105632         148.761
0.537                  -0.340443        -137.945         -53.6371        -33.6855         -53.6367        -33.6896       -0.0106419         148.693
0.538                  -0.342474        -138.463         -53.5446        -34.5778         -53.5444        -34.5778       -0.0107212         148.624
0.539                  -0.344624        -138.987           -53.45        -35.4704         -53.4499        -35.4664        -0.010801         148.556
0.54                   -0.346903        -139.516         -53.3531        -36.3635         -53.3531        -36.3559       -0.0108814         148.488
0.541                  -0.349323         -140.05          -53.254        -37.2577         -53.2541        -37.2467       -0.0109625         148.419
0.542                  -0.351894         -140.59         -53.1526        -38.1533         -53.1529        -38.1392       -0.0110441          148.35
0.543                  -0.354628        -141.136         -53.0491        -39.0507         -53.0495        -39.0337       -0.0111264         148.281
0.544                  -0.357536        -141.687         -52.9434        -39.9503         -52.9439        -39.9307       -0.0112094         148.213
0.545                  -0.360633        -142.245         -52.8355        -40.8525          -52.836        -40.8303       -0.0112929         148.143
0.546                   -0.36393        -142.809         -52.7254        -41.7575          -52.726        -41.7331       -0.0113772         148.074
0.547                  -0.367443        -143.379          -52.613        -42.6657         -52.6137        -42.6392       -0.0114622         148.005
0.548                  -0.371186        -143.956         -52.4985        -43.5774         -52.4992        -43.5491       -0.0115478         147.936
0.549                  -0.375176        -144.539         -52.3817         -44.493         -52.3825        -44.4629       -0.0116342         147.866
0.55                    -0.37943        -145.129         -52.2627        -45.4126         -52.2635        -45.3809       -0.0117213         147.797
0.551                  -0.383966        -145.726         -52.1414        -46.3366         -52.1422        -46.3035       -0.0118092         147.727
0.552                  -0.388802        -146.329         -52.0178        -47.2653         -52.0187         -47.231       -0.0118978         147.657
0.553                   -0.39396         -146.94          -51.892        -48.1991         -51.8929        -48.1636       -0.0119872         147.587
0.554                  -0.399459        -147.559         -51.7639        -49.1381         -51.7648        -49.1016       -0.0120775         147.517
0.555                  -0.405325        -148.185         -51.6334        -50.0827         -51.6344        -50.0453       -0.0121686         147.447
0.556                  -0.411579        -148.819         -51.5006        -51.0332         -51.5016         -50.995       -0.0122605         147.377
0.557                  -0.418249        -149.461         -51.3655        -51.9898         -51.3665         -51.951       -0.0123533         147.306
0.558                  -0.425362        -150.111          -51.228         -52.953          -51.229        -52.9136       -0.0124471         147.235
0.559                  -0.432947        -150.769         -51.0881         -53.923         -51.0891        -53.8831       -0.0125417         147.165
0.56                   -0.441036        -151.436         -50.9458        -54.9001         -50.9468        -54.8599       -0.0126374         147.094
0.561                  -0.449661        -152.111         -50.8011        -55.8848         -50.8021        -55.8442        -0.012734         147.023
0.562                   -0.45886        -152.796         -50.6539        -56.8772         -50.6549        -56.8365       -0.0128317         146.952
0.563                  -0.468668         -153.49         -50.5043        -57.8778         -50.5052         -57.837       -0.0129304         146.881
0.564                  -0.479129        -154.193         -50.3521         -58.887          -50.353        -58.8462       -0.0130302         146.809
0.565                  -0.490284        -154.907         -50.1974        -59.9052         -50.1983        -59.8643       -0.0131312         146.738
0.566                  -0.502182         -155.63         -50.0402        -60.9327         -50.0411        -60.8919       -0.0132333         146.666
0.567                  -0.514872        -156.363         -49.8804        -61.9699         -49.8813        -61.9294       -0.0133366         146.594
0.568                  -0.528408        -157.107         -49.7181        -63.0174         -49.7189        -62.9771       -0.0134412         146.522
0.569                  -0.542848        -157.862         -49.5531        -64.0756         -49.5539        -64.0355       -0.0135471          146.45
0.57                   -0.558255        -158.628         -49.3855        -65.1449         -49.3862        -65.1051       -0.0136544         146.378
0.571                  -0.574694        -159.405         -49.2152        -66.2258         -49.2159        -66.1865       -0.0137631         146.306
0.572                  -0.592239        -160.194         -49.0423        -67.3189          -49.043          -67.28       -0.0138733         146.233
0.573                  -0.610967        -160.996         -48.8667        -68.4248         -48.8673        -68.3864        -0.013985          146.16
0.574                  -0.630961        -161.809         -48.6884         -69.544          -48.689        -69.5061       -0.0140984         146.088
0.575                  -0.652311        -162.635         -48.5074        -70.6771         -48.5079        -70.6398       -0.0142134         146.015
0.576                  -0.675116        -163.475         -48.3236        -71.8248         -48.3241        -71.7881       -0.0143302         145.942
0.577                   -0.69948        -164.327         -48.1371        -72.9878         -48.1375        -72.9518       -0.0144488         145.868
0.578                  -0.725517        -165.194         -47.9478        -74.1667         -47.9482        -74.1314       -0.0145693         145.795
0.579                   -0.75335        -166.074         -47.7558        -75.3624         -47.7561        -75.3277       -0.0146919         145.721
0.58                   -0.783112        -166.969          -47.561        -76.5755         -47.5612        -76.5416       -0.0148166         145.647
0.581                  -0.814948        -167.879         -47.3634         -77.807         -47.3636        -77.7739       -0.0149435         145.573
0.582                  -0.849013        -168.804         -47.1631        -79.0577         -47.1633        -79.0254       -0.0150728         145.499
0.583                  -0.885477        -169.744           -46.96        -80.3285         -46.9601         -80.297       -0.0152045         145.425
0.584                  -0.924524          -170.7         -46.7542        -81.6203         -46.7543        -81.5897       -0.0153389         145.351
0.585                  -0.966353        -171.671         -46.5457        -82.9343         -46.5457        -82.9045       -0.0154759         145.276
0.586                   -1.01118         -172.66         -46.3344        -84.2713         -46.3344        -84.2425       -0.0156158         145.201
0.587                   -1.05924        -173.664         -46.1206        -85.6326         -46.1205        -85.6047       -0.0157588         145.126
0.588                   -1.11079        -174.685         -45.9041        -87.0193         -45.9041        -86.9924       -0.0159049         145.051
0.589                    -1.1661        -175.723         -45.6851        -88.4326          -45.685        -88.4066       -0.0160543         144.976
0.59                    -1.22547        -176.778         -45.4637        -89.8737         -45.4635        -89.8487       -0.0162073           144.9
0.591                   -1.28924         -177.85         -45.2398         -91.344         -45.2396        -91.3199        -0.016364         144.825
0.592                   -1.35775        -178.938         -45.0136        -92.8447         -45.0134        -92.8217       -0.0165246         144.749
0.593                   -1.43138         179.957         -44.7853        -94.3774          -44.785        -94.3553       -0.0166893         144.673
0.594                   -1.51056         178.837         -44.5548        -95.9433         -44.5545        -95.9223       -0.0168582         144.596
0.595                   -1.59572         177.701         -44.3225        -97.5441         -44.3221        -97.5241       -0.0170317          144.52
0.596                   -1.68736          176.55         -44.0883        -99.1812         -44.0879        -99.1622       -0.0172099         144.443
0.597                     -1.786         175.386         -43.8526        -100.856         -43.8522        -100.838       -0.0173931         144.366
0.598                   -1.89219          174.21         -43.6156         -102.57         -43.6152        -102.553       -0.0175813         144.289
0.599                   -2.00656         173.024         -43.3774        -104.326          -43.377         -104.31        -0.017775         144.212
0.6                     -2.12973         171.829         -43.1384        -106.123         -43.1379        -106.108       -0.0179742         144.135
0.601                   -2.26241         170.629         -42.8988        -107.965         -42.8983        -107.951       -0.0181793         144.057
0.602                   -2.40532         169.427          -42.659        -109.852         -42.6585        -109.839       -0.0183903         143.979
0.603                   -2.55923         168.227         -42.4193        -111.786         -42.4188        -111.774       -0.0186074         143.901
0.604                   -2.72495         167.033         -42.1802        -113.768         -42.1797        -113.757        -0.018831         143.823
0.605                   -2.90331         165.852          -41.942        -115.799         -41.9415        -115.789        -0.019061         143.745
0.606                   -3.09517          164.69         -41.7053         -117.88         -41.7048        -117.871       -0.0192976         143.666
0.607                   -3.30138         163.555         -41.4705        -120.012           -41.47        -120.004        -0.019541         143.587
0.608                   -3.52278         162.458         -41.2382        -122.196         -41.2377        -122.189       -0.0197912         143.508
0.609                   -3.76017         161.408         -41.0089        -124.432         -41.0085        -124.425       -0.0200482         143.429
0.61                    -4.01426         160.419         -40.7833        -126.719         -40.7829        -126.713       -0.0203122         143.349
0.611                   -4.28565         159.507          -40.562        -129.057         -40.5616        -129.053       -0.0205829          143.27
0.612                   -4.57473         158.689         -40.3456        -131.446         -40.3453        -131.442       -0.0208605          143.19
0.613                   -4.88161         157.986         -40.1348        -133.884         -40.1345        -133.881       -0.0211448          143.11
0.614                   -5.20602         157.419         -39.9303        -136.369           -39.93        -136.367       -0.0214356          143.03
0.615                   -5.54718         157.014         -39.7327        -138.899         -39.7325        -138.897       -0.0217328         142.949
0.616                    -5.9036           156.8         -39.5427        -141.471         -39.5426         -141.47       -0.0220361         142.869
0.617                    -6.2729         156.807         -39.3609        -144.082         -39.3608        -144.081       -0.0223454         142.788
0.618                   -6.65159         157.066         -39.1878        -146.728         -39.1878        -146.727       -0.0226603         142.707
0.619                   -7.03478         157.608          -39.024        -149.404          -39.024        -149.404       -0.0229806         142.625
0.62                    -7.41602         158.463           -38.87        -152.105           -38.87        -152.106       -0.0233059         142.544
0.621                    -7.7871         159.651          -38.726        -154.827         -38.7262        -154.828       -0.0236359         142.462
0.622                   -8.13812         161.185         -38.5925        -157.563         -38.5927        -157.564       -0.0239702          142.38
0.623                   -8.45777         163.061         -38.4695        -160.308         -38.4697        -160.309       -0.0243086         142.298
0.624                    -8.7341         165.252         -38.3572        -163.056         -38.3575        -163.057       -0.0246507         142.216
0.625                    -8.9556         167.709         -38.2556        -165.801         -38.2559        -165.802       -0.0249961         142.133
0.626                   -9.11265          170.36         -38.1645        -168.536         -38.1648        -168.537       -0.0253446          142.05
0.627                   -9.19897         173.112         -38.0837        -171.256          -38.084        -171.257       -0.0256958         141.967
0.628                   -9.21269         175.861         -38.0128        -173.956         -38.0132        -173.957       -0.0260495         141.884
0.629                   -9.15655         178.509         -37.9516         -176.63          -37.952        -176.631       -0.0264055           141.8
