! TOUCHSTONE file generated by CST MICROWAVE STUDIO
! Date and time: Sat Nov 14 20:00:29 2020
! Project name: Scenario_1_Planar_Body_Tissue_Out_of_Line.cst
! Parameters = {dy1=69.2; L_HA=400; Ltissue=700; MT=2.54; Rad_Dielectric=30; Rad_Lower=7.3; Rad_Upper=30; Wtissue=700; a_HA=580; a_WG=246; b_HA=500; b_WG=121; c_HA=0; c_WG=187; d_feed=85; dx1=693; h_feed=15; h_lower=18; h_upper=40; hfat=3; hgap=25; hmuscle=50; hskin=1.5}
! Header version: 2018
! Port assignment regex: !\s*Touchstone port\s*([0-9]+)\s*=\s*(CST MWS port|CST DS port)\s*([0-9]+|Zmin|Zmax)\s*\(\"(.*)\"\)(\s*mode\s*([0-9]+))?.*
! Touchstone port assignment:
! Touchstone port 1 = CST MWS port 1 ("")
! Touchstone port 2 = CST MWS port 2 ("")
# GHz S DB R 50
0.5                    -0.206683        -121.528         -60.9416        -171.643         -60.9414        -171.642      -0.00774947         151.157
0.501                  -0.208339        -121.922         -60.8906        -173.879         -60.8907        -173.878      -0.00781425         151.092
0.502                  -0.209857        -122.321         -60.8414        -176.093         -60.8416        -176.092      -0.00787904         151.026
0.503                  -0.211262        -122.725         -60.7938        -178.282         -60.7941        -178.281      -0.00794391         150.961
0.504                  -0.212581        -123.134         -60.7476         179.555          -60.748         179.556      -0.00800891         150.896
0.505                  -0.213834        -123.547         -60.7028         177.419         -60.7032          177.42      -0.00807408          150.83
0.506                  -0.215041        -123.965         -60.6591         175.313         -60.6596         175.315      -0.00813946         150.765
0.507                  -0.216221        -124.387         -60.6163         173.238         -60.6169          173.24      -0.00820511         150.699
0.508                  -0.217389        -124.814         -60.5743         171.195         -60.5749         171.197      -0.00827107         150.634
0.509                  -0.218562        -125.246         -60.5328         169.186         -60.5334         169.188      -0.00833736         150.568
0.51                   -0.219754        -125.682         -60.4916         167.212         -60.4921         167.214      -0.00840404         150.502
0.511                  -0.220979        -126.122         -60.4504         165.273         -60.4508         165.275      -0.00847114         150.436
0.512                  -0.222249        -126.567         -60.4089          163.37         -60.4093         163.372      -0.00853868          150.37
0.513                  -0.223577        -127.016         -60.3668         161.503         -60.3672         161.506      -0.00860672         150.304
0.514                  -0.224975         -127.47          -60.324         159.674         -60.3243         159.676      -0.00867526         150.238
0.515                  -0.226456        -127.928           -60.28         157.881         -60.2803         157.884      -0.00874435         150.172
0.516                   -0.22803         -128.39         -60.2346         156.126         -60.2348         156.128      -0.00881402         150.105
0.517                  -0.229709        -128.858         -60.1876         154.408         -60.1877          154.41      -0.00888429         150.039
0.518                  -0.231504        -129.329         -60.1385         152.726         -60.1385         152.728      -0.00895518         149.972
0.519                  -0.233428        -129.806         -60.0871         151.081         -60.0871         151.083      -0.00902673         149.906
0.52                   -0.235492        -130.286         -60.0332         149.471         -60.0331         149.472      -0.00909896         149.839
0.521                  -0.237708        -130.772         -59.9765         147.896         -59.9763         147.897      -0.00917188         149.772
0.522                  -0.240089        -131.263         -59.9166         146.354         -59.9164         146.356      -0.00924553         149.705
0.523                  -0.242647        -131.758         -59.8534         144.846         -59.8531         144.847      -0.00931993         149.638
0.524                  -0.245395        -132.258         -59.7865         143.369         -59.7861          143.37      -0.00939509         149.571
0.525                  -0.248347        -132.763         -59.7157         141.923         -59.7153         141.924      -0.00947103         149.504
0.526                  -0.251518        -133.273         -59.6408         140.506         -59.6403         140.506      -0.00954778         149.437
0.527                  -0.254923        -133.788         -59.5615         139.117          -59.561         139.117      -0.00962536          149.37
0.528                  -0.258578        -134.309         -59.4777         137.754         -59.4772         137.754      -0.00970378         149.302
0.529                    -0.2625        -134.835         -59.3891         136.415         -59.3886         136.415      -0.00978306         149.235
0.53                   -0.266707        -135.366         -59.2955           135.1          -59.295         135.099      -0.00986322         149.167
0.531                  -0.271218        -135.902         -59.1968         133.805         -59.1963         133.804      -0.00994428         149.099
0.532                  -0.276054        -136.445         -59.0928          132.53         -59.0922         132.529       -0.0100263         149.032
0.533                  -0.281236        -136.993         -58.9833         131.272         -58.9827         131.271       -0.0101092         148.964
0.534                  -0.286788        -137.547         -58.8682          130.03         -58.8676         130.028        -0.010193         148.896
0.535                  -0.292735        -138.107         -58.7473         128.802         -58.7467           128.8       -0.0102779         148.828
0.536                  -0.299104        -138.673         -58.6205         127.585           -58.62         127.583       -0.0103637         148.759
0.537                  -0.305925        -139.245         -58.4878         126.378         -58.4873         126.375       -0.0104505         148.691
0.538                  -0.313229        -139.824          -58.349         125.178         -58.3485         125.175       -0.0105383         148.623
0.539                   -0.32105        -140.409          -58.204         123.984         -58.2035         123.981       -0.0106272         148.554
0.54                   -0.329425        -141.001         -58.0527         122.793         -58.0523          122.79       -0.0107172         148.485
0.541                  -0.338394          -141.6         -57.8952         121.603         -57.8948         121.601       -0.0108082         148.417
0.542                     -0.348        -142.206         -57.7313         120.413         -57.7309          120.41       -0.0109003         148.348
0.543                  -0.358291        -142.819         -57.5609         119.219         -57.5605         119.217       -0.0109936         148.279
0.544                  -0.369318         -143.44         -57.3841         118.021         -57.3838         118.019       -0.0110879          148.21
0.545                  -0.381136        -144.068         -57.2008         116.815         -57.2005         116.813       -0.0111835         148.141
0.546                  -0.393807        -144.704          -57.011         115.599         -57.0107         115.597       -0.0112802         148.071
0.547                  -0.407396        -145.348         -56.8147         114.372         -56.8144          114.37       -0.0113782         148.002
0.548                  -0.421978        -145.999         -56.6118          113.13         -56.6116         113.128       -0.0114774         147.932
0.549                   -0.43763        -146.659         -56.4024         111.872         -56.4023          111.87       -0.0115779         147.863
0.55                   -0.454439        -147.328         -56.1866         110.595         -56.1864         110.593       -0.0116797         147.793
0.551                  -0.472501        -148.005         -55.9642         109.296         -55.9641         109.295       -0.0117828         147.723
0.552                  -0.491919         -148.69         -55.7355         107.974         -55.7354         107.973       -0.0118873         147.653
0.553                  -0.512806        -149.384         -55.5003         106.626         -55.5002         106.625       -0.0119933         147.583
0.554                  -0.535288        -150.087         -55.2588         105.248         -55.2587         105.248       -0.0121007         147.513
0.555                    -0.5595        -150.799          -55.011          103.84          -55.011         103.839       -0.0122096         147.442
0.556                  -0.585591         -151.52         -54.7571         102.397          -54.757         102.396       -0.0123201         147.372
0.557                  -0.613724         -152.25          -54.497         100.917          -54.497         100.917       -0.0124322         147.301
0.558                  -0.644078        -152.988          -54.231          99.397          -54.231         99.3968        -0.012546         147.231
0.559                  -0.676846        -153.735         -53.9592         97.8341         -53.9592         97.8341       -0.0126616          147.16
0.56                    -0.71224        -154.489         -53.6817         96.2251         -53.6817         96.2252        -0.012779         147.089
0.561                   -0.75049        -155.252         -53.3987         94.5667         -53.3987          94.567       -0.0128984         147.018
0.562                  -0.791843        -156.022         -53.1105         92.8556         -53.1105          92.856       -0.0130198         146.946
0.563                  -0.836569        -156.798         -52.8173         91.0883         -52.8173         91.0887       -0.0131434         146.875
0.564                  -0.884952        -157.579         -52.5194         89.2611         -52.5194         89.2617       -0.0132693         146.803
0.565                    -0.9373        -158.365         -52.2172         87.3704         -52.2172         87.3711       -0.0133975         146.732
0.566                  -0.993932        -159.152          -51.911         85.4124          -51.911         85.4132       -0.0135283          146.66
0.567                   -1.05518        -159.941         -51.6014         83.3832         -51.6014          83.384       -0.0136618         146.588
0.568                    -1.1214        -160.727         -51.2889         81.2789         -51.2888         81.2797       -0.0137982         146.516
0.569                   -1.19292        -161.508          -50.974         79.0956          -50.974         79.0964       -0.0139377         146.444
0.57                    -1.27008        -162.281         -50.6575         76.8294         -50.6575         76.8302       -0.0140804         146.371
0.571                   -1.35319        -163.041         -50.3403         74.4766         -50.3402         74.4774       -0.0142266         146.299
0.572                   -1.44251        -163.783         -50.0231         72.0337         -50.0231         72.0345       -0.0143765         146.226
0.573                   -1.53825        -164.502          -49.707         69.4975          -49.707         69.4982       -0.0145303         146.153
0.574                    -1.6405        -165.191         -49.3932         66.8652         -49.3931         66.8659       -0.0146883          146.08
0.575                   -1.74923        -165.842         -49.0828         64.1347         -49.0827         64.1353       -0.0148506         146.007
0.576                   -1.86421        -166.448         -48.7772         61.3045         -48.7772         61.3051       -0.0150175         145.934
0.577                   -1.98501        -166.998         -48.4779         58.3743         -48.4778         58.3748       -0.0151892         145.861
0.578                   -2.11089        -167.484         -48.1864         55.3447         -48.1863          55.345       -0.0153657         145.787
0.579                   -2.24077        -167.896         -47.9043         52.2176         -47.9042         52.2179       -0.0155472         145.713
0.58                    -2.37321        -168.225         -47.6332         48.9965         -47.6332         48.9967       -0.0157337          145.64
0.581                   -2.50634        -168.463         -47.3749         45.6865         -47.3749         45.6865       -0.0159252         145.566
0.582                   -2.63788        -168.603         -47.1309         42.2942         -47.1309         42.2942       -0.0161216         145.492
0.583                   -2.76519        -168.643         -46.9027         38.8283         -46.9027         38.8282       -0.0163225         145.417
0.584                   -2.88534        -168.582         -46.6918         35.2988         -46.6918         35.2986       -0.0165278         145.343
0.585                   -2.99527        -168.426         -46.4991         31.7175         -46.4992         31.7173       -0.0167369         145.268
0.586                   -3.09199        -168.185         -46.3258         28.0974         -46.3258         28.0971       -0.0169493         145.194
0.587                   -3.17278        -167.872         -46.1723         24.4523         -46.1723          24.452       -0.0171645         145.119
0.588                   -3.23546        -167.509         -46.0389         20.7969          -46.039         20.7966       -0.0173818         145.044
0.589                   -3.27859        -167.116         -45.9256         17.1458         -45.9257         17.1454       -0.0176007         144.969
0.59                    -3.30156         -166.72         -45.8321         13.5132         -45.8322         13.5128       -0.0178203         144.894
0.591                   -3.30466        -166.343         -45.7576          9.9129         -45.7577         9.91255       -0.0180402         144.819
0.592                   -3.28905        -166.009         -45.7011         6.35733         -45.7012         6.35701       -0.0182598         144.743
0.593                   -3.25656        -165.738         -45.6614         2.85762         -45.6615         2.85734       -0.0184787         144.667
0.594                   -3.20953        -165.545         -45.6372        -0.57669         -45.6373       -0.576934       -0.0186965         144.592
0.595                   -3.15056        -165.441         -45.6269         -3.9378          -45.627          -3.938        -0.018913         144.516
0.596                   -3.08235        -165.432         -45.6288        -7.21961          -45.629        -7.21977       -0.0191281          144.44
0.597                   -3.00752        -165.522         -45.6415        -10.4177         -45.6416        -10.4178       -0.0193419         144.363
0.598                   -2.92844        -165.709         -45.6632        -13.5293         -45.6633        -13.5294       -0.0195543         144.287
0.599                   -2.84723        -165.991         -45.6924         -16.553         -45.6926         -16.553       -0.0197656          144.21
0.6                     -2.76565        -166.362         -45.7277        -19.4885         -45.7278        -19.4885       -0.0199759         144.133
0.601                   -2.68518        -166.817         -45.7676        -22.3368         -45.7678        -22.3367       -0.0201856         144.056
0.602                   -2.60696        -167.348          -45.811        -25.0995         -45.8111        -25.0994        -0.020395         143.979
0.603                   -2.53188         -167.95         -45.8565        -27.7792         -45.8567         -27.779       -0.0206044         143.902
0.604                   -2.46059        -168.615         -45.9033        -30.3787         -45.9034        -30.3785        -0.020814         143.824
0.605                   -2.39355        -169.338         -45.9504        -32.9014         -45.9505        -32.9013       -0.0210243         143.746
0.606                   -2.33106        -170.112         -45.9969         -35.351          -45.997        -35.3508       -0.0212355         143.668
0.607                   -2.27331        -170.933         -46.0421        -37.7312         -46.0422        -37.7311       -0.0214479          143.59
0.608                   -2.22036        -171.796         -46.0855         -40.046         -46.0855        -40.0458       -0.0216619         143.511
0.609                   -2.17224        -172.697         -46.1264        -42.2992         -46.1265         -42.299       -0.0218776         143.432
0.61                    -2.12892        -173.632         -46.1645        -44.4947         -46.1646        -44.4946       -0.0220953         143.353
0.611                   -2.09032        -174.599         -46.1993        -46.6364         -46.1994        -46.6362       -0.0223152         143.274
0.612                   -2.05636        -175.594         -46.2305         -48.728         -46.2306        -48.7278       -0.0225376         143.195
0.613                   -2.02692        -176.616         -46.2579         -50.773         -46.2579        -50.7729       -0.0227626         143.115
0.614                   -2.00191        -177.663         -46.2812        -52.7751         -46.2812        -52.7749       -0.0229904         143.035
0.615                   -1.98121        -178.734         -46.3001        -54.7375         -46.3002        -54.7373       -0.0232212         142.955
0.616                   -1.96474        -179.827         -46.3147        -56.6634         -46.3147        -56.6633       -0.0234551         142.875
0.617                   -1.95239         179.058         -46.3248         -58.556         -46.3248        -58.5559       -0.0236922         142.794
0.618                   -1.94409         177.923         -46.3302        -60.4182         -46.3302        -60.4181       -0.0239327         142.713
0.619                   -1.93977         176.767         -46.3309        -62.2529         -46.3309        -62.2528       -0.0241767         142.632
0.62                    -1.93938         175.592         -46.3269        -64.0627         -46.3269        -64.0626       -0.0244244         142.551
0.621                    -1.9429         174.397         -46.3181        -65.8502         -46.3182        -65.8501       -0.0246757         142.469
0.622                   -1.95029         173.183         -46.3046        -67.6179         -46.3047        -67.6178       -0.0249309         142.387
0.623                   -1.96155         171.949         -46.2864        -69.3681         -46.2864         -69.368       -0.0251901         142.305
0.624                   -1.97671         170.695         -46.2634        -71.1032         -46.2634        -71.1031       -0.0254533         142.223
0.625                   -1.99579         169.421         -46.2357        -72.8254         -46.2357        -72.8253       -0.0257206          142.14
0.626                   -2.01884         168.127         -46.2034        -74.5367         -46.2034        -74.5366       -0.0259922         142.057
0.627                   -2.04593         166.813         -46.1665        -76.2392         -46.1665        -76.2391       -0.0262682         141.974
0.628                   -2.07715         165.478          -46.125        -77.9348         -46.1251        -77.9348       -0.0265486         141.891
0.629                   -2.11261         164.122         -46.0791        -79.6255         -46.0792        -79.6254       -0.0268335         141.807
