! TOUCHSTONE file generated by CST MICROWAVE STUDIO
! Date and time: Tue Nov 17 07:13:03 2020
! Project name: Scenario_1_Planar_Body_Tissue_Out_of_Line.cst
! Header version: 2018
! Port assignment regex: !\s*Touchstone port\s*([0-9]+)\s*=\s*(CST MWS port|CST DS port)\s*([0-9]+|Zmin|Zmax)\s*\(\"(.*)\"\)(\s*mode\s*([0-9]+))?.*
! Touchstone port assignment:
! Touchstone port 1 = CST MWS port 1 ("")
! Touchstone port 2 = CST MWS port 2 ("")
# GHz S DB R 50
0.5                    -0.161597        -121.572         -63.4579        -16.5591         -63.4582        -16.5583      -0.00762064         151.153
0.501                   -0.16238        -122.004         -63.3303        -17.8872         -63.3311        -17.8915      -0.00768355         151.087
0.502                  -0.163274        -122.439         -63.1998        -19.2385         -63.2011         -19.248      -0.00774723         151.022
0.503                  -0.164285        -122.877         -63.0663         -20.614         -63.0681        -20.6287      -0.00781169         150.957
0.504                  -0.165417        -123.318         -62.9298        -22.0144         -62.9322        -22.0343      -0.00787692         150.891
0.505                  -0.166678        -123.763         -62.7903        -23.4406         -62.7932        -23.4657      -0.00794293         150.826
0.506                  -0.168075        -124.212         -62.6476        -24.8936         -62.6512        -24.9238      -0.00800972          150.76
0.507                  -0.169614        -124.664         -62.5019        -26.3745         -62.5062        -26.4098      -0.00807729         150.695
0.508                  -0.171303        -125.119         -62.3529        -27.8842          -62.358        -27.9245      -0.00814565         150.629
0.509                  -0.173151        -125.578         -62.2009        -29.4239         -62.2066        -29.4692       -0.0082148         150.563
0.51                   -0.175166        -126.041         -62.0456        -30.9948         -62.0522         -31.045      -0.00828474         150.497
0.511                  -0.177359        -126.508         -61.8872        -32.5983         -61.8947        -32.6532      -0.00835548         150.431
0.512                   -0.17974        -126.979         -61.7256        -34.2357          -61.734        -34.2951      -0.00842702         150.365
0.513                  -0.182321        -127.453         -61.5609        -35.9085         -61.5703        -35.9721      -0.00849937         150.299
0.514                  -0.185114        -127.932         -61.3931         -37.618         -61.4036        -37.6857      -0.00857251         150.233
0.515                  -0.188132        -128.415         -61.2224        -39.3661         -61.2341        -39.4373      -0.00864647         150.167
0.516                   -0.19139        -128.902         -61.0488        -41.1543         -61.0617        -41.2287      -0.00872123           150.1
0.517                  -0.194905        -129.394         -60.8726        -42.9843         -60.8867        -43.0614      -0.00879681         150.034
0.518                  -0.198693         -129.89         -60.6938        -44.8579         -60.7093        -44.9371      -0.00887321         149.967
0.519                  -0.202774        -130.391         -60.5127         -46.777         -60.5297        -46.8575      -0.00895042         149.901
0.52                   -0.207169        -130.897         -60.3296        -48.7433         -60.3481        -48.8243      -0.00902847         149.834
0.521                    -0.2119        -131.407         -60.1449        -50.7586          -60.165        -50.8392      -0.00910734         149.767
0.522                  -0.216992        -131.923         -59.9589        -52.8245         -59.9807        -52.9035      -0.00918704           149.7
0.523                  -0.222474        -132.443         -59.7722        -54.9426         -59.7956        -55.0188      -0.00926757         149.633
0.524                  -0.228374        -132.969         -59.5853        -57.1141         -59.6104        -57.1859      -0.00934895         149.566
0.525                  -0.234726          -133.5         -59.3989        -59.3398         -59.4257        -59.4057      -0.00943117         149.499
0.526                  -0.241566        -134.037         -59.2136        -61.6202         -59.2421        -61.6783      -0.00951424         149.432
0.527                  -0.248936         -134.58         -59.0305        -63.9547         -59.0606        -64.0031      -0.00959817         149.364
0.528                  -0.256878        -135.128         -58.8503        -66.3421         -58.8819        -66.3788      -0.00968296         149.297
0.529                  -0.265443        -135.682         -58.6741        -68.7801          -58.707        -68.8028      -0.00976863         149.229
0.53                   -0.274683        -136.243         -58.5029        -71.2646         -58.5369        -71.2713      -0.00985518         149.162
0.531                  -0.284661        -136.809         -58.3379        -73.7902         -58.3726        -73.7787      -0.00994263         149.094
0.532                   -0.29544        -137.382         -58.1801        -76.3491          -58.215        -76.3176        -0.010031         149.026
0.533                  -0.307096        -137.961         -58.0303        -78.9315          -58.065        -78.8787       -0.0101203         148.958
0.534                   -0.31971        -138.547         -57.8893        -81.5251         -57.9232        -81.4502       -0.0102105          148.89
0.535                  -0.333371         -139.14         -57.7575        -84.1155         -57.7898        -84.0185       -0.0103017         148.822
0.536                  -0.348181        -139.739         -57.6348        -86.6857         -57.6648        -86.5678        -0.010394         148.754
0.537                  -0.364249        -140.345         -57.5203        -89.2178         -57.5474        -89.0813       -0.0104873         148.686
0.538                  -0.381699        -140.957         -57.4127        -91.6932         -57.4362        -91.5416       -0.0105817         148.617
0.539                  -0.400665        -141.576         -57.3096        -94.0941         -57.3289        -93.9324       -0.0106772         148.549
0.54                   -0.421296        -142.202         -57.2078        -96.4058         -57.2226          -96.24       -0.0107741          148.48
0.541                  -0.443756        -142.833         -57.1031        -98.6183         -57.1134        -98.4551       -0.0108722         148.411
0.542                  -0.468223         -143.47         -56.9909        -100.729         -56.9969        -100.575       -0.0109718         148.342
0.543                  -0.494891        -144.112         -56.8661        -102.742         -56.8682        -102.604        -0.011073         148.273
0.544                  -0.523968        -144.758         -56.7238        -104.675         -56.7228        -104.557        -0.011176         148.204
0.545                  -0.555677        -145.407         -56.5594        -106.551         -56.5563        -106.457       -0.0112809         148.135
0.546                  -0.590252        -146.058         -56.3695        -108.404         -56.3654        -108.334        -0.011388         148.066
0.547                  -0.627932         -146.71         -56.1521        -110.274          -56.148        -110.227       -0.0114975         147.996
0.548                  -0.668959         -147.36         -55.9068        -112.203         -55.9035        -112.177       -0.0116097         147.927
0.549                  -0.713565        -148.005         -55.6349        -114.234         -55.6329        -114.223        -0.011725         147.857
0.55                   -0.761957        -148.644         -55.3391        -116.405         -55.3389        -116.405       -0.0118437         147.787
0.551                  -0.814303        -149.271         -55.0235        -118.749         -55.0251        -118.756        -0.011966         147.717
0.552                  -0.870704        -149.883         -54.6931        -121.294         -54.6965        -121.302       -0.0120923         147.647
0.553                  -0.931165        -150.475         -54.3536        -124.056         -54.3584        -124.062       -0.0122228         147.577
0.554                  -0.995557        -151.042         -54.0109        -127.045         -54.0167        -127.047       -0.0123575         147.507
0.555                   -1.06358        -151.576         -53.6711        -130.265         -53.6775         -130.26       -0.0124963         147.437
0.556                    -1.1347        -152.072           -53.34        -133.708         -53.3465        -133.697       -0.0126389         147.366
0.557                   -1.20814        -152.523         -53.0231        -137.363         -53.0294        -137.347       -0.0127848         147.296
0.558                   -1.28282        -152.925         -52.7255        -141.213         -52.7313        -141.191       -0.0129334         147.225
0.559                   -1.35735         -153.27         -52.4515        -145.232         -52.4566        -145.206       -0.0130837         147.154
0.56                    -1.43008        -153.558         -52.2047        -149.393         -52.2089        -149.366        -0.013235         147.084
0.561                   -1.49911        -153.788         -51.9879        -153.664         -51.9912        -153.637       -0.0133864         147.013
0.562                   -1.56246        -153.961         -51.8028        -158.013         -51.8053        -157.987       -0.0135371         146.942
0.563                   -1.61817        -154.086         -51.6502        -162.405         -51.6519        -162.381       -0.0136867         146.871
0.564                   -1.66452        -154.171         -51.5299        -166.808         -51.5309        -166.787       -0.0138349         146.799
0.565                   -1.70018         -154.23         -51.4408        -171.189         -51.4414        -171.172       -0.0139815         146.728
0.566                   -1.72436        -154.278         -51.3811        -175.522         -51.3814        -175.508       -0.0141265         146.656
0.567                   -1.73689         -154.33         -51.3485        -179.781         -51.3485        -179.772       -0.0142701         146.585
0.568                    -1.7382        -154.401         -51.3401         176.051           -51.34         176.057       -0.0144127         146.513
0.569                   -1.72928        -154.506          -51.353         171.991         -51.3528         171.994       -0.0145544         146.441
0.57                     -1.7115        -154.656         -51.3838         168.049         -51.3838         168.049       -0.0146957         146.369
0.571                    -1.6865        -154.857         -51.4297         164.232         -51.4298          164.23       -0.0148367         146.297
0.572                     -1.656        -155.116         -51.4877         160.543          -51.488         160.539       -0.0149779         146.225
0.573                   -1.62168        -155.434         -51.5551         156.982         -51.5555         156.977       -0.0151194         146.152
0.574                   -1.58506        -155.811         -51.6294         153.548         -51.6299         153.543       -0.0152616          146.08
0.575                    -1.5475        -156.245         -51.7084         150.238         -51.7091         150.232       -0.0154046         146.007
0.576                   -1.51011        -156.732         -51.7902         147.047         -51.7911          147.04       -0.0155485         145.934
0.577                   -1.47379        -157.269         -51.8732         143.969         -51.8741         143.962       -0.0156936         145.861
0.578                   -1.43923        -157.852         -51.9558         140.998         -51.9569         140.992         -0.01584         145.787
0.579                   -1.40694        -158.477          -52.037         138.128         -52.0382         138.123       -0.0159877         145.714
0.58                     -1.3773        -159.138         -52.1158         135.353         -52.1169         135.348       -0.0161369         145.641
0.581                   -1.35054        -159.834         -52.1911         132.666         -52.1923         132.662       -0.0162876         145.567
0.582                   -1.32683        -160.559         -52.2625         130.061         -52.2637         130.057         -0.01644         145.493
0.583                   -1.30624        -161.312         -52.3292         127.532         -52.3304         127.529       -0.0165941         145.419
0.584                   -1.28881        -162.089         -52.3909         125.074         -52.3921         125.071       -0.0167499         145.345
0.585                   -1.27454         -162.89         -52.4472          122.68         -52.4483         122.677       -0.0169075          145.27
0.586                   -1.26341         -163.71         -52.4977         120.345         -52.4988         120.343        -0.017067         145.196
0.587                   -1.25538         -164.55         -52.5423         118.065         -52.5433         118.064       -0.0172283         145.121
0.588                   -1.25042        -165.408         -52.5808         115.836         -52.5817         115.835       -0.0173916         145.046
0.589                   -1.24849        -166.283          -52.613         113.652         -52.6138         113.652       -0.0175568         144.971
0.59                    -1.24955        -167.173         -52.6388          111.51         -52.6396          111.51       -0.0177241         144.896
0.591                   -1.25359         -168.08         -52.6582         109.406         -52.6589         109.406       -0.0178934         144.821
0.592                   -1.26058        -169.001         -52.6712         107.335         -52.6718         107.336       -0.0180648         144.745
0.593                   -1.27054        -169.936         -52.6777         105.296         -52.6782         105.296       -0.0182384         144.669
0.594                   -1.28346        -170.886         -52.6777         103.283         -52.6781         103.284       -0.0184142         144.593
0.595                   -1.29938         -171.85         -52.6712         101.295         -52.6716         101.296       -0.0185921         144.517
0.596                   -1.31835        -172.827         -52.6584         99.3285         -52.6587         99.3294       -0.0187724         144.441
0.597                   -1.34041        -173.819         -52.6391           97.38         -52.6394         97.3809        -0.018955         144.365
0.598                   -1.36565        -174.825         -52.6135          95.447         -52.6137         95.4479         -0.01914         144.288
0.599                   -1.39415        -175.844         -52.5817         93.5268         -52.5818         93.5277       -0.0193274         144.211
0.6                     -1.42604        -176.877         -52.5436         91.6169         -52.5437         91.6177       -0.0195173         144.134
0.601                   -1.46143        -177.924         -52.4994         89.7148         -52.4995         89.7155       -0.0197098         144.057
0.602                   -1.50048        -178.985         -52.4493         87.8179         -52.4493         87.8185       -0.0199049         143.979
0.603                   -1.54336          179.94         -52.3931         85.9239         -52.3932         85.9244       -0.0201027         143.902
0.604                   -1.59027         178.851         -52.3312         84.0305         -52.3312         84.0309       -0.0203032         143.824
0.605                    -1.6414         177.749         -52.2636         82.1352         -52.2636         82.1355       -0.0205065         143.746
0.606                     -1.697         176.634         -52.1904         80.2359         -52.1903         80.2361       -0.0207128         143.668
0.607                   -1.75733         175.505         -52.1118         78.3303         -52.1117         78.3303        -0.020922         143.589
0.608                   -1.82267         174.364         -52.0279         76.4162         -52.0278         76.4161       -0.0211343         143.511
0.609                   -1.89333         173.211         -51.9389         74.4915         -51.9389         74.4912       -0.0213497         143.432
0.61                    -1.96965         172.047          -51.845         72.5539          -51.845         72.5535       -0.0215683         143.353
0.611                   -2.05198         170.873         -51.7464         70.6014         -51.7464          70.601       -0.0217903         143.273
0.612                   -2.14071          169.69         -51.6433          68.632         -51.6433         68.6315       -0.0220157         143.194
0.613                   -2.23626           168.5          -51.536         66.6437          -51.536         66.6432       -0.0222445         143.114
0.614                   -2.33906         167.304         -51.4247         64.6346         -51.4248          64.634        -0.022477         143.034
0.615                   -2.44958         166.105         -51.3097         62.6028         -51.3098         62.6022       -0.0227132         142.954
0.616                   -2.56828         164.905         -51.1913         60.5466         -51.1914         60.5461       -0.0229531         142.873
0.617                   -2.69566         163.708         -51.0698         58.4644         -51.0699         58.4639       -0.0231969         142.793
0.618                   -2.83224         162.518         -50.9456         56.3546         -50.9457         56.3541       -0.0234447         142.712
0.619                    -2.9785         161.339          -50.819         54.2159         -50.8192         54.2155       -0.0236965         142.631
0.62                    -3.13495         160.176         -50.6905         52.0471         -50.6907         52.0468       -0.0239526         142.549
0.621                   -3.30205         159.035         -50.5605         49.8473         -50.5607         49.8471       -0.0242128         142.468
0.622                   -3.48023         157.924         -50.4293         47.6156         -50.4295         47.6155       -0.0244774         142.386
0.623                   -3.66985          156.85         -50.2975         45.3516         -50.2977         45.3516       -0.0247465         142.304
0.624                   -3.87118         155.823         -50.1655         43.0549         -50.1657         43.0551         -0.02502         142.221
0.625                   -4.08436         154.852         -50.0337         40.7257          -50.034          40.726       -0.0252981         142.139
0.626                   -4.30936          153.95         -49.9028         38.3642          -49.903         38.3646       -0.0255809         142.056
0.627                   -4.54592         153.128          -49.773         35.9711         -49.7733         35.9717       -0.0258683         141.973
0.628                   -4.79353         152.401         -49.6451         33.5475         -49.6453         33.5483       -0.0261606         141.889
0.629                    -5.0513         151.783         -49.5192         31.0948         -49.5195         31.0956       -0.0264577         141.805
0.63                    -5.31794          151.29         -49.3961         28.6145         -49.3963         28.6155       -0.0267596         141.721
0.631                   -5.59167         150.936         -49.2759         26.1089         -49.2762         26.1099       -0.0270665         141.637
