! TOUCHSTONE file generated by CST MICROWAVE STUDIO
! Date and time: Mon Nov 30 09:08:09 2020
! Project name: Scenario_1_Planar_Body_Tissue_Out_of_Line_v2.cst
! Parameters = {dy1=-51.9; L_HA=400; Ltissue=700; MT=2.54; Rad_Dielectric=30; Rad_Lower=7.3; Rad_Upper=30; Wtissue=700; a_HA=580; a_WG=246; b_HA=500; b_WG=121; c_HA=0; c_WG=187; d_feed=85; dx1=346; h_feed=15; h_lower=18; h_upper=40; hfat=3; hgap=25; hmuscle=50; hskin=1.5}
! Header version: 2018
! Port assignment regex: !\s*Touchstone port\s*([0-9]+)\s*=\s*(CST MWS port|CST DS port)\s*([0-9]+|Zmin|Zmax)\s*\(\"(.*)\"\)(\s*mode\s*([0-9]+))?.*
! Touchstone port assignment:
! Touchstone port 1 = CST MWS port 1 ("")
! Touchstone port 2 = CST MWS port 2 ("")
# GHz S DB R 50
0.5                    -0.292436         -121.74         -55.2008         35.3131         -55.2009         35.3131      -0.00804741         151.153
0.501                  -0.297362        -122.126         -55.0542         33.1072         -55.0541         33.1075      -0.00812552         151.088
0.502                  -0.302189        -122.512         -54.9149         30.8734         -54.9146         30.8738      -0.00820254         151.023
0.503                  -0.306903          -122.9         -54.7835         28.6163          -54.783         28.6167      -0.00827852         150.958
0.504                  -0.311486        -123.288         -54.6602         26.3409         -54.6596         26.3412      -0.00835349         150.893
0.505                  -0.315923        -123.678         -54.5455         24.0527         -54.5447         24.0529      -0.00842749         150.828
0.506                  -0.320194         -124.07         -54.4396         21.7576         -54.4387         21.7574      -0.00850059         150.762
0.507                  -0.324281        -124.463         -54.3426         19.4614         -54.3415         19.4609      -0.00857283         150.697
0.508                  -0.328166        -124.857         -54.2544         17.1701         -54.2533         17.1692      -0.00864428         150.631
0.509                   -0.33183        -125.253         -54.1751         14.8898         -54.1739         14.8885      -0.00871498         150.566
0.51                   -0.335253        -125.651         -54.1044         12.6263         -54.1032         12.6245      -0.00878502           150.5
0.511                  -0.338418        -126.051          -54.042         10.3852         -54.0407         10.3829      -0.00885444         150.434
0.512                  -0.341308        -126.453         -53.9875         8.17177         -53.9862         8.16902      -0.00892332         150.368
0.513                  -0.343909        -126.858         -53.9404         5.99081         -53.9391         5.98762      -0.00899172         150.302
0.514                  -0.346209        -127.265         -53.9002         3.84665         -53.8989         3.84306      -0.00905973         150.236
0.515                  -0.348197        -127.675         -53.8662          1.7431         -53.8649         1.73914      -0.00912739          150.17
0.516                  -0.349869        -128.088         -53.8378       -0.316639         -53.8366       -0.320918      -0.00919479         150.104
0.517                  -0.351223        -128.504         -53.8144        -2.32993         -53.8132        -2.33447        -0.009262         150.038
0.518                   -0.35226        -128.925         -53.7951        -4.29471          -53.794        -4.29947      -0.00932908         149.971
0.519                   -0.35299        -129.349         -53.7794         -6.2095         -53.7783        -6.21441       -0.0093961         149.905
0.52                   -0.353423        -129.777         -53.7665        -8.07333         -53.7655        -8.07834      -0.00946314         149.838
0.521                  -0.353578         -130.21         -53.7557        -9.88575         -53.7548         -9.8908      -0.00953025         149.772
0.522                  -0.353477        -130.648         -53.7464        -11.6467         -53.7455        -11.6518      -0.00959751         149.705
0.523                  -0.353148        -131.091          -53.738        -13.3567         -53.7372        -13.3616      -0.00966498         149.638
0.524                  -0.352621        -131.539         -53.7298        -15.0163         -53.7291        -15.0212      -0.00973272         149.571
0.525                  -0.351932        -131.993         -53.7214        -16.6266         -53.7207        -16.6314      -0.00980079         149.504
0.526                  -0.351118        -132.453         -53.7121         -18.189         -53.7115        -18.1936      -0.00986925         149.437
0.527                   -0.35022        -132.918         -53.7016        -19.7049         -53.7011        -19.7093      -0.00993816          149.37
0.528                   -0.34928         -133.39         -53.6894        -21.1761         -53.6889        -21.1803       -0.0100076         149.302
0.529                  -0.348337        -133.868         -53.6752        -22.6042         -53.6747        -22.6082       -0.0100775         149.235
0.53                   -0.347436        -134.352         -53.6585        -23.9913         -53.6581         -23.995       -0.0101481         149.167
0.531                  -0.346615        -134.842         -53.6391        -25.3393         -53.6387        -25.3427       -0.0102194           149.1
0.532                  -0.345914        -135.339         -53.6167        -26.6502         -53.6164        -26.6534       -0.0102913         149.032
0.533                   -0.34537        -135.842          -53.591         -27.926         -53.5907        -27.9289        -0.010364         148.964
0.534                  -0.345016        -136.352          -53.562        -29.1688         -53.5617        -29.1714       -0.0104374         148.896
0.535                  -0.344884        -136.867         -53.5292        -30.3805          -53.529        -30.3829       -0.0105118         148.828
0.536                  -0.345003        -137.389         -53.4927        -31.5632         -53.4925        -31.5653       -0.0105869          148.76
0.537                  -0.345396        -137.918         -53.4523        -32.7188         -53.4521        -32.7207        -0.010663         148.692
0.538                  -0.346088        -138.452         -53.4079        -33.8492         -53.4078        -33.8508         -0.01074         148.623
0.539                  -0.347097        -138.992         -53.3594        -34.9562         -53.3593        -34.9576        -0.010818         148.555
0.54                   -0.348441        -139.539         -53.3067        -36.0416         -53.3066        -36.0428        -0.010897         148.486
0.541                  -0.350135        -140.091         -53.2498        -37.1071         -53.2497        -37.1081       -0.0109771         148.418
0.542                   -0.35219        -140.649         -53.1887        -38.1545         -53.1886        -38.1552       -0.0110582         148.349
0.543                   -0.35462        -141.214         -53.1232        -39.1852         -53.1231        -39.1858       -0.0111403          148.28
0.544                  -0.357432        -141.784         -53.0535        -40.2008         -53.0534        -40.2012       -0.0112236         148.211
0.545                  -0.360637         -142.36         -52.9794        -41.2028         -52.9793        -41.2031       -0.0113081         148.142
0.546                  -0.364243        -142.943         -52.9011        -42.1927          -52.901        -42.1928       -0.0113937         148.072
0.547                  -0.368258        -143.531         -52.8184        -43.1716         -52.8183        -43.1716       -0.0114804         148.003
0.548                  -0.372689        -144.125         -52.7314         -44.141         -52.7314        -44.1409       -0.0115684         147.934
0.549                  -0.377544        -144.726         -52.6402        -45.1021         -52.6401        -45.1019       -0.0116576         147.864
0.55                   -0.382833        -145.332         -52.5448        -46.0561         -52.5447        -46.0557        -0.011748         147.794
0.551                  -0.388563        -145.945         -52.4451         -47.004          -52.445        -47.0036       -0.0118397         147.724
0.552                  -0.394744        -146.565         -52.3412        -47.9471         -52.3412        -47.9466       -0.0119327         147.655
0.553                  -0.401389         -147.19         -52.2332        -48.8862         -52.2331        -48.8857       -0.0120269         147.584
0.554                  -0.408507        -147.823         -52.1211        -49.8225          -52.121         -49.822       -0.0121224         147.514
0.555                  -0.416114        -148.462         -52.0049         -50.757         -52.0048        -50.7563       -0.0122193         147.444
0.556                  -0.424224        -149.108         -51.8846        -51.6904         -51.8845        -51.6898       -0.0123175         147.374
0.557                  -0.432853        -149.761         -51.7604        -52.6239         -51.7603        -52.6232        -0.012417         147.303
0.558                  -0.442021        -150.422         -51.6321        -53.5581          -51.632        -53.5574       -0.0125178         147.232
0.559                  -0.451747         -151.09         -51.4999         -54.494         -51.4998        -54.4933         -0.01262         147.162
0.56                   -0.462054        -151.765         -51.3638        -55.4324         -51.3637        -55.4317       -0.0127236         147.091
0.561                  -0.472967        -152.448         -51.2239        -56.3742         -51.2238        -56.3735       -0.0128286          147.02
0.562                  -0.484513         -153.14         -51.0801          -57.32           -51.08        -57.3193        -0.012935         146.948
0.563                  -0.496723        -153.839         -50.9325        -58.2708         -50.9324        -58.2701       -0.0130428         146.877
0.564                  -0.509629        -154.547         -50.7811        -59.2271          -50.781        -59.2265        -0.013152         146.806
0.565                  -0.523266        -155.264          -50.626          -60.19         -50.6259        -60.1893       -0.0132627         146.734
0.566                  -0.537675         -155.99         -50.4672        -61.1599         -50.4671        -61.1593       -0.0133748         146.662
0.567                  -0.552897        -156.725         -50.3047        -62.1378         -50.3046        -62.1372       -0.0134884          146.59
0.568                  -0.568979        -157.469         -50.1386        -63.1244         -50.1385        -63.1238       -0.0136034         146.518
0.569                  -0.585971        -158.224         -49.9688        -64.1204         -49.9688        -64.1199       -0.0137199         146.446
0.57                   -0.603927        -158.988         -49.7955        -65.1266         -49.7954        -65.1261       -0.0138379         146.374
0.571                  -0.622908        -159.763         -49.6186        -66.1438         -49.6185        -66.1433       -0.0139575         146.302
0.572                  -0.642978        -160.548         -49.4382        -67.1728         -49.4381        -67.1723       -0.0140786         146.229
0.573                  -0.664207        -161.345         -49.2543        -68.2143         -49.2542        -68.2138       -0.0142012         146.156
0.574                   -0.68667        -162.153         -49.0669        -69.2691         -49.0668        -69.2687       -0.0143254         146.083
0.575                  -0.710451        -162.972          -48.876        -70.3381          -48.876        -70.3377       -0.0144513          146.01
0.576                  -0.735638        -163.804         -48.6817        -71.4222         -48.6817        -71.4218       -0.0145787         145.937
0.577                  -0.762329        -164.648         -48.4841        -72.5222          -48.484        -72.5218       -0.0147078         145.864
0.578                   -0.79063        -165.504         -48.2831         -73.639          -48.283        -73.6386       -0.0148385          145.79
0.579                  -0.820654        -166.374         -48.0787        -74.7735         -48.0787        -74.7732        -0.014971         145.717
0.58                   -0.852527        -167.257         -47.8711        -75.9268          -47.871        -75.9264       -0.0151052         145.643
0.581                  -0.886383        -168.154         -47.6602        -77.0997         -47.6601        -77.0994       -0.0152412         145.569
0.582                   -0.92237        -169.065          -47.446        -78.2934          -47.446        -78.2931        -0.015379         145.495
0.583                  -0.960646        -169.991         -47.2288        -79.5089         -47.2287        -79.5086       -0.0155187         145.421
0.584                   -1.00139        -170.931         -47.0084        -80.7473         -47.0083        -80.7471       -0.0156604         145.346
0.585                   -1.04478        -171.887         -46.7849        -82.0098         -46.7849        -82.0096        -0.015804         145.272
0.586                   -1.09103        -172.858         -46.5584        -83.2975         -46.5584        -83.2973       -0.0159496         145.197
0.587                   -1.14036        -173.844          -46.329        -84.6118          -46.329        -84.6116       -0.0160974         145.122
0.588                   -1.19302        -174.847         -46.0968        -85.9539         -46.0968        -85.9537       -0.0162474         145.047
0.589                   -1.24927        -175.865         -45.8618        -87.3252         -45.8618         -87.325       -0.0163997         144.971
0.59                     -1.3094          -176.9         -45.6241        -88.7269         -45.6241        -88.7267       -0.0165544         144.896
0.591                   -1.37372        -177.951         -45.3838        -90.1607         -45.3839        -90.1605       -0.0167116          144.82
0.592                   -1.44258        -179.018         -45.1412        -91.6279         -45.1412        -91.6277       -0.0168715         144.744
0.593                   -1.51634         179.899         -44.8962          -93.13         -44.8963        -93.1299       -0.0170342         144.668
0.594                   -1.59541           178.8         -44.6492        -94.6687         -44.6492        -94.6686       -0.0171997         144.592
0.595                   -1.68023         177.686         -44.4002        -96.2456         -44.4002        -96.2454       -0.0173684         144.516
0.596                   -1.77127         176.557         -44.1494        -97.8621         -44.1494         -97.862       -0.0175404         144.439
0.597                   -1.86905         175.415         -43.8971        -99.5201         -43.8971        -99.5199       -0.0177159         144.362
0.598                   -1.97412          174.26         -43.6436        -101.221         -43.6436        -101.221       -0.0178951         144.285
0.599                   -2.08709         173.095          -43.389        -102.967          -43.389        -102.967       -0.0180783         144.208
0.6                     -2.20859         171.921         -43.1338        -104.759         -43.1338        -104.758       -0.0182658         144.131
0.601                   -2.33932          170.74         -42.8782        -106.598         -42.8782        -106.598       -0.0184577         144.053
0.602                   -2.48002         169.556         -42.6227        -108.488         -42.6227        -108.487       -0.0186545         143.975
0.603                   -2.63147         168.372         -42.3676        -110.428         -42.3676        -110.427       -0.0188565         143.897
0.604                   -2.79449         167.193         -42.1133         -112.42         -42.1134        -112.419        -0.019064         143.819
0.605                   -2.96994         166.025         -41.8605        -114.465         -41.8605        -114.465       -0.0192773          143.74
0.606                   -3.15871         164.873         -41.6095        -116.564         -41.6095        -116.564       -0.0194969         143.662
0.607                   -3.36171         163.746          -41.361        -118.718          -41.361        -118.718        -0.019723         143.583
0.608                   -3.57983         162.652         -41.1155        -120.928         -41.1155        -120.928       -0.0199561         143.504
0.609                   -3.81395         161.604         -40.8737        -123.193         -40.8737        -123.193       -0.0201965         143.424
0.61                    -4.06487         160.614         -40.6362        -125.513         -40.6363        -125.513       -0.0204446         143.345
0.611                   -4.33329         159.696         -40.4038        -127.887         -40.4038        -127.887       -0.0207005         143.265
0.612                   -4.61971         158.868          -40.177        -130.315          -40.177        -130.314       -0.0209647         143.185
0.613                    -4.9244         158.152         -39.9567        -132.794         -39.9567        -132.793       -0.0212372         143.105
0.614                   -5.24725         157.569         -39.7435        -135.322         -39.7435        -135.322       -0.0215182         143.024
0.615                   -5.58761         157.146         -39.5381        -137.897         -39.5381        -137.897       -0.0218078         142.943
0.616                   -5.94418         156.913         -39.3412        -140.515         -39.3412        -140.515       -0.0221059         142.863
0.617                   -6.31472           156.9         -39.1534        -143.172         -39.1534        -143.172       -0.0224123         142.782
0.618                   -6.69585         157.141         -38.9753        -145.865         -38.9753        -145.865       -0.0227269           142.7
0.619                   -7.08274         157.671         -38.8074        -148.587         -38.8074        -148.587       -0.0230492         142.619
0.62                    -7.46887         158.519         -38.6501        -151.333         -38.6501        -151.333        -0.023379         142.537
0.621                   -7.84584         159.711         -38.5038        -154.098         -38.5038        -154.098       -0.0237155         142.455
0.622                   -8.20332         161.262         -38.3686        -156.876         -38.3686        -156.876       -0.0240583         142.373
0.623                   -8.52943          163.17         -38.2448         -159.66         -38.2448         -159.66       -0.0244068         142.291
0.624                    -8.8114          165.41         -38.1324        -162.444         -38.1324        -162.444       -0.0247602         142.208
0.625                   -9.03681         167.932         -38.0311        -165.221         -38.0311        -165.221       -0.0251179         142.125
0.626                   -9.19523         170.659          -37.941        -167.986          -37.941        -167.986       -0.0254792         142.042
0.627                   -9.27979         173.492         -37.8615        -170.732         -37.8616        -170.732       -0.0258436         141.959
0.628                   -9.28842         176.322         -37.7924        -173.454         -37.7925        -173.454       -0.0262104         141.876
0.629                   -9.22416          179.04         -37.7332        -176.146         -37.7332        -176.146       -0.0265791         141.792
