! TOUCHSTONE file generated by CST MICROWAVE STUDIO
! Date and time: Fri Dec 11 14:11:25 2020
! Project name: Scenario_1_Planar_Body_Tissue_Out_of_Line_v2.cst
! Parameters = {dy1=-51.9; L_HA=400; Ltissue=700; MT=2.54; Rad_Dielectric=30; Rad_Lower=7.3; Rad_Upper=30; Wtissue=700; a_HA=580; a_WG=246; b_HA=500; b_WG=121; c_HA=0; c_WG=187; d_feed=85; dx1=520; h_feed=15; h_lower=18; h_upper=40; hfat=3; hgap=25; hmuscle=50; hskin=1.5}
! Header version: 2018
! Port assignment regex: !\s*Touchstone port\s*([0-9]+)\s*=\s*(CST MWS port|CST DS port)\s*([0-9]+|Zmin|Zmax)\s*\(\"(.*)\"\)(\s*mode\s*([0-9]+))?.*
! Touchstone port assignment:
! Touchstone port 1 = CST MWS port 1 ("")
! Touchstone port 2 = CST MWS port 2 ("")
# GHz S DB R 50
0.5                   -0.0752206         -121.95         -61.4411        -48.3853         -61.4418        -48.3819      -0.00744395         151.142
0.501                 -0.0805956        -122.314         -61.8158        -49.9417         -61.8157        -49.9468      -0.00754016         151.076
0.502                 -0.0859598         -122.68          -62.197        -51.6125         -62.1958         -51.626      -0.00763699         151.011
0.503                 -0.0913139        -123.049         -62.5842        -53.4084         -62.5819          -53.43      -0.00773441         150.945
0.504                 -0.0966588         -123.42         -62.9771        -55.3413         -62.9736        -55.3708      -0.00783244          150.88
0.505                  -0.101995        -123.793          -63.375        -57.4242           -63.37        -57.4612      -0.00793108         150.814
0.506                  -0.107325        -124.168         -63.7767        -59.6713         -63.7701        -59.7155      -0.00803032         150.748
0.507                  -0.112647        -124.546          -64.181        -62.0979         -64.1727        -62.1486      -0.00813017         150.683
0.508                  -0.117965        -124.927         -64.5861        -64.7202         -64.5758        -64.7764      -0.00823063         150.617
0.509                  -0.123278         -125.31         -64.9895        -67.5545          -64.977        -67.6152      -0.00833169         150.551
0.51                   -0.128588        -125.695         -65.3882        -70.6171         -65.3734        -70.6809      -0.00843336         150.485
0.511                  -0.133896        -126.084         -65.7784        -73.9233         -65.7611        -73.9882      -0.00853565         150.419
0.512                  -0.139203        -126.474         -66.1555        -77.4855         -66.1355        -77.5495      -0.00863854         150.353
0.513                   -0.14451        -126.868          -66.514        -81.3122         -66.4912        -81.3727      -0.00874204         150.286
0.514                  -0.149819        -127.263         -66.8476        -85.4056          -66.822        -85.4596      -0.00884615          150.22
0.515                   -0.15513        -127.662         -67.1492        -89.7594         -67.1209        -89.8036      -0.00895087         150.154
0.516                  -0.160446        -128.064         -67.4117        -94.3564         -67.3807        -94.3874       -0.0090562         150.087
0.517                  -0.165767        -128.468         -67.6278        -99.1673         -67.5946        -99.1818      -0.00916214         150.021
0.518                  -0.171096        -128.875         -67.7912         -104.15         -67.7561        -104.145      -0.00926869         149.954
0.519                  -0.176433        -129.284         -67.8969        -109.251         -67.8604        -109.224      -0.00937585         149.887
0.52                    -0.18178        -129.697         -67.9419        -114.408         -67.9047        -114.359      -0.00948362         149.821
0.521                  -0.187139        -130.113         -67.9255        -119.556         -67.8883        -119.483      -0.00959199         149.754
0.522                  -0.192511        -130.531         -67.8497        -124.629         -67.8131        -124.534      -0.00970098         149.687
0.523                  -0.197899        -130.953         -67.7186        -129.571         -67.6831        -129.454      -0.00981057          149.62
0.524                  -0.203303        -131.377         -67.5379        -134.332         -67.5041        -134.196      -0.00992077         149.553
0.525                  -0.208727        -131.805         -67.3145        -138.877         -67.2826        -138.726       -0.0100316         149.486
0.526                  -0.214172        -132.236         -67.0556        -143.184          -67.026         -143.02        -0.010143         149.418
0.527                   -0.21964         -132.67         -66.7686        -147.242         -66.7413        -147.068        -0.010255         149.351
0.528                  -0.225133        -133.107         -66.4599        -151.048         -66.4349        -150.868       -0.0103676         149.283
0.529                  -0.230654        -133.547         -66.1356        -154.609         -66.1129        -154.424       -0.0104808         149.216
0.53                   -0.236204        -133.991         -65.8006        -157.936           -65.78        -157.748       -0.0105946         149.148
0.531                  -0.241787        -134.438          -65.459        -161.043         -65.4406        -160.854        -0.010709         149.081
0.532                  -0.247404        -134.889         -65.1144        -163.945         -65.0979        -163.757        -0.010824         149.013
0.533                  -0.253059        -135.343         -64.7694        -166.659         -64.7546        -166.473       -0.0109396         148.945
0.534                  -0.258754        -135.801         -64.4259        -169.203         -64.4128        -169.018       -0.0110557         148.877
0.535                  -0.264492        -136.262         -64.0857         -171.59         -64.0741        -171.409       -0.0111725         148.809
0.536                  -0.270276        -136.727         -63.7499        -173.837         -63.7396         -173.66       -0.0112898         148.741
0.537                   -0.27611        -137.195         -63.4192        -175.957         -63.4102        -175.784       -0.0114077         148.672
0.538                  -0.281996        -137.667         -63.0943        -177.963         -63.0864        -177.794       -0.0115262         148.604
0.539                  -0.287938        -138.143         -62.7755        -179.866         -62.7686        -179.701       -0.0116452         148.536
0.54                   -0.293939        -138.623         -62.4631         178.324         -62.4571         178.485       -0.0117648         148.467
0.541                  -0.300004        -139.107         -62.1571         176.597         -62.1519         176.754       -0.0118849         148.398
0.542                  -0.306136        -139.595         -61.8575         174.946          -61.853         175.097       -0.0120056          148.33
0.543                  -0.312339        -140.087         -61.5642         173.362         -61.5604         173.509       -0.0121268         148.261
0.544                  -0.318617        -140.583         -61.2772         171.838          -61.274         171.981       -0.0122486         148.192
0.545                  -0.324975        -141.084         -60.9961          170.37         -60.9935         170.508       -0.0123709         148.123
0.546                  -0.331418        -141.589          -60.721          168.95         -60.7188         169.084       -0.0124937         148.053
0.547                   -0.33795        -142.098         -60.4515         167.575         -60.4498         167.705        -0.012617         147.984
0.548                  -0.344577        -142.611         -60.1874         166.241         -60.1861         166.366       -0.0127408         147.915
0.549                  -0.351304        -143.129         -59.9286         164.942         -59.9276         165.064       -0.0128651         147.845
0.55                   -0.358136        -143.652         -59.6747         163.676         -59.6741         163.794       -0.0129899         147.776
0.551                  -0.365079        -144.179         -59.4256          162.44         -59.4253         162.553       -0.0131152         147.706
0.552                   -0.37214        -144.711         -59.1811          161.23          -59.181          161.34       -0.0132409         147.636
0.553                  -0.379325        -145.248         -58.9408         160.043          -58.941          160.15       -0.0133671         147.566
0.554                  -0.386641         -145.79         -58.7047         158.878          -58.705         158.981       -0.0134938         147.496
0.555                  -0.394095        -146.337         -58.4724         157.733          -58.473         157.832       -0.0136208         147.426
0.556                  -0.401694         -146.89         -58.2439         156.605         -58.2446         156.701       -0.0137483         147.356
0.557                  -0.409446        -147.447         -58.0189         155.492         -58.0197         155.585       -0.0138762         147.286
0.558                   -0.41736         -148.01         -57.7972         154.393         -57.7981         154.483       -0.0140045         147.215
0.559                  -0.425444        -148.578         -57.5786         153.306         -57.5797         153.393       -0.0141332         147.144
0.56                   -0.433707        -149.152          -57.363          152.23         -57.3642         152.314       -0.0142623         147.074
0.561                  -0.442159        -149.732         -57.1501         151.163         -57.1514         151.244       -0.0143917         147.003
0.562                  -0.450809        -150.317           -56.94         150.105         -56.9413         150.183       -0.0145215         146.932
0.563                   -0.45967        -150.908         -56.7323         149.054         -56.7337         149.129       -0.0146517         146.861
0.564                  -0.468751        -151.505         -56.5269         148.009         -56.5284         148.082       -0.0147821          146.79
0.565                  -0.478065        -152.109         -56.3238         146.969         -56.3253         147.039       -0.0149129         146.718
0.566                  -0.487623        -152.719         -56.1227         145.933         -56.1242         146.001        -0.015044         146.647
0.567                   -0.49744        -153.335         -55.9235           144.9         -55.9251         144.966       -0.0151754         146.575
0.568                  -0.507528        -153.958         -55.7261         143.871         -55.7278         143.934       -0.0153071         146.503
0.569                  -0.517903        -154.587         -55.5305         142.843         -55.5321         142.904       -0.0154391         146.431
0.57                    -0.52858        -155.224         -55.3364         141.816          -55.338         141.875       -0.0155714         146.359
0.571                  -0.539575        -155.867         -55.1437         140.789         -55.1454         140.846        -0.015704         146.287
0.572                  -0.550905        -156.518         -54.9524         139.762         -54.9541         139.817       -0.0158368         146.215
0.573                  -0.562588        -157.176         -54.7624         138.734         -54.7641         138.787         -0.01597         146.142
0.574                  -0.574645        -157.841         -54.5735         137.705         -54.5752         137.756       -0.0161034          146.07
0.575                  -0.587094        -158.514         -54.3857         136.674         -54.3873         136.723       -0.0162372         145.997
0.576                  -0.599957        -159.195         -54.1988          135.64         -54.2004         135.688       -0.0163712         145.924
0.577                  -0.613258        -159.884         -54.0128         134.603         -54.0144         134.649       -0.0165056         145.851
0.578                   -0.62702        -160.581         -53.8276         133.563         -53.8292         133.607       -0.0166404         145.778
0.579                  -0.641269        -161.287         -53.6432         132.518         -53.6447          132.56       -0.0167756         145.705
0.58                   -0.656033        -162.001         -53.4593         131.469         -53.4609          131.51       -0.0169111         145.631
0.581                  -0.671338        -162.724          -53.276         130.415         -53.2776         130.454       -0.0170471         145.558
0.582                  -0.687218        -163.456         -53.0933         129.355         -53.0948         129.393       -0.0171836         145.484
0.583                  -0.703703        -164.198         -52.9109          128.29         -52.9124         128.325       -0.0173206          145.41
0.584                  -0.720828        -164.948         -52.7289         127.218         -52.7303         127.252       -0.0174582         145.336
0.585                   -0.73863        -165.709         -52.5472         126.139         -52.5486         126.172       -0.0175965         145.261
0.586                  -0.757147        -166.479         -52.3657         125.052         -52.3671         125.084       -0.0177355         145.187
0.587                  -0.776421         -167.26         -52.1844         123.958         -52.1857         123.989       -0.0178753         145.112
0.588                  -0.796496        -168.051         -52.0032         122.856         -52.0045         122.885        -0.018016         145.038
0.589                  -0.817419        -168.853         -51.8221         121.745         -51.8234         121.773       -0.0181576         144.963
0.59                    -0.83924        -169.666          -51.641         120.626         -51.6422         120.652       -0.0183004         144.887
0.591                  -0.862011         -170.49         -51.4599         119.496         -51.4611         119.522       -0.0184443         144.812
0.592                   -0.88579        -171.325         -51.2787         118.357         -51.2798         118.381       -0.0185895         144.736
0.593                  -0.910636        -172.172         -51.0974         117.207         -51.0985         117.231       -0.0187361         144.661
0.594                  -0.936615        -173.032         -50.9159         116.047         -50.9169         116.069       -0.0188843         144.585
0.595                  -0.963794        -173.904         -50.7342         114.875         -50.7352         114.897       -0.0190342         144.509
0.596                  -0.992248        -174.788         -50.5524         113.692         -50.5533         113.712        -0.019186         144.432
0.597                   -1.02205        -175.686         -50.3702         112.497         -50.3711         112.516       -0.0193397         144.356
0.598                    -1.0533        -176.597         -50.1878         111.288         -50.1887         111.307       -0.0194956         144.279
0.599                   -1.08607        -177.521         -50.0051         110.067         -50.0059         110.085       -0.0196538         144.202
0.6                     -1.12046        -178.459         -49.8221         108.832         -49.8229         108.849       -0.0198145         144.125
0.601                   -1.15657        -179.412         -49.6387         107.584         -49.6395         107.599       -0.0199778         144.048
0.602                   -1.19452         179.621          -49.455          106.32         -49.4557         106.335        -0.020144         143.971
0.603                   -1.23442         178.638         -49.2709         105.041         -49.2716         105.055       -0.0203131         143.893
0.604                   -1.27639         177.641         -49.0865         103.747         -49.0872          103.76       -0.0204854         143.815
0.605                   -1.32058         176.628         -48.9017         102.437         -48.9023         102.449       -0.0206611         143.737
0.606                   -1.36712         175.599         -48.7166          101.11         -48.7172         101.122       -0.0208403         143.659
0.607                   -1.41617         174.554         -48.5312         99.7661         -48.5317         99.7771       -0.0210231          143.58
0.608                   -1.46789         173.492         -48.3454         98.4043         -48.3459         98.4146       -0.0212098         143.501
0.609                   -1.52245         172.414         -48.1593         97.0243         -48.1597          97.034       -0.0214005         143.422
0.61                    -1.58006         171.318         -47.9729         95.6255         -47.9733         95.6345       -0.0215953         143.343
0.611                   -1.64091         170.205         -47.7863         94.2073         -47.7867         94.2158       -0.0217944         143.264
0.612                   -1.70522         169.075         -47.5995         92.7693         -47.5999         92.7771       -0.0219979         143.184
0.613                   -1.77321         167.928         -47.4126         91.3108         -47.4129          91.318        -0.022206         143.104
0.614                   -1.84515         166.762         -47.2256         89.8312         -47.2259          89.838       -0.0224187         143.024
0.615                    -1.9213         165.579         -47.0385         88.3302         -47.0388         88.3364       -0.0226363         142.944
0.616                   -2.00193         164.378         -46.8515          86.807         -46.8517         86.8128       -0.0228587         142.863
0.617                   -2.08736         163.159         -46.6646         85.2613         -46.6648         85.2665        -0.023086         142.782
0.618                   -2.17792         161.923         -46.4779         83.6924         -46.4781         83.6972       -0.0233185         142.701
0.619                   -2.27395          160.67         -46.2915            82.1         -46.2917         82.1043        -0.023556          142.62
0.62                    -2.37582         159.399         -46.1056         80.4834         -46.1057         80.4874       -0.0237988         142.538
0.621                   -2.48394         158.112         -45.9201         78.8424         -45.9202         78.8459       -0.0240468         142.456
0.622                   -2.59873         156.809         -45.7353         77.1764         -45.7354         77.1796       -0.0243001         142.374
0.623                   -2.72064         155.491         -45.5513         75.4852         -45.5514          75.488       -0.0245588         142.292
0.624                   -2.85015          154.16         -45.3682         73.7683         -45.3683         73.7708       -0.0248228          142.21
0.625                   -2.98777         152.815         -45.1862         72.0256         -45.1863         72.0277       -0.0250923         142.127
0.626                   -3.13405          151.46         -45.0055         70.2568         -45.0055         70.2586       -0.0253672         142.044
0.627                   -3.28956         150.095         -44.8261         68.4618         -44.8262         68.4633       -0.0256476         141.961
0.628                   -3.45492         148.723         -44.6484         66.6406         -44.6484         66.6418       -0.0259335         141.877
0.629                   -3.63076         147.347         -44.4725         64.7931         -44.4725         64.7941        -0.026225         141.793
