! TOUCHSTONE file generated by CST MICROWAVE STUDIO
! Date and time: Mon Nov 30 08:35:35 2020
! Project name: Scenario_1_Planar_Body_Tissue_Out_of_Line.cst
! Parameters = {dy1=-51.9; L_HA=400; Ltissue=700; MT=2.54; Rad_Dielectric=30; Rad_Lower=7.3; Rad_Upper=30; Wtissue=700; a_HA=580; a_WG=246; b_HA=500; b_WG=121; c_HA=0; c_WG=187; d_feed=85; dx1=866; h_feed=15; h_lower=18; h_upper=40; hfat=3; hgap=25; hmuscle=50; hskin=1.5}
! Header version: 2018
! Port assignment regex: !\s*Touchstone port\s*([0-9]+)\s*=\s*(CST MWS port|CST DS port)\s*([0-9]+|Zmin|Zmax)\s*\(\"(.*)\"\)(\s*mode\s*([0-9]+))?.*
! Touchstone port assignment:
! Touchstone port 1 = CST MWS port 1 ("")
! Touchstone port 2 = CST MWS port 2 ("")
# GHz S DB R 50
0.5                   -0.0990889        -122.118         -63.5263         106.976         -63.5264         106.976       -0.0075002         151.148
0.501                  -0.104031        -122.508         -63.6869         106.412         -63.6868         106.408      -0.00757911         151.083
0.502                   -0.10901        -122.901         -63.8542         105.829         -63.8539         105.821      -0.00765828         151.018
0.503                  -0.114029        -123.295         -64.0285         105.225         -64.0279         105.214      -0.00773774         150.953
0.504                  -0.119088        -123.692         -64.2102         104.598         -64.2094         104.583      -0.00781747         150.887
0.505                  -0.124188        -124.091         -64.3998         103.947         -64.3987         103.928      -0.00789751         150.822
0.506                   -0.12933        -124.493         -64.5979         103.268         -64.5964         103.244      -0.00797785         150.756
0.507                  -0.134515        -124.896         -64.8049         102.559          -64.803         102.531      -0.00805851         150.691
0.508                  -0.139744        -125.303         -65.0215         101.816         -65.0191         101.784       -0.0081395         150.625
0.509                  -0.145019        -125.711         -65.2482         101.037         -65.2453             101      -0.00822083         150.559
0.51                    -0.15034        -126.122         -65.4858         100.216         -65.4824         100.174      -0.00830252         150.493
0.511                   -0.15571        -126.536          -65.735         99.3486         -65.7309         99.3018      -0.00838456         150.428
0.512                  -0.161128        -126.952         -65.9966         98.4295         -65.9919         98.3777      -0.00846698         150.362
0.513                  -0.166598        -127.371         -66.2716          97.452         -66.2661         97.3951      -0.00854979         150.295
0.514                   -0.17212        -127.792         -66.5609         96.4084         -66.5545         96.3462        -0.008633         150.229
0.515                  -0.177696        -128.216         -66.8655         95.2897         -66.8582         95.2221      -0.00871662         150.163
0.516                  -0.183328        -128.643         -67.1866         94.0852         -67.1781         94.0122      -0.00880066         150.097
0.517                  -0.189017        -129.073         -67.5254         92.7822         -67.5156         92.7038      -0.00888513          150.03
0.518                  -0.194766        -129.505          -67.883         91.3657         -67.8719         91.2819      -0.00897006         149.964
0.519                  -0.200576        -129.941         -68.2609         89.8175         -68.2481         89.7283      -0.00905544         149.897
0.52                   -0.206449        -130.379         -68.6604         88.1157         -68.6458         88.0215       -0.0091413          149.83
0.521                  -0.212388         -130.82         -69.0827         86.2337          -69.066         86.1349      -0.00922764         149.764
0.522                  -0.218396        -131.264         -69.5289         84.1393         -69.5098         84.0365      -0.00931448         149.697
0.523                  -0.224474        -131.712         -69.9999          81.793         -69.9781         81.6874      -0.00940184          149.63
0.524                  -0.230624        -132.162         -70.4959         79.1469         -70.4709         79.0399      -0.00948972         149.563
0.525                  -0.236851        -132.616         -71.0159         76.1423         -70.9874         76.0363      -0.00957815         149.496
0.526                  -0.243157        -133.073         -71.5577          72.709         -71.5251         72.6073      -0.00966712         149.429
0.527                  -0.249545        -133.533         -72.1159          68.764         -72.0789         68.6713      -0.00975667         149.361
0.528                  -0.256018        -133.997         -72.6816          64.213         -72.6396         64.1358       -0.0098468         149.294
0.529                  -0.262579        -134.464         -73.2397         58.9565         -73.1927         58.9036      -0.00993753         149.226
0.53                   -0.269233        -134.934         -73.7676          52.904         -73.7156         52.8861       -0.0100289         149.159
0.531                  -0.275983        -135.409         -74.2334         45.9995         -74.1773          46.029       -0.0101208         149.091
0.532                  -0.282834        -135.886         -74.5968          38.261         -74.5384         38.3498       -0.0102134         149.023
0.533                   -0.28979        -136.368         -74.8147          29.822         -74.7565         29.9775       -0.0103067         148.955
0.534                  -0.296855        -136.853         -74.8509         20.9498         -74.7962          21.172       -0.0104006         148.887
0.535                  -0.304034        -137.343         -74.6887         12.0132         -74.6404         12.2925       -0.0104953         148.819
0.536                  -0.311334        -137.836          -74.337         3.39694         -74.2972         3.71631       -0.0105906         148.751
0.537                  -0.318759        -138.333          -73.827        -4.59304         -73.7964        -4.25279       -0.0106867         148.683
0.538                  -0.326315        -138.835         -73.2011         -11.781         -73.1792        -11.4369       -0.0107835         148.615
0.539                  -0.334009        -139.341         -72.5014        -18.1164         -72.4872        -17.7811        -0.010881         148.546
0.54                   -0.341848        -139.851         -71.7627        -23.6367         -71.7548        -23.3179       -0.0109793         148.477
0.541                  -0.349838        -140.366         -71.0106         -28.425         -71.0077         -28.127       -0.0110785         148.409
0.542                  -0.357988        -140.885         -70.2625        -32.5803         -70.2634        -32.3046       -0.0111784          148.34
0.543                  -0.366306        -141.408          -69.529        -36.1998         -69.5328        -35.9464       -0.0112791         148.271
0.544                    -0.3748        -141.937         -68.8166        -39.3707         -68.8226        -39.1387       -0.0113807         148.202
0.545                  -0.383481         -142.47         -68.1285        -42.1676         -68.1361        -41.9558       -0.0114832         148.133
0.546                  -0.392358        -143.009         -67.4659        -44.6531         -67.4747          -44.46       -0.0115865         148.064
0.547                  -0.401441        -143.552         -66.8292        -46.8789         -66.8387         -46.703       -0.0116907         147.994
0.548                  -0.410744        -144.101         -66.2176        -48.8872         -66.2277        -48.7272       -0.0117959         147.925
0.549                  -0.420277        -144.655         -65.6302        -50.7132         -65.6406        -50.5677        -0.011902         147.855
0.55                   -0.430055        -145.215         -65.0658        -52.3857         -65.0764        -52.2534       -0.0120091         147.786
0.551                  -0.440091         -145.78         -64.5232        -53.9284         -64.5338        -53.8082       -0.0121171         147.716
0.552                  -0.450402        -146.351         -64.0011        -55.3613         -64.0117        -55.2523       -0.0122261         147.646
0.553                  -0.461002        -146.928         -63.4983        -56.7012         -63.5087        -56.6025       -0.0123362         147.576
0.554                  -0.471911        -147.511         -63.0137        -57.9622         -63.0238        -57.8729       -0.0124473         147.506
0.555                  -0.483148        -148.101          -62.546        -59.1563         -62.5559        -59.0756       -0.0125595         147.436
0.556                  -0.494732        -148.696         -62.0944        -60.2939          -62.104        -60.2212       -0.0126728         147.365
0.557                  -0.506686        -149.299         -61.6579         -61.384         -61.6671        -61.3186       -0.0127872         147.295
0.558                  -0.519035        -149.908         -61.2355        -62.4344         -61.2444        -62.3758       -0.0129027         147.224
0.559                  -0.531804        -150.524         -60.8266         -63.452          -60.835        -63.3997       -0.0130194         147.153
0.56                    -0.54502        -151.148         -60.4303         -64.443         -60.4383        -64.3964       -0.0131373         147.082
0.561                  -0.558715        -151.778          -60.046        -65.4129         -60.0536        -65.3716       -0.0132563         147.011
0.562                   -0.57292        -152.417         -59.6731        -66.3666         -59.6802        -66.3301       -0.0133767          146.94
0.563                  -0.587672        -153.063         -59.3109        -67.3086         -59.3176        -67.2766       -0.0134983         146.869
0.564                  -0.603008        -153.717         -58.9589        -68.2432         -58.9652        -68.2153       -0.0136211         146.797
0.565                  -0.618971         -154.38         -58.6167        -69.1742         -58.6225        -69.1499       -0.0137453         146.726
0.566                  -0.635605        -155.051         -58.2837         -70.105         -58.2891        -70.0841       -0.0138709         146.654
0.567                   -0.65296         -155.73         -57.9596        -71.0392         -57.9645        -71.0213       -0.0139978         146.582
0.568                  -0.671089        -156.419         -57.6438        -71.9797         -57.6483        -71.9646       -0.0141262         146.511
0.569                   -0.69005        -157.117         -57.3361        -72.9297         -57.3401        -72.9171       -0.0142559         146.438
0.57                   -0.709906        -157.824          -57.036         -73.892         -57.0396        -73.8815       -0.0143872         146.366
0.571                  -0.730726        -158.541         -56.7432        -74.8693         -56.7464        -74.8607         -0.01452         146.294
0.572                  -0.752585        -159.269         -56.4573        -75.8642         -56.4601        -75.8573       -0.0146543         146.221
0.573                  -0.775564        -160.006         -56.1781        -76.8793         -56.1805        -76.8739       -0.0147901         146.149
0.574                  -0.799754        -160.754         -55.9052         -77.917         -55.9073        -77.9128       -0.0149276         146.076
0.575                  -0.825251        -161.513         -55.6383        -78.9796         -55.6401        -78.9765       -0.0150668         146.003
0.576                  -0.852162        -162.283         -55.3772        -80.0694         -55.3786        -80.0672       -0.0152076          145.93
0.577                  -0.880603        -163.064         -55.1215        -81.1887         -55.1226        -81.1872       -0.0153502         145.857
0.578                    -0.9107        -163.857          -54.871        -82.3396         -54.8718        -82.3386       -0.0154945         145.783
0.579                  -0.942593        -164.662         -54.6255        -83.5241          -54.626        -83.5236       -0.0156407          145.71
0.58                   -0.976432        -165.479         -54.3846        -84.7444         -54.3848        -84.7442       -0.0157887         145.636
0.581                   -1.01238        -166.308         -54.1481        -86.0023         -54.1481        -86.0023       -0.0159387         145.562
0.582                   -1.05063        -167.149         -53.9157        -87.2997         -53.9156        -87.2998       -0.0160906         145.488
0.583                   -1.09137        -168.002         -53.6874        -88.6384          -53.687        -88.6386       -0.0162445         145.414
0.584                   -1.13481        -168.868         -53.4627        -90.0203         -53.4622        -90.0204       -0.0164005         145.339
0.585                   -1.18119        -169.745         -53.2415        -91.4468         -53.2408        -91.4468       -0.0165587         145.265
0.586                   -1.23076        -170.635         -53.0236        -92.9197         -53.0228        -92.9196        -0.016719          145.19
0.587                   -1.28381        -171.537         -52.8088        -94.4405         -52.8079        -94.4402       -0.0168817         145.115
0.588                   -1.34062         -172.45         -52.5968        -96.0105         -52.5959          -96.01       -0.0170466          145.04
0.589                   -1.40153        -173.373         -52.3876         -97.631         -52.3865        -97.6303        -0.017214         144.965
0.59                    -1.46687        -174.306         -52.1809        -99.3033         -52.1798        -99.3024       -0.0173838          144.89
0.591                   -1.53703        -175.247         -51.9765        -101.028         -51.9754        -101.027       -0.0175562         144.814
0.592                   -1.61239        -176.196         -51.7744        -102.808         -51.7733        -102.806       -0.0177312         144.739
0.593                   -1.69336         -177.15         -51.5743        -104.641         -51.5733         -104.64        -0.017909         144.663
0.594                   -1.78039        -178.106         -51.3763         -106.53         -51.3753        -106.529       -0.0180896         144.587
0.595                   -1.87392        -179.063         -51.1802        -108.476         -51.1792        -108.474       -0.0182732          144.51
0.596                   -1.97439         179.983         -50.9858        -110.477         -50.9849        -110.476       -0.0184597         144.434
0.597                   -2.08227         179.037         -50.7933        -112.536         -50.7924        -112.534       -0.0186494         144.357
0.598                   -2.19797         178.102         -50.6024        -114.651         -50.6016         -114.65       -0.0188423          144.28
0.599                   -2.32189         177.185         -50.4133        -116.824         -50.4126        -116.822       -0.0190386         144.203
0.6                     -2.45436         176.292          -50.226        -119.052         -50.2253        -119.051       -0.0192383         144.126
0.601                   -2.59563          175.43         -50.0404        -121.338         -50.0398        -121.336       -0.0194416         144.049
0.602                   -2.74582         174.609         -49.8566        -123.678         -49.8561        -123.677       -0.0196486         143.971
0.603                   -2.90487         173.837         -49.6747        -126.073         -49.6743        -126.072       -0.0198594         143.893
0.604                   -3.07253         173.125         -49.4949        -128.522         -49.4945        -128.522        -0.020074         143.815
0.605                   -3.24824         172.485         -49.3171        -131.024         -49.3169        -131.023       -0.0202927         143.737
0.606                   -3.43115         171.927         -49.1417        -133.576         -49.1415        -133.576       -0.0205154         143.659
0.607                   -3.61998         171.465         -48.9687        -136.178         -48.9686        -136.177       -0.0207423          143.58
0.608                   -3.81305         171.109         -48.7984        -138.826         -48.7984        -138.826       -0.0209734         143.501
0.609                   -4.00818         170.871         -48.6309         -141.52         -48.6309         -141.52       -0.0212087         143.422
0.61                    -4.20272         170.758         -48.4664        -144.256         -48.4665        -144.257       -0.0214483         143.343
0.611                   -4.39354         170.777         -48.3051        -147.032         -48.3053        -147.033       -0.0216922         143.264
0.612                   -4.57717         170.928         -48.1474        -149.846         -48.1476        -149.846       -0.0219403         143.184
0.613                   -4.74988         171.209         -47.9933        -152.693         -47.9935        -152.693       -0.0221927         143.104
0.614                    -4.9079         171.612         -47.8431         -155.57         -47.8433        -155.571       -0.0224491         143.024
0.615                   -5.04767          172.12         -47.6971        -158.476         -47.6973        -158.476       -0.0227096         142.944
0.616                   -5.16606         172.714         -47.5553        -161.404         -47.5555        -161.405        -0.022974         142.863
0.617                   -5.26068         173.368          -47.418        -164.353         -47.4182        -164.353       -0.0232422         142.782
0.618                   -5.33004         174.055         -47.2853        -167.317         -47.2855        -167.318        -0.023514         142.702
0.619                   -5.37366         174.744         -47.1574        -170.294         -47.1575        -170.295       -0.0237893          142.62
0.62                    -5.39212         175.405         -47.0343        -173.279         -47.0344         -173.28       -0.0240679         142.539
0.621                   -5.38692         176.012         -46.9161        -176.269         -46.9161        -176.269       -0.0243498         142.457
0.622                   -5.36033         176.542         -46.8029        -179.259         -46.8029        -179.259       -0.0246348         142.375
0.623                   -5.31515         176.976         -46.6946         177.754         -46.6945         177.755       -0.0249227         142.293
0.624                   -5.25447         177.301         -46.5913         174.775         -46.5911         174.776       -0.0252136         142.211
0.625                   -5.18146         177.509         -46.4929         171.806         -46.4926         171.807       -0.0255073         142.128
0.626                    -5.0992         177.596         -46.3993         168.851         -46.3989         168.853       -0.0258038         142.045
0.627                    -5.0105         177.562         -46.3103         165.913         -46.3098         165.915       -0.0261033         141.962
0.628                   -4.91789         177.409         -46.2258         162.996         -46.2252         162.998       -0.0264056         141.879
0.629                   -4.82355         177.143         -46.1456         160.101         -46.1449         160.104       -0.0267109         141.795
