! TOUCHSTONE file generated by CST MICROWAVE STUDIO
! Date and time: Mon Nov 30 09:08:17 2020
! Project name: Scenario_1_Planar_Body_Tissue_Out_of_Line_v2.cst
! Parameters = {dy1=-34.6; L_HA=400; Ltissue=700; MT=2.54; Rad_Dielectric=30; Rad_Lower=7.3; Rad_Upper=30; Wtissue=700; a_HA=580; a_WG=246; b_HA=500; b_WG=121; c_HA=0; c_WG=187; d_feed=85; dx1=346; h_feed=15; h_lower=18; h_upper=40; hfat=3; hgap=25; hmuscle=50; hskin=1.5}
! Header version: 2018
! Port assignment regex: !\s*Touchstone port\s*([0-9]+)\s*=\s*(CST MWS port|CST DS port)\s*([0-9]+|Zmin|Zmax)\s*\(\"(.*)\"\)(\s*mode\s*([0-9]+))?.*
! Touchstone port assignment:
! Touchstone port 1 = CST MWS port 1 ("")
! Touchstone port 2 = CST MWS port 2 ("")
# GHz S DB R 50
0.5                    -0.294612        -121.766         -55.0966         35.7882         -55.0966         35.7883      -0.00800143         151.156
0.501                  -0.294514        -122.166         -55.1773         34.7635         -55.1773         34.7654      -0.00806144          151.09
0.502                  -0.294461        -122.569         -55.2554           33.71         -55.2556         33.7135      -0.00812204         151.025
0.503                  -0.294456        -122.974         -55.3308         32.6276         -55.3312         32.6327      -0.00818323          150.96
0.504                  -0.294499        -123.382         -55.4034         31.5166         -55.4039         31.5232      -0.00824503         150.895
0.505                  -0.294592        -123.793         -55.4729         30.3773         -55.4736         30.3852      -0.00830742         150.829
0.506                  -0.294737        -124.206         -55.5391         29.2099           -55.54          29.219      -0.00837043         150.764
0.507                  -0.294935        -124.622         -55.6019         28.0149          -55.603         28.0251      -0.00843404         150.698
0.508                  -0.295189        -125.041          -55.661         26.7927         -55.6623         26.8039      -0.00849827         150.633
0.509                  -0.295499        -125.462         -55.7163         25.5438         -55.7177          25.556      -0.00856311         150.567
0.51                   -0.295869        -125.886         -55.7676         24.2689         -55.7692         24.2819      -0.00862858         150.501
0.511                    -0.2963        -126.314         -55.8146         22.9687         -55.8164         22.9823      -0.00869467         150.435
0.512                  -0.296795        -126.744         -55.8573          21.644         -55.8593         21.6582      -0.00876139         150.369
0.513                  -0.297355        -127.177         -55.8954         20.2956         -55.8975         20.3103      -0.00882874         150.303
0.514                  -0.297983        -127.613         -55.9287         18.9246          -55.931         18.9397      -0.00889673         150.237
0.515                  -0.298681        -128.052         -55.9571          17.532         -55.9596         17.5473      -0.00896536         150.171
0.516                  -0.299451        -128.494         -55.9804         16.1189         -55.9831         16.1343      -0.00903464         150.105
0.517                  -0.300298         -128.94         -55.9985         14.6864         -56.0014         14.7019      -0.00910456         150.038
0.518                  -0.301222        -129.388         -56.0113         13.2359         -56.0143         13.2513      -0.00917515         149.972
0.519                  -0.302228         -129.84         -56.0186         11.7687         -56.0218         11.7839      -0.00924638         149.905
0.52                   -0.303318        -130.295         -56.0203         10.2861         -56.0236         10.3011      -0.00931829         149.839
0.521                  -0.304495        -130.754         -56.0164         8.78954         -56.0198         8.80424      -0.00939086         149.772
0.522                  -0.305763        -131.216         -56.0067         7.28051         -56.0103         7.29481       -0.0094641         149.705
0.523                  -0.307124        -131.682         -55.9911         5.76047         -55.9949         5.77429      -0.00953802         149.638
0.524                  -0.308584        -132.151         -55.9698         4.23091         -55.9736         4.24421      -0.00961262         149.571
0.525                  -0.310146        -132.624         -55.9425         2.69335         -55.9464         2.70605      -0.00968792         149.504
0.526                  -0.311813          -133.1         -55.9093         1.14929         -55.9133         1.16135       -0.0097639         149.437
0.527                  -0.313589         -133.58         -55.8702       -0.399795         -55.8743       -0.388415      -0.00984058          149.37
0.528                  -0.315481        -134.064         -55.8253        -1.95243         -55.8294        -1.94176      -0.00991797         149.302
0.529                  -0.317491        -134.552         -55.7745        -3.50719         -55.7786        -3.49726      -0.00999606         149.235
0.53                   -0.319625        -135.044         -55.7178        -5.06268          -55.722        -5.05352       -0.0100749         149.167
0.531                  -0.321888         -135.54         -55.6555        -6.61758         -55.6597        -6.60919       -0.0101544           149.1
0.532                  -0.324285         -136.04         -55.5875         -8.1706         -55.5917          -8.163       -0.0102346         149.032
0.533                  -0.326823        -136.545         -55.5139        -9.72055         -55.5181        -9.71373       -0.0103156         148.964
0.534                  -0.329506        -137.053         -55.4348        -11.2663          -55.439        -11.2602       -0.0103973         148.896
0.535                  -0.332342        -137.566         -55.3503        -12.8067         -55.3545        -12.8015       -0.0104798         148.828
0.536                  -0.335338        -138.084         -55.2606         -14.341         -55.2648        -14.3364        -0.010563          148.76
0.537                  -0.338499        -138.606         -55.1658        -15.8681         -55.1699        -15.8643        -0.010647         148.692
0.538                  -0.341834        -139.133         -55.0659        -17.3872           -55.07        -17.3841       -0.0107317         148.623
0.539                  -0.345351        -139.664         -54.9612        -18.8978         -54.9652        -18.8953       -0.0108172         148.555
0.54                   -0.349057        -140.201         -54.8518         -20.399         -54.8557        -20.3973       -0.0109035         148.486
0.541                  -0.352962        -140.742         -54.7378        -21.8905         -54.7416        -21.8893       -0.0109906         148.418
0.542                  -0.357074        -141.288         -54.6193        -23.3718          -54.623        -23.3712       -0.0110784         148.349
0.543                  -0.361404         -141.84         -54.4965        -24.8424         -54.5001        -24.8424       -0.0111671          148.28
0.544                  -0.365962        -142.397         -54.3695        -26.3022         -54.3731        -26.3026       -0.0112565         148.211
0.545                  -0.370758        -142.959         -54.2386        -27.7509          -54.242        -27.7518       -0.0113468         148.142
0.546                  -0.375806        -143.527         -54.1037        -29.1885          -54.107        -29.1898       -0.0114379         148.073
0.547                  -0.381116        -144.101          -53.965        -30.6148         -53.9683        -30.6165       -0.0115298         148.004
0.548                  -0.386702         -144.68         -53.8228          -32.03         -53.8259         -32.032       -0.0116226         147.934
0.549                  -0.392578        -145.266          -53.677         -33.434           -53.68        -33.4363       -0.0117162         147.865
0.55                   -0.398758        -145.857         -53.5278        -34.8271         -53.5307        -34.8297       -0.0118106         147.795
0.551                  -0.405259        -146.455         -53.3753        -36.2094         -53.3781        -36.2123       -0.0119059         147.725
0.552                  -0.412097        -147.059         -53.2197        -37.5813         -53.2224        -37.5844       -0.0120021         147.655
0.553                   -0.41929         -147.67          -53.061         -38.943         -53.0636        -38.9463       -0.0120992         147.585
0.554                  -0.426857        -148.287         -52.8994         -40.295         -52.9018        -40.2983       -0.0121972         147.515
0.555                  -0.434818        -148.912         -52.7348        -41.6376         -52.7372         -41.641        -0.012296         147.445
0.556                  -0.443194        -149.543         -52.5675        -42.9713         -52.5698        -42.9748       -0.0123958         147.375
0.557                  -0.452009        -150.182         -52.3974        -44.2965         -52.3996           -44.3       -0.0124966         147.304
0.558                  -0.461287        -150.828         -52.2248        -45.6138         -52.2268        -45.6174       -0.0125982         147.234
0.559                  -0.471054        -151.481         -52.0495        -46.9237         -52.0514        -46.9273       -0.0127008         147.163
0.56                   -0.481338        -152.143         -51.8717        -48.2269         -51.8736        -48.2305       -0.0128044         147.092
0.561                   -0.49217        -152.813         -51.6915        -49.5239         -51.6932        -49.5275        -0.012909         147.021
0.562                  -0.503581         -153.49         -51.5088        -50.8154         -51.5105        -50.8189       -0.0130146          146.95
0.563                  -0.515607        -154.177         -51.3238         -52.102         -51.3254        -52.1055       -0.0131211         146.879
0.564                  -0.528283        -154.872         -51.1365        -53.3845          -51.138        -53.3878       -0.0132287         146.807
0.565                  -0.541649        -155.576         -50.9469        -54.6635         -50.9483        -54.6667       -0.0133374         146.736
0.566                  -0.555749         -156.29          -50.755        -55.9397         -50.7563        -55.9429       -0.0134471         146.664
0.567                  -0.570627        -157.012         -50.5609         -57.214         -50.5621         -57.217       -0.0135579         146.592
0.568                  -0.586333        -157.745         -50.3646        -58.4871         -50.3657          -58.49       -0.0136698         146.521
0.569                   -0.60292        -158.488         -50.1661        -59.7597         -50.1671        -59.7625       -0.0137829         146.448
0.57                   -0.620445        -159.241         -49.9654        -61.0328         -49.9664        -61.0354       -0.0138971         146.376
0.571                  -0.638969        -160.004         -49.7626        -62.3071         -49.7635        -62.3096       -0.0140125         146.304
0.572                  -0.658558        -160.779         -49.5576        -63.5836         -49.5584        -63.5859       -0.0141291         146.231
0.573                  -0.679285        -161.565         -49.3505         -64.863         -49.3513        -64.8652        -0.014247         146.159
0.574                  -0.701226        -162.362         -49.1412        -66.1463         -49.1419        -66.1484       -0.0143662         146.086
0.575                  -0.724466        -163.172         -48.9299        -67.4345         -48.9305        -67.4364       -0.0144867         146.013
0.576                  -0.749093        -163.993         -48.7164        -68.7285         -48.7169        -68.7302       -0.0146085          145.94
0.577                  -0.775207        -164.828         -48.5007        -70.0292         -48.5012        -70.0308       -0.0147318         145.867
0.578                  -0.802912        -165.675          -48.283        -71.3378         -48.2834        -71.3392       -0.0148565         145.793
0.579                  -0.832325        -166.535         -48.0631        -72.6552         -48.0635        -72.6565       -0.0149828          145.72
0.58                    -0.86357        -167.409         -47.8412        -73.9826         -47.8415        -73.9837       -0.0151106         145.646
0.581                  -0.896781        -168.298         -47.6171         -75.321         -47.6174         -75.322         -0.01524         145.572
0.582                  -0.932106          -169.2         -47.3909        -76.6715         -47.3912        -76.6724       -0.0153712         145.498
0.583                  -0.969705        -170.117         -47.1627        -78.0355         -47.1629        -78.0362       -0.0155042         145.424
0.584                   -1.00975         -171.05         -46.9324         -79.414         -46.9325        -79.4147        -0.015639         145.349
0.585                   -1.05243        -171.997            -46.7        -80.8085         -46.7001         -80.809       -0.0157758         145.275
0.586                   -1.09796        -172.961         -46.4656        -82.2201         -46.4657        -82.2205       -0.0159147           145.2
0.587                   -1.14654         -173.94         -46.2292        -83.6502         -46.2293        -83.6505       -0.0160557         145.125
0.588                   -1.19844        -174.936         -45.9909        -85.1002         -45.9909        -85.1005       -0.0161991          145.05
0.589                   -1.25391        -175.948         -45.7506        -86.5716         -45.7506        -86.5718       -0.0163449         144.975
0.59                    -1.31324        -176.976         -45.5085        -88.0659         -45.5085         -88.066       -0.0164932         144.899
0.591                   -1.37676        -178.022         -45.2646        -89.5845         -45.2646        -89.5846       -0.0166444         144.823
0.592                   -1.44479        -179.083          -45.019        -91.1291          -45.019        -91.1291       -0.0167984         144.748
0.593                   -1.51771         179.838         -44.7718        -92.7013         -44.7717        -92.7013       -0.0169555         144.672
0.594                   -1.59594         178.744         -44.5231        -94.3028          -44.523        -94.3027       -0.0171159         144.595
0.595                    -1.6799         177.634          -44.273        -95.9352         -44.2729        -95.9351       -0.0172799         144.519
0.596                   -1.77009         176.509         -44.0216        -97.6002         -44.0215        -97.6001       -0.0174476         144.442
0.597                   -1.86701         175.369         -43.7692        -99.2997         -43.7691        -99.2996       -0.0176193         144.365
0.598                   -1.97124         174.217          -43.516        -101.035         -43.5158        -101.035       -0.0177952         144.288
0.599                   -2.08338         173.053         -43.2621        -102.809         -43.2619        -102.809       -0.0179757         144.211
0.6                     -2.20409         171.879         -43.0077        -104.623         -43.0076        -104.622        -0.018161         144.134
0.601                   -2.33407         170.698         -42.7533        -106.478         -42.7531        -106.477       -0.0183515         144.056
0.602                   -2.47407         169.513          -42.499        -108.376         -42.4988        -108.376       -0.0185475         143.978
0.603                   -2.62489         168.327         -42.2452        -110.319          -42.245        -110.319       -0.0187492           143.9
0.604                   -2.78738         167.145         -41.9923        -112.308         -41.9921        -112.308       -0.0189571         143.822
0.605                   -2.96243         165.973         -41.7407        -114.346         -41.7406        -114.346       -0.0191714         143.743
0.606                   -3.15095         164.816         -41.4909        -116.432         -41.4907        -116.432       -0.0193924         143.665
0.607                   -3.35388         163.683         -41.2433        -118.569         -41.2432        -118.569       -0.0196206         143.586
0.608                   -3.57216         162.583         -40.9985        -120.757         -40.9984        -120.757       -0.0198561         143.507
0.609                    -3.8067         161.527         -40.7571        -122.996          -40.757        -122.996       -0.0200993         143.427
0.61                    -4.05836         160.529         -40.5196        -125.287         -40.5195        -125.287       -0.0203503         143.348
0.611                   -4.32788         159.602         -40.2867         -127.63         -40.2866         -127.63       -0.0206094         143.268
0.612                   -4.61583         158.766          -40.059        -130.024         -40.0589        -130.024       -0.0208767         143.188
0.613                   -4.92251         158.042         -39.8372        -132.469         -39.8371        -132.469       -0.0211522         143.108
0.614                   -5.24787         157.452          -39.622        -134.961          -39.622        -134.962        -0.021436         143.027
0.615                   -5.59131         157.023         -39.4141        -137.501         -39.4141        -137.501       -0.0217281         142.947
0.616                   -5.95152         156.787         -39.2142        -140.085         -39.2142        -140.085       -0.0220283         142.866
0.617                   -6.32628         156.775         -39.0228        -142.709         -39.0228        -142.709       -0.0223363         142.785
0.618                   -6.71214         157.023         -38.8407        -145.371         -38.8407        -145.371        -0.022652         142.704
0.619                   -7.10416         157.565         -38.6683        -148.065         -38.6683        -148.065       -0.0229749         142.622
0.62                     -7.4956         158.434         -38.5062        -150.787         -38.5063        -150.787       -0.0233047          142.54
0.621                   -7.87774         159.657         -38.3548        -153.532         -38.3549        -153.532        -0.023641         142.459
0.622                   -8.23987         161.248         -38.2145        -156.293         -38.2145        -156.293       -0.0239831         142.377
0.623                   -8.56956         163.206         -38.0853        -159.066         -38.0854        -159.066       -0.0243306         142.294
0.624                    -8.8535         165.505         -37.9676        -161.843         -37.9677        -161.843        -0.024683         142.212
0.625                   -9.07881         168.091         -37.8612        -164.619         -37.8614        -164.618       -0.0250396         142.129
0.626                   -9.23472         170.883         -37.7661        -167.386         -37.7663        -167.386       -0.0253999         142.046
0.627                   -9.31437         173.776         -37.6822         -170.14         -37.6823         -170.14       -0.0257635         141.963
0.628                     -9.316         176.656         -37.6089        -172.874         -37.6091        -172.873       -0.0261299         141.879
0.629                   -9.24324         179.412          -37.546        -175.582         -37.5462        -175.582       -0.0264986         141.796
