! TOUCHSTONE file generated by CST MICROWAVE STUDIO
! Date and time: Sat Nov 14 20:00:48 2020
! Project name: Scenario_1_Planar_Body_Tissue_Out_of_Line.cst
! Parameters = {dy1=34.6; L_HA=400; Ltissue=700; MT=2.54; Rad_Dielectric=30; Rad_Lower=7.3; Rad_Upper=30; Wtissue=700; a_HA=580; a_WG=246; b_HA=500; b_WG=121; c_HA=0; c_WG=187; d_feed=85; dx1=693; h_feed=15; h_lower=18; h_upper=40; hfat=3; hgap=25; hmuscle=50; hskin=1.5}
! Header version: 2018
! Port assignment regex: !\s*Touchstone port\s*([0-9]+)\s*=\s*(CST MWS port|CST DS port)\s*([0-9]+|Zmin|Zmax)\s*\(\"(.*)\"\)(\s*mode\s*([0-9]+))?.*
! Touchstone port assignment:
! Touchstone port 1 = CST MWS port 1 ("")
! Touchstone port 2 = CST MWS port 2 ("")
# GHz S DB R 50
0.5                    -0.209907        -121.524         -60.7811        -170.542         -60.7807        -170.542      -0.00777245         151.143
0.501                  -0.210603         -121.93         -60.6883        -172.457         -60.6875        -172.457      -0.00783551         151.078
0.502                  -0.211313        -122.339         -60.5984        -174.398         -60.5973        -174.399      -0.00789893         151.013
0.503                   -0.21204        -122.751         -60.5119        -176.364         -60.5105        -176.365      -0.00796272         150.947
0.504                  -0.212789        -123.167         -60.4293        -178.351         -60.4277        -178.353       -0.0080269         150.882
0.505                  -0.213562        -123.586         -60.3509         179.644         -60.3491          179.64      -0.00809149         150.817
0.506                  -0.214366        -124.008         -60.2773         177.624         -60.2753         177.619       -0.0081565         150.751
0.507                  -0.215203        -124.434         -60.2087         175.594         -60.2066         175.588      -0.00822194         150.685
0.508                   -0.21608        -124.863         -60.1455         173.559         -60.1433         173.551      -0.00828782          150.62
0.509                  -0.217001        -125.295         -60.0877         171.524         -60.0855         171.515      -0.00835417         150.554
0.51                   -0.217971        -125.732         -60.0356         169.495         -60.0334         169.485        -0.008421         150.488
0.511                  -0.218996        -126.172         -59.9891         167.478          -59.987         167.467      -0.00848831         150.422
0.512                  -0.220081        -126.616         -59.9481         165.478          -59.946         165.467      -0.00855614         150.356
0.513                  -0.221233        -127.064         -59.9123         163.503         -59.9103         163.491      -0.00862448          150.29
0.514                  -0.222459        -127.515         -59.8813         161.557         -59.8795         161.545      -0.00869336         150.224
0.515                  -0.223765        -127.971         -59.8546         159.647          -59.853         159.635      -0.00876278         150.158
0.516                  -0.225159         -128.43         -59.8316         157.778         -59.8301         157.766      -0.00883278         150.091
0.517                  -0.226648        -128.894         -59.8114         155.954         -59.8102         155.943      -0.00890335         150.025
0.518                  -0.228241        -129.362         -59.7934          154.18         -59.7923         154.169      -0.00897451         149.958
0.519                  -0.229945        -129.835         -59.7765         152.458         -59.7756         152.448      -0.00904629         149.892
0.52                   -0.231772        -130.312         -59.7598         150.791         -59.7591         150.783      -0.00911868         149.825
0.521                  -0.233729        -130.793         -59.7423          149.18         -59.7417         149.173      -0.00919172         149.758
0.522                  -0.235829        -131.279          -59.723         147.626         -59.7225         147.621      -0.00926542         149.691
0.523                  -0.238081         -131.77         -59.7008         146.129         -59.7004         146.125      -0.00933978         149.624
0.524                  -0.240498        -132.265         -59.6749         144.686         -59.6745         144.685      -0.00941483         149.557
0.525                  -0.243092        -132.765         -59.6443         143.297         -59.6439         143.298      -0.00949058          149.49
0.526                  -0.245878        -133.271         -59.6081         141.958         -59.6077         141.961      -0.00956705         149.423
0.527                  -0.248869        -133.782         -59.5657         140.667         -59.5652         140.671      -0.00964426         149.356
0.528                  -0.252081        -134.297         -59.5163          139.42         -59.5157         139.425      -0.00972221         149.288
0.529                   -0.25553        -134.819         -59.4593         138.211         -59.4586         138.219      -0.00980094         149.221
0.53                   -0.259236        -135.345         -59.3942         137.038         -59.3934         137.047      -0.00988045         149.153
0.531                  -0.263216        -135.878         -59.3207         135.896         -59.3197         135.906      -0.00996076         149.085
0.532                  -0.267492        -136.416         -59.2384         134.779         -59.2372          134.79       -0.0100419         149.017
0.533                  -0.272085         -136.96         -59.1471         133.684         -59.1457         133.696       -0.0101239         148.949
0.534                  -0.277021        -137.511         -59.0466         132.606         -59.0451         132.619       -0.0102067         148.881
0.535                  -0.282324        -138.067         -58.9369          131.54         -58.9352         131.553       -0.0102904         148.813
0.536                  -0.288023         -138.63         -58.8179         130.482          -58.816         130.496        -0.010375         148.745
0.537                  -0.294147          -139.2         -58.6897         129.428         -58.6877         129.442       -0.0104605         148.677
0.538                  -0.300731        -139.776         -58.5524         128.375         -58.5502         128.388       -0.0105469         148.608
0.539                  -0.307809        -140.359          -58.406         127.318         -58.4037         127.331       -0.0106344          148.54
0.54                   -0.315421         -140.95         -58.2508         126.254         -58.2483         126.267       -0.0107228         148.471
0.541                  -0.323607        -141.547         -58.0869          125.18         -58.0843         125.193       -0.0108122         148.402
0.542                  -0.332414        -142.152         -57.9145         124.094         -57.9118         124.106       -0.0109026         148.333
0.543                  -0.341891        -142.765         -57.7338         122.992         -57.7309         123.004       -0.0109941         148.264
0.544                  -0.352093        -143.386         -57.5449         121.872          -57.542         121.883       -0.0110867         148.195
0.545                  -0.363078        -144.014         -57.3482         120.732         -57.3453         120.742       -0.0111804         148.126
0.546                  -0.374912        -144.651         -57.1438         119.569         -57.1408         119.579       -0.0112752         148.057
0.547                  -0.387664        -145.297          -56.932         118.381          -56.929          118.39       -0.0113712         147.987
0.548                  -0.401411        -145.951         -56.7129         117.167         -56.7098         117.175       -0.0114685         147.918
0.549                  -0.416239        -146.613         -56.4867         115.923         -56.4837         115.931        -0.011567         147.848
0.55                   -0.432239        -147.285         -56.2537          114.65         -56.2507         114.656       -0.0116668         147.778
0.551                  -0.449513        -147.966          -56.014         113.344          -56.011          113.35       -0.0117679         147.709
0.552                  -0.468172        -148.657         -55.7678         112.004         -55.7648         112.009       -0.0118704         147.639
0.553                  -0.488337        -149.357         -55.5153         110.627         -55.5124         110.631       -0.0119744         147.568
0.554                  -0.510143        -150.066         -55.2566         109.213         -55.2538         109.216       -0.0120799         147.498
0.555                  -0.533735        -150.786          -54.992         107.758         -54.9893         107.761       -0.0121869         147.428
0.556                  -0.559276        -151.515         -54.7217         106.262          -54.719         106.265       -0.0122956         147.357
0.557                   -0.58694        -152.253         -54.4457         104.722         -54.4432         104.724       -0.0124059         147.287
0.558                   -0.61692        -153.001         -54.1644         103.135         -54.1619         103.136        -0.012518         147.216
0.559                  -0.649428        -153.759         -53.8778           101.5         -53.8755         101.501        -0.012632         147.145
0.56                   -0.684694        -154.525         -53.5863         99.8138          -53.584         99.8138        -0.012748         147.074
0.561                  -0.722967        -155.301           -53.29         98.0738         -53.2878         98.0734        -0.012866         147.003
0.562                  -0.764519        -156.084         -52.9892         96.2775         -52.9872         96.2767       -0.0129862         146.931
0.563                  -0.809644        -156.874         -52.6842         94.4219         -52.6823         94.4207       -0.0131088          146.86
0.564                  -0.858657         -157.67         -52.3753          92.504         -52.3735         92.5026       -0.0132337         146.788
0.565                  -0.911892        -158.471         -52.0628         90.5207         -52.0612          90.519       -0.0133613         146.717
0.566                  -0.969705        -159.275         -51.7473         88.4688         -51.7457         88.4668       -0.0134916         146.645
0.567                   -1.03246         -160.08         -51.4291         86.3447         -51.4276         86.3425       -0.0136248         146.573
0.568                   -1.10055        -160.883         -51.1088         84.1452         -51.1074         84.1428       -0.0137611         146.501
0.569                   -1.17435        -161.681         -50.7869         81.8666         -50.7857         81.8642       -0.0139007         146.429
0.57                    -1.25422        -162.471         -50.4643         79.5056         -50.4632         79.5032       -0.0140439         146.356
0.571                   -1.34051        -163.246         -50.1416         77.0589         -50.1407         77.0564       -0.0141907         146.284
0.572                   -1.43352        -164.003         -49.8198         74.5232          -49.819         74.5208       -0.0143415         146.211
0.573                   -1.53346        -164.734         -49.4999         71.8958         -49.4991         71.8934       -0.0144964         146.138
0.574                   -1.64045        -165.433         -49.1829         69.1742         -49.1822         69.1719       -0.0146557         146.065
0.575                   -1.75442        -166.091         -48.8701         66.3564         -48.8695         66.3543       -0.0148196         145.992
0.576                   -1.87513        -166.698         -48.5627         63.4415         -48.5622         63.4395       -0.0149882         145.919
0.577                   -2.00206        -167.245         -48.2622         60.4291         -48.2619         60.4273       -0.0151617         145.845
0.578                   -2.13435        -167.722         -47.9702         57.3201         -47.9699         57.3186       -0.0153402         145.772
0.579                   -2.27079        -168.118         -47.6882         54.1168          -47.688         54.1154       -0.0155238         145.698
0.58                    -2.40971        -168.422         -47.4177         50.8226         -47.4176         50.8215       -0.0157126         145.624
0.581                     -2.549        -168.628         -47.1605         47.4428         -47.1604          47.442       -0.0159063          145.55
0.582                   -2.68609        -168.728         -46.9181         43.9843         -46.9181         43.9838       -0.0161049         145.476
0.583                   -2.81802        -168.719          -46.692         40.4556          -46.692         40.4554       -0.0163082         145.402
0.584                   -2.94156        -168.603         -46.4834         36.8669         -46.4834          36.867       -0.0165157         145.327
0.585                   -3.05338        -168.388         -46.2935         33.2299         -46.2936         33.2303       -0.0167272         145.253
0.586                   -3.15028        -168.084         -46.1232         29.5577         -46.1233         29.5582       -0.0169421         145.178
0.587                   -3.22946        -167.709         -45.9731          25.864         -45.9732         25.8648       -0.0171598         145.103
0.588                    -3.2888        -167.286         -45.8434         22.1634         -45.8435         22.1643       -0.0173798         145.028
0.589                     -3.327        -166.841          -45.734         18.4704         -45.7341         18.4715       -0.0176014         144.953
0.59                    -3.34374        -166.398         -45.6445         14.7993         -45.6446         14.8005       -0.0178241         144.878
0.591                    -3.3397        -165.986         -45.5743         11.1636         -45.5744         11.1649       -0.0180472         144.803
0.592                   -3.31639        -165.626         -45.5222         7.57568         -45.5223         7.57707       -0.0182703         144.727
0.593                   -3.27603        -165.339         -45.4871         4.04665         -45.4872         4.04806       -0.0184928         144.652
0.594                   -3.22128        -165.139         -45.4676        0.585913         -45.4677         0.58733       -0.0187144         144.576
0.595                   -3.15501        -165.035         -45.4621        -2.79878         -45.4622        -2.79739       -0.0189349           144.5
0.596                   -3.08009        -165.034          -45.469        -6.10142         -45.4691        -6.10007        -0.019154         144.424
0.597                   -2.99922        -165.137         -45.4867        -9.31766         -45.4868        -9.31636       -0.0193718         144.347
0.598                   -2.91482         -165.34         -45.5135        -12.4447         -45.5136        -12.4435       -0.0195883         144.271
0.599                   -2.82898         -165.64          -45.548        -15.4812         -45.5481          -15.48       -0.0198036         144.194
0.6                     -2.74344        -166.032         -45.5885         -18.427         -45.5886        -18.4259       -0.0200178         144.117
0.601                    -2.6596        -166.507         -45.6338         -21.283         -45.6339         -21.282       -0.0202312          144.04
0.602                   -2.57852         -167.06         -45.6824         -24.051         -45.6825        -24.0501        -0.020444         143.963
0.603                   -2.50103        -167.682         -45.7334        -26.7335         -45.7335        -26.7327       -0.0206566         143.885
0.604                    -2.4277        -168.368         -45.7855        -29.3334         -45.7856        -29.3327       -0.0208692         143.808
0.605                   -2.35893         -169.11         -45.8379        -31.8543          -45.838        -31.8536       -0.0210822          143.73
0.606                   -2.29496        -169.903         -45.8897        -34.2996         -45.8898         -34.299       -0.0212959         143.652
0.607                   -2.23592        -170.742         -45.9402        -36.6734         -45.9404        -36.6729       -0.0215106         143.574
0.608                   -2.18186        -171.623         -45.9888        -38.9796         -45.9889        -38.9791       -0.0217265         143.495
0.609                   -2.13277         -172.54         -46.0349        -41.2221          -46.035        -41.2216       -0.0219439         143.416
0.61                    -2.08857        -173.492          -46.078        -43.4049         -46.0781        -43.4045       -0.0221631         143.337
0.611                   -2.04919        -174.474         -46.1177        -45.5319         -46.1179        -45.5315       -0.0223844         143.258
0.612                    -2.0145        -175.485         -46.1537        -47.6069         -46.1539        -47.6065       -0.0226079         143.179
0.613                   -1.98441        -176.522         -46.1857        -49.6336         -46.1859        -49.6333       -0.0228339         143.099
0.614                   -1.95878        -177.584         -46.2134        -51.6156         -46.2136        -51.6153       -0.0230625         143.019
0.615                   -1.93752         -178.67         -46.2367        -53.5563         -46.2369         -53.556        -0.023294         142.939
0.616                   -1.92051        -179.778         -46.2554        -55.4591         -46.2556        -55.4588       -0.0235285         142.859
0.617                   -1.90766         179.093         -46.2694        -57.3272         -46.2696        -57.3269       -0.0237661         142.778
0.618                    -1.8989         177.943         -46.2785        -59.1635         -46.2787        -59.1632       -0.0240069         142.697
0.619                   -1.89415         176.773         -46.2827        -60.9711         -46.2829        -60.9708       -0.0242513         142.616
0.62                    -1.89336         175.582          -46.282        -62.7527         -46.2822        -62.7524       -0.0244991         142.535
0.621                   -1.89651         174.372         -46.2762         -64.511         -46.2764        -64.5108       -0.0247506         142.453
0.622                   -1.90356         173.143         -46.2655        -66.2487         -46.2657        -66.2485       -0.0250059         142.371
0.623                   -1.91453         171.893         -46.2497        -67.9682         -46.2499         -67.968       -0.0252651         142.289
0.624                   -1.92943         170.623          -46.229         -69.672         -46.2291        -69.6717       -0.0255282         142.207
0.625                    -1.9483         169.334         -46.2032        -71.3623         -46.2034         -71.362       -0.0257955         142.124
0.626                   -1.97118         168.023         -46.1726        -73.0413         -46.1727         -73.041       -0.0260669         142.041
0.627                   -1.99816         166.692          -46.137        -74.7113         -46.1372         -74.711       -0.0263426         141.958
0.628                   -2.02931          165.34         -46.0967        -76.3743         -46.0968         -76.374       -0.0266227         141.875
0.629                   -2.06476         163.966         -46.0515        -78.0323         -46.0517        -78.0321       -0.0269072         141.791
