! TOUCHSTONE file generated by CST MICROWAVE STUDIO
! Date and time: Tue Nov 17 07:13:25 2020
! Project name: Scenario_1_Planar_Body_Tissue_Out_of_Line.cst
! Header version: 2018
! Port assignment regex: !\s*Touchstone port\s*([0-9]+)\s*=\s*(CST MWS port|CST DS port)\s*([0-9]+|Zmin|Zmax)\s*\(\"(.*)\"\)(\s*mode\s*([0-9]+))?.*
! Touchstone port assignment:
! Touchstone port 1 = CST MWS port 1 ("")
! Touchstone port 2 = CST MWS port 2 ("")
# GHz S DB R 50
0.5                    -0.163441        -121.562         -63.2703        -16.3838         -63.2703        -16.3831      -0.00765108         151.141
0.501                  -0.164657        -121.987         -63.1719        -18.2732         -63.1724        -18.2688      -0.00771157         151.076
0.502                  -0.165902        -122.415          -63.074        -20.1835         -63.0749        -20.1755      -0.00777287         151.011
0.503                  -0.167184        -122.847         -62.9765        -22.1137         -62.9778        -22.1019      -0.00783497         150.945
0.504                   -0.16851        -123.282         -62.8796        -24.0623         -62.8813        -24.0467       -0.0078979          150.88
0.505                  -0.169891        -123.721         -62.7834        -26.0277         -62.7854        -26.0085      -0.00796164         150.814
0.506                  -0.171335        -124.164         -62.6881        -28.0082         -62.6903        -27.9855      -0.00802621         150.749
0.507                  -0.172852        -124.611         -62.5936         -30.002          -62.596        -29.9759      -0.00809161         150.683
0.508                  -0.174454        -125.061         -62.5001        -32.0069         -62.5026        -31.9776      -0.00815785         150.617
0.509                  -0.176151        -125.516         -62.4076        -34.0207         -62.4101        -33.9884      -0.00822492         150.552
0.51                   -0.177957        -125.974         -62.3161        -36.0411         -62.3186        -36.0062      -0.00829284         150.486
0.511                  -0.179884        -126.437         -62.2256        -38.0656         -62.2279        -38.0282      -0.00836161          150.42
0.512                  -0.181945        -126.904         -62.1359        -40.0915         -62.1381        -40.0521      -0.00843123         150.354
0.513                  -0.184157        -127.375         -62.0469        -42.1161         -62.0489        -42.0752      -0.00850171         150.287
0.514                  -0.186535        -127.851         -61.9586        -44.1369         -61.9603        -44.0947      -0.00857306         150.221
0.515                  -0.189096        -128.332         -61.8705         -46.151          -61.872        -46.1082      -0.00864526         150.155
0.516                  -0.191858        -128.817         -61.7826        -48.1559         -61.7838        -48.1128      -0.00871834         150.088
0.517                  -0.194842        -129.307         -61.6944         -50.149         -61.6953        -50.1061       -0.0087923         150.022
0.518                  -0.198069        -129.802         -61.6056        -52.1279         -61.6062        -52.0857      -0.00886713         149.955
0.519                  -0.201561        -130.302         -61.5158        -54.0904         -61.5161        -54.0494      -0.00894285         149.889
0.52                   -0.205343        -130.808         -61.4244        -56.0346         -61.4245        -55.9951      -0.00901945         149.822
0.521                  -0.209444        -131.318          -61.331        -57.9589         -61.3308        -57.9214      -0.00909695         149.755
0.522                   -0.21389        -131.835          -61.235        -59.8619         -61.2345        -59.8267      -0.00917534         149.688
0.523                  -0.218715        -132.356         -61.1357        -61.7427         -61.1351        -61.7102      -0.00925463         149.621
0.524                  -0.223953        -132.884         -61.0326         -63.601         -61.0318        -63.5714      -0.00933483         149.554
0.525                  -0.229641        -133.417          -60.925        -65.4366         -60.9241        -65.4103      -0.00941594         149.487
0.526                   -0.23582        -133.957         -60.8122        -67.2503         -60.8112        -67.2272      -0.00949797          149.42
0.527                  -0.242536        -134.502         -60.6935        -69.0429         -60.6925        -69.0232      -0.00958092         149.352
0.528                  -0.249837        -135.054         -60.5682        -70.8161         -60.5673        -70.7997       -0.0096648         149.285
0.529                  -0.257778        -135.612         -60.4358        -72.5721          -60.435         -72.559      -0.00974962         149.217
0.53                   -0.266418        -136.177         -60.2954        -74.3135         -60.2948        -74.3035      -0.00983539         149.149
0.531                  -0.275822        -136.749         -60.1466        -76.0435         -60.1462        -76.0366      -0.00992213         149.082
0.532                  -0.286062        -137.327         -59.9886        -77.7661         -59.9885        -77.7618       -0.0100098         149.014
0.533                  -0.297218        -137.913         -59.8211        -79.4853         -59.8212        -79.4835       -0.0100986         148.946
0.534                  -0.309378        -138.505         -59.6434        -81.2062         -59.6439        -81.2065       -0.0101883         148.878
0.535                  -0.322638        -139.104         -59.4552        -82.9339          -59.456         -82.936       -0.0102791          148.81
0.536                  -0.337106        -139.711         -59.2561        -84.6742         -59.2572        -84.6776       -0.0103709         148.741
0.537                  -0.352899        -140.325         -59.0458        -86.4332         -59.0473        -86.4377       -0.0104639         148.673
0.538                   -0.37015        -140.945         -58.8241        -88.2175         -58.8259        -88.2226       -0.0105581         148.604
0.539                     -0.389        -141.573         -58.5909         -90.034          -58.593        -90.0394       -0.0106535         148.536
0.54                   -0.409609        -142.208         -58.3461          -91.89         -58.3486        -91.8953       -0.0107502         148.467
0.541                   -0.43215        -142.848         -58.0899         -93.793         -58.0926         -93.798       -0.0108484         148.398
0.542                  -0.456812        -143.495         -57.8223        -95.7511         -57.8252        -95.7555       -0.0109481         148.329
0.543                  -0.483801        -144.147         -57.5437        -97.7723         -57.5468        -97.7758       -0.0110496          148.26
0.544                  -0.513337        -144.804         -57.2545        -99.8651         -57.2578        -99.8676       -0.0111529         148.191
0.545                  -0.545658        -145.464         -56.9552        -102.038         -56.9586        -102.039       -0.0112584         148.122
0.546                  -0.581011        -146.126         -56.6466          -104.3           -56.65          -104.3       -0.0113662         148.053
0.547                  -0.619651        -146.788         -56.3294         -106.66         -56.3328        -106.659       -0.0114766         147.983
0.548                  -0.661835        -147.449         -56.0047        -109.127          -56.008        -109.124       -0.0115901         147.914
0.549                   -0.70781        -148.105         -55.6737        -111.709          -55.677        -111.705       -0.0117069         147.844
0.55                   -0.757799        -148.753          -55.338        -114.416         -55.3411        -114.411       -0.0118275         147.774
0.551                  -0.811983         -149.39         -54.9992        -117.255         -55.0021        -117.248       -0.0119521         147.704
0.552                  -0.870474        -150.011         -54.6593        -120.233         -54.6619        -120.226       -0.0120811         147.634
0.553                  -0.933282         -150.61         -54.3205        -123.357         -54.3229        -123.349       -0.0122146         147.564
0.554                   -1.00028        -151.183         -53.9853        -126.631         -53.9874        -126.623       -0.0123527         147.494
0.555                   -1.07115        -151.721         -53.6565        -130.059         -53.6583         -130.05       -0.0124951         147.423
0.556                   -1.14535        -152.219         -53.3371         -133.64         -53.3386        -133.631       -0.0126414         147.353
0.557                   -1.22205         -152.67         -53.0302        -137.371         -53.0315        -137.363       -0.0127911         147.282
0.558                   -1.30012        -153.066         -52.7391        -141.247         -52.7401        -141.239       -0.0129431         147.211
0.559                   -1.37809        -153.405         -52.4671        -145.256         -52.4678         -145.25       -0.0130966         147.141
0.56                     -1.4542        -153.681         -52.2172        -149.385         -52.2177         -149.38       -0.0132506          147.07
0.561                   -1.52644        -153.894         -51.9923        -153.616         -51.9926        -153.612       -0.0134043         146.999
0.562                   -1.59268        -154.049         -51.7945        -157.926         -51.7947        -157.923       -0.0135568         146.928
0.563                   -1.65084         -154.15         -51.6257         -162.29         -51.6257        -162.289       -0.0137079         146.857
0.564                   -1.69907        -154.209         -51.4867        -166.682         -51.4867        -166.682       -0.0138571         146.785
0.565                   -1.73592         -154.24         -51.3779        -171.073         -51.3779        -171.075       -0.0140046         146.714
0.566                   -1.76055        -154.258         -51.2986        -175.438         -51.2986         -175.44       -0.0141505         146.642
0.567                   -1.77276         -154.28         -51.2475        -179.749         -51.2475        -179.753       -0.0142949         146.571
0.568                   -1.77301        -154.322         -51.2227         176.015         -51.2227         176.011       -0.0144383         146.499
0.569                   -1.76236        -154.401         -51.2216         171.875         -51.2218          171.87        -0.014581         146.427
0.57                    -1.74228        -154.525         -51.2416         167.844         -51.2418         167.839       -0.0147233         146.355
0.571                   -1.71453        -154.706         -51.2797         163.935           -51.28          163.93       -0.0148655         146.283
0.572                   -1.68093        -154.947         -51.3329         160.156         -51.3333          160.15        -0.015008          146.21
0.573                   -1.64328         -155.25         -51.3983         156.509         -51.3987         156.503       -0.0151509         146.138
0.574                   -1.60322        -155.616         -51.4731         152.996         -51.4736         152.991       -0.0152945         146.065
0.575                   -1.56217        -156.042         -51.5548         149.616         -51.5553         149.611       -0.0154391         145.992
0.576                   -1.52133        -156.525         -51.6412         146.365         -51.6417          146.36       -0.0155847         145.919
0.577                   -1.48165         -157.06           -51.73         143.239         -51.7306         143.234       -0.0157315         145.846
0.578                   -1.44384        -157.643         -51.8197         140.231         -51.8203         140.227       -0.0158796         145.773
0.579                   -1.40846        -158.269         -51.9088         137.335         -51.9093         137.331       -0.0160291         145.699
0.58                    -1.37588        -158.935         -51.9958         134.544         -51.9963         134.541       -0.0161801         145.626
0.581                   -1.34636        -159.635         -52.0798         131.851         -52.0803         131.848       -0.0163326         145.552
0.582                   -1.32004        -160.367         -52.1599         129.249         -52.1604         129.247       -0.0164868         145.478
0.583                   -1.29702        -161.127         -52.2354         126.731         -52.2358          126.73       -0.0166426         145.404
0.584                   -1.27731        -161.913         -52.3056         124.291          -52.306          124.29       -0.0168002          145.33
0.585                   -1.26092        -162.722         -52.3701         121.922         -52.3704         121.921       -0.0169595         145.255
0.586                    -1.2478        -163.552         -52.4285         119.619         -52.4288         119.618       -0.0171207         145.181
0.587                   -1.23793        -164.402         -52.4806         117.374         -52.4808         117.373       -0.0172837         145.106
0.588                   -1.23124         -165.27          -52.526         115.184         -52.5262         115.183       -0.0174485         145.031
0.589                    -1.2277        -166.155         -52.5648         113.042         -52.5649         113.042       -0.0176153         144.956
0.59                    -1.22727        -167.057         -52.5967         110.945         -52.5968         110.945       -0.0177841         144.881
0.591                   -1.22991        -167.975         -52.6216         108.888         -52.6217         108.888       -0.0179548         144.805
0.592                    -1.2356        -168.907         -52.6396         106.866         -52.6397         106.866       -0.0181276          144.73
0.593                   -1.24433        -169.855         -52.6507         104.875         -52.6507         104.875       -0.0183024         144.654
0.594                   -1.25612        -170.817         -52.6548         102.912         -52.6547         102.913       -0.0184793         144.578
0.595                   -1.27099        -171.793         -52.6519         100.974         -52.6519         100.974       -0.0186585         144.502
0.596                   -1.28897        -172.783         -52.6422         99.0561         -52.6421         99.0563       -0.0188398         144.425
0.597                   -1.31013        -173.788         -52.6257         97.1561         -52.6256         97.1563       -0.0190233         144.349
0.598                   -1.33453        -174.807         -52.6024         95.2707         -52.6023         95.2709       -0.0192092         144.272
0.599                   -1.36227        -175.841         -52.5725         93.3969         -52.5724         93.3972       -0.0193974         144.195
0.6                     -1.39346        -176.888          -52.536         91.5321         -52.5359         91.5323       -0.0195881         144.118
0.601                   -1.42824         -177.95          -52.493         89.6734         -52.4929         89.6736       -0.0197812         144.041
0.602                   -1.46675        -179.026         -52.4437         87.8183         -52.4436         87.8185       -0.0199768         143.963
0.603                   -1.50918         179.883         -52.3882         85.9641         -52.3881         85.9643       -0.0201751         143.886
0.604                   -1.55572         178.778         -52.3266         84.1085         -52.3264         84.1087       -0.0203761         143.808
0.605                   -1.60658         177.659          -52.259         82.2491         -52.2589         82.2493       -0.0205798          143.73
0.606                   -1.66202         176.526         -52.1856         80.3834         -52.1855         80.3836       -0.0207863         143.651
0.607                    -1.7223          175.38         -52.1066         78.5092         -52.1065         78.5094       -0.0209958         143.573
0.608                   -1.78773          174.22         -52.0221         76.6242         -52.0221         76.6244       -0.0212083         143.494
0.609                   -1.85863         173.047         -51.9324         74.7262         -51.9323         74.7264       -0.0214238         143.415
0.61                    -1.93534         171.862         -51.8376         72.8131         -51.8376         72.8133       -0.0216426         143.336
0.611                   -2.01826         170.666          -51.738         70.8828          -51.738         70.8829       -0.0218647         143.257
0.612                    -2.1078         169.461         -51.6338         68.9331         -51.6338         68.9333       -0.0220901         143.177
0.613                   -2.20439         168.247         -51.5253         66.9622         -51.5252         66.9624        -0.022319         143.097
0.614                    -2.3085         167.027         -51.4127         64.9682         -51.4127         64.9684       -0.0225516         143.017
0.615                   -2.42063         165.803         -51.2963         62.9491         -51.2963         62.9493       -0.0227878         142.937
0.616                    -2.5413         164.578         -51.1766         60.9034         -51.1766         60.9036       -0.0230278         142.856
0.617                   -2.67104         163.355         -51.0537         58.8294         -51.0537         58.8296       -0.0232717         142.776
0.618                   -2.81041         162.138         -50.9282         56.7256         -50.9282         56.7259       -0.0235196         142.695
0.619                   -2.95996         160.931         -50.8003         54.5908         -50.8003         54.5911       -0.0237716         142.613
0.62                    -3.12023         159.741         -50.6705         52.4239         -50.6706         52.4241       -0.0240278         142.532
0.621                   -3.29177         158.573         -50.5393         50.2239         -50.5393         50.2241       -0.0242883          142.45
0.622                   -3.47505         157.435          -50.407         47.9902         -50.4071         47.9904       -0.0245531         142.368
0.623                    -3.6705         156.335         -50.2743         45.7222         -50.2743         45.7225       -0.0248225         142.286
0.624                   -3.87844         155.284         -50.1414           43.42         -50.1415         43.4202       -0.0250964         142.204
0.625                   -4.09908         154.292          -50.009         41.0837         -50.0091         41.0839       -0.0253749         142.121
0.626                   -4.33241         153.372         -49.8775         38.7137         -49.8776         38.7138       -0.0256582         142.038
0.627                   -4.57823         152.537         -49.7475         36.3108         -49.7476          36.311       -0.0259462         141.955
0.628                     -4.836         151.802         -49.6194         33.8763         -49.6195         33.8765       -0.0262391         141.871
0.629                   -5.10482         151.184         -49.4938         31.4118         -49.4938         31.4119       -0.0265368         141.787
0.63                    -5.38332           150.7          -49.371          28.919          -49.371         28.9191       -0.0268395         141.703
0.631                   -5.66959         150.366         -49.2515         26.4003         -49.2515         26.4004       -0.0271472         141.619
