! TOUCHSTONE file generated by CST MICROWAVE STUDIO
! Date and time: Fri Dec 11 13:52:16 2020
! Project name: Scenario_1_Planar_Body_Tissue_Out_of_Line_v2.cst
! Parameters = {dy1=-346; L_HA=400; Ltissue=700; MT=2.54; Rad_Dielectric=30; Rad_Lower=7.3; Rad_Upper=30; Wtissue=700; a_HA=580; a_WG=246; b_HA=500; b_WG=121; c_HA=0; c_WG=187; d_feed=85; dx1=520; h_feed=15; h_lower=18; h_upper=40; hfat=3; hgap=25; hmuscle=50; hskin=1.5}
! Header version: 2018
! Port assignment regex: !\s*Touchstone port\s*([0-9]+)\s*=\s*(CST MWS port|CST DS port)\s*([0-9]+|Zmin|Zmax)\s*\(\"(.*)\"\)(\s*mode\s*([0-9]+))?.*
! Touchstone port assignment:
! Touchstone port 1 = CST MWS port 1 ("")
! Touchstone port 2 = CST MWS port 2 ("")
# GHz S DB R 50
0.5                    -0.105675        -121.949         -65.4996        -86.1586         -65.4999        -86.1549      -0.00740296         151.155
0.501                  -0.110288        -122.403         -65.2837        -87.2268          -65.284        -87.2233      -0.00747101          151.09
0.502                  -0.115122         -122.86         -65.0648        -88.3229         -65.0651        -88.3196      -0.00754026         151.025
0.503                  -0.120192         -123.32          -64.843        -89.4476         -64.8434        -89.4444      -0.00761072         150.959
0.504                  -0.125511        -123.783         -64.6183         -90.601         -64.6187        -90.5981      -0.00768242         150.894
0.505                  -0.131096        -124.249         -64.3906        -91.7839         -64.3911        -91.7811      -0.00775536         150.828
0.506                  -0.136965        -124.718         -64.1601        -92.9966         -64.1606         -92.994      -0.00782956         150.763
0.507                  -0.143136        -125.191         -63.9267        -94.2398         -63.9272        -94.2373      -0.00790504         150.697
0.508                  -0.149629        -125.666         -63.6904         -95.514         -63.6909        -95.5116       -0.0079818         150.631
0.509                  -0.156466        -126.146         -63.4513        -96.8197         -63.4519        -96.8175      -0.00805986         150.565
0.51                    -0.16367        -126.628         -63.2094        -98.1577           -63.21        -98.1557      -0.00813923         150.499
0.511                  -0.171267        -127.114         -62.9647        -99.5287         -62.9653        -99.5267      -0.00821992         150.433
0.512                  -0.179284        -127.604         -62.7173        -100.933         -62.7179        -100.931      -0.00830193         150.367
0.513                   -0.18775        -128.097         -62.4673        -102.372         -62.4679         -102.37      -0.00838528         150.301
0.514                  -0.196697        -128.593         -62.2146        -103.846         -62.2152        -103.845      -0.00846998         150.235
0.515                  -0.206159        -129.093         -61.9594        -105.356         -61.9601        -105.355      -0.00855601         150.168
0.516                  -0.216171        -129.597         -61.7018        -106.903         -61.7025        -106.902      -0.00864339         150.102
0.517                  -0.226773        -130.104         -61.4418        -108.488         -61.4425        -108.486      -0.00873212         150.035
0.518                  -0.238006        -130.614         -61.1795        -110.111         -61.1803        -110.109       -0.0088222         149.969
0.519                  -0.249914        -131.128         -60.9152        -111.773          -60.916        -111.772      -0.00891362         149.902
0.52                   -0.262543        -131.645         -60.6489        -113.477         -60.6497        -113.475      -0.00900638         149.835
0.521                  -0.275943        -132.164         -60.3807        -115.221         -60.3815         -115.22      -0.00910047         149.769
0.522                  -0.290165        -132.687          -60.111        -117.009         -60.1118        -117.007      -0.00919588         149.702
0.523                  -0.305262        -133.213         -59.8397        -118.839         -59.8406        -118.838      -0.00929259         149.635
0.524                   -0.32129        -133.741         -59.5673        -120.714         -59.5681        -120.713       -0.0093906         149.568
0.525                  -0.338307        -134.271         -59.2938        -122.635         -59.2947        -122.634      -0.00948988           149.5
0.526                  -0.356368        -134.804         -59.0196        -124.602         -59.0205        -124.601      -0.00959041         149.433
0.527                  -0.375531        -135.337         -58.7449        -126.617         -58.7458        -126.615      -0.00969218         149.366
0.528                  -0.395851        -135.872         -58.4701        -128.679          -58.471        -128.678      -0.00979514         149.298
0.529                   -0.41738        -136.406         -58.1955        -130.791         -58.1964         -130.79      -0.00989927         149.231
0.53                   -0.440165        -136.941         -57.9214        -132.953         -57.9224        -132.951       -0.0100045         149.163
0.531                  -0.464246        -137.474         -57.6483        -135.165         -57.6492        -135.163       -0.0101109         149.095
0.532                  -0.489652        -138.005         -57.3765        -137.427         -57.3775        -137.426       -0.0102184         149.028
0.533                  -0.516399        -138.533         -57.1066        -139.741         -57.1075        -139.739       -0.0103268          148.96
0.534                  -0.544488        -139.058         -56.8389        -142.106         -56.8398        -142.104       -0.0104363         148.892
0.535                  -0.573898        -139.577         -56.5739        -144.522         -56.5749         -144.52       -0.0105467         148.824
0.536                  -0.604583         -140.09         -56.3123        -146.988         -56.3132        -146.986        -0.010658         148.756
0.537                  -0.636468        -140.595         -56.0544        -149.504         -56.0554        -149.502       -0.0107701         148.687
0.538                  -0.669447        -141.092         -55.8009        -152.069         -55.8018        -152.067        -0.010883         148.619
0.539                  -0.703374        -141.578         -55.5523        -154.682         -55.5532         -154.68       -0.0109967          148.55
0.54                   -0.738068        -142.054         -55.3091        -157.341           -55.31        -157.338        -0.011111         148.482
0.541                  -0.773304        -142.516          -55.072        -160.043         -55.0728        -160.041        -0.011226         148.413
0.542                   -0.80882        -142.966         -54.8413        -162.787         -54.8421        -162.784       -0.0113416         148.344
0.543                  -0.844315        -143.402         -54.6176        -165.569         -54.6185        -165.566       -0.0114577         148.276
0.544                  -0.879459        -143.823         -54.4015        -168.386         -54.4023        -168.384       -0.0115743         148.207
0.545                  -0.913895         -144.23         -54.1933        -171.235         -54.1941        -171.232       -0.0116914         148.138
0.546                  -0.947258        -144.623         -53.9934        -174.112         -53.9942        -174.109       -0.0118089         148.068
0.547                  -0.979181        -145.003         -53.8022        -177.012         -53.8029        -177.009       -0.0119268         147.999
0.548                   -1.00931        -145.371         -53.6199        -179.931         -53.6206        -179.929        -0.012045          147.93
0.549                   -1.03733         -145.73         -53.4468         177.135         -53.4474         177.138       -0.0121635          147.86
0.55                    -1.06297         -146.08         -53.2829         174.192         -53.2835         174.195       -0.0122823         147.791
0.551                   -1.08599        -146.425         -53.1283         171.244         -53.1289         171.246       -0.0124014         147.721
0.552                   -1.10626        -146.767         -52.9831         168.296         -52.9836         168.299       -0.0125207         147.651
0.553                   -1.12369        -147.108          -52.847         165.353         -52.8476         165.355       -0.0126403         147.581
0.554                   -1.13828        -147.453           -52.72         162.419         -52.7205         162.422       -0.0127601         147.511
0.555                   -1.15008        -147.802         -52.6018           159.5         -52.6022         159.502       -0.0128802         147.441
0.556                   -1.15923         -148.16          -52.492         156.598         -52.4924           156.6       -0.0130007         147.371
0.557                   -1.16591        -148.528         -52.3904         153.718         -52.3907          153.72       -0.0131214           147.3
0.558                   -1.17034        -148.908         -52.2964         150.864         -52.2968         150.866       -0.0132425          147.23
0.559                   -1.17278        -149.302         -52.2098         148.038         -52.2101          148.04       -0.0133639         147.159
0.56                     -1.1735        -149.711         -52.1299         145.243         -52.1301         145.245       -0.0134858         147.088
0.561                   -1.17279        -150.136         -52.0562         142.482         -52.0565         142.484       -0.0136082         147.018
0.562                   -1.17093        -150.577         -51.9884         139.757         -51.9886         139.758       -0.0137311         146.946
0.563                   -1.16819        -151.036         -51.9257         137.068         -51.9259         137.069       -0.0138547         146.875
0.564                   -1.16484        -151.512         -51.8678         134.418          -51.868         134.419        -0.013979         146.804
0.565                   -1.16111        -152.006          -51.814         131.806         -51.8142         131.807        -0.014104         146.733
0.566                   -1.15722        -152.516          -51.764         129.234         -51.7641         129.235       -0.0142299         146.661
0.567                   -1.15337        -153.043         -51.7171         126.701         -51.7172         126.702       -0.0143567         146.589
0.568                   -1.14973        -153.587         -51.6729         124.208          -51.673         124.209       -0.0144846         146.517
0.569                   -1.14647        -154.146          -51.631         121.755         -51.6311         121.755       -0.0146136         146.445
0.57                    -1.14371         -154.72          -51.591         119.339         -51.5911         119.339       -0.0147438         146.373
0.571                   -1.14157        -155.309         -51.5524         116.962         -51.5525         116.962       -0.0148753         146.301
0.572                   -1.14016        -155.913         -51.5149         114.621         -51.5149         114.621       -0.0150082         146.228
0.573                   -1.13954         -156.53         -51.4781         112.316         -51.4781         112.316       -0.0151427         146.156
0.574                   -1.13981         -157.16         -51.4417         110.046         -51.4418         110.046       -0.0152787         146.083
0.575                   -1.14101        -157.803         -51.4055          107.81         -51.4055         107.809       -0.0154165          146.01
0.576                   -1.14321        -158.458         -51.3691         105.605         -51.3691         105.605        -0.015556         145.937
0.577                   -1.14644        -159.125         -51.3323         103.432         -51.3323         103.431       -0.0156975         145.864
0.578                   -1.15076        -159.804         -51.2949         101.288         -51.2949         101.287       -0.0158409         145.791
0.579                   -1.15619        -160.494         -51.2567         99.1717         -51.2567          99.171       -0.0159863         145.717
0.58                    -1.16277        -161.195         -51.2175         97.0823         -51.2175         97.0815       -0.0161339         145.644
0.581                   -1.17053        -161.906         -51.1771          95.018         -51.1771         95.0171       -0.0162837          145.57
0.582                    -1.1795        -162.628         -51.1355         92.9774         -51.1355         92.9765       -0.0164358         145.496
0.583                    -1.1897        -163.361         -51.0924         90.9591         -51.0924         90.9582       -0.0165903         145.422
0.584                   -1.20117        -164.103         -51.0479         88.9617         -51.0479         88.9607       -0.0167472         145.347
0.585                   -1.21393        -164.856         -51.0017         86.9838         -51.0017         86.9828       -0.0169065         145.273
0.586                   -1.22802        -165.618         -50.9538          85.024         -50.9538         85.0229       -0.0170685         145.198
0.587                   -1.24346         -166.39         -50.9041          83.081         -50.9041         83.0799        -0.017233         145.123
0.588                   -1.26029        -167.172         -50.8526         81.1534         -50.8526         81.1523       -0.0174002         145.048
0.589                   -1.27855        -167.964         -50.7992         79.2401         -50.7993          79.239       -0.0175701         144.973
0.59                    -1.29827        -168.765          -50.744         77.3396          -50.744         77.3385       -0.0177427         144.898
0.591                   -1.31949        -169.576         -50.6868         75.4508         -50.6868         75.4497       -0.0179181         144.822
0.592                   -1.34226        -170.397         -50.6276         73.5725         -50.6276         73.5714       -0.0180963         144.747
0.593                   -1.36663        -171.227         -50.5664         71.7035         -50.5665         71.7024       -0.0182773         144.671
0.594                   -1.39264        -172.067         -50.5033         69.8427         -50.5033         69.8416       -0.0184613         144.595
0.595                   -1.42036        -172.916         -50.4382         67.9889         -50.4382         67.9878       -0.0186481         144.519
0.596                   -1.44984        -173.775         -50.3712         66.1411         -50.3712           66.14       -0.0188379         144.442
0.597                   -1.48114        -174.644         -50.3021         64.2982         -50.3022         64.2971       -0.0190305         144.366
0.598                   -1.51433        -175.522         -50.2312         62.4592         -50.2312         62.4582       -0.0192262         144.289
0.599                   -1.54949        -176.409         -50.1584          60.623         -50.1584          60.622       -0.0194248         144.212
0.6                     -1.58668        -177.307         -50.0836         58.7888         -50.0837         58.7878       -0.0196264         144.135
0.601                   -1.62599        -178.213         -50.0071         56.9555         -50.0071         56.9546        -0.019831         144.058
0.602                    -1.6675         -179.13         -49.9287         55.1223         -49.9288         55.1214       -0.0200387          143.98
0.603                   -1.71131         179.945         -49.8486         53.2881         -49.8487         53.2873       -0.0202493         143.903
0.604                   -1.75751          179.01         -49.7668         51.4523         -49.7669         51.4514        -0.020463         143.825
0.605                    -1.8062         178.066         -49.6834         49.6138         -49.6834          49.613       -0.0206797         143.747
0.606                   -1.85748         177.113         -49.5984         47.7719         -49.5984         47.7712       -0.0208995         143.668
0.607                   -1.91148         176.151         -49.5118         45.9259         -49.5119         45.9252       -0.0211223          143.59
0.608                   -1.96831          175.18         -49.4239         44.0748         -49.4239         44.0741       -0.0213482         143.511
0.609                   -2.02809         174.201         -49.3345          42.218         -49.3346         42.2174       -0.0215772         143.432
0.61                    -2.09094         173.214         -49.2439         40.3548         -49.2439         40.3542       -0.0218093         143.353
0.611                   -2.15701         172.219          -49.152         38.4845         -49.1521          38.484       -0.0220444         143.274
0.612                   -2.22643         171.217         -49.0591         36.6064         -49.0592         36.6059       -0.0222827         143.194
0.613                   -2.29935         170.208         -48.9651         34.7198         -48.9652         34.7194       -0.0225241         143.114
0.614                   -2.37592         169.193         -48.8702         32.8243         -48.8703         32.8239       -0.0227687         143.034
0.615                   -2.45629         168.172         -48.7745         30.9192         -48.7746         30.9189       -0.0230165         142.954
0.616                   -2.54063         167.146         -48.6781          29.004         -48.6782         29.0037       -0.0232674         142.874
0.617                   -2.62909         166.115         -48.5811         27.0783         -48.5812         27.0781       -0.0235216         142.793
0.618                   -2.72184         165.082         -48.4836         25.1415         -48.4837         25.1414        -0.023779         142.712
0.619                   -2.81905         164.045         -48.3858         23.1934         -48.3858         23.1932       -0.0240397         142.631
0.62                    -2.92091         163.008         -48.2877         21.2334         -48.2878         21.2334       -0.0243038          142.55
0.621                   -3.02757          161.97         -48.1896         19.2614         -48.1896         19.2614       -0.0245711         142.468
0.622                   -3.13921         160.934         -48.0914         17.2771         -48.0915         17.2771       -0.0248419         142.386
0.623                   -3.25601           159.9         -47.9935         15.2803         -47.9936         15.2803       -0.0251162         142.304
0.624                   -3.37814         158.871         -47.8959         13.2708         -47.8959         13.2709       -0.0253939         142.222
0.625                   -3.50575         157.848         -47.7987         11.2485         -47.7988         11.2487       -0.0256752         142.139
0.626                   -3.63902         156.833         -47.7022         9.21348         -47.7022         9.21367         -0.02596         142.056
0.627                   -3.77808         155.828         -47.6064         7.16574         -47.6065         7.16597       -0.0262486         141.973
0.628                   -3.92308         154.836         -47.5115         5.10539         -47.5116         5.10565       -0.0265408          141.89
0.629                   -4.07414         153.859         -47.4177         3.03262         -47.4178         3.03292       -0.0268369         141.806
