! TOUCHSTONE file generated by CST MICROWAVE STUDIO
! Date and time: Mon Nov 30 08:42:17 2020
! Project name: Scenario_1_Planar_Body_Tissue_Out_of_Line.cst
! Parameters = {dy1=-346; L_HA=400; Ltissue=700; MT=2.54; Rad_Dielectric=30; Rad_Lower=7.3; Rad_Upper=30; Wtissue=700; a_HA=580; a_WG=246; b_HA=500; b_WG=121; c_HA=0; c_WG=187; d_feed=85; dx1=866; h_feed=15; h_lower=18; h_upper=40; hfat=3; hgap=25; hmuscle=50; hskin=1.5}
! Header version: 2018
! Port assignment regex: !\s*Touchstone port\s*([0-9]+)\s*=\s*(CST MWS port|CST DS port)\s*([0-9]+|Zmin|Zmax)\s*\(\"(.*)\"\)(\s*mode\s*([0-9]+))?.*
! Touchstone port assignment:
! Touchstone port 1 = CST MWS port 1 ("")
! Touchstone port 2 = CST MWS port 2 ("")
# GHz S DB R 50
0.5                    -0.129985        -122.057         -65.5236         77.6154         -65.5232         77.6211      -0.00753248         151.149
0.501                  -0.141388        -122.493         -66.1721         70.6871         -66.1519         70.0272      -0.00761248         151.084
0.502                  -0.152852         -122.93         -66.5792         62.5968         -66.4887         61.4313      -0.00769281         151.018
0.503                  -0.164375        -123.369         -66.6828         54.0739         -66.4953         52.7398      -0.00777347         150.953
0.504                  -0.175958        -123.809          -66.493         45.9689         -66.2177         44.8138      -0.00785447         150.887
0.505                  -0.187602         -124.25         -66.0834         38.8988         -65.7524         38.1333      -0.00793582         150.822
0.506                  -0.199307        -124.692         -65.5473         33.0953         -65.1955         32.7725      -0.00801754         150.756
0.507                  -0.211072        -125.136         -64.9622         28.4956          -64.616         28.5697      -0.00809963         150.691
0.508                  -0.222898        -125.581         -64.3789         24.9015         -64.0543         25.2882      -0.00818211         150.625
0.509                  -0.234786        -126.027         -63.8253         22.0908         -63.5302          22.703      -0.00826499         150.559
0.51                   -0.246735        -126.475         -63.3138          19.867          -63.051         20.6292      -0.00834827         150.493
0.511                  -0.258747        -126.924         -62.8483         18.0729         -62.6176          18.925      -0.00843197         150.427
0.512                  -0.270822        -127.374         -62.4279         16.5885         -62.2274         17.4847      -0.00851611         150.361
0.513                  -0.282961        -127.826         -62.0495         15.3242         -61.8765         16.2307      -0.00860068         150.295
0.514                  -0.295163         -128.28         -61.7091         14.2136         -61.5608         15.1061      -0.00868572         150.229
0.515                  -0.307431        -128.735         -61.4024         13.2081          -61.276         14.0693      -0.00877122         150.163
0.516                  -0.319765        -129.191         -61.1255         12.2715         -61.0183         13.0897       -0.0088572         150.096
0.517                  -0.332166         -129.65         -60.8748         11.3775         -60.7843         12.1446      -0.00894367          150.03
0.518                  -0.344634         -130.11         -60.6469         10.5061         -60.5709         11.2175      -0.00903065         149.963
0.519                  -0.357172        -130.571         -60.4389         9.64288         -60.3756         10.2958      -0.00911814         149.897
0.52                   -0.369781        -131.035         -60.2484         8.77688          -60.196         9.37026      -0.00920617          149.83
0.521                  -0.382462          -131.5         -60.0732         7.89999           -60.03         8.43385      -0.00929474         149.763
0.522                  -0.395216        -131.967         -59.9112         7.00613         -59.8761         7.48133      -0.00938386         149.697
0.523                  -0.408045        -132.436         -59.7609         6.09074         -59.7327         6.50872      -0.00947356          149.63
0.524                  -0.420951        -132.906         -59.6208         5.15042         -59.5984           5.513      -0.00956384         149.563
0.525                  -0.433936        -133.379         -59.4895         4.18261         -59.4722         4.49189      -0.00965472         149.495
0.526                  -0.447002        -133.854         -59.3661         3.18539          -59.353         3.44362      -0.00974621         149.428
0.527                   -0.46015        -134.331         -59.2495         2.15732         -59.2399         2.36685      -0.00983832         149.361
0.528                  -0.473385        -134.809         -59.1388         1.09732         -59.1322         1.26054      -0.00993108         149.293
0.529                  -0.486707         -135.29         -59.0334      0.00459451         -59.0292        0.123881       -0.0100245         149.226
0.53                    -0.50012        -135.774         -58.9325        -1.12148         -58.9303        -1.04376       -0.0101186         149.158
0.531                  -0.513627        -136.259         -58.8355        -2.28136         -58.8349         -2.2429       -0.0102133         149.091
0.532                   -0.52723        -136.747         -58.7418         -3.4754         -58.7425        -3.47394       -0.0103088         149.023
0.533                  -0.540934        -137.237         -58.6511        -4.70387         -58.6527        -4.73723        -0.010405         148.955
0.534                  -0.554741         -137.73         -58.5628        -5.96699         -58.5651        -6.03304       -0.0105019         148.887
0.535                  -0.568656        -138.225         -58.4766        -7.26493         -58.4794        -7.36162       -0.0105996         148.819
0.536                  -0.582683        -138.722         -58.3921        -8.59783         -58.3951        -8.72319        -0.010698         148.751
0.537                  -0.596825        -139.222          -58.309        -9.96582         -58.3121         -10.118       -0.0107972         148.682
0.538                  -0.611088        -139.725          -58.227         -11.369         -58.2299        -11.5461       -0.0108972         148.614
0.539                  -0.625477        -140.231         -58.1457        -12.8075         -58.1485        -13.0078        -0.010998         148.546
0.54                   -0.639997        -140.739          -58.065        -14.2815         -58.0675        -14.5032       -0.0110997         148.477
0.541                  -0.654652         -141.25         -57.9847        -15.7909         -57.9867        -16.0326       -0.0112022         148.408
0.542                  -0.669451        -141.764         -57.9044         -17.336         -57.9059        -17.5959       -0.0113055         148.339
0.543                  -0.684398        -142.281          -57.824        -18.9167         -57.8249        -19.1935       -0.0114098         148.271
0.544                    -0.6995        -142.801         -57.7433        -20.5333         -57.7436        -20.8254       -0.0115149         148.202
0.545                  -0.714766        -143.325         -57.6622        -22.1857         -57.6618        -22.4918        -0.011621         148.132
0.546                  -0.730202        -143.851         -57.5804        -23.8742         -57.5793        -24.1928        -0.011728         148.063
0.547                  -0.745817        -144.381         -57.4978        -25.5986          -57.496        -25.9286       -0.0118359         147.994
0.548                   -0.76162        -144.914         -57.4143        -27.3592         -57.4117        -27.6992       -0.0119449         147.924
0.549                   -0.77762        -145.451         -57.3298         -29.156         -57.3264        -29.5048       -0.0120548         147.855
0.55                   -0.793826        -145.991          -57.244         -30.989         -57.2399        -31.3455       -0.0121657         147.785
0.551                  -0.810251        -146.535          -57.157        -32.8583          -57.152        -33.2213       -0.0122777         147.715
0.552                  -0.826904        -147.082         -57.0685        -34.7639         -57.0628        -35.1323       -0.0123908         147.645
0.553                  -0.843799        -147.634         -56.9786        -36.7058         -56.9721        -37.0786       -0.0125049         147.575
0.554                  -0.860948        -148.189          -56.887        -38.6839         -56.8798        -39.0602       -0.0126201         147.505
0.555                  -0.878364        -148.748         -56.7938        -40.6983         -56.7859         -41.077       -0.0127364         147.435
0.556                  -0.896064        -149.311         -56.6988        -42.7489         -56.6902         -43.129       -0.0128539         147.365
0.557                  -0.914062        -149.879          -56.602        -44.8355         -56.5928        -45.2163       -0.0129725         147.294
0.558                  -0.932375         -150.45         -56.5034        -46.9581         -56.4936        -47.3386       -0.0130923         147.224
0.559                  -0.951022        -151.027         -56.4029        -49.1165         -56.3926        -49.4959       -0.0132133         147.153
0.56                   -0.970021        -151.607         -56.3005        -51.3105         -56.2896         -51.688       -0.0133356         147.082
0.561                  -0.989394        -152.192         -56.1961          -53.54         -56.1848        -53.9148       -0.0134591         147.011
0.562                   -1.00916        -152.782         -56.0898        -55.8046         -56.0781        -56.1761       -0.0135839          146.94
0.563                   -1.02935        -153.377         -55.9816         -58.104         -55.9695        -58.4714       -0.0137099         146.869
0.564                   -1.04998        -153.976         -55.8715        -60.4379         -55.8591        -60.8007       -0.0138373         146.797
0.565                   -1.07108        -154.581         -55.7594        -62.8059         -55.7468        -63.1634       -0.0139661         146.726
0.566                   -1.09268        -155.191         -55.6455        -65.2077         -55.6327        -65.5592       -0.0140962         146.654
0.567                   -1.11481        -155.806         -55.5298        -67.6426         -55.5169        -67.9877       -0.0142278         146.582
0.568                   -1.13751        -156.426         -55.4124        -70.1103         -55.3994        -70.4484       -0.0143607          146.51
0.569                    -1.1608        -157.051         -55.2934          -72.61         -55.2803        -72.9408       -0.0144951         146.438
0.57                    -1.18474        -157.683         -55.1727        -75.1412         -55.1597        -75.4642        -0.014631         146.366
0.571                   -1.20935        -158.319         -55.0507        -77.7033         -55.0377        -78.0179       -0.0147685         146.294
0.572                   -1.23468        -158.962         -54.9273        -80.2953         -54.9144        -80.6014       -0.0149074         146.221
0.573                   -1.26078         -159.61         -54.8026        -82.9166           -54.79        -83.2137       -0.0150479         146.149
0.574                   -1.28769        -160.264          -54.677        -85.5663         -54.6645        -85.8542         -0.01519         146.076
0.575                   -1.31548        -160.924         -54.5504        -88.2434         -54.5382        -88.5218       -0.0153337         146.003
0.576                    -1.3442         -161.59          -54.423        -90.9469         -54.4112        -91.2156       -0.0154791          145.93
0.577                   -1.37391        -162.262         -54.2951        -93.6759         -54.2836        -93.9347       -0.0156262         145.857
0.578                   -1.40467         -162.94         -54.1668        -96.4291         -54.1557        -96.6778       -0.0157749         145.783
0.579                   -1.43656        -163.624         -54.0382        -99.2054         -54.0276         -99.444       -0.0159255          145.71
0.58                    -1.46965        -164.315         -53.9097        -102.004         -53.8994        -102.232       -0.0160778         145.636
0.581                   -1.50402        -165.011         -53.7813        -104.822         -53.7715         -105.04       -0.0162319         145.562
0.582                   -1.53975        -165.713         -53.6532         -107.66         -53.6439        -107.868       -0.0163878         145.489
0.583                   -1.57693         -166.42         -53.5257        -110.515          -53.517        -110.713       -0.0165456         145.414
0.584                   -1.61567        -167.134          -53.399        -113.387         -53.3907        -113.574       -0.0167054          145.34
0.585                   -1.65605        -167.853         -53.2733        -116.273         -53.2655         -116.45       -0.0168671         145.266
0.586                   -1.69818        -168.576         -53.1486        -119.172         -53.1414        -119.339       -0.0170307         145.191
0.587                   -1.74218        -169.305         -53.0254        -122.082         -53.0186        -122.239       -0.0171964         145.116
0.588                   -1.78815        -170.038         -52.9036        -125.002         -52.8974        -125.149       -0.0173642         145.041
0.589                   -1.83623        -170.775         -52.7835         -127.93         -52.7778        -128.067        -0.017534         144.966
0.59                    -1.88653        -171.515         -52.6652        -130.864           -52.66        -130.991       -0.0177059         144.891
0.591                   -1.93918        -172.258          -52.549        -133.801         -52.5442         -133.92       -0.0178801         144.816
0.592                    -1.9943        -173.002         -52.4348        -136.742         -52.4305        -136.851       -0.0180564          144.74
0.593                   -2.05203        -173.747         -52.3228        -139.682          -52.319        -139.783        -0.018235         144.664
0.594                   -2.11249        -174.492         -52.2132        -142.622         -52.2097        -142.714       -0.0184158         144.588
0.595                   -2.17578        -175.234         -52.1059        -145.558         -52.1029        -145.643        -0.018599         144.512
0.596                   -2.24204        -175.974         -52.0012         -148.49         -51.9985        -148.567       -0.0187846         144.436
0.597                   -2.31134        -176.709         -51.8989        -151.415         -51.8965        -151.484       -0.0189726         144.359
0.598                   -2.38377        -177.436         -51.7991        -154.332         -51.7971        -154.394       -0.0191631         144.282
0.599                   -2.45938        -178.155          -51.702        -157.239         -51.7002        -157.294        -0.019356         144.206
0.6                      -2.5382        -178.863         -51.6073        -160.135         -51.6058        -160.183       -0.0195515         144.128
0.601                    -2.6202        -179.557         -51.5152        -163.017         -51.5139         -163.06       -0.0197497         144.051
0.602                   -2.70532         179.766         -51.4255        -165.886         -51.4245        -165.923       -0.0199504         143.974
0.603                   -2.79344         179.108         -51.3383        -168.739         -51.3374        -168.771       -0.0201539         143.896
0.604                   -2.88436         178.472         -51.2534        -171.575         -51.2527        -171.602       -0.0203601         143.818
0.605                   -2.97783         177.862         -51.1707        -174.393         -51.1702        -174.416       -0.0205691          143.74
0.606                   -3.07349         177.281         -51.0903        -177.193         -51.0899        -177.211       -0.0207809         143.662
0.607                   -3.17089         176.732         -51.0119        -179.973         -51.0116        -179.987       -0.0209956         143.583
0.608                   -3.26948         176.216         -50.9354         177.268         -50.9352         177.257       -0.0212133         143.505
0.609                   -3.36861         175.738         -50.8608         174.529         -50.8607         174.522        -0.021434         143.426
0.61                    -3.46755         175.299         -50.7878         171.813         -50.7878         171.808       -0.0216578         143.347
0.611                   -3.56544         174.899         -50.7164         169.118         -50.7165         169.116       -0.0218847         143.267
0.612                   -3.66138          174.54         -50.6465         166.446         -50.6465         166.446       -0.0221147         143.188
0.613                   -3.75441          174.22         -50.5778         163.796         -50.5779         163.798        -0.022348         143.108
0.614                   -3.84352         173.938         -50.5102         161.169         -50.5103         161.173       -0.0225846         143.028
0.615                   -3.92776          173.69         -50.4436         158.564         -50.4438          158.57       -0.0228246         142.948
0.616                   -4.00619         173.474         -50.3779         155.982          -50.378          155.99       -0.0230679         142.867
0.617                   -4.07798         173.282         -50.3128         153.423          -50.313         153.431       -0.0233148         142.787
0.618                   -4.14246         173.109         -50.2484         150.886         -50.2485         150.895       -0.0235652         142.706
0.619                   -4.19908         172.947         -50.1843          148.37         -50.1844          148.38       -0.0238192         142.624
0.62                    -4.24754         172.789         -50.1205         145.876         -50.1206         145.886       -0.0240769         142.543
0.621                   -4.28771         172.626         -50.0569         143.403          -50.057         143.413       -0.0243384         142.461
0.622                   -4.31971          172.45         -49.9933          140.95         -49.9934         140.961       -0.0246037          142.38
0.623                   -4.34384         172.253         -49.9296         138.517         -49.9297         138.528       -0.0248728         142.297
0.624                   -4.36059         172.029         -49.8657         136.103         -49.8657         136.114        -0.025146         142.215
0.625                   -4.37063          171.77         -49.8015         133.708         -49.8015         133.719       -0.0254232         142.132
0.626                   -4.37473          171.47         -49.7368          131.33         -49.7369         131.341       -0.0257044         142.049
0.627                   -4.37375         171.127         -49.6716          128.97         -49.6717          128.98       -0.0259899         141.966
0.628                   -4.36859         170.735         -49.6058         126.626         -49.6059         126.636       -0.0262797         141.883
0.629                   -4.36019         170.294         -49.5394         124.297         -49.5394         124.306       -0.0265738         141.799
