! TOUCHSTONE file generated by CST MICROWAVE STUDIO
! Date and time: Mon Nov 30 09:08:24 2020
! Project name: Scenario_1_Planar_Body_Tissue_Out_of_Line_v2.cst
! Parameters = {dy1=-17.3; L_HA=400; Ltissue=700; MT=2.54; Rad_Dielectric=30; Rad_Lower=7.3; Rad_Upper=30; Wtissue=700; a_HA=580; a_WG=246; b_HA=500; b_WG=121; c_HA=0; c_WG=187; d_feed=85; dx1=346; h_feed=15; h_lower=18; h_upper=40; hfat=3; hgap=25; hmuscle=50; hskin=1.5}
! Header version: 2018
! Port assignment regex: !\s*Touchstone port\s*([0-9]+)\s*=\s*(CST MWS port|CST DS port)\s*([0-9]+|Zmin|Zmax)\s*\(\"(.*)\"\)(\s*mode\s*([0-9]+))?.*
! Touchstone port assignment:
! Touchstone port 1 = CST MWS port 1 ("")
! Touchstone port 2 = CST MWS port 2 ("")
# GHz S DB R 50
0.5                    -0.295582         -121.72         -55.0458         36.0129         -55.0456         36.0128      -0.00801158         151.145
0.501                  -0.297024         -122.13         -55.0425         35.1397         -55.0423         35.1394      -0.00807743          151.08
0.502                  -0.298506        -122.542         -55.0384          34.256         -55.0381         34.2556      -0.00814372         151.015
0.503                  -0.300029        -122.956         -55.0333         33.3619          -55.033         33.3613      -0.00821044         150.949
0.504                  -0.301595        -123.372         -55.0273         32.4572         -55.0269         32.4564      -0.00827761         150.884
0.505                  -0.303204        -123.791         -55.0202         31.5417         -55.0198         31.5407      -0.00834523         150.819
0.506                  -0.304858        -124.213         -55.0121         30.6154         -55.0116         30.6143      -0.00841329         150.753
0.507                  -0.306557        -124.637         -55.0029         29.6781         -55.0023         29.6769      -0.00848181         150.687
0.508                  -0.308304        -125.063         -54.9925         28.7298         -54.9919         28.7284       -0.0085508         150.622
0.509                    -0.3101        -125.492          -54.981         27.7703         -54.9802         27.7688      -0.00862025         150.556
0.51                   -0.311945        -125.923         -54.9682         26.7996         -54.9674          26.798      -0.00869017          150.49
0.511                  -0.313842        -126.357         -54.9541         25.8175         -54.9533         25.8158      -0.00876057         150.424
0.512                  -0.315793        -126.794         -54.9387          24.824         -54.9378         24.8223      -0.00883145         150.358
0.513                  -0.317798        -127.233         -54.9219          23.819          -54.921         23.8172      -0.00890281         150.292
0.514                   -0.31986        -127.675         -54.9037         22.8025         -54.9027         22.8006      -0.00897467         150.226
0.515                   -0.32198         -128.12         -54.8841         21.7743         -54.8829         21.7724      -0.00904703          150.16
0.516                  -0.324161        -128.568         -54.8628         20.7344         -54.8617         20.7325      -0.00911989         150.094
0.517                  -0.326405        -129.019           -54.84         19.6828         -54.8388         19.6808      -0.00919326         150.027
0.518                  -0.328713        -129.472         -54.8156         18.6194         -54.8143         18.6174      -0.00926715         149.961
0.519                  -0.331089        -129.929         -54.7895         17.5441         -54.7881         17.5421      -0.00934155         149.894
0.52                   -0.333534        -130.389         -54.7616          16.457         -54.7602         16.4551      -0.00941649         149.828
0.521                  -0.336052        -130.852         -54.7319         15.3581         -54.7304         15.3561      -0.00949195         149.761
0.522                  -0.338644        -131.318         -54.7003         14.2472         -54.6988         14.2453      -0.00956796         149.694
0.523                  -0.341314        -131.787         -54.6668         13.1245         -54.6652         13.1227      -0.00964451         149.627
0.524                  -0.344065         -132.26         -54.6313           11.99         -54.6296         11.9882      -0.00972162          149.56
0.525                    -0.3469        -132.736         -54.5938         10.8436         -54.5921         10.8419      -0.00979928         149.493
0.526                  -0.349822        -133.215         -54.5542          9.6854         -54.5523         9.68383      -0.00987752         149.426
0.527                  -0.352835        -133.698         -54.5123         8.51546         -54.5105         8.51401      -0.00995632         149.359
0.528                  -0.355943        -134.185         -54.4683         7.33383         -54.4664         7.33251       -0.0100357         149.291
0.529                  -0.359149        -134.675          -54.422         6.14057           -54.42         6.13939       -0.0101157         149.224
0.53                   -0.362458        -135.169         -54.3733         4.93576         -54.3712         4.93475       -0.0101962         149.156
0.531                  -0.365875        -135.667         -54.3221          3.7195           -54.32         3.71867       -0.0102774         149.089
0.532                  -0.369403        -136.168         -54.2685         2.49189         -54.2664         2.49125       -0.0103592         149.021
0.533                  -0.373049        -136.674         -54.2124         1.25304         -54.2102          1.2526       -0.0104416         148.953
0.534                  -0.376817        -137.183         -54.1537      0.00308139         -54.1514      0.00286435       -0.0105246         148.885
0.535                  -0.380713        -137.697         -54.0923        -1.25785         -54.0899        -1.25784       -0.0106083         148.817
0.536                  -0.384742        -138.215         -54.0281        -2.52961         -54.0258        -2.52935       -0.0106926         148.749
0.537                  -0.388911        -138.738         -53.9612        -3.81204         -53.9588        -3.81152       -0.0107775         148.681
0.538                  -0.393228        -139.264         -53.8915        -5.10497          -53.889        -5.10417       -0.0108631         148.612
0.539                  -0.397698        -139.796         -53.8188        -6.40822         -53.8163        -6.40714       -0.0109494         148.544
0.54                   -0.402329        -140.331         -53.7432        -7.72161         -53.7407        -7.72023       -0.0110364         148.475
0.541                  -0.407129        -140.872         -53.6646        -9.04494          -53.662        -9.04326        -0.011124         148.407
0.542                  -0.412107        -141.418         -53.5829         -10.378         -53.5803         -10.376       -0.0112123         148.338
0.543                  -0.417272        -141.968         -53.4981        -11.7206         -53.4955        -11.7183       -0.0113014         148.269
0.544                  -0.422632        -142.524         -53.4102        -13.0725         -53.4075        -13.0699       -0.0113911           148.2
0.545                  -0.428199        -143.084          -53.319        -14.4336         -53.3164        -14.4306       -0.0114816         148.131
0.546                  -0.433983         -143.65         -53.2246        -15.8035         -53.2219        -15.8001       -0.0115728         148.062
0.547                  -0.439996        -144.222         -53.1269        -17.1821         -53.1242        -17.1784       -0.0116648         147.992
0.548                  -0.446249        -144.799         -53.0259        -18.5691         -53.0231         -18.565       -0.0117575         147.923
0.549                  -0.452756        -145.382         -52.9214        -19.9643         -52.9187        -19.9599        -0.011851         147.853
0.55                   -0.459531        -145.971         -52.8136        -21.3675         -52.8108        -21.3627       -0.0119452         147.784
0.551                  -0.466588        -146.566         -52.7023        -22.7785         -52.6995        -22.7734       -0.0120403         147.714
0.552                  -0.473944        -147.167         -52.5875        -24.1971         -52.5847        -24.1916       -0.0121361         147.644
0.553                  -0.481615        -147.774         -52.4692         -25.623         -52.4664        -25.6171       -0.0122328         147.574
0.554                  -0.489619        -148.388         -52.3473        -27.0561         -52.3446        -27.0499       -0.0123303         147.504
0.555                  -0.497976        -149.009         -52.2219        -28.4962         -52.2192        -28.4896       -0.0124286         147.434
0.556                  -0.506706        -149.636         -52.0929        -29.9431         -52.0902        -29.9361       -0.0125278         147.363
0.557                  -0.515831        -150.271         -51.9603        -31.3966         -51.9576        -31.3893       -0.0126279         147.293
0.558                  -0.525375        -150.913         -51.8241        -32.8566         -51.8214        -32.8489       -0.0127288         147.222
0.559                  -0.535364        -151.562         -51.6842         -34.323         -51.6816         -34.315       -0.0128307         147.152
0.56                   -0.545823        -152.219         -51.5406        -35.7956         -51.5381        -35.7873       -0.0129334         147.081
0.561                  -0.556783        -152.884         -51.3934        -37.2744         -51.3909        -37.2658       -0.0130371          147.01
0.562                  -0.568275        -153.557         -51.2426        -38.7593           -51.24        -38.7503       -0.0131418         146.939
0.563                  -0.580333        -154.239          -51.088        -40.2502         -51.0855         -40.241       -0.0132474         146.867
0.564                  -0.592991        -154.929         -50.9298        -41.7471         -50.9273        -41.7376        -0.013354         146.796
0.565                   -0.60629        -155.628         -50.7678        -43.2501         -50.7655        -43.2403       -0.0134616         146.724
0.566                  -0.620271        -156.336         -50.6022        -44.7591         -50.5999        -44.7491       -0.0135703         146.653
0.567                  -0.634979        -157.054          -50.433        -46.2742         -50.4307         -46.264         -0.01368         146.581
0.568                  -0.650462        -157.781           -50.26        -47.7955         -50.2578        -47.7851       -0.0137907         146.509
0.569                  -0.666773        -158.518         -50.0834        -49.3232         -50.0812        -49.3126       -0.0139026         146.437
0.57                   -0.683968        -159.266         -49.9031        -50.8573          -49.901        -50.8465       -0.0140156         146.365
0.571                  -0.702108        -160.024         -49.7192        -52.3981         -49.7171        -52.3872       -0.0141298         146.292
0.572                  -0.721259        -160.793         -49.5316        -53.9458         -49.5297        -53.9348       -0.0142451          146.22
0.573                  -0.741491        -161.574         -49.3405        -55.5007         -49.3386        -55.4896       -0.0143617         146.147
0.574                  -0.762882        -162.365         -49.1457         -57.063         -49.1439        -57.0519       -0.0144796         146.074
0.575                  -0.785514        -163.169         -48.9474        -58.6332         -48.9456         -58.622       -0.0145987         146.001
0.576                  -0.809479        -163.985         -48.7455        -60.2116         -48.7439        -60.2004       -0.0147192         145.928
0.577                  -0.834873        -164.814         -48.5401        -61.7986         -48.5385        -61.7874        -0.014841         145.855
0.578                  -0.861804        -165.656         -48.3312        -63.3947         -48.3298        -63.3836       -0.0149643         145.781
0.579                  -0.890385        -166.511         -48.1189        -65.0005         -48.1175        -64.9894       -0.0150891         145.708
0.58                   -0.920742         -167.38         -47.9032        -66.6165         -47.9019        -66.6055       -0.0152154         145.634
0.581                   -0.95301        -168.263         -47.6841        -68.2432         -47.6829        -68.2324       -0.0153433          145.56
0.582                  -0.987337        -169.161         -47.4617        -69.8814         -47.4605        -69.8707       -0.0154729         145.486
0.583                   -1.02388        -170.073          -47.236        -71.5318         -47.2349        -71.5213       -0.0156042         145.412
0.584                   -1.06283        -171.001         -47.0071        -73.1952         -47.0061        -73.1849       -0.0157374         145.337
0.585                   -1.10435        -171.944         -46.7751        -74.8723         -46.7742        -74.8622       -0.0158724         145.263
0.586                   -1.14867        -172.903         -46.5401        -76.5639         -46.5392        -76.5542       -0.0160095         145.188
0.587                     -1.196        -173.879         -46.3021        -78.2712         -46.3013        -78.2617       -0.0161487         145.113
0.588                    -1.2466        -174.871         -46.0612        -79.9949         -46.0605        -79.9857       -0.0162901         145.038
0.589                   -1.30073        -175.879         -45.8175        -81.7361         -45.8169        -81.7273       -0.0164339         144.963
0.59                    -1.35868        -176.905         -45.5712        -83.4958         -45.5706        -83.4874       -0.0165801         144.887
0.591                   -1.42077        -177.947         -45.3224        -85.2753         -45.3219        -85.2673        -0.016729         144.812
0.592                   -1.48734        -179.007         -45.0712        -87.0757         -45.0708        -87.0681       -0.0168807         144.736
0.593                   -1.55879         179.917         -44.8178        -88.8982         -44.8174         -88.891       -0.0170353          144.66
0.594                    -1.6355         178.825         -44.5624         -90.744         -44.5621        -90.7373       -0.0171932         144.583
0.595                   -1.71794         177.716         -44.3053        -92.6146          -44.305        -92.6083       -0.0173544         144.507
0.596                   -1.80657         176.592         -44.0465        -94.5112         -44.0463        -94.5054       -0.0175192          144.43
0.597                   -1.90194         175.453         -43.7864        -96.4352         -43.7862        -96.4299       -0.0176878         144.354
0.598                   -2.00461           174.3         -43.5253        -98.3881         -43.5252        -98.3833       -0.0178606         144.277
0.599                   -2.11519         173.136         -43.2635        -100.371         -43.2634        -100.367       -0.0180377         144.199
0.6                     -2.23435         171.962         -43.0012        -102.386         -43.0011        -102.382       -0.0182195         144.122
0.601                   -2.36278          170.78         -42.7389        -104.434         -42.7389        -104.431       -0.0184063         144.044
0.602                   -2.50126         169.593         -42.4771        -106.517          -42.477        -106.514       -0.0185984         143.966
0.603                   -2.65059         168.406          -42.216        -108.635          -42.216        -108.633       -0.0187961         143.888
0.604                   -2.81161         167.222         -41.9562        -110.791         -41.9562        -110.789       -0.0189999          143.81
0.605                   -2.98522         166.048         -41.6981        -112.985         -41.6981        -112.984       -0.0192101         143.731
0.606                   -3.17233         164.889         -41.4424        -115.219         -41.4425        -115.218       -0.0194269         143.653
0.607                   -3.37388         163.753         -41.1896        -117.493         -41.1896        -117.492       -0.0196509         143.574
0.608                    -3.5908         162.651         -40.9403        -119.809         -40.9403        -119.808       -0.0198823         143.495
0.609                   -3.82402         161.593         -40.6951        -122.166         -40.6951        -122.166       -0.0201215         143.415
0.61                    -4.07436         160.591         -40.4546        -124.565         -40.4546        -124.565       -0.0203688         143.336
0.611                   -4.34256         159.663         -40.2196        -127.006         -40.2196        -127.006       -0.0206244         143.256
0.612                   -4.62917         158.824         -39.9906        -129.489         -39.9906        -129.489       -0.0208885         143.176
0.613                   -4.93448         158.097         -39.7685        -132.011         -39.7684        -132.012       -0.0211614         143.096
0.614                   -5.25839         157.505         -39.5537        -134.574         -39.5537        -134.574       -0.0214431         143.015
0.615                   -5.60031         157.074         -39.3471        -137.173          -39.347        -137.173       -0.0217336         142.934
0.616                   -5.95889         156.834         -39.1491        -139.808         -39.1491        -139.808       -0.0220329         142.854
0.617                   -6.33189         156.819         -38.9604        -142.475         -38.9604        -142.476       -0.0223408         142.772
0.618                   -6.71587         157.062         -38.7816        -145.172         -38.7816        -145.172       -0.0226571         142.691
0.619                   -7.10589         157.597          -38.613        -147.893          -38.613        -147.894       -0.0229814          142.61
0.62                     -7.4953         158.457         -38.4551        -150.636         -38.4551        -150.636       -0.0233133         142.528
0.621                   -7.87545         159.668         -38.3082        -153.396         -38.3082        -153.396       -0.0236524         142.446
0.622                   -8.23579         161.244         -38.1725        -156.167         -38.1725        -156.167        -0.023998         142.364
0.623                   -8.56408         163.184         -38.0481        -158.944         -38.0481        -158.944       -0.0243495         142.282
0.624                   -8.84724         165.461         -37.9351        -161.722         -37.9351        -161.722       -0.0247063         142.199
0.625                    -9.0726         168.024         -37.8332        -164.496         -37.8332        -164.496       -0.0250678         142.116
0.626                   -9.22953         170.792         -37.7425         -167.26         -37.7425         -167.26       -0.0254332         142.033
0.627                   -9.31121         173.664         -37.6624        -170.008         -37.6625        -170.008       -0.0258018          141.95
0.628                   -9.31574         176.528         -37.5928        -172.736         -37.5929        -172.736       -0.0261732         141.867
0.629                   -9.24651         179.274         -37.5331        -175.438         -37.5332        -175.438       -0.0265467         141.783
