! TOUCHSTONE file generated by CST MICROWAVE STUDIO
! Date and time: Sat Nov 14 20:00:55 2020
! Project name: Scenario_1_Planar_Body_Tissue_Out_of_Line.cst
! Parameters = {dy1=17.3; L_HA=400; Ltissue=700; MT=2.54; Rad_Dielectric=30; Rad_Lower=7.3; Rad_Upper=30; Wtissue=700; a_HA=580; a_WG=246; b_HA=500; b_WG=121; c_HA=0; c_WG=187; d_feed=85; dx1=693; h_feed=15; h_lower=18; h_upper=40; hfat=3; hgap=25; hmuscle=50; hskin=1.5}
! Header version: 2018
! Port assignment regex: !\s*Touchstone port\s*([0-9]+)\s*=\s*(CST MWS port|CST DS port)\s*([0-9]+|Zmin|Zmax)\s*\(\"(.*)\"\)(\s*mode\s*([0-9]+))?.*
! Touchstone port assignment:
! Touchstone port 1 = CST MWS port 1 ("")
! Touchstone port 2 = CST MWS port 2 ("")
# GHz S DB R 50
0.5                    -0.210483          -121.5         -60.7461        -170.178         -60.7458        -170.179      -0.00779883         151.132
0.501                  -0.211232        -121.909         -60.6354        -172.293         -60.6352        -172.296       -0.0078546         151.066
0.502                  -0.211993        -122.322         -60.5316        -174.427         -60.5315        -174.432      -0.00791161         151.001
0.503                  -0.212767        -122.737          -60.435        -176.575          -60.435        -176.581       -0.0079698         150.936
0.504                   -0.21356        -123.156         -60.3458        -178.731         -60.3459        -178.738      -0.00802916          150.87
0.505                  -0.214374        -123.578         -60.2642         179.112         -60.2645         179.103      -0.00808963         150.805
0.506                  -0.215215        -124.003         -60.1902          176.96         -60.1908         176.951      -0.00815119         150.739
0.507                  -0.216085        -124.431         -60.1238          174.82         -60.1245          174.81      -0.00821381         150.674
0.508                  -0.216989        -124.863         -60.0646         172.698         -60.0655         172.688      -0.00827746         150.608
0.509                  -0.217934        -125.298         -60.0123         170.601         -60.0134         170.591       -0.0083421         150.542
0.51                   -0.218922        -125.736         -59.9663         168.535         -59.9676         168.525      -0.00840773         150.476
0.511                  -0.219961        -126.178         -59.9261         166.505         -59.9275         166.495      -0.00847431          150.41
0.512                  -0.221054        -126.624         -59.8909         164.516         -59.8924         164.507      -0.00854183         150.344
0.513                   -0.22221        -127.074         -59.8599         162.573         -59.8615         162.564      -0.00861028         150.278
0.514                  -0.223433        -127.527         -59.8322         160.678         -59.8339          160.67      -0.00867962         150.212
0.515                  -0.224731        -127.984          -59.807         158.834         -59.8087         158.827      -0.00874986         150.146
0.516                   -0.22611        -128.446         -59.7832         157.043          -59.785         157.037      -0.00882098         150.079
0.517                  -0.227579        -128.911         -59.7601         155.306         -59.7619         155.301      -0.00889297         150.013
0.518                  -0.229145         -129.38         -59.7367         153.623         -59.7384         153.619      -0.00896582         149.946
0.519                  -0.230818        -129.854          -59.712         151.994         -59.7136         151.991      -0.00903953         149.879
0.52                   -0.232606        -130.332         -59.6853         150.418         -59.6869         150.416      -0.00911408         149.813
0.521                  -0.234519        -130.814         -59.6558         148.892         -59.6572         148.891      -0.00918948         149.746
0.522                  -0.236568        -131.301         -59.6227         147.416          -59.624         147.415      -0.00926572         149.679
0.523                  -0.238764        -131.793         -59.5854         145.986         -59.5866         145.986       -0.0093428         149.612
0.524                  -0.241118        -132.289         -59.5433           144.6         -59.5444           144.6      -0.00942072         149.545
0.525                  -0.243644         -132.79         -59.4959         143.254         -59.4968         143.255      -0.00949948         149.478
0.526                  -0.246355        -133.297         -59.4427         141.946         -59.4434         141.947      -0.00957907          149.41
0.527                  -0.249266        -133.808         -59.3833         140.672         -59.3839         140.673       -0.0096595         149.343
0.528                  -0.252392        -134.325         -59.3174         139.429         -59.3178          139.43      -0.00974078         149.275
0.529                  -0.255751        -134.847         -59.2447         138.213         -59.2449         138.214       -0.0098229         149.208
0.53                   -0.259361        -135.374         -59.1649         137.021         -59.1651         137.022      -0.00990588          149.14
0.531                   -0.26324        -135.907          -59.078          135.85          -59.078         135.851       -0.0099897         149.072
0.532                  -0.267411        -136.446         -58.9837         134.696         -58.9836         134.696       -0.0100744         149.004
0.533                  -0.271895        -136.991          -58.882         133.556         -58.8818         133.556       -0.0101599         148.936
0.534                  -0.276718        -137.542         -58.7728         132.428         -58.7725         132.428       -0.0102464         148.868
0.535                  -0.281905        -138.099         -58.6561         131.307         -58.6557         131.307       -0.0103337           148.8
0.536                  -0.287485        -138.662         -58.5319         130.193         -58.5314         130.192       -0.0104219         148.732
0.537                   -0.29349        -139.232         -58.4002          129.08         -58.3996         129.079       -0.0105109         148.664
0.538                  -0.299951        -139.809          -58.261         127.968         -58.2603         127.966       -0.0106009         148.595
0.539                  -0.306907        -140.393         -58.1144         126.854         -58.1136         126.851       -0.0106919         148.526
0.54                   -0.314396        -140.984         -57.9604         125.735         -57.9596         125.732       -0.0107837         148.458
0.541                   -0.32246        -141.582         -57.7992         124.609         -57.7983         124.605       -0.0108765         148.389
0.542                  -0.331148        -142.188         -57.6307         123.474         -57.6298          123.47       -0.0109702          148.32
0.543                  -0.340509        -142.801         -57.4551         122.327         -57.4542         122.323       -0.0110649         148.251
0.544                  -0.350599        -143.423         -57.2724         121.167         -57.2715         121.162       -0.0111605         148.182
0.545                  -0.361478        -144.052         -57.0828         119.992         -57.0819         119.987       -0.0112572         148.113
0.546                  -0.373212         -144.69         -56.8864           118.8         -56.8855         118.794       -0.0113549         148.043
0.547                  -0.385873        -145.336         -56.6831         117.588         -56.6822         117.582       -0.0114536         147.974
0.548                  -0.399541        -145.991         -56.4732         116.356         -56.4723         116.349       -0.0115534         147.904
0.549                  -0.414301        -146.655         -56.2566           115.1         -56.2558         115.093       -0.0116542         147.834
0.55                   -0.430248        -147.328         -56.0336          113.82         -56.0328         113.813       -0.0117561         147.765
0.551                  -0.447485         -148.01         -55.8041         112.512         -55.8033         112.505       -0.0118592         147.695
0.552                  -0.466127        -148.702         -55.5683         111.176         -55.5676         111.169       -0.0119635         147.625
0.553                  -0.486298        -149.403         -55.3263         109.809         -55.3256         109.802       -0.0120689         147.554
0.554                  -0.508133        -150.114         -55.0781         108.409         -55.0775         108.402       -0.0121756         147.484
0.555                  -0.531785        -150.835          -54.824         106.974         -54.8234         106.966       -0.0122835         147.414
0.556                  -0.557415        -151.565         -54.5639         105.502         -54.5633         105.494       -0.0123928         147.343
0.557                  -0.585205        -152.305          -54.298          103.99         -54.2975         103.982       -0.0125035         147.272
0.558                  -0.615351        -153.055         -54.0265         102.435          -54.026         102.428       -0.0126157         147.202
0.559                  -0.648068        -153.814         -53.7494         100.836          -53.749         100.829       -0.0127294         147.131
0.56                    -0.68359        -154.582          -53.467         99.1896         -53.4666         99.1819       -0.0128447          147.06
0.561                  -0.722174        -155.359         -53.1794         97.4925         -53.1791         97.4849       -0.0129617         146.988
0.562                  -0.764093        -156.143         -52.8869         95.7419         -52.8866         95.7345       -0.0130806         146.917
0.563                  -0.809648        -156.935         -52.5897         93.9348         -52.5895         93.9275       -0.0132014         146.846
0.564                  -0.859156        -157.732          -52.288         92.0677         -52.2879         92.0607       -0.0133242         146.774
0.565                  -0.912958        -158.534         -51.9823         90.1371         -51.9822         90.1304       -0.0134493         146.702
0.566                  -0.971411        -159.339         -51.6728         88.1396         -51.6728         88.1332       -0.0135768          146.63
0.567                   -1.03489        -160.144         -51.3601         86.0714         -51.3601         86.0653       -0.0137069         146.558
0.568                   -1.10377        -160.946         -51.0447         83.9287         -51.0447         83.9229       -0.0138399         146.486
0.569                   -1.17843        -161.744          -50.727         81.7077         -50.7271         81.7022       -0.0139759         146.414
0.57                    -1.25924        -162.531         -50.4079         79.4044          -50.408         79.3993       -0.0141152         146.341
0.571                   -1.34654        -163.304          -50.088         77.0153         -50.0881         77.0106       -0.0142582         146.269
0.572                    -1.4406        -164.057         -49.7683         74.5366         -49.7684         74.5323       -0.0144051         146.196
0.573                   -1.54163        -164.784         -49.4497         71.9651         -49.4499         71.9612       -0.0145562         146.123
0.574                    -1.6497        -165.476         -49.1333         69.2977         -49.1335         69.2943        -0.014712          146.05
0.575                   -1.76473        -166.126         -48.8204         66.5322         -48.8206         66.5291       -0.0148726         145.977
0.576                   -1.88643        -166.724         -48.5123         63.6668         -48.5125         63.6642       -0.0150385         145.903
0.577                   -2.01422        -167.261         -48.2104         60.7007         -48.2106         60.6985       -0.0152099          145.83
0.578                   -2.14719        -167.725         -47.9163         57.6343         -47.9165         57.6326       -0.0153871         145.756
0.579                   -2.28406        -168.106         -47.6317         54.4693         -47.6319         54.4679       -0.0155702         145.682
0.58                     -2.4231        -168.396         -47.3582         51.2086         -47.3584         51.2077       -0.0157595         145.608
0.581                   -2.56212        -168.585         -47.0976         47.8572         -47.0977         47.8566       -0.0159548         145.534
0.582                    -2.6985        -168.668         -46.8515         44.4215         -46.8516         44.4212       -0.0161559          145.46
0.583                   -2.82926        -168.643         -46.6215           40.91         -46.6216           40.91       -0.0163627         145.386
0.584                   -2.95116        -168.513         -46.4092         37.3328         -46.4092         37.3331       -0.0165747         145.311
0.585                   -3.06089        -168.283         -46.2156         33.7017         -46.2156         33.7022       -0.0167913         145.236
0.586                   -3.15534        -167.969         -46.0418         30.0301         -46.0418         30.0307       -0.0170118         145.162
0.587                   -3.23181        -167.587         -45.8886         26.3322         -45.8885          26.333       -0.0172354         145.087
0.588                   -3.28831         -167.16         -45.7563         22.6232         -45.7562         22.6241       -0.0174613         145.012
0.589                   -3.32368        -166.715         -45.6448         18.9183         -45.6446         18.9192       -0.0176885         144.937
0.59                    -3.33775        -166.276         -45.5538         15.2327         -45.5537         15.2336       -0.0179164         144.861
0.591                    -3.3313        -165.869         -45.4827         11.5806         -45.4825         11.5815       -0.0181441         144.786
0.592                   -3.30594        -165.518         -45.4304         7.97534         -45.4302         7.97617        -0.018371          144.71
0.593                   -3.26393        -165.241         -45.3957          4.4287         -45.3954         4.42946       -0.0185967         144.635
0.594                   -3.20793        -165.051         -45.3771        0.950826         -45.3768        0.951505       -0.0188207         144.559
0.595                    -3.1408        -164.959          -45.373        -2.44997         -45.3728        -2.44937       -0.0190429         144.483
0.596                   -3.06536        -164.969         -45.3818        -5.76719         -45.3815        -5.76669       -0.0192632         144.406
0.597                   -2.98424        -165.081         -45.4017        -8.99614         -45.4015        -8.99573       -0.0194816          144.33
0.598                   -2.89982        -165.293         -45.4311        -12.1338         -45.4308        -12.1335       -0.0196984         144.253
0.599                   -2.81412        -165.601         -45.4683        -15.1787          -45.468        -15.1785       -0.0199137         144.177
0.6                     -2.72883        -165.999         -45.5116        -18.1307         -45.5114        -18.1305       -0.0201279           144.1
0.601                   -2.64531         -166.48         -45.5598        -20.9906         -45.5596        -20.9905       -0.0203412         144.023
0.602                   -2.56458        -167.037         -45.6114        -23.7604         -45.6112        -23.7603        -0.020554         143.945
0.603                   -2.48745        -167.663         -45.6653        -26.4427         -45.6651        -26.4426       -0.0207668         143.868
0.604                   -2.41446        -168.351         -45.7203        -29.0406         -45.7201        -29.0405       -0.0209797          143.79
0.605                     -2.346        -169.096         -45.7754        -31.5577         -45.7752        -31.5577       -0.0211932         143.712
0.606                   -2.28232        -169.891         -45.8298        -33.9979         -45.8296        -33.9979       -0.0214076         143.634
0.607                   -2.22352        -170.731         -45.8828        -36.3652         -45.8826        -36.3652       -0.0216232         143.555
0.608                   -2.16967        -171.613         -45.9337        -38.6638         -45.9335        -38.6638       -0.0218402         143.477
0.609                   -2.12073        -172.532         -45.9819        -40.8978         -45.9817        -40.8978        -0.022059         143.398
0.61                    -2.07666        -173.484         -46.0269        -43.0714         -46.0268        -43.0713       -0.0222797         143.319
0.611                   -2.03737        -174.467         -46.0684        -45.1885         -46.0683        -45.1884       -0.0225026         143.239
0.612                   -2.00275        -175.479          -46.106        -47.2532         -46.1059         -47.253       -0.0227279          143.16
0.613                   -1.97269        -176.518         -46.1394        -49.2693         -46.1393        -49.2691       -0.0229558          143.08
0.614                   -1.94708        -177.581         -46.1684        -51.2404         -46.1683        -51.2401       -0.0231864             143
0.615                   -1.92581        -178.667         -46.1927        -53.1702         -46.1927        -53.1698       -0.0234198          142.92
0.616                   -1.90879        -179.777         -46.2123         -55.062         -46.2123        -55.0616       -0.0236564         142.839
0.617                   -1.89592         179.093          -46.227         -56.919          -46.227        -56.9186        -0.023896         142.759
0.618                   -1.88712         177.941         -46.2368        -58.7445         -46.2367         -58.744        -0.024139         142.678
0.619                   -1.88234         176.769         -46.2414        -60.5414         -46.2414        -60.5408       -0.0243854         142.597
0.62                    -1.88153         175.577          -46.241        -62.3125          -46.241        -62.3119       -0.0246353         142.515
0.621                   -1.88465         174.365         -46.2355        -64.0607         -46.2354          -64.06       -0.0248888         142.433
0.622                    -1.8917         173.133         -46.2248        -65.7885         -46.2248        -65.7878       -0.0251461         142.351
0.623                   -1.90267          171.88          -46.209        -67.4984          -46.209        -67.4977       -0.0254072         142.269
0.624                   -1.91758         170.608         -46.1881        -69.1929         -46.1881        -69.1922       -0.0256722         142.187
0.625                   -1.93647         169.315         -46.1622        -70.8744         -46.1621        -70.8736       -0.0259413         142.104
0.626                   -1.95941         168.002         -46.1312        -72.5449         -46.1312        -72.5441       -0.0262145         142.021
0.627                   -1.98646         166.668         -46.0953        -74.2069         -46.0952         -74.206        -0.026492         141.938
0.628                   -2.01772         165.312         -46.0544        -75.8622         -46.0544        -75.8614       -0.0267738         141.854
0.629                    -2.0533         163.935         -46.0088         -77.513         -46.0088        -77.5122       -0.0270599          141.77
