! TOUCHSTONE file generated by CST MICROWAVE STUDIO
! Date and time: Mon Nov 30 08:34:52 2020
! Project name: Scenario_1_Planar_Body_Tissue_Out_of_Line.cst
! Parameters = {dy1=-17.3; L_HA=400; Ltissue=700; MT=2.54; Rad_Dielectric=30; Rad_Lower=7.3; Rad_Upper=30; Wtissue=700; a_HA=580; a_WG=246; b_HA=500; b_WG=121; c_HA=0; c_WG=187; d_feed=85; dx1=866; h_feed=15; h_lower=18; h_upper=40; hfat=3; hgap=25; hmuscle=50; hskin=1.5}
! Header version: 2018
! Port assignment regex: !\s*Touchstone port\s*([0-9]+)\s*=\s*(CST MWS port|CST DS port)\s*([0-9]+|Zmin|Zmax)\s*\(\"(.*)\"\)(\s*mode\s*([0-9]+))?.*
! Touchstone port assignment:
! Touchstone port 1 = CST MWS port 1 ("")
! Touchstone port 2 = CST MWS port 2 ("")
# GHz S DB R 50
0.5                   -0.0982204        -122.151         -63.4909         107.244         -63.4908         107.246      -0.00750592         151.135
0.501                  -0.103029        -122.611         -63.2177         105.649         -63.2179         105.653      -0.00758176         151.069
0.502                   -0.10822        -123.076         -62.9408         104.016         -62.9412          104.02        -0.007658         151.004
0.503                  -0.113838        -123.545         -62.6603         102.341         -62.6608         102.346      -0.00773465         150.939
0.504                  -0.119936        -124.019          -62.376         100.622         -62.3767         100.628      -0.00781172         150.873
0.505                  -0.126574        -124.497         -62.0882         98.8568          -62.089         98.8632      -0.00788922         150.807
0.506                  -0.133815        -124.981         -61.7968         97.0415         -61.7977         97.0485      -0.00796718         150.742
0.507                  -0.141734        -125.469          -61.502         95.1735         -61.5029         95.1811       -0.0080456         150.676
0.508                   -0.15041        -125.961         -61.2039         93.2498         -61.2049         93.2579      -0.00812452          150.61
0.509                  -0.159934        -126.458         -60.9027         91.2668         -60.9037         91.2752      -0.00820396         150.544
0.51                   -0.170403         -126.96         -60.5987          89.221         -60.5997         89.2297      -0.00828395         150.478
0.511                  -0.181924        -127.466         -60.2921         87.1087          -60.293         87.1176      -0.00836456         150.412
0.512                  -0.194614        -127.975         -59.9833          84.926         -59.9842         84.9351      -0.00844584         150.346
0.513                  -0.208594        -128.488         -59.6728         82.6691         -59.6736         82.6781      -0.00852788          150.28
0.514                  -0.223994        -129.004          -59.361         80.3338         -59.3618         80.3426      -0.00861078         150.214
0.515                  -0.240944        -129.522         -59.0488         77.9162         -59.0495         77.9247      -0.00869471         150.147
0.516                  -0.259574         -130.04         -58.7367         75.4123         -58.7373         75.4204      -0.00877984         150.081
0.517                  -0.280004        -130.558         -58.4256         72.8184         -58.4261         72.8259      -0.00886647         150.014
0.518                  -0.302338        -131.074         -58.1165         70.1309         -58.1169         70.1378      -0.00895493         149.947
0.519                  -0.326651        -131.585         -57.8106          67.347         -57.8109          67.353      -0.00904572         149.881
0.52                   -0.352974        -132.091          -57.509          64.464         -57.5092          64.469      -0.00913948         149.814
0.521                   -0.38128        -132.587         -57.2133         61.4805         -57.2133         61.4843      -0.00923703         149.747
0.522                  -0.411464        -133.073         -56.9247         58.3958         -56.9247         58.3983      -0.00933944          149.68
0.523                  -0.443321        -133.544         -56.6451         55.2105          -56.645         55.2116      -0.00944795         149.612
0.524                  -0.476538        -133.997         -56.3761         51.9267         -56.3759         51.9263      -0.00956382         149.545
0.525                  -0.510676        -134.431         -56.1195         48.5482         -56.1192         48.5462      -0.00968802         149.478
0.526                  -0.545173        -134.843          -55.877         45.0807         -55.8767          45.077      -0.00982054         149.411
0.527                  -0.579356        -135.232         -55.6504         41.5317         -55.6501         41.5263      -0.00995951         149.343
0.528                  -0.612475        -135.597         -55.4412         37.9108          -55.441         37.9037       -0.0101007         149.276
0.529                  -0.643741         -135.94          -55.251         34.2296         -55.2508         34.2208       -0.0102379         149.208
0.53                   -0.672391        -136.263          -55.081         30.5014         -55.0808          30.491       -0.0103651         149.141
0.531                  -0.697748        -136.568          -54.932          26.741         -54.9319         26.7291       -0.0104787         149.074
0.532                  -0.719278        -136.861         -54.8046         22.9641         -54.8047         22.9509       -0.0105786         149.006
0.533                  -0.736635        -137.148          -54.699         19.1873         -54.6993          19.173       -0.0106677         148.938
0.534                  -0.749681        -137.433          -54.615         15.4271         -54.6155         15.4118       -0.0107497         148.871
0.535                  -0.758486        -137.722         -54.5521         11.6993         -54.5527         11.6834        -0.010828         148.803
0.536                  -0.763299         -138.02         -54.5092          8.0192           -54.51         8.00281       -0.0109053         148.734
0.537                  -0.764513        -138.332         -54.4851         4.40028         -54.4861         4.38368       -0.0109831         148.666
0.538                  -0.762613        -138.661         -54.4784        0.854496         -54.4795        0.837908       -0.0110625         148.598
0.539                  -0.758136        -139.008         -54.4872        -2.60815         -54.4885        -2.62452       -0.0111438         148.529
0.54                   -0.751622        -139.376         -54.5098        -5.97969         -54.5113        -5.99566       -0.0112274         148.461
0.541                  -0.743591        -139.765         -54.5444        -9.25416          -54.546        -9.26957       -0.0113131         148.392
0.542                  -0.734516        -140.176         -54.5889        -12.4275         -54.5907        -12.4422        -0.011401         148.323
0.543                  -0.724814        -140.607         -54.6417        -15.4974         -54.6435        -15.5113       -0.0114909         148.254
0.544                   -0.71484        -141.059         -54.7009         -18.463         -54.7027        -18.4761       -0.0115828         148.185
0.545                   -0.70489         -141.53         -54.7648         -21.325         -54.7667        -21.3371       -0.0116765         148.116
0.546                  -0.695204        -142.018         -54.8319        -24.0849         -54.8338        -24.0961        -0.011772         148.047
0.547                  -0.685971        -142.524         -54.9009        -26.7453         -54.9028        -26.7555        -0.011869         147.977
0.548                  -0.677341        -143.046         -54.9705        -29.3093         -54.9724        -29.3185       -0.0119677         147.908
0.549                  -0.669425        -143.583         -55.0395        -31.7807         -55.0413        -31.7889       -0.0120678         147.838
0.55                   -0.662309        -144.134         -55.1069        -34.1635         -55.1087        -34.1708       -0.0121694         147.768
0.551                  -0.656054        -144.698         -55.1719        -36.4619         -55.1736        -36.4683       -0.0122724         147.698
0.552                  -0.650707        -145.275         -55.2336        -38.6804         -55.2352         -38.686       -0.0123768         147.628
0.553                  -0.646299        -145.863         -55.2914        -40.8234         -55.2929        -40.8282       -0.0124825         147.558
0.554                  -0.642853        -146.463         -55.3447        -42.8953         -55.3462        -42.8994       -0.0125896         147.488
0.555                  -0.640386        -147.074         -55.3931        -44.9006         -55.3944         -44.904       -0.0126979         147.418
0.556                   -0.63891        -147.695         -55.4359        -46.8435         -55.4371        -46.8463       -0.0128076         147.347
0.557                  -0.638436        -148.326          -55.473        -48.7282         -55.4741        -48.7304       -0.0129185         147.277
0.558                  -0.638974        -148.967         -55.5039        -50.5586         -55.5049        -50.5604       -0.0130307         147.206
0.559                  -0.640533        -149.618         -55.5285        -52.3387         -55.5293        -52.3401       -0.0131443         147.135
0.56                   -0.643126        -150.278         -55.5464        -54.0723         -55.5471        -54.0734       -0.0132591         147.064
0.561                  -0.646768        -150.948         -55.5575         -55.763         -55.5581        -55.7637       -0.0133753         146.993
0.562                  -0.651475        -151.628         -55.5615        -57.4142          -55.562        -57.4147       -0.0134927         146.922
0.563                   -0.65727        -152.317         -55.5585        -59.0293         -55.5589        -59.0296       -0.0136115          146.85
0.564                  -0.664177        -153.015         -55.5482        -60.6115         -55.5485        -60.6117       -0.0137317         146.779
0.565                  -0.672226        -153.723         -55.5306         -62.164         -55.5307        -62.1641       -0.0138533         146.707
0.566                  -0.681452         -154.44         -55.5055        -63.6898         -55.5056        -63.6899       -0.0139762         146.635
0.567                  -0.691894        -155.167          -55.473        -65.1919          -55.473        -65.1919       -0.0141006         146.563
0.568                  -0.703598        -155.904         -55.4329         -66.673         -55.4328        -66.6731       -0.0142265         146.491
0.569                  -0.716615        -156.651         -55.3853        -68.1361         -55.3851        -68.1363       -0.0143538         146.419
0.57                   -0.731005        -157.407         -55.3301        -69.5838         -55.3299        -69.5841       -0.0144826         146.347
0.571                  -0.746831        -158.174         -55.2673        -71.0188          -55.267        -71.0192        -0.014613         146.274
0.572                  -0.764166        -158.951         -55.1969        -72.4438         -55.1966        -72.4443        -0.014745         146.202
0.573                   -0.78309        -159.739         -55.1189        -73.8613         -55.1185        -73.8619       -0.0148786         146.129
0.574                  -0.803692        -160.537         -55.0333         -75.274         -55.0329        -75.2748       -0.0150139         146.056
0.575                  -0.826071        -161.346         -54.9402        -76.6843         -54.9398        -76.6853       -0.0151508         145.983
0.576                  -0.850332        -162.166         -54.8396        -78.0949         -54.8391        -78.0961       -0.0152896          145.91
0.577                  -0.876594        -162.996         -54.7315        -79.5083          -54.731        -79.5096       -0.0154301         145.836
0.578                  -0.904985        -163.838          -54.616         -80.927         -54.6155        -80.9285       -0.0155725         145.763
0.579                  -0.935646         -164.69         -54.4932        -82.3536         -54.4927        -82.3552       -0.0157168         145.689
0.58                    -0.96873        -165.554         -54.3631        -83.7906         -54.3626        -83.7924        -0.015863         145.615
0.581                    -1.0044        -166.429         -54.2258        -85.2406         -54.2254        -85.2425       -0.0160113         145.541
0.582                   -1.04285        -167.314         -54.0815        -86.7061         -54.0811        -86.7081       -0.0161617         145.467
0.583                   -1.08426        -168.211         -53.9303        -88.1898         -53.9299        -88.1919       -0.0163142         145.393
0.584                   -1.12885        -169.117         -53.7722        -89.6943         -53.7718        -89.6964        -0.016469         145.318
0.585                   -1.17684        -170.034         -53.6075        -91.2221         -53.6072        -91.2243        -0.016626         145.244
0.586                   -1.22849        -170.961         -53.4364         -92.776         -53.4361        -92.7781       -0.0167854         145.169
0.587                   -1.28405        -171.896          -53.259        -94.3585         -53.2588        -94.3606       -0.0169473         145.094
0.588                   -1.34381         -172.84         -53.0756        -95.9724         -53.0754        -95.9745       -0.0171117         145.019
0.589                   -1.40807        -173.791         -52.8864        -97.6203         -52.8862        -97.6223       -0.0172788         144.943
0.59                    -1.47713        -174.748         -52.6916        -99.3049         -52.6915        -99.3067       -0.0174485         144.868
0.591                   -1.55135        -175.709         -52.4917        -101.029         -52.4916         -101.03        -0.017621         144.792
0.592                   -1.63106        -176.673         -52.2869        -102.795         -52.2868        -102.796       -0.0177965         144.716
0.593                   -1.71662        -177.637         -52.0775        -104.605         -52.0776        -104.606       -0.0179749          144.64
0.594                    -1.8084          -178.6         -51.8641        -106.462         -51.8642        -106.463       -0.0181564         144.564
0.595                   -1.90676        -179.557          -51.647        -108.369         -51.6471         -108.37        -0.018341         144.487
0.596                   -2.01206         179.495         -51.4268        -110.327         -51.4269        -110.328        -0.018529         144.411
0.597                   -2.12464          178.56         -51.2038         -112.34          -51.204         -112.34       -0.0187203         144.334
0.598                   -2.24482         177.643         -50.9788        -114.408          -50.979        -114.408       -0.0189151         144.257
0.599                   -2.37287         176.749         -50.7523        -116.533         -50.7525        -116.533       -0.0191135          144.18
0.6                     -2.50896         175.885          -50.525        -118.718         -50.5252        -118.718       -0.0193155         144.103
0.601                   -2.65321         175.058         -50.2975        -120.963         -50.2978        -120.962       -0.0195213         144.025
0.602                    -2.8056         174.276         -50.0707        -123.269         -50.0709        -123.268       -0.0197309         143.947
0.603                   -2.96594         173.547         -49.8451        -125.637         -49.8454        -125.635       -0.0199444         143.869
0.604                   -3.13386         172.881         -49.6218        -128.066          -49.622        -128.064       -0.0201619         143.791
0.605                   -3.30872         172.289         -49.4013        -130.555         -49.4016        -130.553       -0.0203835         143.713
0.606                   -3.48963          171.78         -49.1847        -133.104         -49.1849        -133.102       -0.0206091         143.634
0.607                   -3.67533         171.364         -48.9726        -135.711         -48.9728        -135.709       -0.0208388         143.555
0.608                   -3.86421         171.053         -48.7659        -138.374         -48.7661        -138.371       -0.0210726         143.476
0.609                   -4.05425         170.854         -48.5655        -141.089         -48.5657        -141.086       -0.0213106         143.397
0.61                    -4.24303         170.775          -48.372        -143.853         -48.3721         -143.85       -0.0215528         143.318
0.611                   -4.42774         170.821         -48.1861        -146.662         -48.1862        -146.659       -0.0217991         143.238
0.612                   -4.60523         170.993         -48.0085         -149.51         -48.0086        -149.507       -0.0220496         143.158
0.613                   -4.77213         171.289         -47.8397        -152.393         -47.8397         -152.39       -0.0223041         143.078
0.614                     -4.925         171.701         -47.6801        -155.304         -47.6801        -155.301       -0.0225627         142.998
0.615                    -5.0605         172.217         -47.5301        -158.238         -47.5301        -158.235       -0.0228252         142.917
0.616                    -5.1756         172.819         -47.3899        -161.188         -47.3899        -161.185       -0.0230917         142.837
0.617                   -5.26786         173.486         -47.2596        -164.148         -47.2596        -164.145        -0.023362         142.756
0.618                   -5.33555          174.19         -47.1391        -167.111         -47.1391        -167.108        -0.023636         142.675
0.619                   -5.37782         174.905         -47.0284        -170.071         -47.0284        -170.068       -0.0239138         142.593
0.62                    -5.39477         175.603         -46.9271        -173.021         -46.9271         -173.02       -0.0241952         142.512
0.621                   -5.38741         176.255         -46.8349        -175.957         -46.8349        -175.956       -0.0244801          142.43
0.622                   -5.35751         176.838         -46.7514        -178.873         -46.7514        -178.872       -0.0247686         142.348
0.623                   -5.30752         177.332          -46.676         178.235          -46.676         178.237       -0.0250605         142.265
0.624                   -5.24025          177.72         -46.6081         175.373          -46.608         175.374       -0.0253558         142.183
0.625                   -5.15877         177.992          -46.547         172.543          -46.547         172.544       -0.0256544           142.1
0.626                   -5.06612          178.14         -46.4921         169.749         -46.4921          169.75       -0.0259564         142.017
0.627                   -4.96528         178.162         -46.4427         166.992         -46.4428         166.993       -0.0262618         141.933
0.628                   -4.85895         178.059         -46.3981         164.275         -46.3981         164.275       -0.0265705          141.85
0.629                   -4.74955         177.833         -46.3575         161.598         -46.3576         161.599       -0.0268826         141.766
