! TOUCHSTONE file generated by CST MICROWAVE STUDIO
! Date and time: Fri Dec 11 14:12:24 2020
! Project name: Scenario_1_Planar_Body_Tissue_Out_of_Line_v2.cst
! Parameters = {dy1=0; L_HA=400; Ltissue=700; MT=2.54; Rad_Dielectric=30; Rad_Lower=7.3; Rad_Upper=30; Wtissue=700; a_HA=580; a_WG=246; b_HA=500; b_WG=121; c_HA=0; c_WG=187; d_feed=85; dx1=520; h_feed=15; h_lower=18; h_upper=40; hfat=3; hgap=25; hmuscle=50; hskin=1.5}
! Header version: 2018
! Port assignment regex: !\s*Touchstone port\s*([0-9]+)\s*=\s*(CST MWS port|CST DS port)\s*([0-9]+|Zmin|Zmax)\s*\(\"(.*)\"\)(\s*mode\s*([0-9]+))?.*
! Touchstone port assignment:
! Touchstone port 1 = CST MWS port 1 ("")
! Touchstone port 2 = CST MWS port 2 ("")
# GHz S DB R 50
0.5                   -0.0744925        -121.954         -61.3843        -47.8642         -61.3845        -47.8626      -0.00745143         151.141
0.501                 -0.0930143        -122.351         -61.1681         -48.896         -61.1682        -48.8943      -0.00750043         151.076
0.502                  -0.111316        -122.751         -60.9477        -49.9383         -60.9479        -49.9367      -0.00755038         151.011
0.503                  -0.129395        -123.152          -60.723        -50.9919         -60.7233        -50.9903      -0.00760133         150.945
0.504                   -0.14725        -123.556         -60.4941        -52.0577         -60.4944        -52.0561      -0.00765333          150.88
0.505                  -0.164877        -123.963         -60.2608        -53.1364         -60.2612        -53.1348      -0.00770645         150.814
0.506                  -0.182273        -124.373          -60.023         -54.229         -60.0234        -54.2275      -0.00776075         150.749
0.507                  -0.199434        -124.785         -59.7807        -55.3366         -59.7811         -55.335      -0.00781629         150.683
0.508                  -0.216357        -125.201         -59.5337        -56.4601         -59.5341        -56.4586      -0.00787314         150.617
0.509                  -0.233038         -125.62         -59.2819        -57.6008         -59.2823        -57.5993      -0.00793138         150.551
0.51                   -0.249471        -126.043         -59.0252          -58.76         -59.0257        -58.7585      -0.00799108         150.485
0.511                   -0.26565         -126.47         -58.7636        -59.9391         -58.7641        -59.9376      -0.00805233         150.419
0.512                   -0.28157        -126.901          -58.497        -61.1395         -58.4975         -61.138      -0.00811521         150.353
0.513                  -0.297224        -127.336         -58.2252        -62.3629         -58.2257        -62.3614      -0.00817982         150.287
0.514                  -0.312603        -127.777         -57.9481        -63.6112         -57.9486        -63.6097      -0.00824625          150.22
0.515                  -0.327699        -128.222         -57.6657        -64.8861         -57.6662        -64.8846       -0.0083146         150.154
0.516                  -0.342502        -128.674         -57.3779        -66.1899         -57.3784        -66.1884      -0.00838497         150.087
0.517                     -0.357        -129.131         -57.0845        -67.5248          -57.085        -67.5233      -0.00845748         150.021
0.518                  -0.371179        -129.596         -56.7855        -68.8933          -56.786        -68.8918      -0.00853224         149.954
0.519                  -0.385026        -130.069         -56.4809        -70.2981         -56.4814        -70.2967      -0.00860936         149.887
0.52                   -0.398524        -130.551         -56.1705        -71.7422          -56.171        -71.7408      -0.00868897          149.82
0.521                  -0.411653        -131.043         -55.8543        -73.2287         -55.8548        -73.2274      -0.00877119         149.753
0.522                  -0.424392        -131.547         -55.5324        -74.7612         -55.5329        -74.7599      -0.00885613         149.686
0.523                  -0.436718        -132.064         -55.2047        -76.3434         -55.2051        -76.3421      -0.00894393         149.619
0.524                  -0.448605        -132.597         -54.8712        -77.9794         -54.8716        -77.9782      -0.00903471         149.552
0.525                  -0.460025        -133.148          -54.532        -79.6737         -54.5324        -79.6726      -0.00912858         149.485
0.526                  -0.470951        -133.722         -54.1873        -81.4311         -54.1877          -81.43      -0.00922566         149.417
0.527                   -0.48136        -134.322         -53.8372        -83.2567         -53.8375        -83.2557      -0.00932607          149.35
0.528                   -0.49124        -134.957         -53.4819        -85.1561         -53.4823        -85.1552       -0.0094299         149.282
0.529                  -0.500609        -135.635         -53.1219        -87.1353         -53.1222        -87.1345      -0.00953724         149.214
0.53                   -0.509544        -136.368         -52.7576        -89.2006         -52.7578           -89.2      -0.00964817         149.147
0.531                  -0.518257        -137.176         -52.3894        -91.3587         -52.3896        -91.3582      -0.00976275         149.079
0.532                  -0.527253        -138.088         -52.0181        -93.6166         -52.0183        -93.6163      -0.00988101         149.011
0.533                  -0.537713        -139.149         -51.6446        -95.9816         -51.6448        -95.9814        -0.010003         148.943
0.534                  -0.552484        -140.438         -51.2699        -98.4609         -51.2701        -98.4609       -0.0101286         148.874
0.535                  -0.578929        -142.096         -50.8953        -101.062         -50.8954        -101.062       -0.0102579         148.806
0.536                  -0.638467        -144.405         -50.5223        -103.792         -50.5224        -103.793       -0.0103907         148.738
0.537                  -0.805647        -147.977         -50.1527        -106.659         -50.1527         -106.66        -0.010527         148.669
0.538                   -1.41477        -154.039         -49.7888        -109.669         -49.7888         -109.67       -0.0106666         148.601
0.539                    -4.0832        -158.523         -49.4346        -112.826         -49.4346        -112.827       -0.0108093         148.532
0.54                    -5.00139        -129.307         -49.0914        -116.103         -49.0913        -116.105       -0.0109549         148.464
0.541                   -2.58429        -126.337         -48.7579        -119.529         -48.7579        -119.531       -0.0111031         148.395
0.542                   -1.74687        -129.468         -48.4409        -123.106         -48.4408        -123.109       -0.0112537         148.326
0.543                   -1.40892        -131.911         -48.1436        -126.821         -48.1436        -126.824       -0.0114062         148.257
0.544                   -1.24233        -133.711         -47.8692        -130.661         -47.8692        -130.664       -0.0115603         148.188
0.545                    -1.1491        -135.114         -47.6204        -134.609         -47.6204        -134.613       -0.0117157         148.119
0.546                   -1.09268         -136.27            -47.4        -138.647            -47.4        -138.651       -0.0118719          148.05
0.547                    -1.0569        -137.266         -47.2099        -142.752           -47.21        -142.756       -0.0120285         147.981
0.548                    -1.0337        -138.154         -47.0518        -146.897         -47.0519        -146.901       -0.0121851         147.911
0.549                   -1.01863        -138.966         -46.9264        -151.054         -46.9266        -151.059       -0.0123414         147.842
0.55                    -1.00907        -139.724         -46.8337        -155.196         -46.8339          -155.2       -0.0124968         147.772
0.551                   -1.00341        -140.442         -46.7727        -159.294          -46.773        -159.298       -0.0126512         147.703
0.552                   -1.00057         -141.13          -46.742        -163.321         -46.7422        -163.326       -0.0128041         147.633
0.553                  -0.999831        -141.796         -46.7392        -167.257         -46.7395        -167.261       -0.0129553         147.563
0.554                   -1.00068        -142.444         -46.7617         -171.08          -46.762        -171.084       -0.0131045         147.494
0.555                   -1.00277        -143.079         -46.8064        -174.777         -46.8067        -174.781       -0.0132515         147.424
0.556                   -1.00582        -143.705         -46.8702        -178.337         -46.8705        -178.341       -0.0133962         147.353
0.557                   -1.00963        -144.323         -46.9498         178.247         -46.9502         178.244       -0.0135385         147.283
0.558                   -1.01405        -144.936         -47.0423         174.978         -47.0426         174.975       -0.0136783         147.213
0.559                   -1.01897        -145.545         -47.1446         171.857          -47.145         171.854       -0.0138157         147.143
0.56                    -1.02429        -146.152         -47.2543         168.881         -47.2546         168.878       -0.0139506         147.072
0.561                   -1.02994        -146.757         -47.3689         166.045         -47.3692         166.042       -0.0140832         147.001
0.562                   -1.03587        -147.363         -47.4863         163.345         -47.4866         163.342       -0.0142135         146.931
0.563                   -1.04203        -147.969         -47.6048         160.773         -47.6051         160.771       -0.0143417          146.86
0.564                   -1.04839        -148.577         -47.7228         158.323         -47.7231         158.321       -0.0144681         146.788
0.565                   -1.05491        -149.186         -47.8391         155.987         -47.8393         155.986       -0.0145927         146.717
0.566                   -1.06159        -149.799         -47.9525         153.758         -47.9527         153.757       -0.0147158         146.646
0.567                   -1.06839        -150.414         -48.0622         151.629         -48.0624         151.627       -0.0148377         146.574
0.568                   -1.07532        -151.034         -48.1675         149.592         -48.1676          149.59       -0.0149585         146.503
0.569                   -1.08236        -151.657         -48.2677          147.64         -48.2678         147.639       -0.0150785         146.431
0.57                    -1.08951        -152.285         -48.3625         145.767         -48.3625         145.766       -0.0151979         146.359
0.571                   -1.09676        -152.918         -48.4514         143.967         -48.4514         143.966       -0.0153169         146.287
0.572                   -1.10413        -153.556         -48.5342         142.233         -48.5342         142.232       -0.0154359         146.215
0.573                    -1.1116          -154.2         -48.6106         140.561         -48.6106         140.561        -0.015555         146.142
0.574                   -1.11919         -154.85         -48.6806         138.946         -48.6806         138.945       -0.0156744          146.07
0.575                   -1.12691        -155.507         -48.7441         137.382          -48.744         137.382       -0.0157943         145.997
0.576                   -1.13476         -156.17         -48.8009         135.866         -48.8008         135.865        -0.015915         145.924
0.577                   -1.14276        -156.841         -48.8511         134.393         -48.8509         134.392       -0.0160366         145.851
0.578                   -1.15092        -157.519         -48.8947          132.96         -48.8945         132.959       -0.0161593         145.778
0.579                   -1.15927        -158.205         -48.9316         131.562         -48.9314         131.561       -0.0162832         145.704
0.58                    -1.16781        -158.899          -48.962         130.197         -48.9617         130.196       -0.0164086         145.631
0.581                   -1.17656        -159.601         -48.9858         128.862         -48.9855         128.861       -0.0165356         145.557
0.582                   -1.18556        -160.313         -49.0032         127.554         -49.0029         127.553       -0.0166643         145.483
0.583                   -1.19483        -161.033         -49.0142         126.269         -49.0139         126.268       -0.0167948         145.409
0.584                    -1.2044        -161.764         -49.0189         125.007         -49.0185         125.005       -0.0169274         145.335
0.585                   -1.21429        -162.504         -49.0174         123.763          -49.017         123.762        -0.017062         145.261
0.586                   -1.22455        -163.254         -49.0097         122.537         -49.0093         122.535       -0.0171988         145.186
0.587                    -1.2352        -164.016          -48.996         121.325         -48.9955         121.324       -0.0173379         145.111
0.588                   -1.24629        -164.789         -48.9763         120.127         -48.9758         120.125       -0.0174795         145.036
0.589                   -1.25787        -165.573         -48.9507         118.939         -48.9502         118.938       -0.0176235         144.961
0.59                    -1.26997        -166.369         -48.9194         117.761         -48.9189         117.759       -0.0177701         144.886
0.591                   -1.28266        -167.177         -48.8824         116.591         -48.8819         116.589       -0.0179194         144.811
0.592                   -1.29599        -167.999         -48.8398         115.426         -48.8393         115.425       -0.0180715         144.735
0.593                   -1.31002        -168.834         -48.7917         114.266         -48.7912         114.265       -0.0182263         144.659
0.594                   -1.32481        -169.682         -48.7382          113.11         -48.7377         113.108       -0.0183841         144.583
0.595                   -1.34045        -170.545         -48.6794         111.954         -48.6789         111.952       -0.0185448         144.507
0.596                   -1.35699        -171.422         -48.6155         110.799         -48.6149         110.797       -0.0187085         144.431
0.597                   -1.37454        -172.315         -48.5463         109.643         -48.5458         109.641       -0.0188753         144.354
0.598                   -1.39318        -173.224         -48.4722         108.484         -48.4717         108.482       -0.0190453         144.277
0.599                   -1.41301        -174.148         -48.3932         107.322         -48.3926         107.319       -0.0192185           144.2
0.6                     -1.43413         -175.09         -48.3093         106.154         -48.3088         106.152       -0.0193949         144.123
0.601                   -1.45666        -176.049         -48.2207         104.981         -48.2202         104.978       -0.0195747         144.046
0.602                   -1.48073        -177.026         -48.1274           103.8         -48.1269         103.797       -0.0197579         143.968
0.603                   -1.50647        -178.021         -48.0297          102.61         -48.0292         102.607       -0.0199445         143.891
0.604                   -1.53403        -179.035         -47.9275         101.411          -47.927         101.408       -0.0201346         143.813
0.605                   -1.56356         179.931          -47.821         100.201         -47.8205         100.198       -0.0203283         143.734
0.606                   -1.59524         178.878         -47.7103         98.9793         -47.7098         98.9762       -0.0205255         143.656
0.607                   -1.62925         177.803         -47.5954         97.7443          -47.595         97.7413       -0.0207264         143.577
0.608                   -1.66579         176.708         -47.4766         96.4953         -47.4762         96.4922       -0.0209311         143.499
0.609                   -1.70508         175.591         -47.3539         95.2311         -47.3535         95.2279       -0.0211394          143.42
0.61                    -1.74735         174.452         -47.2275         93.9505         -47.2271         93.9474       -0.0213516          143.34
0.611                   -1.79285          173.29         -47.0975         92.6527         -47.0971         92.6495       -0.0215677         143.261
0.612                   -1.84185         172.105         -46.9639         91.3365         -46.9636         91.3333       -0.0217877         143.181
0.613                   -1.89464         170.897         -46.8271         90.0009         -46.8267         89.9977       -0.0220117         143.101
0.614                   -1.95155         169.665          -46.687         88.6448         -46.6867         88.6417       -0.0222397         143.021
0.615                    -2.0129         168.409          -46.544         87.2674         -46.5437         87.2643       -0.0224718         142.941
0.616                   -2.07905          167.13          -46.398         85.8675         -46.3977         85.8645        -0.022708          142.86
0.617                   -2.15041         165.826         -46.2493         84.4443         -46.2491         84.4413       -0.0229484          142.78
0.618                   -2.22739         164.498         -46.0982         82.9968         -46.0979         82.9939        -0.023193         142.699
0.619                   -2.31042         163.147         -45.9446         81.5241         -45.9444         81.5212        -0.023442         142.617
0.62                        -2.4         161.772          -45.789         80.0253         -45.7888         80.0226       -0.0236953         142.536
0.621                   -2.49663         160.374         -45.6314         78.4997         -45.6313          78.497       -0.0239531         142.454
0.622                   -2.60085         158.955         -45.4722         76.9464          -45.472         76.9438       -0.0242153         142.372
0.623                   -2.71324         157.515         -45.3114         75.3647         -45.3113         75.3622        -0.024482          142.29
0.624                    -2.8344         156.055         -45.1495          73.754         -45.1494         73.7516       -0.0247534         142.207
0.625                   -2.96497         154.577         -44.9865         72.1136         -44.9864         72.1114       -0.0250294         142.125
0.626                   -3.10564         153.084         -44.8229         70.4431         -44.8228          70.441       -0.0253101         142.042
0.627                    -3.2571         151.577         -44.6588         68.7421         -44.6587         68.7402       -0.0255955         141.958
0.628                    -3.4201         150.061         -44.4945         67.0102         -44.4945         67.0084       -0.0258859         141.875
0.629                   -3.59542         148.537         -44.3304         65.2472         -44.3304         65.2456       -0.0261811         141.791
