! TOUCHSTONE file generated by CST MICROWAVE STUDIO
! Date and time: Sat Nov 14 20:01:05 2020
! Project name: Scenario_1_Planar_Body_Tissue_Out_of_Line.cst
! Parameters = {dy1=0; L_HA=400; Ltissue=700; MT=2.54; Rad_Dielectric=30; Rad_Lower=7.3; Rad_Upper=30; Wtissue=700; a_HA=580; a_WG=246; b_HA=500; b_WG=121; c_HA=0; c_WG=187; d_feed=85; dx1=693; h_feed=15; h_lower=18; h_upper=40; hfat=3; hgap=25; hmuscle=50; hskin=1.5}
! Header version: 2018
! Port assignment regex: !\s*Touchstone port\s*([0-9]+)\s*=\s*(CST MWS port|CST DS port)\s*([0-9]+|Zmin|Zmax)\s*\(\"(.*)\"\)(\s*mode\s*([0-9]+))?.*
! Touchstone port assignment:
! Touchstone port 1 = CST MWS port 1 ("")
! Touchstone port 2 = CST MWS port 2 ("")
# GHz S DB R 50
0.5                    -0.210691        -121.526         -60.7449        -169.957         -60.7445        -169.957       -0.0077816         151.143
0.501                  -0.209564        -121.965         -60.7254        -171.521          -60.725        -171.521      -0.00783776         151.078
0.502                  -0.208614        -122.405          -60.704        -173.099         -60.7035        -173.099      -0.00789482         151.012
0.503                  -0.207842        -122.847         -60.6806         -174.69         -60.6801        -174.691      -0.00795277         150.947
0.504                  -0.207251        -123.291         -60.6551        -176.295         -60.6546        -176.296      -0.00801164         150.882
0.505                   -0.20684        -123.737         -60.6276        -177.913         -60.6271        -177.914      -0.00807142         150.816
0.506                   -0.20661        -124.184          -60.598        -179.544         -60.5975        -179.545      -0.00813212         150.751
0.507                  -0.206563        -124.633         -60.5662         178.812         -60.5656         178.811      -0.00819374         150.685
0.508                  -0.206699        -125.083         -60.5322         177.156         -60.5316         177.155       -0.0082563         150.619
0.509                  -0.207019        -125.535         -60.4959         175.487         -60.4954         175.486      -0.00831981         150.553
0.51                   -0.207524        -125.989         -60.4574         173.806         -60.4569         173.805      -0.00838426         150.488
0.511                  -0.208214        -126.445         -60.4166         172.114         -60.4161         172.113      -0.00844967         150.422
0.512                  -0.209092        -126.902         -60.3734          170.41         -60.3729         170.408      -0.00851604         150.356
0.513                  -0.210156        -127.361         -60.3279         168.694         -60.3274         168.693      -0.00858338          150.29
0.514                   -0.21141        -127.822           -60.28         166.968         -60.2795         166.966       -0.0086517         150.223
0.515                  -0.212852        -128.284         -60.2297          165.23         -60.2291         165.229      -0.00872101         150.157
0.516                  -0.214484        -128.749         -60.1769         163.483         -60.1764         163.481      -0.00879131         150.091
0.517                  -0.216308        -129.215         -60.1217         161.725         -60.1212         161.723      -0.00886262         150.024
0.518                  -0.218323        -129.682          -60.064         159.957         -60.0635         159.956      -0.00893494         149.958
0.519                  -0.220531        -130.152         -60.0038          158.18         -60.0033         158.178      -0.00900827         149.891
0.52                   -0.222932        -130.624         -59.9412         156.394         -59.9406         156.392      -0.00908263         149.824
0.521                  -0.225527        -131.097          -59.876         154.599         -59.8755         154.597      -0.00915803         149.758
0.522                  -0.228318        -131.572         -59.8083         152.795         -59.8078         152.793      -0.00923448         149.691
0.523                  -0.231305        -132.049         -59.7382         150.984         -59.7376         150.981      -0.00931198         149.624
0.524                  -0.234488        -132.528         -59.6655         149.164          -59.665         149.162      -0.00939054         149.557
0.525                  -0.237869        -133.008         -59.5903         147.337         -59.5898         147.334      -0.00947017          149.49
0.526                  -0.241449        -133.491         -59.5127         145.502         -59.5121           145.5      -0.00955088         149.422
0.527                  -0.245229        -133.976         -59.4326         143.661          -59.432         143.658      -0.00963269         149.355
0.528                  -0.249208        -134.462           -59.35         141.812         -59.3495          141.81      -0.00971559         149.287
0.529                  -0.253389        -134.951         -59.2649         139.958         -59.2644         139.955      -0.00979961          149.22
0.53                   -0.257772        -135.441         -59.1775         138.097          -59.177         138.095      -0.00988474         149.152
0.531                  -0.262358        -135.933         -59.0877         136.231         -59.0872         136.228        -0.009971         149.085
0.532                  -0.267149        -136.428         -58.9955         134.359          -58.995         134.356       -0.0100584         149.017
0.533                  -0.272143        -136.924         -58.9009         132.481         -58.9005         132.479        -0.010147         148.949
0.534                  -0.277344        -137.422         -58.8041         130.599         -58.8036         130.596       -0.0102367         148.881
0.535                  -0.282752        -137.923         -58.7049         128.712         -58.7045         128.709       -0.0103276         148.813
0.536                  -0.288367        -138.426         -58.6036          126.82         -58.6031         126.817       -0.0104197         148.745
0.537                  -0.294191         -138.93            -58.5         124.923         -58.4996          124.92       -0.0105129         148.676
0.538                  -0.300225        -139.437         -58.3943         123.023         -58.3939          123.02       -0.0106074         148.608
0.539                   -0.30647        -139.946         -58.2864         121.118          -58.286         121.115       -0.0107031         148.539
0.54                   -0.312926        -140.457         -58.1765          119.21         -58.1761         119.206          -0.0108         148.471
0.541                  -0.319595        -140.971         -58.0645         117.297         -58.0642         117.294       -0.0108982         148.402
0.542                  -0.326479        -141.486         -57.9506         115.381         -57.9503         115.378       -0.0109976         148.333
0.543                  -0.333577        -142.004         -57.8348         113.462         -57.8345         113.458       -0.0110983         148.264
0.544                  -0.340892        -142.524          -57.717         111.539         -57.7167         111.535       -0.0112002         148.195
0.545                  -0.348424        -143.047         -57.5974         109.612         -57.5972         109.609       -0.0113035         148.126
0.546                  -0.356175        -143.571         -57.4761         107.683         -57.4758         107.679       -0.0114081         148.057
0.547                  -0.364145        -144.098          -57.353          105.75         -57.3528         105.746       -0.0115139         147.987
0.548                  -0.372337        -144.628         -57.2282         103.814          -57.228          103.81       -0.0116211         147.918
0.549                  -0.380752         -145.16         -57.1018         101.874         -57.1017         101.871       -0.0117297         147.848
0.55                   -0.389391        -145.694         -56.9739         99.9319         -56.9737         99.9282       -0.0118396         147.778
0.551                  -0.398255        -146.231         -56.8444         97.9863         -56.8443         97.9825       -0.0119509         147.709
0.552                  -0.407345        -146.771         -56.7135         96.0375         -56.7134         96.0336       -0.0120636         147.639
0.553                  -0.416665        -147.313         -56.5811         94.0855         -56.5811         94.0815       -0.0121777         147.569
0.554                  -0.426214        -147.858         -56.4475         92.1302         -56.4474         92.1261       -0.0122932         147.498
0.555                  -0.435995        -148.405         -56.3125         90.1716         -56.3125         90.1674       -0.0124101         147.428
0.556                  -0.446009        -148.955         -56.1763         88.2096         -56.1763         88.2054       -0.0125285         147.358
0.557                  -0.456258        -149.508         -56.0389         86.2443         -56.0389           86.24       -0.0126484         147.287
0.558                  -0.466745        -150.063         -55.9004         84.2754         -55.9004          84.271       -0.0127697         147.216
0.559                   -0.47747        -150.622         -55.7608         82.3029         -55.7609         82.2985       -0.0128925         147.146
0.56                   -0.488436        -151.183         -55.6202         80.3268         -55.6203         80.3223       -0.0130169         147.075
0.561                  -0.499646        -151.747         -55.4786         78.3469         -55.4788         78.3424       -0.0131428         147.004
0.562                    -0.5111        -152.314         -55.3361         76.3632         -55.3363         76.3586       -0.0132702         146.932
0.563                  -0.522802        -152.884         -55.1928         74.3755         -55.1931         74.3708       -0.0133993         146.861
0.564                  -0.534754        -153.458         -55.0487         72.3837          -55.049         72.3789       -0.0135299          146.79
0.565                  -0.546959        -154.034         -54.9039         70.3877         -54.9041         70.3829       -0.0136621         146.718
0.566                  -0.559419        -154.613         -54.7583         68.3874         -54.7586         68.3825       -0.0137959         146.646
0.567                  -0.572136        -155.196         -54.6121         66.3826         -54.6125         66.3777       -0.0139314         146.575
0.568                  -0.585114        -155.782         -54.4654         64.3733         -54.4658         64.3684       -0.0140686         146.503
0.569                  -0.598356        -156.371         -54.3181         62.3594         -54.3185         62.3544       -0.0142074         146.431
0.57                   -0.611865        -156.964         -54.1704         60.3407         -54.1708         60.3356        -0.014348         146.358
0.571                  -0.625643         -157.56         -54.0222          58.317         -54.0226         58.3119       -0.0144903         146.286
0.572                  -0.639696         -158.16         -53.8736         56.2884         -53.8741         56.2832       -0.0146343         146.213
0.573                  -0.654026        -158.764         -53.7248         54.2546         -53.7253         54.2494       -0.0147801         146.141
0.574                  -0.668637        -159.371         -53.5756         52.2156         -53.5762         52.2103       -0.0149277         146.068
0.575                  -0.683533        -159.982         -53.4263         50.1712         -53.4268          50.166       -0.0150771         145.995
0.576                  -0.698718        -160.597         -53.2767         48.1215         -53.2773         48.1161       -0.0152284         145.922
0.577                  -0.714197        -161.215         -53.1271         46.0661         -53.1277         46.0608       -0.0153815         145.849
0.578                  -0.729975        -161.838         -52.9774         44.0052         -52.9781         43.9998       -0.0155366         145.775
0.579                  -0.746056        -162.465         -52.8277         41.9386         -52.8284         41.9332       -0.0156935         145.702
0.58                   -0.762446        -163.096          -52.678         39.8661         -52.6787         39.8607       -0.0158524         145.628
0.581                  -0.779149        -163.731         -52.5284         37.7878         -52.5291         37.7824       -0.0160133         145.554
0.582                  -0.796173        -164.371         -52.3789         35.7036         -52.3797         35.6982       -0.0161761          145.48
0.583                  -0.813523        -165.015         -52.2296         33.6135         -52.2304         33.6081        -0.016341         145.406
0.584                  -0.831204        -165.664         -52.0806         31.5173         -52.0814         31.5119       -0.0165079         145.332
0.585                  -0.849225        -166.317         -51.9318         29.4151         -51.9326         29.4098       -0.0166769         145.257
0.586                  -0.867592        -166.975         -51.7833         27.3069         -51.7842         27.3015        -0.016848         145.183
0.587                  -0.886313        -167.638         -51.6352         25.1925         -51.6361         25.1872       -0.0170213         145.108
0.588                  -0.905395        -168.306         -51.4875         23.0721         -51.4884         23.0668       -0.0171967         145.033
0.589                  -0.924847         -168.98         -51.3402         20.9456         -51.3411         20.9404       -0.0173743         144.958
0.59                   -0.944679        -169.658         -51.1935         18.8131         -51.1944         18.8079       -0.0175542         144.882
0.591                  -0.964898        -170.342         -51.0473         16.6745         -51.0482         16.6694       -0.0177363         144.807
0.592                  -0.985515        -171.031         -50.9016           14.53         -50.9026         14.5249       -0.0179207         144.731
0.593                   -1.00654        -171.726         -50.7566         12.3795         -50.7576         12.3744       -0.0181074         144.655
0.594                   -1.02799        -172.427         -50.6123         10.2231         -50.6132         10.2181       -0.0182965         144.579
0.595                   -1.04986        -173.134         -50.4686         8.06092         -50.4696           8.056        -0.018488         144.503
0.596                   -1.07219        -173.847         -50.3257         5.89302         -50.3267         5.88819        -0.018682         144.427
0.597                   -1.09496        -174.567         -50.1836          3.7195         -50.1846         3.71475       -0.0188784          144.35
0.598                   -1.11821        -175.293         -50.0423         1.54046         -50.0433          1.5358       -0.0190773         144.273
0.599                   -1.14195        -176.025         -49.9018       -0.643973         -49.9028       -0.648544       -0.0192788         144.196
0.6                     -1.16618        -176.764         -49.7622        -2.83369         -49.7633        -2.83816       -0.0194828         144.119
0.601                   -1.19094        -177.511         -49.6235        -5.02853         -49.6246         -5.0329       -0.0196895         144.042
0.602                   -1.21623        -178.264         -49.4858        -7.22837         -49.4869        -7.23264       -0.0198989         143.964
0.603                   -1.24208        -179.025         -49.3491        -9.43305         -49.3502         -9.4372        -0.020111         143.887
0.604                    -1.2685        -179.794         -49.2134        -11.6424         -49.2144        -11.6464       -0.0203258         143.809
0.605                   -1.29551          179.43         -49.0787        -13.8562         -49.0797        -13.8601       -0.0205435         143.731
0.606                   -1.32315         178.645          -48.945        -16.0744         -48.9461        -16.0782       -0.0207639         143.652
0.607                   -1.35143         177.852         -48.8125        -18.2966         -48.8135        -18.3003       -0.0209873         143.574
0.608                   -1.38037         177.051          -48.681        -20.5228         -48.6821        -20.5264       -0.0212136         143.495
0.609                   -1.41002         176.241         -48.5507        -22.7528         -48.5518        -22.7562       -0.0214429         143.416
0.61                    -1.44039         175.421         -48.4216        -24.9862         -48.4226        -24.9895       -0.0216753         143.337
0.611                   -1.47151         174.592         -48.2935        -27.2229         -48.2946        -27.2261       -0.0219107         143.257
0.612                   -1.50343         173.754         -48.1667        -29.4627         -48.1677        -29.4658       -0.0221493         143.178
0.613                   -1.53617         172.905         -48.0411        -31.7054         -48.0421        -31.7083       -0.0223911         143.098
0.614                   -1.56977         172.046         -47.9167        -33.9507         -47.9177        -33.9535       -0.0226361         143.018
0.615                   -1.60428         171.177         -47.7935        -36.1985         -47.7945        -36.2011       -0.0228844         142.938
0.616                   -1.63974         170.296         -47.6716        -38.4483         -47.6725        -38.4508       -0.0231361         142.857
0.617                   -1.67619         169.405         -47.5509        -40.7002         -47.5518        -40.7025       -0.0233912         142.776
0.618                   -1.71368         168.501         -47.4314        -42.9537         -47.4323         -42.956       -0.0236498         142.695
0.619                   -1.75227         167.585         -47.3133        -45.2088         -47.3141        -45.2109       -0.0239119         142.614
0.62                    -1.79202         166.657         -47.1963        -47.4651         -47.1972         -47.467       -0.0241777         142.533
0.621                   -1.83298         165.716         -47.0807        -49.7224         -47.0815        -49.7242       -0.0244471         142.451
0.622                   -1.87523         164.761         -46.9663        -51.9805         -46.9671        -51.9822       -0.0247202         142.369
0.623                   -1.91883         163.792         -46.8532        -54.2391          -46.854        -54.2407       -0.0249972         142.287
0.624                   -1.96386         162.809         -46.7414        -56.4981         -46.7421        -56.4996        -0.025278         142.204
0.625                   -2.01041         161.811         -46.6308        -58.7572         -46.6316        -58.7586       -0.0255627         142.122
0.626                   -2.05856         160.798         -46.5216        -61.0163         -46.5223        -61.0175       -0.0258515         142.039
0.627                    -2.1084         159.769         -46.4136         -63.275         -46.4142        -63.2761       -0.0261444         141.956
0.628                   -2.16005         158.723         -46.3069        -65.5332         -46.3075        -65.5342       -0.0264414         141.872
0.629                   -2.21361          157.66         -46.2014        -67.7906          -46.202        -67.7916       -0.0267426         141.788
