! TOUCHSTONE file generated by CST MICROWAVE STUDIO
! Date and time: Fri Dec 11 14:12:40 2020
! Project name: Scenario_1_Planar_Body_Tissue_Out_of_Line_v2.cst
! Parameters = {dy1=17.3; L_HA=400; Ltissue=700; MT=2.54; Rad_Dielectric=30; Rad_Lower=7.3; Rad_Upper=30; Wtissue=700; a_HA=580; a_WG=246; b_HA=500; b_WG=121; c_HA=0; c_WG=187; d_feed=85; dx1=520; h_feed=15; h_lower=18; h_upper=40; hfat=3; hgap=25; hmuscle=50; hskin=1.5}
! Header version: 2018
! Port assignment regex: !\s*Touchstone port\s*([0-9]+)\s*=\s*(CST MWS port|CST DS port)\s*([0-9]+|Zmin|Zmax)\s*\(\"(.*)\"\)(\s*mode\s*([0-9]+))?.*
! Touchstone port assignment:
! Touchstone port 1 = CST MWS port 1 ("")
! Touchstone port 2 = CST MWS port 2 ("")
# GHz S DB R 50
0.5                   -0.0746311        -121.971         -61.4068        -48.1231         -61.4072        -48.1256      -0.00743754          151.15
0.501                 -0.0773464         -122.43         -61.1956        -49.1278         -61.1959        -49.1304      -0.00749852         151.085
0.502                 -0.0802518        -122.893         -60.9797        -50.1441           -60.98        -50.1469      -0.00756011         151.019
0.503                 -0.0833636         -123.36         -60.7592        -51.1729         -60.7595        -51.1757      -0.00762232         150.954
0.504                 -0.0866996        -123.831          -60.534        -52.2149         -60.5343        -52.2178      -0.00768518         150.889
0.505                 -0.0902796        -124.306          -60.304         -53.271         -60.3043         -53.274      -0.00774869         150.823
0.506                 -0.0941253        -124.786         -60.0691        -54.3424         -60.0694        -54.3454      -0.00781287         150.757
0.507                 -0.0982607        -125.271         -59.8293        -55.4299         -59.8296        -55.4329      -0.00787774         150.692
0.508                  -0.102712         -125.76         -59.5844        -56.5348         -59.5847        -56.5378      -0.00794332         150.626
0.509                   -0.10751        -126.254         -59.3343        -57.6583         -59.3346        -57.6613      -0.00800964          150.56
0.51                   -0.112685        -126.753         -59.0791        -58.8017         -59.0793        -58.8048      -0.00807672         150.494
0.511                  -0.118276        -127.258         -58.8185        -59.9666         -58.8188        -59.9696      -0.00814459         150.428
0.512                  -0.124321        -127.768         -58.5525        -61.1544         -58.5528        -61.1574      -0.00821328         150.362
0.513                  -0.130865        -128.283         -58.2811        -62.3669         -58.2814        -62.3698      -0.00828284         150.296
0.514                  -0.137959        -128.804         -58.0041         -63.606         -58.0044        -63.6088       -0.0083533          150.23
0.515                  -0.145657        -129.331         -57.7215        -64.8736         -57.7218        -64.8764      -0.00842472         150.163
0.516                  -0.154022        -129.864         -57.4331         -66.172         -57.4334        -66.1746      -0.00849714         150.097
0.517                  -0.163123        -130.404         -57.1391        -67.5034         -57.1393        -67.5059      -0.00857064          150.03
0.518                  -0.173037        -130.949         -56.8391        -68.8705         -56.8394        -68.8729      -0.00864527         149.964
0.519                  -0.183849        -131.501         -56.5334         -70.276         -56.5336        -70.2783      -0.00872113         149.897
0.52                   -0.195656         -132.06         -56.2217        -71.7229         -56.2219        -71.7251       -0.0087983          149.83
0.521                  -0.208566        -132.625         -55.9041        -73.2146         -55.9044        -73.2166      -0.00887689         149.763
0.522                  -0.222697        -133.197         -55.5806        -74.7545         -55.5809        -74.7564      -0.00895701         149.696
0.523                  -0.238183        -133.776         -55.2512        -76.3464         -55.2515        -76.3482      -0.00903881         149.629
0.524                  -0.255172        -134.361         -54.9161        -77.9946         -54.9164        -77.9962      -0.00912243         149.562
0.525                  -0.273827        -134.953         -54.5753        -79.7034         -54.5756        -79.7049      -0.00920805         149.494
0.526                  -0.294332         -135.55          -54.229        -81.4777         -54.2293         -81.479      -0.00929588         149.427
0.527                  -0.316883        -136.154         -53.8775        -83.3226         -53.8777        -83.3237      -0.00938612          149.36
0.528                    -0.3417        -136.762          -53.521        -85.2436         -53.5212        -85.2446      -0.00947904         149.292
0.529                  -0.369018        -137.375         -53.1599        -87.2466         -53.1601        -87.2475      -0.00957492         149.224
0.53                   -0.399089        -137.992         -52.7947        -89.3378          -52.795        -89.3385      -0.00967406         149.156
0.531                  -0.432179         -138.61         -52.4262        -91.5236         -52.4264        -91.5242      -0.00977682         149.088
0.532                  -0.468562        -139.228         -52.0549        -93.8108         -52.0551        -93.8113      -0.00988357          149.02
0.533                  -0.508513        -139.844         -51.6819        -96.2061         -51.6821        -96.2065       -0.0099947         148.952
0.534                  -0.552294        -140.454         -51.3083        -98.7165         -51.3085        -98.7167       -0.0101106         148.884
0.535                  -0.600141        -141.057         -50.9354        -101.348         -50.9355        -101.349       -0.0102318         148.816
0.536                  -0.652236        -141.646         -50.5647        -104.108         -50.5649        -104.108       -0.0103587         148.747
0.537                  -0.708683        -142.218         -50.1982        -107.002         -50.1984        -107.002       -0.0104915         148.679
0.538                  -0.769467        -142.767         -49.8379        -110.033          -49.838        -110.033       -0.0106308          148.61
0.539                  -0.834412        -143.287         -49.4861        -113.205         -49.4862        -113.204       -0.0107766         148.542
0.54                   -0.903137        -143.771         -49.1453        -116.518         -49.1455        -116.518       -0.0109292         148.473
0.541                     -0.975        -144.211         -48.8185        -119.972         -48.8186        -119.972       -0.0110883         148.404
0.542                   -1.04907        -144.602         -48.5085        -123.561         -48.5086        -123.561       -0.0112537         148.335
0.543                   -1.12408        -144.937         -48.2182        -127.278         -48.2183        -127.278       -0.0114248         148.266
0.544                   -1.19847        -145.212         -47.9507         -131.11         -47.9508         -131.11       -0.0116007         148.197
0.545                   -1.27041        -145.426         -47.7086        -135.043         -47.7087        -135.042       -0.0117801         148.128
0.546                   -1.33787        -145.578         -47.4942        -139.056         -47.4943        -139.056       -0.0119618         148.059
0.547                   -1.39882        -145.673         -47.3095        -143.127         -47.3097        -143.127       -0.0121439          147.99
0.548                   -1.45137        -145.719         -47.1557        -147.231         -47.1559        -147.231       -0.0123249          147.92
0.549                   -1.49393        -145.729         -47.0334        -151.342         -47.0335        -151.341       -0.0125029         147.851
0.55                    -1.52542        -145.715         -46.9422        -155.432         -46.9424        -155.432       -0.0126766         147.782
0.551                   -1.54534        -145.693         -46.8813        -159.476         -46.8815        -159.476       -0.0128445         147.712
0.552                   -1.55379        -145.678          -46.849        -163.451         -46.8492         -163.45       -0.0130057         147.643
0.553                   -1.55145        -145.685         -46.8433        -167.335         -46.8435        -167.334       -0.0131596         147.573
0.554                   -1.53945        -145.724         -46.8614        -171.111         -46.8616         -171.11       -0.0133061         147.504
0.555                   -1.51921        -145.807         -46.9005        -174.765         -46.9007        -174.764       -0.0134452         147.434
0.556                   -1.49232        -145.938         -46.9577        -178.289          -46.958        -178.288       -0.0135774         147.364
0.557                   -1.46038        -146.121         -47.0301         178.325         -47.0303         178.326       -0.0137034         147.294
0.558                   -1.42489        -146.357         -47.1147         175.078         -47.1149         175.079        -0.013824         147.224
0.559                   -1.38719        -146.646         -47.2088         171.971          -47.209         171.973       -0.0139399         147.153
0.56                    -1.34843        -146.984         -47.3101         169.002         -47.3103         169.004       -0.0140521         147.083
0.561                   -1.30956        -147.369         -47.4163         166.167         -47.4165         166.169       -0.0141615         147.012
0.562                   -1.27132        -147.796         -47.5255         163.461         -47.5257         163.462       -0.0142687         146.942
0.563                   -1.23428        -148.263         -47.6361         160.877         -47.6363         160.879       -0.0143746         146.871
0.564                   -1.19884        -148.765         -47.7465         158.409         -47.7467         158.411       -0.0144798           146.8
0.565                   -1.16531        -149.299         -47.8556         156.051         -47.8557         156.053       -0.0145848         146.728
0.566                   -1.13386        -149.861         -47.9623         153.795         -47.9624         153.797         -0.01469         146.657
0.567                   -1.10461        -150.449         -48.0658         151.635          -48.066         151.637        -0.014796         146.585
0.568                   -1.07761        -151.059         -48.1654         149.565         -48.1656         149.567        -0.014903         146.514
0.569                   -1.05287         -151.69         -48.2606         147.576         -48.2607         147.578       -0.0150112         146.442
0.57                    -1.03036        -152.339         -48.3509         145.665          -48.351         145.667        -0.015121          146.37
0.571                   -1.01003        -153.005          -48.436         143.824         -48.4361         143.826       -0.0152325         146.298
0.572                  -0.991828        -153.686         -48.5155         142.049         -48.5156         142.051       -0.0153458         146.225
0.573                  -0.975687        -154.382         -48.5893         140.334         -48.5894         140.336        -0.015461         146.153
0.574                  -0.961536         -155.09         -48.6572         138.675         -48.6573         138.677       -0.0155784          146.08
0.575                  -0.949305        -155.811         -48.7192         137.068         -48.7192          137.07       -0.0156978         146.008
0.576                  -0.938925        -156.543         -48.7751         135.508         -48.7751          135.51       -0.0158194         145.935
0.577                  -0.930331        -157.287         -48.8249         133.991         -48.8249         133.993       -0.0159433         145.862
0.578                  -0.923466        -158.041         -48.8686         132.514         -48.8686         132.516       -0.0160694         145.788
0.579                  -0.918274        -158.806         -48.9063         131.074         -48.9063         131.076       -0.0161979         145.715
0.58                   -0.914708         -159.58         -48.9378         129.668         -48.9378          129.67       -0.0163286         145.641
0.581                  -0.912726        -160.365         -48.9633         128.293         -48.9633         128.295       -0.0164617         145.568
0.582                  -0.912294        -161.159         -48.9828         126.946         -48.9828         126.947       -0.0165972         145.494
0.583                  -0.913382        -161.964         -48.9964         125.625         -48.9963         125.626       -0.0167351          145.42
0.584                  -0.915969        -162.778          -49.004         124.327          -49.004         124.328       -0.0168753         145.345
0.585                   -0.92004        -163.602         -49.0058          123.05         -49.0058         123.051        -0.017018         145.271
0.586                  -0.925584        -164.435         -49.0018         121.793         -49.0018         121.794       -0.0171631         145.196
0.587                  -0.932599        -165.279         -48.9921         120.553         -48.9921         120.554       -0.0173107         145.122
0.588                  -0.941089        -166.134         -48.9768         119.328         -48.9767         119.329       -0.0174606         145.047
0.589                  -0.951062        -166.998         -48.9558         118.118         -48.9558         118.118       -0.0176131         144.972
0.59                   -0.962534        -167.873         -48.9293         116.919         -48.9293          116.92       -0.0177681         144.897
0.591                  -0.975527        -168.759         -48.8973         115.731         -48.8973         115.731       -0.0179256         144.821
0.592                  -0.990068        -169.656         -48.8599         114.551         -48.8599         114.552       -0.0180856         144.746
0.593                   -1.00619        -170.564         -48.8171         113.379         -48.8171          113.38       -0.0182481          144.67
0.594                   -1.02394        -171.484         -48.7691         112.214          -48.769         112.214       -0.0184133         144.594
0.595                   -1.04336        -172.416         -48.7157         111.052         -48.7157         111.053        -0.018581         144.518
0.596                    -1.0645        -173.359         -48.6572         109.895         -48.6572         109.895       -0.0187514         144.442
0.597                   -1.08742        -174.315         -48.5935         108.739         -48.5935         108.739       -0.0189244         144.365
0.598                   -1.11219        -175.284         -48.5248         107.583         -48.5248         107.583       -0.0191002         144.288
0.599                   -1.13889        -176.266          -48.451         106.427          -48.451         106.427       -0.0192786         144.212
0.6                      -1.1676        -177.261         -48.3723         105.269         -48.3723         105.269       -0.0194599         144.134
0.601                    -1.1984        -178.269         -48.2887         104.107         -48.2887         104.108       -0.0196439         144.057
0.602                   -1.23141        -179.292         -48.2002         102.941         -48.2002         102.942       -0.0198308          143.98
0.603                   -1.26671         179.672         -48.1069         101.769         -48.1069          101.77       -0.0200205         143.902
0.604                   -1.30444         178.621         -48.0089          100.59         -48.0089          100.59       -0.0202132         143.824
0.605                   -1.34471         177.555         -47.9063         99.4024         -47.9063         99.4025       -0.0204089         143.746
0.606                   -1.38767         176.474         -47.7991         98.2047         -47.7991         98.2049       -0.0206075         143.668
0.607                   -1.43346         175.377         -47.6874         96.9959         -47.6875         96.9961       -0.0208093          143.59
0.608                   -1.48224         174.265         -47.5714         95.7746         -47.5714         95.7747       -0.0210142         143.511
0.609                   -1.53419         173.137          -47.451         94.5394         -47.4511         94.5396       -0.0212222         143.432
0.61                    -1.58949         171.993         -47.3265          93.289         -47.3265         93.2892       -0.0214335         143.353
0.611                   -1.64833         170.832         -47.1979          92.022         -47.1979         92.0222       -0.0216481         143.274
0.612                   -1.71094         169.655         -47.0653         90.7372         -47.0653         90.7374       -0.0218661         143.194
0.613                   -1.77755         168.462         -46.9289          89.433          -46.929         89.4333       -0.0220875         143.114
0.614                   -1.84839         167.252         -46.7889         88.1083         -46.7889         88.1086       -0.0223125         143.034
0.615                   -1.92374         166.025         -46.6453         86.7617         -46.6454          86.762       -0.0225409         142.954
0.616                   -2.00387         164.781         -46.4985         85.3919         -46.4985         85.3922       -0.0227731         142.874
0.617                    -2.0891         163.521         -46.3485         83.9976         -46.3485         83.9979        -0.023009         142.793
0.618                   -2.17974         162.245         -46.1956         82.5775         -46.1956         82.5778       -0.0232487         142.712
0.619                   -2.27614         160.952         -46.0399         81.1306         -46.0399         81.1309       -0.0234923         142.631
0.62                    -2.37868         159.645         -45.8818         79.6557         -45.8818          79.656       -0.0237399         142.549
0.621                   -2.48774         158.322         -45.7214         78.1516         -45.7215         78.1519       -0.0239915         142.468
0.622                   -2.60375         156.985         -45.5591         76.6176         -45.5591         76.6179       -0.0242473         142.386
0.623                   -2.72714         155.636         -45.3951         75.0525         -45.3951         75.0528       -0.0245074         142.304
0.624                   -2.85841         154.274         -45.2297         73.4558         -45.2297          73.456       -0.0247719         142.221
0.625                   -2.99804         152.901         -45.0632         71.8267         -45.0632         71.8269       -0.0250408         142.139
0.626                   -3.14657          151.52         -44.8959         70.1646         -44.8959         70.1648       -0.0253143         142.056
0.627                   -3.30457         150.132         -44.7281         68.4692         -44.7281         68.4694       -0.0255925         141.973
0.628                   -3.47263         148.739         -44.5603         66.7403         -44.5603         66.7404       -0.0258754         141.889
0.629                   -3.65137         147.344         -44.3927         64.9777         -44.3927         64.9778       -0.0261633         141.805
