! TOUCHSTONE file generated by CST MICROWAVE STUDIO
! Date and time: Mon Nov 30 08:12:23 2020
! Project name: Scenario_1_Planar_Body_Tissue_Out_of_Line.cst
! Parameters = {dy1=17.3; L_HA=400; Ltissue=700; MT=2.54; Rad_Dielectric=30; Rad_Lower=7.3; Rad_Upper=30; Wtissue=700; a_HA=580; a_WG=246; b_HA=500; b_WG=121; c_HA=0; c_WG=187; d_feed=85; dx1=866; h_feed=15; h_lower=18; h_upper=40; hfat=3; hgap=25; hmuscle=50; hskin=1.5}
! Header version: 2018
! Port assignment regex: !\s*Touchstone port\s*([0-9]+)\s*=\s*(CST MWS port|CST DS port)\s*([0-9]+|Zmin|Zmax)\s*\(\"(.*)\"\)(\s*mode\s*([0-9]+))?.*
! Touchstone port assignment:
! Touchstone port 1 = CST MWS port 1 ("")
! Touchstone port 2 = CST MWS port 2 ("")
# GHz S DB R 50
0.5                   -0.0981752        -122.131         -63.5037         107.024         -63.5026         107.027      -0.00750257          151.15
0.501                 -0.0916782        -122.588         -63.4965         106.127         -63.4954         106.131      -0.00756101         151.085
0.502                 -0.0853788        -123.048         -63.4892         105.217         -63.4881         105.222      -0.00761993          151.02
0.503                 -0.0792815        -123.511         -63.4818         104.292         -63.4807         104.299      -0.00767935         150.955
0.504                 -0.0733911        -123.977         -63.4743         103.353         -63.4732         103.361      -0.00773929          150.89
0.505                 -0.0677122        -124.446         -63.4666         102.399         -63.4655         102.409      -0.00779976         150.824
0.506                   -0.06225        -124.918         -63.4588          101.43         -63.4577         101.441      -0.00786079         150.759
0.507                 -0.0570096        -125.393         -63.4507         100.445         -63.4497         100.458      -0.00792239         150.693
0.508                 -0.0519963        -125.872         -63.4425         99.4439         -63.4414         99.4582       -0.0079846         150.628
0.509                 -0.0472155        -126.353          -63.434         98.4263          -63.433         98.4421      -0.00804742         150.562
0.51                  -0.0426728        -126.838         -63.4252         97.3918         -63.4242         97.4092      -0.00811088         150.496
0.511                 -0.0383742        -127.326         -63.4161         96.3399         -63.4152         96.3587        -0.008175          150.43
0.512                 -0.0343256        -127.818         -63.4067           95.27         -63.4058         95.2904       -0.0082398         150.364
0.513                 -0.0305333        -128.313         -63.3969         94.1817          -63.396         94.2036      -0.00830529         150.298
0.514                 -0.0270036        -128.811         -63.3868         93.0745         -63.3859         93.0979      -0.00837151         150.232
0.515                 -0.0237432        -129.313         -63.3761         91.9478         -63.3753         91.9728      -0.00843847         150.166
0.516                  -0.020759        -129.818          -63.365         90.8011         -63.3642         90.8277      -0.00850619           150.1
0.517                 -0.0180581        -130.327         -63.3533         89.6339         -63.3525          89.662      -0.00857469         150.033
0.518                 -0.0156479        -130.839          -63.341         88.4456         -63.3403         88.4753      -0.00864399         149.967
0.519                 -0.0135359        -131.355          -63.328         87.2356         -63.3274         87.2669      -0.00871412           149.9
0.52                  -0.0117301        -131.874         -63.3144         86.0034         -63.3138         86.0363      -0.00878509         149.834
0.521                 -0.0102387        -132.398         -63.2999         84.7483         -63.2994         84.7828      -0.00885693         149.767
0.522                -0.00907006        -132.925         -63.2846         83.4697         -63.2842         83.5058      -0.00892965           149.7
0.523                -0.00823309        -133.455         -63.2684         82.1671         -63.2681         82.2047      -0.00900328         149.633
0.524                -0.00773689         -133.99         -63.2512         80.8398         -63.2509          80.879      -0.00907784         149.566
0.525                -0.00759094        -134.529         -63.2329          79.487         -63.2327         79.5278      -0.00915335         149.499
0.526                -0.00780508        -135.071         -63.2134         78.1083         -63.2133         78.1507      -0.00922983         149.432
0.527                -0.00838953        -135.618         -63.1927          76.703         -63.1927         76.7469       -0.0093073         149.364
0.528                -0.00935493        -136.168         -63.1706         75.2703         -63.1707         75.3158      -0.00938578         149.297
0.529                 -0.0107123        -136.723          -63.147         73.8097         -63.1472         73.8567       -0.0094653         149.229
0.53                  -0.0124732        -137.281         -63.1218         72.3204         -63.1221         72.3689      -0.00954587         149.162
0.531                 -0.0146495        -137.844         -63.0948         70.8019         -63.0953         70.8519      -0.00962752         149.094
0.532                 -0.0172537        -138.412         -63.0661         69.2534         -63.0667         69.3049      -0.00971027         149.026
0.533                 -0.0202988        -138.983         -63.0353         67.6744          -63.036         67.7274      -0.00979414         148.958
0.534                 -0.0237983        -139.559         -63.0024         66.0642         -63.0033         66.1186      -0.00987915          148.89
0.535                 -0.0277663        -140.139         -62.9672         64.4222         -62.9683          64.478      -0.00996533         148.822
0.536                 -0.0322175        -140.724         -62.9296         62.7478         -62.9308          62.805       -0.0100527         148.754
0.537                 -0.0371672        -141.313         -62.8893         61.0405         -62.8907          61.099       -0.0101413         148.686
0.538                 -0.0426314        -141.907         -62.8462         59.2997         -62.8478         59.3595       -0.0102311         148.617
0.539                 -0.0486268        -142.506         -62.8002         57.5249         -62.8019          57.586       -0.0103221         148.549
0.54                  -0.0551709        -143.109          -62.751         55.7157         -62.7529          55.778       -0.0104144          148.48
0.541                  -0.062282        -143.717         -62.6984         53.8717         -62.7005         53.9351       -0.0105081         148.411
0.542                 -0.0699791         -144.33         -62.6422         51.9925         -62.6446          52.057        -0.010603         148.342
0.543                 -0.0782822        -144.948         -62.5823         50.0778         -62.5848         50.1433       -0.0106993         148.273
0.544                 -0.0872121         -145.57         -62.5183         48.1273          -62.521         48.1938       -0.0107969         148.204
0.545                 -0.0967909        -146.198         -62.4501          46.141          -62.453         46.2083       -0.0108959         148.135
0.546                  -0.107041        -146.831         -62.3774         44.1186         -62.3806         44.1867       -0.0109964         148.066
0.547                  -0.117987        -147.469            -62.3         42.0602         -62.3034          42.129       -0.0110982         147.996
0.548                  -0.129654        -148.112         -62.2176         39.9658         -62.2213         40.0353       -0.0112016         147.927
0.549                  -0.142068         -148.76         -62.1301         37.8357         -62.1341         37.9056       -0.0113064         147.857
0.55                   -0.155257        -149.414         -62.0373         35.6699         -62.0414         35.7403       -0.0114126         147.787
0.551                   -0.16925        -150.073         -61.9387          33.469         -61.9431         33.5397       -0.0115205         147.718
0.552                  -0.184077        -150.737         -61.8343         31.2332          -61.839         31.3041       -0.0116298         147.648
0.553                  -0.199771        -151.407         -61.7239         28.9631         -61.7287         29.0342       -0.0117408         147.578
0.554                  -0.216364        -152.082         -61.6071         26.6593         -61.6122         26.7304       -0.0118533         147.507
0.555                  -0.233894        -152.763         -61.4839         24.3226         -61.4892         24.3936       -0.0119674         147.437
0.556                  -0.252395         -153.45          -61.354         21.9536         -61.3595         22.0244       -0.0120832         147.366
0.557                  -0.271909        -154.142         -61.2172         19.5533         -61.2229         19.6238       -0.0122007         147.296
0.558                  -0.292475         -154.84         -61.0734         17.1225         -61.0793         17.1926       -0.0123198         147.225
0.559                  -0.314137        -155.544         -60.9224         14.6622         -60.9286         14.7319       -0.0124406         147.154
0.56                    -0.33694        -156.253         -60.7642         12.1736         -60.7706         12.2426       -0.0125632         147.083
0.561                  -0.360933        -156.968         -60.5986          9.6575         -60.6051         9.72584       -0.0126876         147.012
0.562                  -0.386166        -157.689         -60.4256         7.11514         -60.4323         7.18268       -0.0128137         146.941
0.563                  -0.412692        -158.416          -60.245         4.54756         -60.2519         4.61422       -0.0129416          146.87
0.564                  -0.440566        -159.149         -60.0569         1.95584         -60.0639         2.02153       -0.0130714         146.798
0.565                  -0.469848        -159.887         -59.8613       -0.658984         -59.8684       -0.594325        -0.013203         146.727
0.566                  -0.500599        -160.631         -59.6582         -3.2959         -59.6654        -3.23234       -0.0133365         146.655
0.567                  -0.532884         -161.38         -59.4477        -5.95396          -59.455        -5.89158       -0.0134719         146.583
0.568                  -0.566773        -162.136         -59.2298         -8.6323         -59.2371        -8.57114       -0.0136093         146.511
0.569                  -0.602337        -162.897         -59.0046        -11.3301          -59.012        -11.2703       -0.0137486         146.439
0.57                   -0.639653        -163.663         -58.7723        -14.0468         -58.7798        -13.9882       -0.0138898         146.366
0.571                  -0.678799        -164.434         -58.5331        -16.7817         -58.5406        -16.7245       -0.0140331         146.294
0.572                  -0.719861        -165.211         -58.2871        -19.5345         -58.2946        -19.4786       -0.0141785         146.221
0.573                  -0.762925        -165.993         -58.0346        -22.3048          -58.042        -22.2503       -0.0143259         146.149
0.574                  -0.808085        -166.779         -57.7758        -25.0925         -57.7831        -25.0393       -0.0144753         146.076
0.575                  -0.855437         -167.57         -57.5109        -27.8975         -57.5182        -27.8458       -0.0146269         146.003
0.576                  -0.905083        -168.365         -57.2403        -30.7201         -57.2475        -30.6697       -0.0147807          145.93
0.577                  -0.957129        -169.164         -56.9642        -33.5604         -56.9713        -33.5114       -0.0149366         145.856
0.578                   -1.01168        -169.966         -56.6831         -36.419           -56.69        -36.3714       -0.0150947         145.783
0.579                   -1.06887        -170.772         -56.3972        -39.2963          -56.404        -39.2501        -0.015255         145.709
0.58                    -1.12879         -171.58         -56.1069        -42.1932         -56.1136        -42.1483       -0.0154175         145.635
0.581                   -1.19159        -172.389         -55.8127        -45.1104         -55.8192        -45.0668       -0.0155824         145.561
0.582                   -1.25739          -173.2          -55.515        -48.0488         -55.5213        -48.0066       -0.0157495         145.487
0.583                   -1.32631        -174.011         -55.2141        -51.0095         -55.2203        -50.9686       -0.0159189         145.413
0.584                    -1.3985        -174.822         -54.9107        -53.9936         -54.9167        -53.9539       -0.0160908         145.339
0.585                   -1.47409        -175.631         -54.6052        -57.0022          -54.611        -56.9638        -0.016265         145.264
0.586                   -1.55322        -176.438         -54.2981        -60.0364         -54.3036        -59.9993       -0.0164416         145.189
0.587                   -1.63603         -177.24           -53.99        -63.0975         -53.9953        -63.0616       -0.0166206         145.115
0.588                   -1.72267        -178.038         -53.6815        -66.1865         -53.6865        -66.1518       -0.0168022          145.04
0.589                   -1.81325        -178.828         -53.3731        -69.3045         -53.3779         -69.271       -0.0169862         144.964
0.59                    -1.90792         -179.61         -53.0654        -72.4524           -53.07        -72.4201       -0.0171727         144.889
0.591                   -2.00679         179.619         -52.7592        -75.6309         -52.7635        -75.5999       -0.0173618         144.813
0.592                   -2.10997         178.861         -52.4551        -78.8407         -52.4591        -78.8109       -0.0175535         144.738
0.593                   -2.21757         178.117         -52.1538        -82.0821         -52.1575        -82.0535       -0.0177478         144.662
0.594                   -2.32964         177.392         -51.8559        -85.3552         -51.8594        -85.3278       -0.0179448         144.586
0.595                   -2.44624         176.688         -51.5623        -88.6596         -51.5655        -88.6335       -0.0181444         144.509
0.596                   -2.56739         176.007         -51.2736        -91.9949         -51.2766          -91.97       -0.0183467         144.433
0.597                   -2.69305         175.355         -50.9905          -95.36         -50.9932        -95.3363       -0.0185517         144.356
0.598                   -2.82315         174.733         -50.7138        -98.7534         -50.7163         -98.731       -0.0187595          144.28
0.599                   -2.95755         174.147         -50.4442        -102.173         -50.4464        -102.152       -0.0189701         144.203
0.6                     -3.09604           173.6         -50.1823        -105.617         -50.1843        -105.598       -0.0191835         144.125
0.601                   -3.23833         173.097         -49.9287        -109.083         -49.9305        -109.064       -0.0193998         144.048
0.602                   -3.38403         172.643         -49.6841        -112.566         -49.6857        -112.549        -0.019619          143.97
0.603                   -3.53264         172.243          -49.449        -116.064         -49.4503        -116.048        -0.019841         143.893
0.604                   -3.68352         171.901         -49.2238        -119.572          -49.225        -119.558        -0.020066         143.815
0.605                   -3.83591         171.621         -49.0089        -123.086         -49.0099        -123.073        -0.020294         143.737
0.606                   -3.98888          171.41         -48.8046        -126.602         -48.8054         -126.59       -0.0205249         143.658
0.607                   -4.14134          171.27         -48.6111        -130.114         -48.6118        -130.103       -0.0207589          143.58
0.608                   -4.29205         171.204         -48.4285        -133.617          -48.429        -133.608        -0.020996         143.501
0.609                    -4.4396         171.216         -48.2568        -137.107         -48.2573        -137.099       -0.0212362         143.422
0.61                    -4.58242         171.306         -48.0959        -140.579         -48.0963        -140.572       -0.0214795         143.343
0.611                   -4.71882         171.475         -47.9457        -144.028          -47.946        -144.022       -0.0217259         143.263
0.612                   -4.84701         171.719         -47.8059        -147.448         -47.8061        -147.443       -0.0219755         143.184
0.613                   -4.96517         172.034         -47.6761        -150.837         -47.6763        -150.833       -0.0222284         143.104
0.614                   -5.07148         172.415          -47.556         -154.19         -47.5561        -154.187       -0.0224845         143.024
0.615                   -5.16423         172.853         -47.4449        -157.504          -47.445        -157.501       -0.0227439         142.943
0.616                   -5.24188         173.337         -47.3425        -160.775         -47.3426        -160.774       -0.0230067         142.863
0.617                   -5.30313         173.854         -47.2482        -164.001         -47.2482        -164.001       -0.0232727         142.782
0.618                   -5.34701         174.388         -47.1613        -167.181         -47.1613        -167.181       -0.0235422         142.701
0.619                   -5.37297         174.925         -47.0812        -170.311         -47.0812        -170.312       -0.0238151          142.62
0.62                    -5.38085         175.448         -47.0073        -173.392         -47.0074        -173.393       -0.0240915         142.539
0.621                   -5.37095         175.941         -46.9391        -176.422         -46.9391        -176.424       -0.0243713         142.457
0.622                     -5.344         176.387         -46.8759        -179.402         -46.8759        -179.403       -0.0246547         142.375
0.623                   -5.30109         176.772          -46.817          177.67          -46.817         177.668       -0.0249416         142.293
0.624                   -5.24366         177.083          -46.762         174.792          -46.762          174.79       -0.0252322          142.21
0.625                   -5.17339          177.31         -46.7103         171.964         -46.7103         171.962       -0.0255264         142.128
0.626                   -5.09212         177.444         -46.6613         169.185         -46.6613         169.183       -0.0258243         142.045
0.627                   -5.00179         177.479         -46.6146         166.454         -46.6146         166.452       -0.0261258         141.962
0.628                   -4.90433         177.411         -46.5697         163.769         -46.5698         163.767       -0.0264312         141.878
0.629                   -4.80165         177.239         -46.5262          161.13         -46.5262         161.127       -0.0267404         141.794
