! TOUCHSTONE file generated by CST MICROWAVE STUDIO
! Date and time: Mon Nov 30 09:08:58 2020
! Project name: Scenario_1_Planar_Body_Tissue_Out_of_Line_v2.cst
! Parameters = {dy1=34.6; L_HA=400; Ltissue=700; MT=2.54; Rad_Dielectric=30; Rad_Lower=7.3; Rad_Upper=30; Wtissue=700; a_HA=580; a_WG=246; b_HA=500; b_WG=121; c_HA=0; c_WG=187; d_feed=85; dx1=346; h_feed=15; h_lower=18; h_upper=40; hfat=3; hgap=25; hmuscle=50; hskin=1.5}
! Header version: 2018
! Port assignment regex: !\s*Touchstone port\s*([0-9]+)\s*=\s*(CST MWS port|CST DS port)\s*([0-9]+|Zmin|Zmax)\s*\(\"(.*)\"\)(\s*mode\s*([0-9]+))?.*
! Touchstone port assignment:
! Touchstone port 1 = CST MWS port 1 ("")
! Touchstone port 2 = CST MWS port 2 ("")
# GHz S DB R 50
0.5                    -0.294565        -121.751         -55.1136         35.0865         -55.1133         35.0865      -0.00803327         151.157
0.501                  -0.302842        -122.109         -54.9761         32.4995         -54.9758         32.4994      -0.00812066         151.092
0.502                  -0.310048         -122.47         -54.8505         29.9215         -54.8503         29.9213      -0.00820658         151.027
0.503                  -0.316287        -122.835         -54.7365         27.3593         -54.7363         27.3589      -0.00829106         150.962
0.504                  -0.321657        -123.203         -54.6339         24.8193         -54.6338         24.8189      -0.00837415         150.897
0.505                  -0.326243        -123.576         -54.5421         22.3076          -54.542         22.3072      -0.00845589         150.831
0.506                  -0.330128        -123.952         -54.4606         19.8298         -54.4606         19.8294      -0.00853633         150.766
0.507                  -0.333383        -124.333         -54.3888         17.3909         -54.3889         17.3906      -0.00861552         150.701
0.508                  -0.336076        -124.718         -54.3261         14.9954         -54.3261         14.9953      -0.00869349         150.635
0.509                  -0.338268        -125.107         -54.2715         12.6471         -54.2717          12.647       -0.0087703         150.569
0.51                   -0.340013        -125.502         -54.2245         10.3489         -54.2246          10.349      -0.00884599         150.504
0.511                  -0.341364          -125.9         -54.1841         8.10346         -54.1843         8.10364       -0.0089206         150.438
0.512                  -0.342365        -126.304         -54.1497          5.9125         -54.1498          5.9128       -0.0089942         150.372
0.513                  -0.343058        -126.712         -54.1203         3.77728         -54.1205         3.77771      -0.00906682         150.306
0.514                  -0.343483        -127.125         -54.0953          1.6985         -54.0955         1.69905      -0.00913851          150.24
0.515                  -0.343675        -127.542         -54.0739       -0.323631         -54.0741       -0.322961      -0.00920932         150.174
0.516                  -0.343665        -127.964         -54.0554        -2.28933         -54.0556        -2.28856       -0.0092793         150.108
0.517                  -0.343484        -128.391         -54.0391        -4.19921         -54.0393        -4.19834       -0.0093485         150.042
0.518                   -0.34316        -128.823         -54.0244        -6.05418         -54.0246        -6.05324      -0.00941697         149.975
0.519                  -0.342717        -129.259         -54.0108        -7.85545          -54.011        -7.85444      -0.00948477         149.909
0.52                    -0.34218          -129.7         -53.9976        -9.60442         -53.9978        -9.60335      -0.00955194         149.842
0.521                   -0.34157        -130.146         -53.9845        -11.3027         -53.9847        -11.3016      -0.00961853         149.776
0.522                  -0.340909        -130.597         -53.9709         -12.952         -53.9711        -12.9508      -0.00968461         149.709
0.523                  -0.340214        -131.052         -53.9565        -14.5541         -53.9566         -14.553      -0.00975021         149.642
0.524                  -0.339506        -131.513         -53.9408         -16.111          -53.941        -16.1098       -0.0098154         149.575
0.525                    -0.3388        -131.978         -53.9236        -17.6245         -53.9238        -17.6234      -0.00988023         149.508
0.526                  -0.338113        -132.448         -53.9046        -19.0967         -53.9048        -19.0956      -0.00994476         149.441
0.527                   -0.33746        -132.923         -53.8835        -20.5294         -53.8836        -20.5284        -0.010009         149.374
0.528                  -0.336858        -133.403         -53.8601        -21.9247         -53.8602        -21.9237       -0.0100731         149.306
0.529                  -0.336319        -133.888         -53.8341        -23.2844         -53.8342        -23.2835        -0.010137         149.239
0.53                   -0.335858        -134.378         -53.8054        -24.6105         -53.8055        -24.6096       -0.0102009         149.171
0.531                  -0.335489        -134.873         -53.7738        -25.9048         -53.7739         -25.904       -0.0102647         149.104
0.532                  -0.335224        -135.373         -53.7392         -27.169         -53.7393        -27.1683       -0.0103286         149.036
0.533                  -0.335077        -135.878         -53.7015        -28.4049         -53.7016        -28.4043       -0.0103925         148.968
0.534                   -0.33506        -136.389         -53.6606        -29.6143         -53.6607        -29.6137       -0.0104567         148.901
0.535                  -0.335187        -136.904         -53.6163        -30.7986         -53.6164        -30.7982        -0.010521         148.833
0.536                  -0.335469        -137.425         -53.5686        -31.9596         -53.5687        -31.9593       -0.0105855         148.764
0.537                   -0.33592        -137.952         -53.5175        -33.0987         -53.5175        -33.0985       -0.0106504         148.696
0.538                  -0.336552        -138.484         -53.4628        -34.2174         -53.4629        -34.2172       -0.0107157         148.628
0.539                  -0.337378        -139.021         -53.4046         -35.317         -53.4047        -35.3169       -0.0107814         148.559
0.54                   -0.338411        -139.564         -53.3427         -36.399         -53.3428         -36.399       -0.0108477         148.491
0.541                  -0.339665        -140.113         -53.2773        -37.4646         -53.2774        -37.4647       -0.0109145         148.422
0.542                  -0.341152        -140.668         -53.2082         -38.515         -53.2083        -38.5153       -0.0109819         148.354
0.543                  -0.342888        -141.228         -53.1354        -39.5516         -53.1355        -39.5519         -0.01105         148.285
0.544                  -0.344886        -141.794         -53.0589        -40.5754          -53.059        -40.5758       -0.0111188         148.216
0.545                   -0.34716        -142.367         -52.9787        -41.5876         -52.9788        -41.5881       -0.0111884         148.147
0.546                  -0.349728        -142.945         -52.8948        -42.5891          -52.895        -42.5898       -0.0112589         148.077
0.547                  -0.352603         -143.53         -52.8073        -43.5812         -52.8074        -43.5819       -0.0113304         148.008
0.548                  -0.355803        -144.122          -52.716        -44.5647         -52.7161        -44.5655       -0.0114028         147.939
0.549                  -0.359344        -144.719          -52.621        -45.5407         -52.6212        -45.5415       -0.0114762         147.869
0.55                   -0.363246        -145.324         -52.5223          -46.51         -52.5225        -46.5109       -0.0115508           147.8
0.551                  -0.367526        -145.935         -52.4199        -47.4736         -52.4201        -47.4746       -0.0116265          147.73
0.552                  -0.372205        -146.553         -52.3138        -48.4324          -52.314        -48.4335       -0.0117034          147.66
0.553                  -0.377304        -147.178         -52.2041        -49.3873         -52.2043        -49.3884       -0.0117817          147.59
0.554                  -0.382844         -147.81         -52.0906         -50.339         -52.0908        -50.3402       -0.0118612          147.52
0.555                  -0.388848         -148.45         -51.9735        -51.2884         -51.9737        -51.2897       -0.0119422         147.449
0.556                  -0.395341        -149.097         -51.8528        -52.2364          -51.853        -52.2376       -0.0120246         147.379
0.557                  -0.402349        -149.752         -51.7283        -53.1836         -51.7286        -53.1849       -0.0121085         147.309
0.558                  -0.409899        -150.414         -51.6003        -54.1309         -51.6005        -54.1323        -0.012194         147.238
0.559                  -0.418021        -151.085         -51.4686        -55.0791         -51.4688        -55.0805       -0.0122812         147.167
0.56                   -0.426746        -151.764         -51.3333        -56.0289         -51.3335        -56.0303         -0.01237         147.096
0.561                  -0.436105        -152.451         -51.1943         -56.981         -51.1946        -56.9824       -0.0124606         147.025
0.562                  -0.446135        -153.147         -51.0518        -57.9363         -51.0521        -57.9377        -0.012553         146.954
0.563                  -0.456873        -153.852         -50.9057        -58.8954          -50.906        -58.8968       -0.0126472         146.883
0.564                  -0.468358        -154.565          -50.756        -59.8591         -50.7563        -59.8605       -0.0127434         146.811
0.565                  -0.480634        -155.288         -50.6027        -60.8281          -50.603        -60.8295       -0.0128416          146.74
0.566                  -0.493745         -156.02         -50.4458        -61.8032         -50.4461        -61.8046       -0.0129418         146.668
0.567                  -0.507741        -156.762         -50.2854        -62.7852         -50.2857        -62.7866       -0.0130441         146.596
0.568                  -0.522674        -157.514         -50.1214        -63.7749         -50.1217        -63.7762       -0.0131486         146.524
0.569                    -0.5386        -158.277         -49.9539        -64.7729         -49.9542        -64.7742       -0.0132552         146.452
0.57                   -0.555579        -159.049         -49.7828        -65.7801         -49.7832        -65.7814       -0.0133642          146.38
0.571                  -0.573676        -159.833         -49.6083        -66.7972         -49.6086        -66.7985       -0.0134755         146.307
0.572                   -0.59296        -160.627         -49.4302        -67.8251         -49.4306        -67.8264       -0.0135892         146.235
0.573                  -0.613506        -161.433         -49.2486        -68.8647          -49.249        -68.8659       -0.0137053         146.162
0.574                  -0.635394         -162.25         -49.0635        -69.9167         -49.0639        -69.9179        -0.013824         146.089
0.575                  -0.658711        -163.079          -48.875        -70.9821         -48.8754        -70.9832       -0.0139453         146.016
0.576                  -0.683551        -163.921          -48.683        -72.0617         -48.6834        -72.0628       -0.0140692         145.943
0.577                  -0.710015        -164.775         -48.4876        -73.1564          -48.488        -73.1575       -0.0141958          145.87
0.578                  -0.738211        -165.641         -48.2887        -74.2673         -48.2891        -74.2683       -0.0143252         145.796
0.579                  -0.768258        -166.521         -48.0865        -75.3953         -48.0869        -75.3962       -0.0144574         145.723
0.58                   -0.800282        -167.414         -47.8809        -76.5413         -47.8813        -76.5422       -0.0145925         145.649
0.581                  -0.834422        -168.321         -47.6719        -77.7066         -47.6723        -77.7074       -0.0147307         145.575
0.582                  -0.870828        -169.242         -47.4597         -78.892         -47.4601        -78.8928       -0.0148719         145.501
0.583                   -0.90966        -170.177         -47.2442        -80.0989         -47.2446        -80.0996       -0.0150162         145.426
0.584                  -0.951094        -171.127         -47.0254        -81.3283         -47.0258        -81.3289       -0.0151637         145.352
0.585                  -0.995319        -172.091         -46.8035        -82.5815         -46.8039         -82.582       -0.0153145         145.277
0.586                   -1.04254        -173.071         -46.5785        -83.8596         -46.5789        -83.8601       -0.0154686         145.203
0.587                   -1.09299        -174.066         -46.3504        -85.1641         -46.3508        -85.1645       -0.0156262         145.128
0.588                    -1.1469        -175.076         -46.1194        -86.4962         -46.1198        -86.4966       -0.0157873         145.052
0.589                   -1.20453        -176.101         -45.8855        -87.8574         -45.8858        -87.8577        -0.015952         144.977
0.59                    -1.26618        -177.142         -45.6488        -89.2491         -45.6491        -89.2493       -0.0161204         144.902
0.591                   -1.33215        -178.198         -45.4094        -90.6728         -45.4098         -90.673       -0.0162926         144.826
0.592                   -1.40277         -179.27         -45.1675          -92.13         -45.1679        -92.1301       -0.0164687          144.75
0.593                   -1.47842         179.643         -44.9232        -93.6222         -44.9235        -93.6223       -0.0166487         144.674
0.594                   -1.55949         178.542         -44.6767        -95.1511          -44.677        -95.1511       -0.0168328         144.598
0.595                   -1.64639         177.427         -44.4281        -96.7184         -44.4284        -96.7183        -0.017021         144.522
0.596                   -1.73961         176.299         -44.1776        -98.3256         -44.1779        -98.3255       -0.0172136         144.445
0.597                   -1.83962         175.158         -43.9256        -99.9745         -43.9259        -99.9744       -0.0174104         144.368
0.598                   -1.94697         174.007         -43.6721        -101.667         -43.6724        -101.667       -0.0176118         144.291
0.599                   -2.06223         172.846         -43.4176        -103.404         -43.4179        -103.404       -0.0178177         144.214
0.6                     -2.18603         171.679         -43.1623        -105.188         -43.1626        -105.188       -0.0180283         144.137
0.601                   -2.31902         170.507         -42.9066         -107.02         -42.9068         -107.02       -0.0182437         144.059
0.602                    -2.4619         169.334         -42.6509        -108.902         -42.6511        -108.902        -0.018464         143.981
0.603                    -2.6154         168.163         -42.3955        -110.835         -42.3957        -110.835       -0.0186892         143.903
0.604                   -2.78032         166.999         -42.1409        -112.821         -42.1411         -112.82       -0.0189196         143.825
0.605                   -2.95744         165.847         -41.8877         -114.86         -41.8878         -114.86       -0.0191552         143.747
0.606                   -3.14761         164.714         -41.6363        -116.954         -41.6364        -116.953       -0.0193961         143.668
0.607                   -3.35165         163.608         -41.3873        -119.103         -41.3874        -119.102       -0.0196424          143.59
0.608                    -3.5704         162.538         -41.1413        -121.307         -41.1414        -121.307       -0.0198941         143.511
0.609                   -3.80464         161.514          -40.899        -123.568         -40.8991        -123.568       -0.0201515         143.432
0.61                     -4.0551         160.548          -40.661        -125.884          -40.661        -125.884       -0.0204145         143.352
0.611                    -4.3224         159.657          -40.428        -128.254          -40.428        -128.254       -0.0206832         143.273
0.612                   -4.60696         158.855         -40.2006        -130.678         -40.2007        -130.678       -0.0209578         143.193
0.613                   -4.90897         158.163         -39.9797        -133.154         -39.9797        -133.154       -0.0212381         143.113
0.614                   -5.22826         157.603         -39.7659        -135.679         -39.7659        -135.679       -0.0215243         143.033
0.615                   -5.56416           157.2         -39.5599        -138.251         -39.5599        -138.251       -0.0218163         142.952
0.616                   -5.91536          156.98         -39.3624        -140.866         -39.3624        -140.866       -0.0221143         142.872
0.617                    -6.2797         156.975          -39.174        -143.521         -39.1739        -143.521        -0.022418         142.791
0.618                   -6.65393         157.215         -38.9952         -146.21         -38.9952         -146.21       -0.0227276          142.71
0.619                   -7.03348         157.731         -38.8266        -148.929         -38.8265        -148.929       -0.0230429         142.628
0.62                     -7.4122         158.553         -38.6686        -151.673         -38.6685        -151.673       -0.0233639         142.547
0.621                    -7.7822         159.706         -38.5215        -154.435         -38.5214        -154.435       -0.0236903         142.465
0.622                   -8.13385         161.202         -38.3855         -157.21         -38.3855         -157.21       -0.0240222         142.383
0.623                     -8.456         163.041         -38.2608        -159.991         -38.2608        -159.991       -0.0243593         142.301
0.624                   -8.73665         165.202         -38.1474        -162.772         -38.1474        -162.772       -0.0247013         142.218
0.625                   -8.96401         167.639         -38.0452        -165.546         -38.0452        -165.547       -0.0250482         142.136
0.626                   -9.12793         170.283          -37.954        -168.309          -37.954        -168.309       -0.0253997         142.053
0.627                    -9.2214         173.043         -37.8734        -171.052         -37.8734        -171.053       -0.0257554          141.97
0.628                   -9.24173         175.815         -37.8031        -173.772         -37.8031        -173.773       -0.0261152         141.886
0.629                   -9.19098         178.498         -37.7426        -176.464         -37.7426        -176.465       -0.0264786         141.803
