! TOUCHSTONE file generated by CST MICROWAVE STUDIO
! Date and time: Sat Nov 14 20:01:32 2020
! Project name: Scenario_1_Planar_Body_Tissue_Out_of_Line.cst
! Parameters = {dy1=-34.6; L_HA=400; Ltissue=700; MT=2.54; Rad_Dielectric=30; Rad_Lower=7.3; Rad_Upper=30; Wtissue=700; a_HA=580; a_WG=246; b_HA=500; b_WG=121; c_HA=0; c_WG=187; d_feed=85; dx1=693; h_feed=15; h_lower=18; h_upper=40; hfat=3; hgap=25; hmuscle=50; hskin=1.5}
! Header version: 2018
! Port assignment regex: !\s*Touchstone port\s*([0-9]+)\s*=\s*(CST MWS port|CST DS port)\s*([0-9]+|Zmin|Zmax)\s*\(\"(.*)\"\)(\s*mode\s*([0-9]+))?.*
! Touchstone port assignment:
! Touchstone port 1 = CST MWS port 1 ("")
! Touchstone port 2 = CST MWS port 2 ("")
# GHz S DB R 50
0.5                    -0.209309        -121.428         -60.8372        -169.801         -60.8365        -169.799      -0.00771538         151.154
0.501                  -0.209532        -121.848         -60.8147        -170.847          -60.814        -170.845      -0.00778345         151.089
0.502                  -0.209826        -122.271         -60.7904        -171.909         -60.7897        -171.907      -0.00785184         151.023
0.503                  -0.210196        -122.696         -60.7642        -172.987         -60.7635        -172.985      -0.00792056         150.958
0.504                  -0.210644        -123.125         -60.7361         -174.08         -60.7355        -174.077      -0.00798962         150.893
0.505                  -0.211174        -123.556         -60.7061        -175.188         -60.7054        -175.186        -0.008059         150.828
0.506                  -0.211789         -123.99         -60.6739        -176.313         -60.6733         -176.31      -0.00812872         150.762
0.507                  -0.212493        -124.428         -60.6397        -177.453          -60.639        -177.451      -0.00819879         150.697
0.508                   -0.21329        -124.869         -60.6031        -178.609         -60.6025        -178.607      -0.00826921         150.631
0.509                  -0.214183        -125.313         -60.5642        -179.781         -60.5636        -179.779      -0.00833997         150.565
0.51                   -0.215178         -125.76         -60.5229          179.03         -60.5223         179.032      -0.00841109           150.5
0.511                  -0.216278        -126.211         -60.4791         177.826         -60.4785         177.828      -0.00848257         150.434
0.512                  -0.217489        -126.665         -60.4327         176.605         -60.4321         176.607      -0.00855441         150.368
0.513                  -0.218816        -127.122         -60.3835         175.368          -60.383          175.37      -0.00862663         150.302
0.514                  -0.220264        -127.583         -60.3316         174.115         -60.3311         174.117      -0.00869921         150.236
0.515                   -0.22184        -128.048         -60.2767         172.846         -60.2762         172.848      -0.00877218          150.17
0.516                  -0.223549        -128.516         -60.2189          171.56         -60.2184         171.562      -0.00884553         150.104
0.517                  -0.225397        -128.988          -60.158         170.259         -60.1575         170.261      -0.00891927         150.037
0.518                  -0.227393        -129.464         -60.0939         168.941         -60.0934         168.944       -0.0089934         149.971
0.519                  -0.229544        -129.944         -60.0265         167.608         -60.0261          167.61      -0.00906792         149.904
0.52                   -0.231857        -130.428         -59.9557         166.259         -59.9553         166.261      -0.00914286         149.838
0.521                  -0.234341        -130.916         -59.8815         164.894         -59.8811         164.896       -0.0092182         149.771
0.522                  -0.237006        -131.408         -59.8037         163.513         -59.8033         163.515      -0.00929396         149.705
0.523                   -0.23986        -131.905         -59.7222         162.117         -59.7218         162.119      -0.00937014         149.638
0.524                  -0.242916        -132.406         -59.6369         160.706         -59.6366         160.708      -0.00944675         149.571
0.525                  -0.246183        -132.911         -59.5478         159.279         -59.5475         159.281      -0.00952379         149.504
0.526                  -0.249674        -133.421         -59.4548         157.838         -59.4544          157.84      -0.00960128         149.437
0.527                  -0.253402        -133.936         -59.3577         156.381         -59.3574         156.383      -0.00967921          149.37
0.528                  -0.257381        -134.455         -59.2565          154.91         -59.2562         154.912      -0.00975761         149.302
0.529                  -0.261625         -134.98         -59.1511         153.424         -59.1508         153.426      -0.00983646         149.235
0.53                   -0.266151        -135.509         -59.0414         151.924         -59.0411         151.926      -0.00991579         149.168
0.531                  -0.270976        -136.044         -58.9273          150.41          -58.927         150.412      -0.00999561           149.1
0.532                  -0.276118        -136.584         -58.8088         148.882         -58.8086         148.884       -0.0100759         149.032
0.533                  -0.281599        -137.129         -58.6858          147.34         -58.6856         147.342       -0.0101567         148.965
0.534                  -0.287439         -137.68         -58.5582         145.785          -58.558         145.787       -0.0102381         148.897
0.535                  -0.293662        -138.237          -58.426         144.216         -58.4258         144.217       -0.0103199         148.829
0.536                  -0.300293        -138.799         -58.2891         142.633         -58.2889         142.635       -0.0104023         148.761
0.537                  -0.307361        -139.368         -58.1474         141.037         -58.1472         141.039       -0.0104853         148.693
0.538                  -0.314895        -139.943         -58.0009         139.427         -58.0007         139.429       -0.0105688         148.625
0.539                  -0.322927        -140.524         -57.8495         137.805         -57.8494         137.806        -0.010653         148.556
0.54                   -0.331493        -141.112         -57.6933         136.169         -57.6931          136.17       -0.0107377         148.488
0.541                  -0.340631        -141.706         -57.5321         134.519          -57.532         134.521       -0.0108231         148.419
0.542                  -0.350383        -142.307         -57.3659         132.856         -57.3658         132.858       -0.0109091         148.351
0.543                  -0.360794        -142.916         -57.1947         131.179         -57.1946         131.181       -0.0109959         148.282
0.544                  -0.371914        -143.531         -57.0185         129.489         -57.0184          129.49       -0.0110833         148.213
0.545                  -0.383798        -144.154         -56.8372         127.784         -56.8372         127.785       -0.0111715         148.144
0.546                  -0.396503        -144.785         -56.6509         126.064         -56.6509         126.066       -0.0112605         148.075
0.547                  -0.410096        -145.424         -56.4595          124.33         -56.4595         124.331       -0.0113504         148.006
0.548                  -0.424647         -146.07          -56.263          122.58          -56.263         122.581       -0.0114411         147.937
0.549                  -0.440233        -146.725         -56.0615         120.814         -56.0615         120.815       -0.0115328         147.867
0.55                    -0.45694        -147.388         -55.8549         119.031         -55.8549         119.032       -0.0116255         147.798
0.551                   -0.47486         -148.06         -55.6432         117.231         -55.6432         117.232       -0.0117193         147.728
0.552                  -0.494096         -148.74         -55.4265         115.412         -55.4265         115.413       -0.0118142         147.658
0.553                  -0.514761        -149.429         -55.2048         113.573         -55.2048         113.574       -0.0119103         147.588
0.554                  -0.536978        -150.127         -54.9781         111.715         -54.9781         111.715       -0.0120078         147.518
0.555                  -0.560881        -150.835         -54.7465         109.834         -54.7465         109.835       -0.0121067         147.448
0.556                   -0.58662        -151.551         -54.5101          107.93         -54.5101         107.931       -0.0122072         147.378
0.557                  -0.614357        -152.277         -54.2688         106.002         -54.2689         106.003       -0.0123093         147.307
0.558                  -0.644272        -153.011         -54.0229         104.048         -54.0229         104.048       -0.0124133         147.237
0.559                  -0.676559        -153.754         -53.7724         102.065         -53.7724         102.066       -0.0125192         147.166
0.56                   -0.711434        -154.506         -53.5174         100.053         -53.5174         100.054       -0.0126274         147.095
0.561                  -0.749129        -155.266          -53.258          98.009         -53.2581         98.0095       -0.0127378         147.024
0.562                    -0.7899        -156.034         -52.9945          95.931         -52.9946         95.9314       -0.0128508         146.953
0.563                   -0.83402        -156.809         -52.7271         93.8166         -52.7271          93.817       -0.0129666         146.882
0.564                  -0.881788        -157.591         -52.4558         91.6635         -52.4559         91.6639       -0.0130854         146.811
0.565                  -0.933522        -158.377         -52.1811          89.469         -52.1811         89.4693       -0.0132074         146.739
0.566                  -0.989562        -159.166         -51.9031         87.2304         -51.9032         87.2307       -0.0133329         146.668
0.567                   -1.05026        -159.957         -51.6223          84.945         -51.6224         84.9452       -0.0134621         146.596
0.568                     -1.116        -160.747          -51.339         82.6098         -51.3391           82.61       -0.0135954         146.524
0.569                   -1.18714        -161.534         -51.0537         80.2218         -51.0538          80.222       -0.0137328         146.452
0.57                    -1.26407        -162.313         -50.7669         77.7781         -50.7669         77.7782       -0.0138748          146.38
0.571                   -1.34714        -163.081         -50.4791         75.2757         -50.4791         75.2758       -0.0140215         146.308
0.572                   -1.43667        -163.833         -50.1909         72.7117          -50.191         72.7117        -0.014173         146.235
0.573                   -1.53294        -164.563         -49.9032         70.0833         -49.9033         70.0833       -0.0143296         146.163
0.574                    -1.6361        -165.263         -49.6167          67.388         -49.6168          67.388       -0.0144913          146.09
0.575                    -1.7462        -165.927         -49.3323         64.6236         -49.3324         64.6236       -0.0146583         146.017
0.576                   -1.86311        -166.545          -49.051         61.7883         -49.0511         61.7882       -0.0148303         145.944
0.577                   -1.98643        -167.107         -48.7739         58.8807         -48.7739         58.8806       -0.0150075         145.871
0.578                    -2.1155        -167.604         -48.5019         55.9002          -48.502         55.9001       -0.0151895         145.798
0.579                   -2.24929        -168.024         -48.2365         52.8471         -48.2366         52.8468       -0.0153762         145.724
0.58                    -2.38632        -168.358         -47.9788         49.7222         -47.9789          49.722       -0.0155672         145.651
0.581                   -2.52468        -168.596         -47.7302         46.5279         -47.7302         46.5276       -0.0157622         145.577
0.582                   -2.66197        -168.729         -47.4918         43.2673         -47.4919          43.267       -0.0159607         145.504
0.583                   -2.79533        -168.754         -47.2652          39.945         -47.2653         39.9446       -0.0161623          145.43
0.584                   -2.92155         -168.67         -47.0514         36.5668         -47.0515         36.5663       -0.0163665         145.356
0.585                   -3.03724        -168.481         -46.8518         33.1397         -46.8518         33.1392       -0.0165728         145.282
0.586                   -3.13898        -168.197         -46.6672          29.672         -46.6672         29.6714       -0.0167806         145.207
0.587                    -3.2237        -167.833         -46.4986         26.1732         -46.4986         26.1726       -0.0169895         145.133
0.588                   -3.28885        -167.413         -46.3466         22.6536         -46.3467         22.6529       -0.0171992         145.058
0.589                   -3.33273        -166.959         -46.2117         19.1242         -46.2118         19.1235       -0.0174091         144.984
0.59                    -3.35463          -166.5         -46.0942         15.5965         -46.0943         15.5958        -0.017619         144.909
0.591                   -3.35488        -166.064         -45.9939          12.082          -45.994         12.0813       -0.0178287         144.834
0.592                   -3.33479        -165.675         -45.9106         8.59218         -45.9107         8.59141       -0.0180379         144.759
0.593                   -3.29648        -165.356         -45.8437          5.1378         -45.8438         5.13701       -0.0182466         144.684
0.594                   -3.24263        -165.124         -45.7925         1.72899         -45.7926         1.72818       -0.0184545         144.608
0.595                   -3.17621         -164.99         -45.7559        -1.62517         -45.7561        -1.62598       -0.0186618         144.533
0.596                   -3.10028        -164.961          -45.733        -4.91673         -45.7331        -4.91755       -0.0188685         144.457
0.597                   -3.01774        -165.039         -45.7224        -8.13905         -45.7226        -8.13986       -0.0190746         144.381
0.598                   -2.93121        -165.222         -45.7229        -11.2868          -45.723        -11.2876       -0.0192803         144.305
0.599                   -2.84297        -165.507         -45.7331        -14.3559         -45.7333        -14.3567       -0.0194857         144.229
0.6                     -2.75492        -165.887         -45.7517        -17.3436         -45.7518        -17.3443       -0.0196909         144.152
0.601                   -2.66858        -166.354         -45.7773        -20.2483         -45.7774         -20.249       -0.0198961         144.076
0.602                   -2.58513        -166.902         -45.8086        -23.0694         -45.8088        -23.0701       -0.0201016         143.999
0.603                   -2.50544        -167.522         -45.8445        -25.8074         -45.8446        -25.8081       -0.0203075         143.922
0.604                   -2.43013        -168.207         -45.8837        -28.4634         -45.8839         -28.464       -0.0205139         143.844
0.605                   -2.35963        -168.951         -45.9252        -31.0392         -45.9254        -31.0398       -0.0207212         143.767
0.606                   -2.29417        -169.747          -45.968        -33.5373         -45.9682        -33.5379       -0.0209294         143.689
0.607                   -2.23388        -170.589         -46.0113        -35.9605         -46.0115         -35.961       -0.0211389         143.612
0.608                   -2.17881        -171.473         -46.0541        -38.3118         -46.0543        -38.3123       -0.0213497         143.533
0.609                   -2.12891        -172.395         -46.0959        -40.5948         -46.0961        -40.5953        -0.021562         143.455
0.61                     -2.0841        -173.351         -46.1359         -42.813         -46.1361        -42.8133       -0.0217761         143.377
0.611                   -2.04427        -174.337         -46.1736        -44.9699         -46.1738        -44.9703       -0.0219921         143.298
0.612                   -2.00929        -175.352         -46.2085        -47.0694         -46.2087        -47.0697       -0.0222101         143.219
0.613                   -1.97902        -176.392         -46.2401        -49.1151         -46.2403        -49.1154       -0.0224303          143.14
0.614                   -1.95334        -177.457         -46.2682        -51.1107         -46.2684         -51.111       -0.0226529         143.061
0.615                    -1.9321        -178.546         -46.2923          -53.06         -46.2925        -53.0602        -0.022878         142.981
0.616                   -1.91519        -179.655         -46.3122        -54.9663         -46.3124        -54.9665       -0.0231057         142.901
0.617                    -1.9025         179.214         -46.3277        -56.8334         -46.3279        -56.8335       -0.0233362         142.821
0.618                   -1.89394         178.063         -46.3386        -58.6644         -46.3387        -58.6645       -0.0235697         142.741
0.619                   -1.88942         176.892         -46.3447        -60.4629         -46.3448        -60.4629       -0.0238061          142.66
0.62                    -1.88889         175.701         -46.3459        -62.2319          -46.346        -62.2319       -0.0240457          142.58
0.621                   -1.89231         174.491         -46.3421        -63.9746         -46.3423        -63.9746       -0.0242886         142.499
0.622                   -1.89964         173.262         -46.3333         -65.694         -46.3334         -65.694       -0.0245348         142.417
0.623                   -1.91089         172.013         -46.3194         -67.393         -46.3195         -67.393       -0.0247846         142.336
0.624                   -1.92606         170.744         -46.3004        -69.0745         -46.3005        -69.0744        -0.025038         142.254
0.625                   -1.94518         169.456         -46.2762        -70.7411         -46.2763         -70.741       -0.0252951         142.172
0.626                   -1.96831         168.147          -46.247        -72.3955         -46.2471        -72.3954        -0.025556          142.09
0.627                   -1.99551         166.818         -46.2126        -74.0403         -46.2128        -74.0402       -0.0258209         142.008
0.628                   -2.02687         165.467         -46.1733        -75.6779         -46.1734        -75.6778       -0.0260898         141.925
0.629                   -2.06251         164.096         -46.1291        -77.3107         -46.1291        -77.3106       -0.0263629         141.842
