! TOUCHSTONE file generated by CST MICROWAVE STUDIO
! Date and time: Mon Nov 30 09:09:23 2020
! Project name: Scenario_1_Planar_Body_Tissue_Out_of_Line_v2.cst
! Parameters = {dy1=86.5; L_HA=400; Ltissue=700; MT=2.54; Rad_Dielectric=30; Rad_Lower=7.3; Rad_Upper=30; Wtissue=700; a_HA=580; a_WG=246; b_HA=500; b_WG=121; c_HA=0; c_WG=187; d_feed=85; dx1=346; h_feed=15; h_lower=18; h_upper=40; hfat=3; hgap=25; hmuscle=50; hskin=1.5}
! Header version: 2018
! Port assignment regex: !\s*Touchstone port\s*([0-9]+)\s*=\s*(CST MWS port|CST DS port)\s*([0-9]+|Zmin|Zmax)\s*\(\"(.*)\"\)(\s*mode\s*([0-9]+))?.*
! Touchstone port assignment:
! Touchstone port 1 = CST MWS port 1 ("")
! Touchstone port 2 = CST MWS port 2 ("")
# GHz S DB R 50
0.5                    -0.285916        -121.771         -55.5087         31.9931         -55.5086         31.9929      -0.00808373         151.152
0.501                  -0.288305        -122.113         -55.3489          29.311         -55.3488         29.3123      -0.00814786         151.087
0.502                  -0.290668        -122.462         -55.2043         26.6459         -55.2041         26.6486      -0.00821226         151.022
0.503                  -0.292994        -122.817         -55.0743         24.0057         -55.0742         24.0096      -0.00827693         150.957
0.504                  -0.295279        -123.178         -54.9583         21.3977         -54.9581         21.4025      -0.00834187         150.892
0.505                  -0.297517        -123.544         -54.8554         18.8282         -54.8551         18.8337       -0.0084071         150.826
0.506                  -0.299706        -123.916         -54.7647         16.3028         -54.7644         16.3088      -0.00847262         150.761
0.507                  -0.301844        -124.294         -54.6852         13.8262         -54.6849         13.8326      -0.00853843         150.696
0.508                   -0.30393        -124.676          -54.616         11.4024         -54.6156          11.409      -0.00860456          150.63
0.509                  -0.305964        -125.064          -54.556         9.03432         -54.5556         9.04101        -0.008671         150.565
0.51                   -0.307948        -125.458         -54.5043         6.72415         -54.5038          6.7308      -0.00873777         150.499
0.511                  -0.309882        -125.856         -54.4598         4.47337         -54.4592         4.47988      -0.00880487         150.433
0.512                  -0.311771        -126.259         -54.4215         2.28276          -54.421         2.28905      -0.00887232         150.367
0.513                  -0.313616        -126.667         -54.3887         0.15252         -54.3881        0.158525      -0.00894012         150.301
0.514                  -0.315421         -127.08         -54.3604         -1.9177         -54.3598        -1.91203      -0.00900829         150.235
0.515                   -0.31719        -127.498         -54.3357        -3.92866         -54.3351        -3.92336      -0.00907684         150.169
0.516                  -0.318928        -127.921         -54.3141        -5.88151         -54.3135        -5.87661      -0.00914578         150.103
0.517                  -0.320639        -128.348         -54.2947        -7.77768         -54.2941         -7.7732      -0.00921512         150.037
0.518                  -0.322329         -128.78         -54.2769        -9.61886         -54.2764         -9.6148      -0.00928488          149.97
0.519                  -0.324002        -129.217         -54.2602        -11.4069         -54.2597        -11.4033      -0.00935507         149.904
0.52                   -0.325666        -129.659          -54.244        -13.1437         -54.2436        -13.1405      -0.00942569         149.837
0.521                  -0.327324        -130.105          -54.228        -14.8315         -54.2275        -14.8287      -0.00949677         149.771
0.522                  -0.328985        -130.556         -54.2115        -16.4723         -54.2111        -16.4699      -0.00956833         149.704
0.523                  -0.330654        -131.012         -54.1944        -18.0682          -54.194        -18.0662      -0.00964036         149.637
0.524                  -0.332337        -131.473         -54.1762        -19.6214         -54.1758        -19.6197      -0.00971289          149.57
0.525                  -0.334043        -131.938         -54.1566        -21.1341         -54.1563        -21.1327      -0.00978594         149.503
0.526                  -0.335777        -132.408         -54.1354        -22.6082         -54.1352        -22.6072      -0.00985952         149.436
0.527                  -0.337547        -132.883         -54.1124        -24.0459         -54.1122        -24.0451      -0.00993364         149.369
0.528                   -0.33936        -133.362         -54.0873         -25.449         -54.0872        -25.4485       -0.0100083         149.301
0.529                  -0.341225        -133.847           -54.06        -26.8196         -54.0599        -26.8193       -0.0100836         149.234
0.53                    -0.34315        -134.336         -54.0303        -28.1594         -54.0302        -28.1593       -0.0101594         149.167
0.531                  -0.345141         -134.83          -53.998        -29.4702          -53.998        -29.4704       -0.0102359         149.099
0.532                  -0.347209        -135.329         -53.9631        -30.7537         -53.9631        -30.7541        -0.010313         149.031
0.533                  -0.349361        -135.833         -53.9255        -32.0116         -53.9255        -32.0121       -0.0103908         148.963
0.534                  -0.351607        -136.342          -53.885        -33.2454         -53.8851         -33.246       -0.0104692         148.895
0.535                  -0.353957        -136.856         -53.8415        -34.4566         -53.8417        -34.4573       -0.0105483         148.827
0.536                  -0.356418        -137.376         -53.7951        -35.6466         -53.7953        -35.6474       -0.0106281         148.759
0.537                  -0.359002          -137.9         -53.7456        -36.8168         -53.7458        -36.8177       -0.0107086         148.691
0.538                   -0.36172         -138.43          -53.693        -37.9684         -53.6932        -37.9694       -0.0107899         148.623
0.539                   -0.36458        -138.966         -53.6372        -39.1028         -53.6375        -39.1038        -0.010872         148.554
0.54                   -0.367596        -139.506         -53.5783         -40.221         -53.5785        -40.2221       -0.0109548         148.486
0.541                  -0.370778        -140.053         -53.5161        -41.3243         -53.5164        -41.3254       -0.0110384         148.417
0.542                  -0.374138        -140.605         -53.4507        -42.4137          -53.451        -42.4148       -0.0111229         148.348
0.543                  -0.377689        -141.162         -53.3819        -43.4902         -53.3823        -43.4914       -0.0112082          148.28
0.544                  -0.381444        -141.726         -53.3099        -44.5549         -53.3103        -44.5561       -0.0112944         148.211
0.545                  -0.385416        -142.295         -53.2346        -45.6088         -53.2349        -45.6099       -0.0113815         148.141
0.546                  -0.389621         -142.87         -53.1559        -46.6526         -53.1563        -46.6537       -0.0114695         148.072
0.547                  -0.394073        -143.452         -53.0739        -47.6873         -53.0742        -47.6884       -0.0115584         148.003
0.548                  -0.398787        -144.039         -52.9885        -48.7138         -52.9889        -48.7149       -0.0116483         147.933
0.549                  -0.403781        -144.634         -52.8997        -49.7329         -52.9001        -49.7339       -0.0117392         147.864
0.55                   -0.409071        -145.234         -52.8075        -50.7454         -52.8079        -50.7464       -0.0118311         147.794
0.551                  -0.414676        -145.841          -52.712        -51.7521         -52.7124         -51.753       -0.0119241         147.724
0.552                  -0.420616        -146.455          -52.613        -52.7537         -52.6134        -52.7546       -0.0120181         147.655
0.553                   -0.42691        -147.076         -52.5107         -53.751          -52.511        -53.7518       -0.0121132         147.585
0.554                   -0.43358        -147.704         -52.4049        -54.7447         -52.4053        -54.7455       -0.0122094         147.514
0.555                  -0.440649        -148.339         -52.2957        -55.7355          -52.296        -55.7362       -0.0123068         147.444
0.556                  -0.448141        -148.981          -52.183        -56.7242         -52.1834        -56.7248       -0.0124053         147.374
0.557                  -0.456081        -149.631         -52.0669        -57.7113         -52.0673        -57.7119        -0.012505         147.303
0.558                  -0.464497        -150.289         -51.9474        -58.6976         -51.9477        -58.6982        -0.012606         147.233
0.559                  -0.473417        -150.954         -51.8244        -59.6839         -51.8247        -59.6843       -0.0127082         147.162
0.56                   -0.482871        -151.628         -51.6979        -60.6706         -51.6983        -60.6711       -0.0128117         147.091
0.561                  -0.492892         -152.31          -51.568        -61.6586         -51.5683         -61.659       -0.0129165          147.02
0.562                  -0.503514            -153         -51.4346        -62.6485         -51.4349        -62.6489       -0.0130227         146.949
0.563                  -0.514775        -153.699         -51.2978         -63.641          -51.298        -63.6413       -0.0131303         146.877
0.564                  -0.526714        -154.407         -51.1574        -64.6368         -51.1577         -64.637       -0.0132392         146.806
0.565                  -0.539372        -155.124         -51.0136        -65.6365         -51.0138        -65.6367       -0.0133497         146.735
0.566                  -0.552794         -155.85         -50.8662        -66.6409         -50.8664        -66.6411       -0.0134615         146.663
0.567                  -0.567029        -156.585         -50.7153        -67.6507         -50.7156        -67.6508        -0.013575         146.591
0.568                  -0.582127        -157.331          -50.561        -68.6665         -50.5612        -68.6666       -0.0136899         146.519
0.569                  -0.598144        -158.087         -50.4031        -69.6892         -50.4033        -69.6893       -0.0138065         146.447
0.57                   -0.615139        -158.853         -50.2417        -70.7195         -50.2419        -70.7195       -0.0139246         146.375
0.571                  -0.633175        -159.629         -50.0768        -71.7581         -50.0769        -71.7581       -0.0140445         146.302
0.572                  -0.652319        -160.416         -49.9083        -72.8059         -49.9085        -72.8059        -0.014166          146.23
0.573                  -0.672646        -161.215         -49.7364        -73.8636         -49.7365        -73.8636       -0.0142893         146.157
0.574                  -0.694233        -162.025         -49.5609        -74.9322          -49.561        -74.9321       -0.0144143         146.084
0.575                  -0.717166        -162.846         -49.3818        -76.0123         -49.3819        -76.0123       -0.0145412         146.011
0.576                  -0.741536         -163.68         -49.1993        -77.1051         -49.1994         -77.105       -0.0146699         145.938
0.577                   -0.76744        -164.526         -49.0132        -78.2113         -49.0133        -78.2112       -0.0148006         145.865
0.578                  -0.794986        -165.384         -48.8237        -79.3319         -48.8237        -79.3319       -0.0149332         145.791
0.579                  -0.824287        -166.256         -48.6306         -80.468         -48.6307        -80.4679       -0.0150679         145.718
0.58                   -0.855468        -167.141         -48.4341        -81.6205         -48.4342        -81.6204       -0.0152046         145.644
0.581                  -0.888663        -168.039         -48.2342        -82.7905         -48.2342        -82.7904       -0.0153434          145.57
0.582                  -0.924015        -168.951         -48.0308        -83.9791         -48.0308        -83.9791       -0.0154843         145.496
0.583                  -0.961683        -169.877          -47.824        -85.1875          -47.824        -85.1874       -0.0156275         145.422
0.584                   -1.00183        -170.817         -47.6138        -86.4168         -47.6138        -86.4168       -0.0157729         145.348
0.585                   -1.04465        -171.772         -47.4004        -87.6683         -47.4003        -87.6683       -0.0159207         145.273
0.586                   -1.09034        -172.742         -47.1837        -88.9432         -47.1836        -88.9432       -0.0160709         145.198
0.587                   -1.13911        -173.726         -46.9637        -90.2429         -46.9637         -90.243       -0.0162236         145.123
0.588                   -1.19119        -174.726         -46.7407        -91.5689         -46.7406        -91.5689       -0.0163787         145.048
0.589                   -1.24684        -175.741         -46.5146        -92.9224         -46.5146        -92.9224       -0.0165365         144.973
0.59                    -1.30634        -176.771         -46.2856        -94.3049         -46.2855         -94.305       -0.0166969         144.898
0.591                   -1.36997        -177.817         -46.0537        -95.7181         -46.0537        -95.7182         -0.01686         144.822
0.592                   -1.43806        -178.877         -45.8191        -97.1633         -45.8191        -97.1635        -0.017026         144.746
0.593                   -1.51097        -179.952          -45.582        -98.6424         -45.5819        -98.6425       -0.0171949          144.67
0.594                   -1.58906         178.958         -45.3424        -100.157         -45.3424        -100.157       -0.0173668         144.594
0.595                   -1.67274         177.855         -45.1007        -101.708         -45.1006        -101.708       -0.0175417         144.518
0.596                   -1.76246         176.738         -44.8569        -103.298         -44.8568        -103.299       -0.0177198         144.441
0.597                   -1.85868         175.609         -44.6113        -104.929         -44.6112        -104.929       -0.0179012         144.365
0.598                   -1.96191          174.47         -44.3641        -106.602         -44.3641        -106.602        -0.018086         144.288
0.599                   -2.07271         173.321         -44.1158        -108.318         -44.1157        -108.319       -0.0182743         144.211
0.6                     -2.19165         172.165         -43.8665         -110.08         -43.8665        -110.081       -0.0184662         144.134
0.601                   -2.31935         171.004         -43.6166         -111.89         -43.6166         -111.89       -0.0186617         144.056
0.602                   -2.45649         169.841         -43.3665        -113.747         -43.3665        -113.747       -0.0188612         143.978
0.603                   -2.60374          168.68         -43.1167        -115.655         -43.1167        -115.655       -0.0190647         143.901
0.604                   -2.76184         167.524         -42.8675        -117.614         -42.8675        -117.614       -0.0192722         143.823
0.605                   -2.93154         166.379         -42.6195        -119.625         -42.6195        -119.625       -0.0194841         143.744
0.606                   -3.11362         165.251         -42.3732         -121.69         -42.3733         -121.69       -0.0197004         143.666
0.607                   -3.30887         164.147         -42.1292        -123.808         -42.1292        -123.808       -0.0199214         143.587
0.608                   -3.51804         163.076         -41.8881        -125.981         -41.8881        -125.981       -0.0201471         143.508
0.609                   -3.74189         162.046         -41.6504        -128.208         -41.6505        -128.208       -0.0203778         143.429
0.61                    -3.98108         161.071         -41.4169        -130.489          -41.417        -130.489       -0.0206137          143.35
0.611                   -4.23621         160.162         -41.1883        -132.823         -41.1884        -132.823       -0.0208549          143.27
0.612                   -4.50768         159.336         -40.9652        -135.209         -40.9652        -135.209       -0.0211017         143.191
0.613                    -4.7957         158.609         -40.7483        -137.645         -40.7484        -137.645       -0.0213542         143.111
0.614                   -5.10015         158.003         -40.5383        -140.129         -40.5384        -140.128       -0.0216127          143.03
0.615                   -5.42049         157.539         -40.3359        -142.658          -40.336        -142.657       -0.0218774          142.95
0.616                   -5.75564         157.242         -40.1418        -145.228         -40.1419        -145.227       -0.0221485         142.869
0.617                   -6.10376         157.139         -39.9565        -147.835         -39.9566        -147.834       -0.0224261         142.788
0.618                   -6.46213         157.258         -39.7805        -150.476         -39.7806        -150.475       -0.0227105         142.707
0.619                   -6.82686         157.629         -39.6145        -153.145         -39.6145        -153.144       -0.0230019         142.626
0.62                    -7.19275         158.278         -39.4586        -155.837         -39.4587        -155.835       -0.0233002         142.544
0.621                    -7.5531         159.229         -39.3133        -158.545         -39.3134        -158.544       -0.0236058         142.463
0.622                   -7.89967         160.497         -39.1788        -161.265         -39.1788        -161.264       -0.0239184         142.381
0.623                   -8.22278         162.087          -39.055         -163.99         -39.0551        -163.988       -0.0242383         142.298
0.624                   -8.51179         163.988         -38.9422        -166.714         -38.9422        -166.712       -0.0245651         142.216
0.625                   -8.75586         166.166           -38.84         -169.43           -38.84        -169.429       -0.0248989         142.133
0.626                   -8.94504         168.568         -38.7484        -172.134         -38.7484        -172.133       -0.0252391          142.05
0.627                   -9.07157          171.12         -38.6669        -174.819         -38.6669        -174.818       -0.0255856         141.967
0.628                   -9.13103         173.735         -38.5951        -177.481         -38.5951        -177.479       -0.0259376         141.884
0.629                   -9.12304         176.317         -38.5327         179.887         -38.5327         179.888       -0.0262946           141.8
