! TOUCHSTONE file generated by CST MICROWAVE STUDIO
! Date and time: Mon Nov 30 08:11:03 2020
! Project name: Scenario_1_Planar_Body_Tissue_Out_of_Line.cst
! Parameters = {dy1=86.5; L_HA=400; Ltissue=700; MT=2.54; Rad_Dielectric=30; Rad_Lower=7.3; Rad_Upper=30; Wtissue=700; a_HA=580; a_WG=246; b_HA=500; b_WG=121; c_HA=0; c_WG=187; d_feed=85; dx1=866; h_feed=15; h_lower=18; h_upper=40; hfat=3; hgap=25; hmuscle=50; hskin=1.5}
! Header version: 2018
! Port assignment regex: !\s*Touchstone port\s*([0-9]+)\s*=\s*(CST MWS port|CST DS port)\s*([0-9]+|Zmin|Zmax)\s*\(\"(.*)\"\)(\s*mode\s*([0-9]+))?.*
! Touchstone port assignment:
! Touchstone port 1 = CST MWS port 1 ("")
! Touchstone port 2 = CST MWS port 2 ("")
# GHz S DB R 50
0.5                    -0.101661        -122.151         -63.6758         104.733         -63.6756         104.738      -0.00748249         151.157
0.501                  -0.109955        -122.534         -63.8129         105.024         -63.8136         105.016       -0.0075618         151.092
0.502                   -0.11818         -122.92         -63.9583         105.344         -63.9599          105.32      -0.00764143         151.026
0.503                   -0.12634        -123.309         -64.1127         105.692         -64.1152         105.653      -0.00772141         150.961
0.504                  -0.134434        -123.699         -64.2768         106.073         -64.2803         106.017      -0.00780172         150.896
0.505                  -0.142466        -124.092         -64.4514         106.489         -64.4558         106.414      -0.00788239          150.83
0.506                  -0.150437        -124.487         -64.6373         106.942         -64.6427         106.848      -0.00796341         150.765
0.507                  -0.158348        -124.884         -64.8355         107.437          -64.842         107.322       -0.0080448         150.699
0.508                  -0.166202        -125.284         -65.0471         107.977         -65.0546          107.84      -0.00812656         150.633
0.509                     -0.174        -125.686         -65.2732         108.567         -65.2818         108.405      -0.00820869         150.568
0.51                   -0.181746        -126.091         -65.5152         109.212         -65.5249         109.024       -0.0082912         150.502
0.511                   -0.18944        -126.499         -65.7745         109.918         -65.7854         109.701      -0.00837411         150.436
0.512                  -0.197085        -126.909         -66.0529         110.692          -66.065         110.445      -0.00845741          150.37
0.513                  -0.204684        -127.321         -66.3523         111.544         -66.3656         111.263      -0.00854112         150.304
0.514                  -0.212238        -127.736         -66.6746         112.483         -66.6894         112.165      -0.00862524         150.238
0.515                  -0.219751        -128.154         -67.0225         113.523         -67.0389         113.164      -0.00870978         150.171
0.516                  -0.227224        -128.575         -67.3985         114.679         -67.4167         114.275      -0.00879476         150.105
0.517                  -0.234661        -128.999         -67.8059         115.969         -67.8262         115.516      -0.00888017         150.039
0.518                  -0.242065        -129.425         -68.2482          117.42          -68.271         116.912      -0.00896602         149.972
0.519                  -0.249438        -129.855         -68.7295         119.062         -68.7552         118.491      -0.00905234         149.906
0.52                   -0.256783        -130.287         -69.2543         120.934         -69.2837         120.294      -0.00913911         149.839
0.521                  -0.264104        -130.723         -69.8277         123.092         -69.8619         122.372      -0.00922637         149.772
0.522                  -0.271404        -131.162         -70.4552         125.604         -70.4956         124.795       -0.0093141         149.705
0.523                  -0.278686        -131.604         -71.1422         128.566         -71.1911         127.655      -0.00940233         149.638
0.524                  -0.285955        -132.049         -71.8935         132.109         -71.9541         131.082      -0.00949106         149.571
0.525                  -0.293214        -132.497         -72.7111         136.412         -72.7882         135.257      -0.00958031         149.504
0.526                  -0.300467        -132.949         -73.5909         141.719         -73.6916         140.428      -0.00967008         149.437
0.527                  -0.307719        -133.404         -74.5148         148.355         -74.6493         146.933      -0.00976039          149.37
0.528                  -0.314973        -133.863         -75.4378          156.71         -75.6196         155.197      -0.00985124         149.302
0.529                  -0.322236        -134.326         -76.2689         167.144         -76.5122         165.644      -0.00994266         149.235
0.53                    -0.32951        -134.792         -76.8611         179.722         -77.1717         178.425       -0.0100346         149.167
0.531                  -0.336803        -135.261         -77.0458        -166.172         -77.4083        -167.043       -0.0101272           149.1
0.532                  -0.344119        -135.735         -76.7328        -151.903         -77.1101         -152.23       -0.0102204         149.032
0.533                  -0.351464        -136.212         -75.9851        -138.926         -76.3397        -138.775       -0.0103141         148.964
0.534                  -0.358844        -136.694         -74.9655        -128.019          -75.278        -127.555       -0.0104085         148.896
0.535                  -0.366265        -137.179         -73.8308        -119.222         -74.0986        -118.597       -0.0105036         148.828
0.536                  -0.373735        -137.669         -72.6831        -112.207         -72.9116        -111.523       -0.0105992          148.76
0.537                  -0.381261        -138.163         -71.5753        -106.579         -71.7717        -105.893       -0.0106956         148.692
0.538                  -0.388849        -138.661           -70.53            -102         -70.7005        -101.342       -0.0107926         148.623
0.539                  -0.396509        -139.164         -69.5535        -98.2127         -69.7034         -97.596       -0.0108903         148.555
0.54                   -0.404248        -139.671         -68.6449         -95.028         -68.7781        -94.4581       -0.0109887         148.486
0.541                  -0.412076        -140.183         -67.8002        -92.3094         -67.9197        -91.7872       -0.0110879         148.418
0.542                  -0.420002          -140.7         -67.0141        -89.9579         -67.1221        -89.4823       -0.0111877         148.349
0.543                  -0.428036        -141.221         -66.2813        -87.9012         -66.3796        -87.4698       -0.0112884          148.28
0.544                  -0.436189        -141.748         -65.5968        -86.0861         -65.6868         -85.696       -0.0113898         148.211
0.545                  -0.444473        -142.279          -64.956        -84.4725         -65.0387        -84.1209        -0.011492         148.142
0.546                  -0.452899        -142.816          -64.355        -83.0305         -64.4311        -82.7144        -0.011595         148.073
0.547                  -0.461481        -143.358         -63.7901        -81.7372         -63.8603        -81.4539       -0.0116989         148.004
0.548                  -0.470232        -143.905          -63.258        -80.5752         -63.3229        -80.3218       -0.0118036         147.934
0.549                  -0.479168        -144.458          -62.756        -79.5308          -62.816         -79.305       -0.0119091         147.865
0.55                   -0.488302        -145.017         -62.2814        -78.5936         -62.3369         -78.393       -0.0120156         147.795
0.551                  -0.497653        -145.581         -61.8321        -77.7554         -61.8834        -77.5777       -0.0121229         147.725
0.552                  -0.507239        -146.152         -61.4059        -77.0097         -61.4533        -76.8528       -0.0122312         147.655
0.553                  -0.517077        -146.729          -61.001        -76.3513         -61.0447        -76.2134       -0.0123405         147.585
0.554                  -0.527189        -147.312         -60.6157        -75.7763         -60.6559        -75.6555       -0.0124507         147.515
0.555                  -0.537596        -147.901         -60.2485        -75.2813         -60.2854         -75.176        -0.012562         147.445
0.556                  -0.548322        -148.497         -59.8979        -74.8638         -59.9317        -74.7723       -0.0126742         147.375
0.557                  -0.559391          -149.1         -59.5626        -74.5215         -59.5935        -74.4426       -0.0127875         147.304
0.558                  -0.570832         -149.71         -59.2414        -74.2529         -59.2696        -74.1851       -0.0129019         147.234
0.559                  -0.582671        -150.327         -58.9332        -74.0563         -58.9588        -73.9985       -0.0130174         147.163
0.56                   -0.594941        -150.951          -58.637        -73.9307           -58.66        -73.8816       -0.0131341         147.092
0.561                  -0.607675        -151.583         -58.3516        -73.8749         -58.3724        -73.8336       -0.0132519         147.021
0.562                  -0.620908        -152.223         -58.0764         -73.888         -58.0949        -73.8535       -0.0133709          146.95
0.563                  -0.634679         -152.87         -57.8103        -73.9693         -57.8268        -73.9408       -0.0134911         146.879
0.564                  -0.649029        -153.526         -57.5526        -74.1179         -57.5671        -74.0946       -0.0136126         146.807
0.565                  -0.664003         -154.19         -57.3025        -74.3334         -57.3152        -74.3145       -0.0137353         146.736
0.566                   -0.67965        -154.862         -57.0594         -74.615         -57.0704        -74.5999       -0.0138594         146.664
0.567                  -0.696022        -155.543         -56.8225        -74.9622         -56.8319        -74.9503       -0.0139849         146.592
0.568                  -0.713174        -156.233         -56.5913        -75.3745         -56.5993        -75.3653       -0.0141118         146.521
0.569                  -0.731168        -156.933         -56.3652        -75.8514         -56.3718        -75.8444       -0.0142401         146.449
0.57                   -0.750069        -157.642         -56.1437        -76.3925          -56.149        -76.3873       -0.0143699         146.376
0.571                  -0.769948         -158.36         -55.9262        -76.9972         -55.9303        -76.9935       -0.0145012         146.304
0.572                  -0.790883        -159.088         -55.7123        -77.6652         -55.7153        -77.6626        -0.014634         146.232
0.573                  -0.812956        -159.826         -55.5015        -78.3961         -55.5035        -78.3944       -0.0147685         146.159
0.574                  -0.836258        -160.575         -55.2935        -79.1895         -55.2945        -79.1884       -0.0149047         146.086
0.575                  -0.860887        -161.334         -55.0878        -80.0451          -55.088        -80.0445       -0.0150425         146.013
0.576                  -0.886949        -162.104         -54.8841        -80.9625         -54.8836        -80.9622       -0.0151821          145.94
0.577                  -0.914558        -162.884         -54.6821        -81.9415          -54.681        -81.9414       -0.0153235         145.867
0.578                   -0.94384        -163.676         -54.4816        -82.9818         -54.4798        -82.9817       -0.0154668         145.794
0.579                  -0.974929        -164.479         -54.2822        -84.0831         -54.2799         -84.083        -0.015612          145.72
0.58                    -1.00797        -165.293         -54.0837        -85.2453         -54.0809         -85.245       -0.0157592         145.646
0.581                   -1.04313        -166.118         -53.8859         -86.468         -53.8827        -86.4676       -0.0159084         145.573
0.582                   -1.08056        -166.954         -53.6887        -87.7512         -53.6851        -87.7506       -0.0160597         145.499
0.583                   -1.12047        -167.802         -53.4918        -89.0946         -53.4879        -89.0938       -0.0162132         145.424
0.584                   -1.16305        -168.661         -53.2951        -90.4981          -53.291        -90.4971        -0.016369          145.35
0.585                   -1.20851        -169.531         -53.0986        -91.9616         -53.0943        -91.9604        -0.016527         145.276
0.586                   -1.25709        -170.411         -52.9021        -93.4848         -52.8977        -93.4834       -0.0166874         145.201
0.587                   -1.30904        -171.302         -52.7057        -95.0678         -52.7012        -95.0662       -0.0168503         145.126
0.588                   -1.36462        -172.202         -52.5093        -96.7102         -52.5046        -96.7085       -0.0170157         145.051
0.589                   -1.42413         -173.11         -52.3128         -98.412         -52.3082        -98.4102       -0.0171838         144.976
0.59                    -1.48786        -174.027         -52.1164        -100.173         -52.1117        -100.171       -0.0173545         144.901
0.591                   -1.55615         -174.95         -51.9201        -101.993         -51.9154        -101.991        -0.017528         144.825
0.592                   -1.62931        -175.879         -51.7239        -103.872         -51.7194         -103.87       -0.0177044         144.749
0.593                   -1.70771         -176.81         -51.5281        -105.809         -51.5236        -105.807       -0.0178837         144.674
0.594                   -1.79171        -177.743         -51.3327        -107.804         -51.3283        -107.802        -0.018066         144.597
0.595                   -1.88166        -178.674         -51.1379        -109.857         -51.1337        -109.855       -0.0182514         144.521
0.596                   -1.97795        -179.601         -50.9439        -111.967         -50.9398        -111.966       -0.0184401         144.445
0.597                   -2.08092          179.48          -50.751        -114.134         -50.7471        -114.132        -0.018632         144.368
0.598                   -2.19091         178.574         -50.5593        -116.356         -50.5556        -116.355       -0.0188273         144.291
0.599                   -2.30822         177.686         -50.3692        -118.633         -50.3657        -118.632        -0.019026         144.215
0.6                     -2.43309          176.82          -50.181        -120.963         -50.1777        -120.963       -0.0192282         144.137
0.601                   -2.56568         175.984         -49.9949        -123.347         -49.9919        -123.346       -0.0194341          144.06
0.602                   -2.70607         175.185         -49.8114        -125.781         -49.8085         -125.78       -0.0196436         143.982
0.603                   -2.85417          174.43         -49.6306        -128.264          -49.628        -128.264       -0.0198568         143.905
0.604                   -3.00974         173.729         -49.4531        -130.795         -49.4507        -130.795       -0.0200737         143.827
0.605                   -3.17231         173.091         -49.2791        -133.372         -49.2769        -133.372       -0.0202945         143.749
0.606                   -3.34117         172.525         -49.1089        -135.991          -49.107        -135.991       -0.0205191          143.67
0.607                    -3.5153         172.041          -48.943        -138.651         -48.9413        -138.651       -0.0207476         143.592
0.608                   -3.69332         171.649         -48.7817        -141.349         -48.7802        -141.349         -0.02098         143.513
0.609                   -3.87352         171.359         -48.6252        -144.081         -48.6239        -144.081       -0.0212163         143.434
0.61                    -4.05377         171.177         -48.4738        -146.845         -48.4728        -146.845       -0.0214564         143.355
0.611                   -4.23159          171.11         -48.3279        -149.636         -48.3271        -149.636       -0.0217004         143.276
0.612                   -4.40415         171.159         -48.1877        -152.452          -48.187        -152.452       -0.0219483         143.196
0.613                    -4.5684         171.325         -48.0532        -155.288         -48.0528        -155.288       -0.0221999         143.116
0.614                   -4.72114         171.602         -47.9248        -158.141         -47.9245        -158.141       -0.0224553         143.036
0.615                   -4.85921         171.981         -47.8025        -161.006         -47.8023        -161.006       -0.0227144         142.956
0.616                    -4.9797         172.447         -47.6862         -163.88         -47.6862         -163.88       -0.0229771         142.875
0.617                    -5.0801         172.981         -47.5762        -166.759         -47.5763        -166.758       -0.0232434         142.795
0.618                   -5.15856         173.561         -47.4722        -169.638         -47.4724        -169.637       -0.0235131         142.714
0.619                   -5.21396         174.162         -47.3742        -172.514         -47.3745        -172.513       -0.0237863         142.633
0.62                    -5.24603         174.758          -47.282        -175.383         -47.2824        -175.383       -0.0240628         142.551
0.621                   -5.25535         175.323         -47.1955        -178.242          -47.196        -178.241       -0.0243426          142.47
0.622                   -5.24326         175.835         -47.1145         178.912          -47.115         178.914       -0.0246256         142.388
0.623                   -5.21173         176.274         -47.0386         176.084         -47.0391         176.085       -0.0249118         142.306
0.624                   -5.16318         176.622         -46.9675         173.275         -46.9681         173.276       -0.0252012         142.224
0.625                    -5.1003         176.867          -46.901         170.488         -46.9016          170.49       -0.0254937         142.141
0.626                   -5.02589         177.003         -46.8387         167.725         -46.8392         167.727       -0.0257893         142.058
0.627                   -4.94267         177.024         -46.7801         164.989         -46.7807         164.991        -0.026088         141.975
0.628                    -4.8532          176.93          -46.725         162.281         -46.7256         162.283       -0.0263899         141.892
0.629                   -4.75982         176.722          -46.673         159.602         -46.6735         159.604       -0.0266949         141.808
