! TOUCHSTONE file generated by CST MICROWAVE STUDIO
! Date and time: Tue Nov 24 13:44:33 2020
! Project name: Scenario_1_Planar_Body_Tissue_Out_of_Line.cst
! Parameters = {dy1=86.5; L_HA=400; Ltissue=700; MT=2.54; Rad_Dielectric=30; Rad_Lower=7.3; Rad_Upper=30; Wtissue=700; a_HA=580; a_WG=246; b_HA=500; b_WG=121; c_HA=0; c_WG=187; d_feed=85; dx1=1039; h_feed=15; h_lower=18; h_upper=40; hfat=3; hgap=25; hmuscle=50; hskin=1.5}
! Header version: 2018
! Port assignment regex: !\s*Touchstone port\s*([0-9]+)\s*=\s*(CST MWS port|CST DS port)\s*([0-9]+|Zmin|Zmax)\s*\(\"(.*)\"\)(\s*mode\s*([0-9]+))?.*
! Touchstone port assignment:
! Touchstone port 1 = CST MWS port 1 ("")
! Touchstone port 2 = CST MWS port 2 ("")
# GHz S DB R 50
0.5                    -0.159928        -121.584         -63.6308        -17.2582         -63.6302        -17.2571      -0.00759699         151.161
0.501                  -0.157599        -122.084         -63.5501        -18.6161         -63.5501        -18.6082      -0.00765396         151.095
0.502                  -0.155699        -122.586         -63.4669        -19.9908         -63.4675        -19.9761      -0.00771198          151.03
0.503                  -0.154239        -123.091          -63.381        -21.3826         -63.3822        -21.3613      -0.00777106         150.965
0.504                   -0.15323        -123.598         -63.2923        -22.7917         -63.2941        -22.7639       -0.0078312         150.899
0.505                  -0.152682        -124.108         -63.2008        -24.2185         -63.2032        -24.1844       -0.0078924         150.834
0.506                  -0.152606        -124.621         -63.1065        -25.6632         -63.1094         -25.623      -0.00795466         150.768
0.507                  -0.153013        -125.136         -63.0091        -27.1263         -63.0126        -27.0801      -0.00801801         150.702
0.508                  -0.153915        -125.654         -62.9088         -28.608         -62.9128         -28.556      -0.00808243         150.637
0.509                  -0.155323        -126.174         -62.8052        -30.1086         -62.8098         -30.051      -0.00814794         150.571
0.51                    -0.15725        -126.697         -62.6985        -31.6286         -62.7036        -31.5655      -0.00821455         150.505
0.511                  -0.159708        -127.222         -62.5885        -33.1682          -62.594        -33.0999      -0.00828224         150.439
0.512                  -0.162711         -127.75         -62.4751         -34.728         -62.4811        -34.6546      -0.00835105         150.373
0.513                   -0.16627         -128.28         -62.3583        -36.3082         -62.3647        -36.2299      -0.00842096         150.307
0.514                    -0.1704        -128.813         -62.2379        -37.9093         -62.2448        -37.8264      -0.00849198          150.24
0.515                  -0.175115        -129.348          -62.114        -39.5318         -62.1213        -39.4445      -0.00856413         150.174
0.516                  -0.180428        -129.885         -61.9863        -41.1762          -61.994        -41.0847       -0.0086374         150.108
0.517                  -0.186354        -130.425         -61.8549        -42.8429         -61.8629        -42.7475      -0.00871181         150.041
0.518                  -0.192907        -130.967         -61.7196        -44.5325          -61.728        -44.4333      -0.00878735         149.975
0.519                  -0.200103        -131.511         -61.5805        -46.2455         -61.5891        -46.1429      -0.00886405         149.908
0.52                   -0.207956        -132.057         -61.4373        -47.9827         -61.4463        -47.8769      -0.00894189         149.841
0.521                  -0.216482        -132.605         -61.2901        -49.7445         -61.2993        -49.6358       -0.0090209         149.774
0.522                  -0.225696        -133.156         -61.1388        -51.5317         -61.1482        -51.4203      -0.00910107         149.708
0.523                  -0.235613        -133.708         -60.9833        -53.3451         -60.9928        -53.2313      -0.00918241         149.641
0.524                   -0.24625        -134.262         -60.8236        -55.1854         -60.8332        -55.0695      -0.00926494         149.573
0.525                  -0.257622        -134.818         -60.6596        -57.0534         -60.6693        -56.9358      -0.00934865         149.506
0.526                  -0.269745        -135.376         -60.4912        -58.9501          -60.501         -58.831      -0.00943355         149.439
0.527                  -0.282634        -135.935         -60.3185        -60.8765         -60.3282        -60.7562      -0.00951966         149.372
0.528                  -0.296304        -136.495         -60.1413        -62.8335         -60.1511        -62.7124      -0.00960698         149.304
0.529                  -0.310771        -137.057         -59.9597        -64.8222         -59.9694        -64.7007      -0.00969551         149.237
0.53                   -0.326049         -137.62         -59.7737        -66.8439         -59.7833        -66.7223      -0.00978527         149.169
0.531                  -0.342151        -138.183         -59.5832        -68.8998         -59.5926        -68.7784      -0.00987626         149.101
0.532                  -0.359093        -138.748         -59.3884        -70.9912         -59.3975        -70.8705      -0.00996849         149.034
0.533                  -0.376885        -139.313         -59.1891        -73.1197          -59.198             -73        -0.010062         148.966
0.534                  -0.395539        -139.879         -58.9854        -75.2866         -58.9941        -75.1684       -0.0101567         148.898
0.535                  -0.415067        -140.444         -58.7775        -77.4937         -58.7858        -77.3774       -0.0102527         148.829
0.536                  -0.435475         -141.01         -58.5654        -79.7426         -58.5733        -79.6287         -0.01035         148.761
0.537                  -0.456773        -141.575         -58.3491        -82.0353         -58.3566        -81.9241       -0.0104485         148.693
0.538                  -0.478965         -142.14          -58.129        -84.3735          -58.136        -84.2657       -0.0105484         148.625
0.539                  -0.502053        -142.704         -57.9051        -86.7593         -57.9116        -86.6553       -0.0106495         148.556
0.54                   -0.526039        -143.267         -57.6776        -89.1948         -57.6836        -89.0951       -0.0107519         148.487
0.541                  -0.550921        -143.828         -57.4468        -91.6821         -57.4522        -91.5873       -0.0108557         148.419
0.542                  -0.576691        -144.388         -57.2129        -94.2234         -57.2178        -94.1342       -0.0109608          148.35
0.543                  -0.603342        -144.946         -56.9764        -96.8211         -56.9807        -96.7379       -0.0110672         148.281
0.544                   -0.63086        -145.501         -56.7376        -99.4773         -56.7413        -99.4007        -0.011175         148.212
0.545                  -0.659227        -146.054          -56.497        -102.194         -56.5001        -102.125       -0.0112841         148.143
0.546                  -0.688421        -146.604          -56.255        -104.974         -56.2576        -104.913       -0.0113945         148.074
0.547                  -0.718413         -147.15         -56.0123         -107.82         -56.0143        -107.767       -0.0115064         148.004
0.548                   -0.74917        -147.692         -55.7695        -110.732         -55.7709        -110.688       -0.0116196         147.935
0.549                  -0.780651         -148.23         -55.5273        -113.713         -55.5282        -113.679       -0.0117342         147.865
0.55                   -0.812809        -148.764         -55.2865        -116.764          -55.287         -116.74       -0.0118502         147.796
0.551                  -0.845591        -149.292          -55.048        -119.886         -55.0482        -119.873       -0.0119676         147.726
0.552                  -0.878934        -149.816         -54.8127        -123.079         -54.8126        -123.078       -0.0120864         147.656
0.553                  -0.912768        -150.333         -54.5817        -126.344         -54.5814        -126.355       -0.0122067         147.586
0.554                  -0.947016        -150.845         -54.3559         -129.68         -54.3555        -129.702       -0.0123284         147.516
0.555                   -0.98159         -151.35         -54.1364        -133.084         -54.1362        -133.119       -0.0124515         147.446
0.556                    -1.0164        -151.849         -53.9245        -136.556         -53.9245        -136.603        -0.012576         147.375
0.557                   -1.05133        -152.341         -53.7213         -140.09         -53.7216         -140.15       -0.0127021         147.305
0.558                   -1.08628        -152.826         -53.5278        -143.683         -53.5287        -143.755       -0.0128296         147.234
0.559                   -1.12112        -153.304         -53.3451        -147.329         -53.3467        -147.413       -0.0129585         147.163
0.56                    -1.15573        -153.775         -53.1743        -151.021         -53.1767        -151.117        -0.013089         147.092
0.561                   -1.18998        -154.239         -53.0162        -154.752         -53.0196        -154.859       -0.0132209         147.022
0.562                   -1.22371        -154.696         -52.8715        -158.514         -52.8761         -158.63       -0.0133544          146.95
0.563                    -1.2568        -155.147          -52.741        -162.296         -52.7469        -162.421       -0.0134893         146.879
0.564                   -1.28908        -155.591          -52.625         -166.09         -52.6322        -166.222       -0.0136258         146.808
0.565                   -1.32041        -156.029         -52.5237        -169.884         -52.5324        -170.023       -0.0137638         146.736
0.566                   -1.35065        -156.462         -52.4371        -173.669         -52.4473        -173.813       -0.0139033         146.665
0.567                   -1.37963         -156.89          -52.365        -177.435         -52.3768        -177.582       -0.0140444         146.593
0.568                   -1.40724        -157.315          -52.307         178.829         -52.3203         178.679        -0.014187         146.521
0.569                   -1.43332        -157.737         -52.2625         175.131         -52.2773         174.981       -0.0143311         146.449
0.57                    -1.45776        -158.157         -52.2307         171.481          -52.247         171.332       -0.0144768         146.377
0.571                   -1.48044        -158.576         -52.2108         167.885         -52.2284         167.738        -0.014624         146.305
0.572                   -1.50128        -158.996         -52.2017          164.35         -52.2205         164.207       -0.0147728         146.232
0.573                   -1.52019        -159.418         -52.2023         160.882         -52.2222         160.743       -0.0149231          146.16
0.574                   -1.53712        -159.844         -52.2114         157.485         -52.2324         157.351        -0.015075         146.087
0.575                   -1.55204        -160.275          -52.228         154.161         -52.2498         154.034       -0.0152284         146.014
0.576                   -1.56492        -160.713         -52.2509         150.914         -52.2733         150.794       -0.0153833         145.941
0.577                    -1.5758         -161.16         -52.2788         147.745         -52.3018         147.632       -0.0155398         145.868
0.578                   -1.58469        -161.616         -52.3107         144.654         -52.3341         144.548       -0.0156979         145.795
0.579                   -1.59168        -162.085         -52.3457          141.64         -52.3692         141.542       -0.0158574         145.721
0.58                    -1.59686        -162.567         -52.3825         138.703         -52.4062         138.613       -0.0160185         145.648
0.581                   -1.60033        -163.064         -52.4205         135.841         -52.4441         135.759       -0.0161811         145.574
0.582                   -1.60225        -163.578         -52.4586         133.052         -52.4821         132.978       -0.0163453           145.5
0.583                   -1.60277         -164.11         -52.4962         130.334         -52.5194         130.267       -0.0165109         145.426
0.584                   -1.60209        -164.662         -52.5326         127.683         -52.5553         127.624       -0.0166779         145.352
0.585                   -1.60042        -165.235          -52.567         125.098         -52.5892         125.046       -0.0168465         145.278
0.586                   -1.59796         -165.83          -52.599         122.575         -52.6206          122.53       -0.0170165         145.203
0.587                   -1.59497        -166.448          -52.628         120.111         -52.6489         120.073        -0.017188         145.129
0.588                    -1.5917        -167.091         -52.6535         117.703         -52.6738          117.67       -0.0173609         145.054
0.589                    -1.5884        -167.758         -52.6753         115.347         -52.6947          115.32       -0.0175352         144.979
0.59                    -1.58535        -168.451         -52.6928          113.04         -52.7115         113.019       -0.0177109         144.904
0.591                   -1.58284         -169.17         -52.7059         110.779         -52.7237         110.763        -0.017888         144.828
0.592                   -1.58113        -169.916         -52.7142         108.561         -52.7311         108.549       -0.0180666         144.753
0.593                   -1.58053        -170.689         -52.7176         106.382         -52.7335         106.374       -0.0182465         144.677
0.594                   -1.58132        -171.489         -52.7158          104.24         -52.7307         104.235       -0.0184279         144.601
0.595                   -1.58381        -172.316         -52.7086          102.13         -52.7226         102.129       -0.0186107         144.525
0.596                   -1.58828         -173.17          -52.696         100.051          -52.709         100.053       -0.0187949         144.449
0.597                   -1.59504        -174.052         -52.6778         97.9983         -52.6899         98.0026       -0.0189807         144.373
0.598                   -1.60439        -174.961          -52.654         95.9699          -52.665         95.9762        -0.019168         144.296
0.599                   -1.61664        -175.896         -52.6244         93.9625         -52.6345         93.9704       -0.0193569         144.219
0.6                     -1.63209        -176.857          -52.589         91.9732         -52.5982         91.9824       -0.0195475         144.142
0.601                   -1.65105        -177.845         -52.5478         89.9992         -52.5561         90.0093       -0.0197398         144.065
0.602                   -1.67385        -178.857         -52.5008         88.0376         -52.5083         88.0483       -0.0199341         143.988
0.603                    -1.7008        -179.894         -52.4481         86.0857         -52.4547         86.0966       -0.0201303          143.91
0.604                   -1.73224         179.045         -52.3896         84.1407         -52.3954         84.1515       -0.0203286         143.832
0.605                   -1.76851         177.961         -52.3255         82.1998         -52.3305         82.2104       -0.0205293         143.754
0.606                   -1.80996         176.855         -52.2557         80.2604           -52.26         80.2704       -0.0207324         143.676
0.607                   -1.85695         175.729         -52.1804         78.3199         -52.1841         78.3292       -0.0209381         143.598
0.608                   -1.90985         174.583         -52.0998         76.3756         -52.1028         76.3839       -0.0211467         143.519
0.609                   -1.96905         173.419         -52.0139          74.425         -52.0163         74.4322       -0.0213583          143.44
0.61                    -2.03494         172.239         -51.9229         72.4656         -51.9248         72.4716       -0.0215731         143.361
0.611                   -2.10794         171.044         -51.8271         70.4949         -51.8285         70.4995       -0.0217913         143.282
0.612                   -2.18846         169.838         -51.7265         68.5105         -51.7275         68.5138       -0.0220131         143.202
0.613                   -2.27694         168.622         -51.6215         66.5103         -51.6221         66.5121       -0.0222387         143.122
0.614                   -2.37382           167.4         -51.5123         64.4919         -51.5126         64.4922       -0.0224683         143.042
0.615                   -2.47955         166.175         -51.3992         62.4532         -51.3992          62.452       -0.0227019         142.962
0.616                   -2.59457          164.95         -51.2825         60.3922         -51.2823         60.3897       -0.0229399         142.882
0.617                   -2.71933          163.73         -51.1625         58.3072         -51.1621         58.3033       -0.0231822         142.801
0.618                   -2.85424          162.52         -51.0396         56.1964         -51.0391         56.1912       -0.0234291          142.72
0.619                   -2.99971         161.326         -50.9142         54.0582         -50.9135         54.0519       -0.0236805         142.639
0.62                     -3.1561         160.153         -50.7867         51.8915         -50.7859         51.8841       -0.0239365         142.558
0.621                   -3.32373         159.008         -50.6574         49.6951         -50.6566         49.6868       -0.0241973         142.476
0.622                   -3.50283           157.9         -50.5269         47.4681         -50.5261         47.4592       -0.0244628         142.394
0.623                   -3.69354         156.838         -50.3956           45.21         -50.3948         45.2005       -0.0247332         142.312
0.624                   -3.89587          155.83          -50.264         42.9205         -50.2633         42.9107       -0.0250083         142.229
0.625                   -4.10969         154.887         -50.1325         40.5996         -50.1318         40.5897       -0.0252882         142.147
0.626                   -4.33465          154.02         -50.0016         38.2477          -50.001         38.2377        -0.025573         142.064
0.627                   -4.57016         153.242         -49.8718         35.8654         -49.8713         35.8556       -0.0258626         141.981
0.628                   -4.81536         152.566         -49.7437         33.4537         -49.7432         33.4443        -0.026157         141.897
0.629                   -5.06904         152.003         -49.6175         31.0139         -49.6171         31.0051       -0.0264563         141.814
