! TOUCHSTONE file generated by CST MICROWAVE STUDIO
! Date and time: Sat Nov 14 20:39:11 2020
! Project name: Scenario_1_Planar_Body_Tissue_Out_of_Line_v2.cst
! Parameters = {dy1=-103.8; L_HA=400; Ltissue=700; MT=2.54; Rad_Dielectric=30; Rad_Lower=7.3; Rad_Upper=30; Wtissue=700; a_HA=580; a_WG=246; b_HA=500; b_WG=121; c_HA=0; c_WG=187; d_feed=85; dx1=173; h_feed=15; h_lower=18; h_upper=40; hfat=3; hgap=25; hmuscle=50; hskin=1.5}
! Header version: 2018
! Port assignment regex: !\s*Touchstone port\s*([0-9]+)\s*=\s*(CST MWS port|CST DS port)\s*([0-9]+|Zmin|Zmax)\s*\(\"(.*)\"\)(\s*mode\s*([0-9]+))?.*
! Touchstone port assignment:
! Touchstone port 1 = CST MWS port 1 ("")
! Touchstone port 2 = CST MWS port 2 ("")
# GHz S DB R 50
0.5                   -0.0447399        -121.735         -57.7744         131.421         -57.7746         131.423      -0.00700716          151.15
0.501                 -0.0599939        -122.079         -57.8304         130.985         -57.8305         130.987      -0.00711916         151.085
0.502                  -0.075118        -122.425         -57.8877         130.541         -57.8879         130.542      -0.00723149          151.02
0.503                 -0.0901124        -122.771         -57.9466         130.089         -57.9467          130.09      -0.00734415         150.954
0.504                  -0.104978        -123.119          -58.007         129.628         -58.0071         129.629      -0.00745714         150.888
0.505                  -0.119714        -123.468         -58.0689         129.158          -58.069         129.159      -0.00757048         150.823
0.506                  -0.134323        -123.819         -58.1324          128.68         -58.1325          128.68      -0.00768416         150.757
0.507                  -0.148804         -124.17         -58.1976         128.192         -58.1976         128.191      -0.00779819         150.691
0.508                  -0.163157        -124.523         -58.2645         127.694         -58.2645         127.693      -0.00791257         150.625
0.509                  -0.177384        -124.878         -58.3331         127.185         -58.3331         127.184      -0.00802733          150.56
0.51                   -0.191484        -125.234         -58.4035         126.666         -58.4035         126.665      -0.00814245         150.494
0.511                  -0.205459        -125.591         -58.4758         126.136         -58.4758         126.134      -0.00825794         150.427
0.512                  -0.219308         -125.95           -58.55         125.594           -58.55         125.591      -0.00837382         150.361
0.513                  -0.233033         -126.31         -58.6262          125.04         -58.6262         125.037      -0.00849009         150.295
0.514                  -0.246633        -126.672         -58.7044         124.473         -58.7043         124.469      -0.00860676         150.229
0.515                  -0.260109        -127.035         -58.7847         123.892         -58.7846         123.888      -0.00872383         150.162
0.516                  -0.273461          -127.4         -58.8672         123.298         -58.8671         123.293       -0.0088413         150.096
0.517                  -0.286691        -127.766         -58.9519         122.689         -58.9517         122.683       -0.0089592         150.029
0.518                  -0.299799        -128.134         -59.0389         122.064         -59.0387         122.058      -0.00907752         149.963
0.519                  -0.312784        -128.504         -59.1282         121.423          -59.128         121.417      -0.00919627         149.896
0.52                   -0.325648        -128.876           -59.22         120.765         -59.2197         120.758      -0.00931546         149.829
0.521                  -0.338392        -129.249         -59.3142         120.089          -59.314         120.082       -0.0094351         149.762
0.522                  -0.351015        -129.624         -59.4111         119.395         -59.4108         119.387       -0.0095552         149.695
0.523                  -0.363518            -130         -59.5106          118.68         -59.5102         118.671      -0.00967576         149.628
0.524                  -0.375902        -130.379         -59.6128         117.945         -59.6124         117.935       -0.0097968         149.561
0.525                  -0.388167        -130.759         -59.7179         117.187         -59.7174         117.177      -0.00991832         149.494
0.526                  -0.400314        -131.142         -59.8258         116.406         -59.8253         116.395       -0.0100403         149.427
0.527                  -0.412344        -131.526         -59.9367           115.6         -59.9362         115.589       -0.0101628         149.359
0.528                  -0.424256        -131.912         -60.0507         114.768         -60.0501         114.756       -0.0102859         149.292
0.529                  -0.436052          -132.3         -60.1678         113.908         -60.1671         113.895       -0.0104094         149.224
0.53                   -0.447733         -132.69          -60.288         113.019         -60.2873         113.005       -0.0105335         149.156
0.531                  -0.459298        -133.083         -60.4116         112.098         -60.4108         112.083       -0.0106581         149.089
0.532                  -0.470748        -133.477         -60.5385         111.144         -60.5376         111.129       -0.0107833         149.021
0.533                  -0.482084        -133.873         -60.6688         110.154         -60.6678         110.138        -0.010909         148.953
0.534                  -0.493307        -134.272         -60.8025         109.127         -60.8014          109.11       -0.0110353         148.885
0.535                  -0.504418        -134.673         -60.9397         108.059         -60.9386         108.041       -0.0111622         148.817
0.536                  -0.515416        -135.076         -61.0805         106.949         -61.0792          106.93       -0.0112896         148.749
0.537                  -0.526303        -135.482         -61.2248         105.792         -61.2234         105.772       -0.0114177          148.68
0.538                  -0.537079        -135.889         -61.3727         104.587         -61.3712         104.566       -0.0115464         148.612
0.539                  -0.547745          -136.3         -61.5241         103.328         -61.5225         103.307       -0.0116757         148.543
0.54                   -0.558302        -136.712          -61.679         102.014         -61.6772         101.991       -0.0118057         148.475
0.541                   -0.56875        -137.127         -61.8372         100.639         -61.8353         100.616       -0.0119363         148.406
0.542                  -0.579091        -137.545         -61.9987         99.2003         -61.9966         99.1755       -0.0120676         148.337
0.543                  -0.589324        -137.965         -62.1633          97.692          -62.161         97.6662       -0.0121996         148.268
0.544                  -0.599452        -138.388         -62.3307         96.1097         -62.3282         96.0829       -0.0123323         148.199
0.545                  -0.609474        -138.813         -62.5005         94.4481         -62.4978         94.4203       -0.0124657          148.13
0.546                  -0.619391        -139.241         -62.6725         92.7017         -62.6696         92.6729       -0.0125998         148.061
0.547                  -0.629205        -139.672         -62.8461         90.8646         -62.8429         90.8349       -0.0127346         147.991
0.548                  -0.638916        -140.105         -63.0206         88.9308         -63.0171         88.9002       -0.0128702         147.922
0.549                  -0.648525        -140.542         -63.1953         86.8939         -63.1915         86.8625       -0.0130065         147.852
0.55                   -0.658033        -140.981         -63.3693         84.7477         -63.3652         84.7155       -0.0131437         147.783
0.551                  -0.667441        -141.424         -63.5415         82.4858          -63.537          82.453       -0.0132816         147.713
0.552                   -0.67675        -141.869         -63.7105          80.102         -63.7056         80.0688       -0.0134204         147.643
0.553                  -0.685962        -142.317         -63.8749         77.5909         -63.8696         77.5574         -0.01356         147.573
0.554                  -0.695076        -142.769         -64.0329         74.9474         -64.0272         74.9138       -0.0137004         147.503
0.555                  -0.704095        -143.223         -64.1825         72.1677         -64.1763         72.1342       -0.0138417         147.433
0.556                  -0.713019        -143.681         -64.3215         69.2493         -64.3148         69.2163       -0.0139839         147.362
0.557                  -0.721849        -144.142         -64.4474         66.1917         -64.4402         66.1595       -0.0141269         147.292
0.558                  -0.730588        -144.607         -64.5577         62.9968           -64.55         62.9657       -0.0142709         147.221
0.559                  -0.739235        -145.075         -64.6495         59.6692         -64.6413         59.6396       -0.0144159          147.15
0.56                   -0.747793        -145.546         -64.7201         56.2167         -64.7114          56.189       -0.0145618         147.079
0.561                  -0.756262        -146.021         -64.7668         52.6504         -64.7577         52.6252       -0.0147086         147.009
0.562                  -0.764644        -146.499          -64.787         48.9853         -64.7775         48.9628       -0.0148565         146.937
0.563                  -0.772941        -146.981         -64.7785         45.2394         -64.7686         45.2201       -0.0150053         146.866
0.564                  -0.781154        -147.467         -64.7397         41.4339         -64.7294          41.418       -0.0151553         146.795
0.565                  -0.789284        -147.957         -64.6692          37.592         -64.6587         37.5799       -0.0153062         146.723
0.566                  -0.797334         -148.45         -64.5666         33.7385         -64.5559         33.7303       -0.0154583         146.652
0.567                  -0.805304        -148.948         -64.4319         29.8985         -64.4211         29.8943       -0.0156114          146.58
0.568                  -0.813197        -149.449          -64.266         26.0963         -64.2552          26.096       -0.0157657         146.508
0.569                  -0.821015        -149.955         -64.0704         22.3542         -64.0596         22.3579       -0.0159211         146.436
0.57                   -0.828758        -150.465         -63.8469         18.6924         -63.8362         18.6998       -0.0160777         146.364
0.571                   -0.83643        -150.979         -63.5979         15.1274         -63.5874         15.1384       -0.0162355         146.292
0.572                  -0.844033        -151.497          -63.326         11.6728         -63.3157         11.6869       -0.0163945         146.219
0.573                  -0.851567         -152.02          -63.034         8.33807          -63.024         8.35519       -0.0165547         146.147
0.574                  -0.859037        -152.548         -62.7247         5.12982          -62.715         5.14955       -0.0167162         146.074
0.575                  -0.866443         -153.08         -62.4007         2.05137         -62.3913         2.07338        -0.016879         146.001
0.576                  -0.873789        -153.616         -62.0646       -0.896505         -62.0555       -0.872527       -0.0170431         145.928
0.577                  -0.881076        -154.158         -61.7187        -3.71521           -61.71        -3.68957       -0.0172086         145.855
0.578                  -0.888308        -154.704         -61.3652        -6.40787         -61.3568        -6.38085       -0.0173755         145.782
0.579                  -0.895487        -155.256         -61.0059        -8.97888         -60.9978        -8.95073       -0.0175437         145.708
0.58                   -0.902617        -155.812         -60.6424        -11.4336         -60.6347        -11.4045       -0.0177134         145.635
0.581                  -0.909699        -156.374         -60.2763        -13.7778         -60.2689        -13.7481       -0.0178846         145.561
0.582                  -0.916737        -156.941         -59.9087         -16.018         -59.9016        -15.9878       -0.0180572         145.487
0.583                  -0.923735        -157.513         -59.5406        -18.1604         -59.5338        -18.1299       -0.0182314         145.413
0.584                  -0.930696        -158.091         -59.1728        -20.2116         -59.1663        -20.1808       -0.0184071         145.339
0.585                  -0.937623        -158.674         -58.8062        -22.1777         -58.7999        -22.1468       -0.0185845         145.264
0.586                   -0.94452        -159.264         -58.4411        -24.0648         -58.4351         -24.034       -0.0187634          145.19
0.587                  -0.951391        -159.859         -58.0782        -25.8789         -58.0724        -25.8481        -0.018944         145.115
0.588                   -0.95824         -160.46         -57.7177        -27.6253         -57.7121        -27.5947       -0.0191263          145.04
0.589                  -0.965071        -161.067         -57.3599        -29.3092         -57.3546         -29.279       -0.0193103         144.965
0.59                   -0.971889        -161.681         -57.0051        -30.9357         -56.9999        -30.9057       -0.0194961          144.89
0.591                  -0.978698        -162.301         -56.6533        -32.5093         -56.6484        -32.4796       -0.0196837         144.815
0.592                  -0.985503        -162.927         -56.3048        -34.0341            -56.3        -34.0049       -0.0198731         144.739
0.593                   -0.99231         -163.56         -55.9595        -35.5144         -55.9549        -35.4855       -0.0200644         144.663
0.594                  -0.999124          -164.2         -55.6175        -36.9536         -55.6131        -36.9252       -0.0202576         144.587
0.595                   -1.00595        -164.848         -55.2789        -38.3554         -55.2746        -38.3274       -0.0204528         144.511
0.596                   -1.01279        -165.502         -54.9435        -39.7228         -54.9394        -39.6953       -0.0206499         144.435
0.597                   -1.01966        -166.163         -54.6115        -41.0589         -54.6075        -41.0319       -0.0208491         144.359
0.598                   -1.02656        -166.832         -54.2826        -42.3665         -54.2787          -42.34       -0.0210504         144.282
0.599                    -1.0335        -167.509          -53.957         -43.648         -53.9532        -43.6221       -0.0212538         144.205
0.6                     -1.04048        -168.193         -53.6344        -44.9061         -53.6308        -44.8807       -0.0214594         144.128
0.601                   -1.04752        -168.886         -53.3149        -46.1428         -53.3114        -46.1179       -0.0216672         144.051
0.602                   -1.05462        -169.587         -52.9984        -47.3602         -52.9949        -47.3359       -0.0218772         143.973
0.603                   -1.06178        -170.296         -52.6848        -48.5604         -52.6814        -48.5366       -0.0220896         143.896
0.604                   -1.06902        -171.013          -52.374        -49.7452         -52.3707        -49.7219       -0.0223043         143.818
0.605                   -1.07635         -171.74          -52.066        -50.9163         -52.0628        -50.8935       -0.0225214          143.74
0.606                   -1.08378        -172.476         -51.7606        -52.0752         -51.7575         -52.053        -0.022741         143.662
0.607                   -1.09131         -173.22         -51.4578        -53.2236         -51.4548        -53.2019       -0.0229631         143.583
0.608                   -1.09896        -173.975         -51.1576        -54.3628         -51.1547        -54.3416       -0.0231878         143.505
0.609                   -1.10674        -174.739         -50.8598        -55.4943         -50.8569        -55.4736        -0.023415         143.426
0.61                    -1.11466        -175.513         -50.5644        -56.6192         -50.5616        -56.5991        -0.023645         143.347
0.611                   -1.12274        -176.297         -50.2713        -57.7389         -50.2685        -57.7193       -0.0238777         143.268
0.612                   -1.13098        -177.092         -49.9804        -58.8545         -49.9777        -58.8354       -0.0241132         143.188
0.613                    -1.1394        -177.897         -49.6917         -59.967         -49.6891        -59.9485       -0.0243515         143.109
0.614                   -1.14802        -178.713         -49.4052        -61.0777         -49.4026        -61.0596       -0.0245928         143.029
0.615                   -1.15685        -179.541         -49.1207        -62.1874         -49.1182        -62.1698        -0.024837         142.948
0.616                    -1.1659         179.619         -48.8382        -63.2971         -48.8357        -63.2801       -0.0250842         142.868
0.617                   -1.17521         178.768         -48.5577        -64.4078         -48.5553        -64.3913       -0.0253346         142.787
0.618                   -1.18477         177.904          -48.279        -65.5204         -48.2767        -65.5044       -0.0255882         142.707
0.619                   -1.19462         177.028         -48.0023        -66.6358              -48        -66.6202        -0.025845         142.626
0.62                    -1.20477         176.139         -47.7274        -67.7547         -47.7252        -67.7397       -0.0261051         142.544
0.621                   -1.21524         175.237         -47.4543         -68.878         -47.4521        -68.8635       -0.0263685         142.463
0.622                   -1.22607         174.321          -47.183        -70.0065         -47.1808        -69.9925       -0.0266355         142.381
0.623                   -1.23726         173.391         -46.9134         -71.141         -46.9113        -71.1274        -0.026906         142.299
0.624                   -1.24885         172.446         -46.6455        -72.2822         -46.6435         -72.269       -0.0271801         142.216
0.625                   -1.26087         171.487         -46.3794        -73.4307         -46.3774        -73.4181       -0.0274578         142.134
0.626                   -1.27334         170.512         -46.1149        -74.5875          -46.113        -74.5753       -0.0277394         142.051
0.627                   -1.28629         169.522         -45.8522         -75.753         -45.8503        -75.7413       -0.0280248         141.968
0.628                   -1.29976         168.515         -45.5911         -76.928         -45.5892        -76.9167       -0.0283142         141.884
0.629                   -1.31378         167.492         -45.3317        -78.1131         -45.3299        -78.1023       -0.0286075         141.801
