! TOUCHSTONE file generated by CST MICROWAVE STUDIO
! Date and time: Sat Nov 14 20:02:05 2020
! Project name: Scenario_1_Planar_Body_Tissue_Out_of_Line.cst
! Parameters = {dy1=-103.8; L_HA=400; Ltissue=700; MT=2.54; Rad_Dielectric=30; Rad_Lower=7.3; Rad_Upper=30; Wtissue=700; a_HA=580; a_WG=246; b_HA=500; b_WG=121; c_HA=0; c_WG=187; d_feed=85; dx1=693; h_feed=15; h_lower=18; h_upper=40; hfat=3; hgap=25; hmuscle=50; hskin=1.5}
! Header version: 2018
! Port assignment regex: !\s*Touchstone port\s*([0-9]+)\s*=\s*(CST MWS port|CST DS port)\s*([0-9]+|Zmin|Zmax)\s*\(\"(.*)\"\)(\s*mode\s*([0-9]+))?.*
! Touchstone port assignment:
! Touchstone port 1 = CST MWS port 1 ("")
! Touchstone port 2 = CST MWS port 2 ("")
# GHz S DB R 50
0.5                    -0.201469        -121.566         -61.2712        -171.454         -61.2717        -171.453      -0.00776897         151.158
0.501                  -0.202521        -121.985         -61.1823        -172.456         -61.1848        -172.445       -0.0078332         151.093
0.502                  -0.203635        -122.408         -61.0919        -173.472         -61.0963        -173.449      -0.00789789         151.027
0.503                  -0.204815        -122.833              -61          -174.5         -61.0064        -174.467      -0.00796307         150.962
0.504                  -0.206064        -123.262         -60.9065        -175.541         -60.9149        -175.497      -0.00802873         150.897
0.505                  -0.207385        -123.693         -60.8114        -176.596         -60.8218        -176.541      -0.00809488         150.831
0.506                  -0.208782        -124.127         -60.7147        -177.665         -60.7271        -177.598      -0.00816154         150.766
0.507                  -0.210258        -124.564         -60.6163        -178.747         -60.6308        -178.669      -0.00822871           150.7
0.508                  -0.211817        -125.004         -60.5163        -179.843         -60.5328        -179.754      -0.00829639         150.635
0.509                  -0.213463        -125.448         -60.4145         179.046         -60.4331         179.146      -0.00836459         150.569
0.51                   -0.215201        -125.895         -60.3109          177.92         -60.3316         178.033      -0.00843333         150.503
0.511                  -0.217034        -126.344         -60.2056         176.779         -60.2283         176.904       -0.0085026         150.437
0.512                  -0.218969        -126.798         -60.0984         175.623         -60.1233          175.76      -0.00857242         150.371
0.513                  -0.221009        -127.254         -59.9894         174.452         -60.0164         174.601      -0.00864279         150.305
0.514                  -0.223161        -127.714         -59.8785         173.265         -59.9076         173.426      -0.00871372         150.239
0.515                  -0.225429        -128.178         -59.7656         172.061         -59.7969         172.236      -0.00878522         150.173
0.516                  -0.227822        -128.645         -59.6509         170.841         -59.6843         171.029      -0.00885731         150.106
0.517                  -0.230344        -129.116         -59.5342         169.604         -59.5696         169.805      -0.00892998          150.04
0.518                  -0.233003        -129.591         -59.4155          168.35          -59.453         168.564      -0.00900324         149.973
0.519                  -0.235806        -130.069         -59.2947         167.078         -59.3344         167.306      -0.00907712         149.907
0.52                   -0.238761        -130.552         -59.1719         165.788         -59.2137         166.031       -0.0091516          149.84
0.521                  -0.241878        -131.038         -59.0471         164.481         -59.0909         164.737      -0.00922671         149.773
0.522                  -0.245164        -131.529         -58.9202         163.154          -58.966         163.425      -0.00930246         149.707
0.523                  -0.248629        -132.024         -58.7912         161.808          -58.839         162.094      -0.00937885          149.64
0.524                  -0.252284        -132.523         -58.6601         160.443         -58.7098         160.744       -0.0094559         149.573
0.525                   -0.25614        -133.026         -58.5269         159.057         -58.5785         159.374      -0.00953361         149.505
0.526                  -0.260209        -133.534         -58.3916         157.652          -58.445         157.984        -0.009612         149.438
0.527                  -0.264504        -134.046         -58.2541         156.225         -58.3093         156.574      -0.00969108         149.371
0.528                  -0.269038        -134.564         -58.1146         154.777         -58.1715         155.142      -0.00977085         149.304
0.529                  -0.273825        -135.086          -57.973         153.308         -58.0315          153.69      -0.00985135         149.236
0.53                   -0.278883        -135.612         -57.8293         151.816         -57.8893         152.215      -0.00993256         149.168
0.531                  -0.284227        -136.144         -57.6836         150.301          -57.745         150.717       -0.0100145         149.101
0.532                  -0.289877        -136.682         -57.5358         148.763         -57.5986         149.197       -0.0100972         149.033
0.533                  -0.295852        -137.224         -57.3861         147.201           -57.45         147.653       -0.0101807         148.965
0.534                  -0.302173        -137.772         -57.2345         145.614         -57.2994         146.086        -0.010265         148.897
0.535                  -0.308864        -138.325         -57.0811         144.003         -57.1468         144.493         -0.01035         148.829
0.536                  -0.315949        -138.884         -56.9258         142.367         -56.9922         142.876       -0.0104359         148.761
0.537                  -0.323455         -139.45          -56.769         140.704         -56.8358         141.232       -0.0105226         148.693
0.538                  -0.331413        -140.021         -56.6105         139.015         -56.6776         139.563       -0.0106102         148.624
0.539                  -0.339853        -140.598         -56.4506           137.3         -56.5177         137.866       -0.0106986         148.556
0.54                    -0.34881        -141.181         -56.2895         135.557         -56.3562         136.143        -0.010788         148.487
0.541                  -0.358322        -141.771         -56.1272         133.786         -56.1933         134.391       -0.0108782         148.418
0.542                  -0.368429        -142.368         -55.9639         131.988         -56.0292         132.612       -0.0109694          148.35
0.543                  -0.379176        -142.972            -55.8         130.162         -55.8639         130.803       -0.0110616         148.281
0.544                   -0.39061        -143.582         -55.6355         128.307         -55.6978         128.966       -0.0111547         148.212
0.545                  -0.402784          -144.2         -55.4707         126.424          -55.531         127.099       -0.0112489         148.142
0.546                  -0.415756        -144.825          -55.306         124.514         -55.3639         125.204       -0.0113442         148.073
0.547                  -0.429588        -145.458         -55.1417         122.575         -55.1966         123.278       -0.0114405         148.004
0.548                  -0.444349        -146.098         -54.9781         120.611         -55.0296         121.324        -0.011538         147.934
0.549                  -0.460113        -146.746         -54.8155          118.62         -54.8631         119.341       -0.0116367         147.865
0.55                   -0.476962        -147.402         -54.6544         116.606         -54.6977         117.331       -0.0117365         147.795
0.551                  -0.494985        -148.067         -54.4952         114.569         -54.5337         115.293       -0.0118377         147.725
0.552                  -0.514279        -148.739         -54.3384         112.512         -54.3716         113.231       -0.0119402         147.655
0.553                  -0.534953         -149.42         -54.1843         110.438         -54.2118         111.146        -0.012044         147.585
0.554                  -0.557122         -150.11         -54.0334         108.352          -54.055          109.04       -0.0121493         147.515
0.555                  -0.580914        -150.808         -53.8862         106.258         -53.9017         106.918       -0.0122561         147.445
0.556                  -0.606471        -151.514         -53.7431         104.162         -53.7525         104.785       -0.0123646         147.374
0.557                  -0.633944        -152.229         -53.6043         102.072         -53.6078         102.645       -0.0124747         147.304
0.558                    -0.6635        -152.953         -53.4701         99.9946         -53.4683         100.507       -0.0125865         147.233
0.559                  -0.695322        -153.684         -53.3404         97.9408         -53.3343         98.3779       -0.0127003         147.162
0.56                   -0.729607        -154.424          -53.215         95.9219         -53.2062         96.2698        -0.012816         147.091
0.561                  -0.766569        -155.171         -53.0933         93.9503         -53.0841         94.1948       -0.0129338          147.02
0.562                  -0.806442        -155.925         -52.9744         92.0403         -52.9678         92.1679       -0.0130538         146.949
0.563                  -0.849474        -156.685         -52.8566         90.2066         -52.8566         90.2065       -0.0131762         146.877
0.564                  -0.895933         -157.45         -52.7376         88.4641         -52.7491           88.33       -0.0133012         146.806
0.565                  -0.946102        -158.219         -52.6142         86.8268         -52.6434         86.5599       -0.0134288         146.734
0.566                   -1.00028        -158.992         -52.4822         85.3055         -52.5361         84.9182       -0.0135592         146.662
0.567                   -1.05878        -159.764         -52.3365         83.9062         -52.4225         83.4258       -0.0136927          146.59
0.568                   -1.12192        -160.536          -52.171         82.6264         -52.2963         82.0993       -0.0138294         146.518
0.569                   -1.19001        -161.303         -51.9786         81.4521         -52.1494         80.9467       -0.0139695         146.446
0.57                    -1.26337        -162.063         -51.7525         80.3547         -51.9719         79.9606       -0.0141132         146.374
0.571                   -1.34229        -162.811         -51.4862         79.2887         -51.7529         79.1122       -0.0142606         146.301
0.572                     -1.427        -163.544         -51.1749         78.1917         -51.4815         78.3439       -0.0144121         146.229
0.573                   -1.51771        -164.255         -50.8164         76.9877         -51.1489         77.5674       -0.0145677         146.156
0.574                    -1.6145         -164.94         -50.4122         75.5931         -50.7503         76.6661       -0.0147276         146.083
0.575                   -1.71735         -165.59         -49.9677         73.9258         -50.2875         75.5071        -0.014892          146.01
0.576                   -1.82608        -166.198          -49.492         71.9146         -49.7695         73.9598       -0.0150609         145.937
0.577                   -1.94029        -166.757         -48.9975         69.5081         -49.2123         71.9165       -0.0152344         145.863
0.578                   -2.05933        -167.257         -48.4982         66.6799         -48.6368         69.3101       -0.0154125          145.79
0.579                   -2.18225         -167.69         -48.0088         63.4311         -48.0662         66.1236       -0.0155952         145.716
0.58                    -2.30775        -168.047         -47.5428         59.7883         -47.5227         62.3898       -0.0157823         145.642
0.581                   -2.43419        -168.321          -47.112            55.8         -47.0251         58.1831       -0.0159737         145.569
0.582                   -2.55952        -168.506         -46.7253         51.5302         -46.5867         53.6058       -0.0161691         145.494
0.583                   -2.68137        -168.598         -46.3884         47.0515         -46.2151         48.7726       -0.0163682          145.42
0.584                    -2.7971        -168.597         -46.1041         42.4386         -45.9124         43.7968       -0.0165706         145.346
0.585                   -2.90394        -168.507         -45.8722         37.7623         -45.6762         38.7792        -0.016776         145.272
0.586                   -2.99913        -168.336         -45.6903         33.0854         -45.5009         33.8022       -0.0169838         145.197
0.587                   -3.08015        -168.097         -45.5545           28.46          -45.379         28.9277       -0.0171936         145.122
0.588                   -3.14489        -167.807         -45.4596         23.9265         -45.3026         24.1978       -0.0174049         145.047
0.589                   -3.19186        -167.485         -45.4001         19.5144         -45.2635         19.6386       -0.0176172         144.972
0.59                    -3.22034        -167.154         -45.3706         15.2431         -45.2546         15.2627       -0.0178302         144.897
0.591                   -3.23037        -166.835         -45.3659         11.1236         -45.2693         11.0739       -0.0180435         144.822
0.592                    -3.2228        -166.551         -45.3812         7.16077         -45.3023         7.06907       -0.0182566         144.746
0.593                    -3.1991        -166.319         -45.4122         3.35436         -45.3489         3.24137       -0.0184694         144.671
0.594                   -3.16129        -166.155         -45.4554        -0.29915         -45.4055       -0.418552       -0.0186818         144.595
0.595                   -3.11165        -166.071         -45.5076         -3.8056         -45.4691        -3.92119       -0.0188934         144.519
0.596                   -3.05262        -166.073         -45.5663        -7.17222         -45.5371        -7.27738       -0.0191045         144.443
0.597                   -2.98661        -166.166         -45.6292         -10.407         -45.6077        -10.4978       -0.0193148         144.367
0.598                   -2.91586         -166.35         -45.6947        -13.5182         -45.6793        -13.5929       -0.0195246          144.29
0.599                    -2.8424        -166.623         -45.7611        -16.5142         -45.7507        -16.5721       -0.0197339         144.214
0.6                     -2.76794        -166.982         -45.8275        -19.4029         -45.8208        -19.4446        -0.019943         144.137
0.601                   -2.69396         -167.42         -45.8927        -22.1922         -45.8889        -22.2186       -0.0201519          144.06
0.602                   -2.62162        -167.934          -45.956        -24.8891         -45.9544        -24.9018        -0.020361         143.982
0.603                   -2.55184        -168.515         -46.0168        -27.5007         -46.0168        -27.5013       -0.0205704         143.905
0.604                   -2.48531        -169.159         -46.0746        -30.0332         -46.0757        -30.0234       -0.0207805         143.827
0.605                   -2.42254         -169.86         -46.1289        -32.4926         -46.1308        -32.4741       -0.0209913         143.749
0.606                   -2.36389        -170.613         -46.1794        -34.8843         -46.1818        -34.8588       -0.0212032         143.671
0.607                   -2.30958        -171.411          -46.226        -37.2135         -46.2286        -37.1824       -0.0214165         143.593
0.608                   -2.25974        -172.252         -46.2684        -39.4848         -46.2711        -39.4495       -0.0216312         143.515
0.609                   -2.21443        -173.131         -46.3064        -41.7026          -46.309        -41.6643       -0.0218477         143.436
0.61                    -2.17366        -174.045           -46.34        -43.8709         -46.3425        -43.8308       -0.0220662         143.357
0.611                   -2.13738        -174.991         -46.3691        -45.9935         -46.3713        -45.9525       -0.0222868         143.278
0.612                   -2.10555        -175.966         -46.3935        -48.0738         -46.3956        -48.0328       -0.0225098         143.198
0.613                   -2.07808        -176.968         -46.4134        -50.1152         -46.4151        -50.0749       -0.0227353         143.119
0.614                   -2.05489        -177.996         -46.4286        -52.1207         -46.4301        -52.0816       -0.0229635         143.039
0.615                    -2.0359        -179.048         -46.4392        -54.0931         -46.4404        -54.0557       -0.0231945         142.959
0.616                   -2.02102         179.878         -46.4452         -56.035         -46.4462        -55.9998       -0.0234286         142.878
0.617                   -2.01019         178.782         -46.4465        -57.9491         -46.4473        -57.9163       -0.0236658         142.798
0.618                   -2.00334         177.665         -46.4433        -59.8377         -46.4439        -59.8076       -0.0239062         142.717
0.619                   -2.00042         176.527         -46.4356        -61.7031         -46.4359        -61.6757       -0.0241502         142.636
0.62                    -2.00139         175.369         -46.4233        -63.5473         -46.4235        -63.5229       -0.0243976         142.555
0.621                   -2.00621         174.192         -46.4066        -65.3724         -46.4067         -65.351       -0.0246487         142.473
0.622                    -2.0149         172.995         -46.3855        -67.1805         -46.3854         -67.162       -0.0249036         142.391
0.623                   -2.02743         171.778           -46.36        -68.9733         -46.3599        -68.9577       -0.0251624         142.309
0.624                   -2.04385         170.542         -46.3302        -70.7527           -46.33          -70.74       -0.0254253         142.227
0.625                   -2.06418         169.286         -46.2962        -72.5204          -46.296        -72.5104       -0.0256922         142.144
0.626                   -2.08849         168.011          -46.258        -74.2781         -46.2578        -74.2707       -0.0259634         142.061
0.627                   -2.11684         166.715         -46.2156        -76.0274         -46.2155        -76.0225       -0.0262389         141.978
0.628                   -2.14932         165.398         -46.1693        -77.7699         -46.1691        -77.7674       -0.0265188         141.895
0.629                   -2.18605         164.061         -46.1189        -79.5073         -46.1188        -79.5068       -0.0268033         141.811
