! TOUCHSTONE file generated by CST MICROWAVE STUDIO
! Date and time: Tue Nov 24 13:44:44 2020
! Project name: Scenario_1_Planar_Body_Tissue_Out_of_Line.cst
! Parameters = {dy1=103.8; L_HA=400; Ltissue=700; MT=2.54; Rad_Dielectric=30; Rad_Lower=7.3; Rad_Upper=30; Wtissue=700; a_HA=580; a_WG=246; b_HA=500; b_WG=121; c_HA=0; c_WG=187; d_feed=85; dx1=1039; h_feed=15; h_lower=18; h_upper=40; hfat=3; hgap=25; hmuscle=50; hskin=1.5}
! Header version: 2018
! Port assignment regex: !\s*Touchstone port\s*([0-9]+)\s*=\s*(CST MWS port|CST DS port)\s*([0-9]+|Zmin|Zmax)\s*\(\"(.*)\"\)(\s*mode\s*([0-9]+))?.*
! Touchstone port assignment:
! Touchstone port 1 = CST MWS port 1 ("")
! Touchstone port 2 = CST MWS port 2 ("")
# GHz S DB R 50
0.5                    -0.158375        -121.606            -63.8        -17.9783         -63.7997        -17.9766      -0.00760936         151.149
0.501                  -0.160117        -122.039         -63.7559        -18.9917         -63.7555        -18.9865      -0.00767564         151.084
0.502                  -0.161943        -122.475         -63.7112        -20.0299         -63.7108        -20.0213      -0.00774258         151.019
0.503                  -0.163858        -122.914          -63.666        -21.0946         -63.6655        -21.0824       -0.0078102         150.953
0.504                  -0.165867        -123.357         -63.6201        -22.1874         -63.6196        -22.1716      -0.00787848         150.888
0.505                  -0.167976        -123.802         -63.5734          -23.31          -63.573        -23.2905      -0.00794742         150.822
0.506                  -0.170191        -124.251          -63.526        -24.4643         -63.5257        -24.4412      -0.00801701         150.757
0.507                  -0.172519        -124.703         -63.4776        -25.6523         -63.4775        -25.6256      -0.00808727         150.691
0.508                  -0.174967        -125.159         -63.4282        -26.8762         -63.4283        -26.8459      -0.00815817         150.625
0.509                  -0.177543        -125.617         -63.3776        -28.1382         -63.3779        -28.1044      -0.00822971         150.559
0.51                   -0.180256         -126.08         -63.3256        -29.4408         -63.3262        -29.4036       -0.0083019         150.493
0.511                  -0.183115        -126.546         -63.2719        -30.7863         -63.2729         -30.746      -0.00837472         150.427
0.512                  -0.186129        -127.016         -63.2164        -32.1774         -63.2178        -32.1341      -0.00844817         150.361
0.513                  -0.189311         -127.49         -63.1587        -33.6167         -63.1604        -33.5708      -0.00852224         150.295
0.514                  -0.192672        -127.967         -63.0983        -35.1069         -63.1006        -35.0587      -0.00859694         150.229
0.515                  -0.196225        -128.449         -63.0349        -36.6506         -63.0378        -36.6005      -0.00867225         150.163
0.516                  -0.199984        -128.935         -62.9681        -38.2505         -62.9715         -38.199      -0.00874818         150.096
0.517                  -0.203966        -129.425         -62.8971        -39.9089         -62.9011        -39.8565      -0.00882471          150.03
0.518                  -0.208187         -129.92         -62.8214        -41.6281         -62.8261        -41.5754      -0.00890184         149.963
0.519                  -0.212667        -130.419         -62.7403        -43.4101         -62.7456        -43.3577      -0.00897958         149.897
0.52                   -0.217426        -130.923         -62.6531        -45.2563          -62.659        -45.2048       -0.0090579          149.83
0.521                  -0.222486        -131.431         -62.5589        -47.1677         -62.5654        -47.1179      -0.00913682         149.763
0.522                  -0.227873        -131.945         -62.4569        -49.1447          -62.464        -49.0972      -0.00921634         149.696
0.523                  -0.233615        -132.463         -62.3462        -51.1871         -62.3538        -51.1426      -0.00929644         149.629
0.524                  -0.239741        -132.987         -62.2258        -53.2936         -62.2339        -53.2527      -0.00937713         149.562
0.525                  -0.246285        -133.516          -62.095        -55.4623         -62.1034        -55.4255      -0.00945843         149.495
0.526                  -0.253284         -134.05         -61.9528        -57.6904         -61.9614        -57.6582      -0.00954033         149.427
0.527                   -0.26078         -134.59         -61.7985        -59.9741         -61.8073        -59.9468      -0.00962284          149.36
0.528                  -0.268817        -135.136         -61.6315         -62.309         -61.6403        -62.2867      -0.00970599         149.293
0.529                  -0.277445        -135.688         -61.4513        -64.6899         -61.4599        -64.6727      -0.00978978         149.225
0.53                   -0.286721        -136.246         -61.2575        -67.1112         -61.2658        -67.0989      -0.00987426         149.157
0.531                  -0.296706         -136.81         -61.0499        -69.5671         -61.0578        -69.5594      -0.00995945          149.09
0.532                  -0.307468        -137.381         -60.8287        -72.0518         -60.8361        -72.0482       -0.0100454         149.022
0.533                  -0.319084        -137.957          -60.594        -74.5596         -60.6008        -74.5596       -0.0101322         148.954
0.534                  -0.331637        -138.541         -60.3464        -77.0856         -60.3525        -77.0885       -0.0102199         148.886
0.535                  -0.345222        -139.131         -60.0864        -79.6255         -60.0918        -79.6306       -0.0103085         148.817
0.536                  -0.359943        -139.728         -59.8149        -82.1761         -59.8196        -82.1826       -0.0103983         148.749
0.537                  -0.375914        -140.331         -59.5328        -84.7353         -59.5367        -84.7425       -0.0104892         148.681
0.538                  -0.393262        -140.941          -59.241        -87.3021         -59.2442        -87.3095       -0.0105816         148.612
0.539                  -0.412127        -141.557         -58.9408         -89.877         -58.9433        -89.8839       -0.0106755         148.544
0.54                   -0.432664         -142.18         -58.6331        -92.4616          -58.635        -92.4675       -0.0107711         148.475
0.541                  -0.455041        -142.808         -58.3193        -95.0585         -58.3206        -95.0631       -0.0108687         148.406
0.542                   -0.47944        -143.442         -58.0004        -97.6716         -58.0012        -97.6746       -0.0109685         148.337
0.543                   -0.50606         -144.08         -57.6776        -100.306          -57.678        -100.307       -0.0110708         148.268
0.544                   -0.53511        -144.723          -57.352        -102.966          -57.352        -102.965       -0.0111758         148.199
0.545                  -0.566814        -145.368         -57.0247        -105.658         -57.0244        -105.655       -0.0112838          148.13
0.546                    -0.6014        -146.014         -56.6968        -108.389         -56.6962        -108.384        -0.011395          148.06
0.547                  -0.639099         -146.66         -56.3694        -111.164         -56.3686        -111.158       -0.0115097         147.991
0.548                  -0.680133        -147.302         -56.0435        -113.991         -56.0427        -113.984       -0.0116279         147.921
0.549                  -0.724707        -147.939         -55.7204        -116.876         -55.7194        -116.868       -0.0117497         147.851
0.55                   -0.772986        -148.568         -55.4011        -119.824         -55.4001        -119.815       -0.0118751         147.782
0.551                  -0.825079        -149.183         -55.0868        -122.842         -55.0858        -122.832       -0.0120039         147.712
0.552                   -0.88101        -149.782         -54.7788        -125.934         -54.7778        -125.924        -0.012136         147.642
0.553                  -0.940683        -150.357         -54.4784        -129.103         -54.4774        -129.093        -0.012271         147.571
0.554                   -1.00385        -150.906          -54.187        -132.352         -54.1861        -132.342       -0.0124085         147.501
0.555                   -1.07006         -151.42          -53.906        -135.683         -53.9052        -135.674       -0.0125482         147.431
0.556                   -1.13863        -151.895         -53.6369        -139.096         -53.6361        -139.087       -0.0126895          147.36
0.557                   -1.20865        -152.325         -53.3811        -142.589         -53.3804        -142.581       -0.0128321          147.29
0.558                   -1.27889        -152.706         -53.1401        -146.157         -53.1396         -146.15       -0.0129755         147.219
0.559                   -1.34791        -153.035         -52.9154        -149.797         -52.9149        -149.791       -0.0131194         147.149
0.56                    -1.41405        -153.311         -52.7081          -153.5         -52.7078        -153.495       -0.0132635         147.078
0.561                   -1.47557        -153.537         -52.5196        -157.257         -52.5194        -157.253       -0.0134076         147.007
0.562                   -1.53073        -153.716         -52.3506        -161.058         -52.3505        -161.055       -0.0135515         146.936
0.563                   -1.57797        -153.858         -52.2019         -164.89          -52.202        -164.889       -0.0136952         146.864
0.564                   -1.61604        -153.974         -52.0739        -168.741         -52.0742        -168.741       -0.0138386         146.793
0.565                   -1.64415        -154.075         -51.9668        -172.597         -51.9672        -172.598       -0.0139818         146.722
0.566                     -1.662        -154.176         -51.8801        -176.443         -51.8807        -176.445       -0.0141248          146.65
0.567                   -1.66985        -154.289         -51.8135         179.733         -51.8142          179.73       -0.0142677         146.578
0.568                   -1.66838        -154.428          -51.766         175.945         -51.7668         175.942       -0.0144105         146.506
0.569                   -1.65869        -154.602         -51.7364         172.206         -51.7374         172.202       -0.0145535         146.434
0.57                    -1.64209        -154.819         -51.7236         168.525         -51.7247          168.52       -0.0146966         146.362
0.571                   -1.62002        -155.084         -51.7259         164.912         -51.7271         164.907       -0.0148401          146.29
0.572                   -1.59391          -155.4         -51.7416         161.374          -51.743         161.369       -0.0149841         146.218
0.573                   -1.56512        -155.767         -51.7692         157.917         -51.7706         157.912       -0.0151286         146.145
0.574                   -1.53485        -156.185         -51.8068         154.546         -51.8083         154.541       -0.0152737         146.072
0.575                   -1.50413        -156.652         -51.8528         151.263         -51.8543         151.258       -0.0154197         145.999
0.576                   -1.47382        -157.164         -51.9056         148.069         -51.9071         148.064       -0.0155665         145.926
0.577                    -1.4446        -157.718         -51.9635         144.965          -51.965          144.96       -0.0157144         145.853
0.578                     -1.417        -158.312         -52.0251          141.95         -52.0267         141.945       -0.0158633          145.78
0.579                   -1.39141        -158.941         -52.0891         139.021         -52.0907         139.017       -0.0160133         145.706
0.58                    -1.36811        -159.603         -52.1543         136.177         -52.1558         136.173       -0.0161646         145.633
0.581                    -1.3473        -160.294         -52.2195         133.414          -52.221          133.41       -0.0163173         145.559
0.582                   -1.32912        -161.012         -52.2837         130.729         -52.2852         130.725       -0.0164713         145.485
0.583                   -1.31364        -161.755         -52.3461         128.118         -52.3476         128.115       -0.0166268         145.411
0.584                    -1.3009         -162.52         -52.4059         125.578         -52.4073         125.575       -0.0167838         145.337
0.585                   -1.29092        -163.306         -52.4625         123.105         -52.4638         123.102       -0.0169425         145.262
0.586                   -1.28371        -164.112         -52.5151         120.693         -52.5163         120.691       -0.0171029         145.188
0.587                   -1.27925        -164.936         -52.5633         118.341         -52.5645         118.339       -0.0172649         145.113
0.588                   -1.27755        -165.777         -52.6067         116.042         -52.6078         116.041       -0.0174288         145.038
0.589                   -1.27858        -166.634         -52.6449         113.794          -52.646         113.793       -0.0175946         144.963
0.59                    -1.28236        -167.507         -52.6776         111.593         -52.6786         111.592       -0.0177623         144.887
0.591                   -1.28887        -168.396         -52.7045         109.435         -52.7054         109.434       -0.0179321         144.812
0.592                   -1.29814        -169.299         -52.7254         107.316         -52.7262         107.315       -0.0181039         144.736
0.593                   -1.31019        -170.216         -52.7401         105.233         -52.7408         105.232       -0.0182778          144.66
0.594                   -1.32506        -171.148         -52.7485         103.182         -52.7491         103.181       -0.0184539         144.584
0.595                   -1.34279        -172.094         -52.7504          101.16          -52.751         101.159       -0.0186323         144.508
0.596                   -1.36345        -173.054         -52.7458          99.163         -52.7464         99.1628        -0.018813         144.432
0.597                   -1.38712        -174.028         -52.7347          97.189         -52.7352         97.1889       -0.0189961         144.355
0.598                   -1.41387        -175.015         -52.7169         95.2345         -52.7174         95.2345       -0.0191817         144.278
0.599                   -1.44383        -176.016         -52.6926         93.2963         -52.6929         93.2964       -0.0193699         144.202
0.6                     -1.47712        -177.031         -52.6616         91.3716          -52.662         91.3717       -0.0195606         144.124
0.601                   -1.51388        -178.059         -52.6242         89.4575         -52.6244         89.4577        -0.019754         144.047
0.602                   -1.55426        -179.101         -52.5802         87.5513         -52.5804         87.5515       -0.0199502         143.969
0.603                   -1.59844         179.844         -52.5298         85.6501         -52.5299         85.6503       -0.0201492         143.892
0.604                   -1.64662         178.776          -52.473         83.7513         -52.4732         83.7516       -0.0203511         143.814
0.605                   -1.69901         177.695         -52.4101         81.8523         -52.4102         81.8525        -0.020556         143.736
0.606                   -1.75584         176.601          -52.341         79.9504         -52.3411         79.9507        -0.020764         143.657
0.607                   -1.81738         175.496         -52.2661         78.0433         -52.2661         78.0434       -0.0209751         143.579
0.608                   -1.88389          174.38         -52.1853         76.1282         -52.1854         76.1284       -0.0211895           143.5
0.609                   -1.95568         173.253          -52.099          74.203          -52.099         74.2031       -0.0214071         143.421
0.61                    -2.03307         172.116         -52.0074         72.2652         -52.0073         72.2653       -0.0216282         143.342
0.611                   -2.11638         170.972         -51.9106         70.3126         -51.9105         70.3126       -0.0218527         143.262
0.612                   -2.20598          169.82         -51.8089         68.3429         -51.8088         68.3429       -0.0220808         143.183
0.613                   -2.30226         168.664         -51.7026         66.3541         -51.7026         66.3541       -0.0223125         143.103
0.614                   -2.40559         167.504         -51.5921         64.3442          -51.592         64.3441       -0.0225479         143.023
0.615                   -2.51639         166.344         -51.4775         62.3112         -51.4774         62.3112       -0.0227871         142.942
0.616                   -2.63508         165.187         -51.3593         60.2536         -51.3592         60.2534       -0.0230303         142.862
0.617                   -2.76206         164.035         -51.2378         58.1695         -51.2378         58.1694       -0.0232773         142.781
0.618                   -2.89777         162.893         -51.1135         56.0577         -51.1134         56.0575       -0.0235285           142.7
0.619                    -3.0426         161.766         -50.9867         53.9168         -50.9866         53.9166       -0.0237837         142.618
0.62                    -3.19693         160.658         -50.8578         51.7459         -50.8577         51.7457       -0.0240432         142.537
0.621                   -3.36109         159.576         -50.7273          49.544         -50.7272         49.5439       -0.0243069         142.455
0.622                   -3.53535         158.527         -50.5957         47.3108         -50.5956         47.3106        -0.024575         142.373
0.623                   -3.71993         157.518         -50.4633         45.0458         -50.4633         45.0456       -0.0248475         142.291
0.624                    -3.9149         156.557         -50.3308          42.749         -50.3307         42.7488       -0.0251245         142.208
0.625                   -4.12022         155.655         -50.1985         40.4207         -50.1984         40.4205        -0.025406         142.125
0.626                   -4.33566         154.821         -50.0669         38.0615         -50.0669         38.0613       -0.0256922         142.042
0.627                   -4.56076         154.066         -49.9365         35.6723         -49.9365         35.6721        -0.025983         141.959
0.628                   -4.79482         153.403         -49.8078         33.2542         -49.8078         33.2541       -0.0262786         141.875
0.629                   -5.03681         152.843         -49.6812         30.8089         -49.6811         30.8088        -0.026579         141.792
