! TOUCHSTONE file generated by CST MICROWAVE STUDIO
! Date and time: Mon Nov 30 09:10:16 2020
! Project name: Scenario_1_Planar_Body_Tissue_Out_of_Line_v2.cst
! Parameters = {dy1=121.1; L_HA=400; Ltissue=700; MT=2.54; Rad_Dielectric=30; Rad_Lower=7.3; Rad_Upper=30; Wtissue=700; a_HA=580; a_WG=246; b_HA=500; b_WG=121; c_HA=0; c_WG=187; d_feed=85; dx1=346; h_feed=15; h_lower=18; h_upper=40; hfat=3; hgap=25; hmuscle=50; hskin=1.5}
! Header version: 2018
! Port assignment regex: !\s*Touchstone port\s*([0-9]+)\s*=\s*(CST MWS port|CST DS port)\s*([0-9]+|Zmin|Zmax)\s*\(\"(.*)\"\)(\s*mode\s*([0-9]+))?.*
! Touchstone port assignment:
! Touchstone port 1 = CST MWS port 1 ("")
! Touchstone port 2 = CST MWS port 2 ("")
# GHz S DB R 50
0.5                    -0.277444        -121.781         -55.8737         28.8302         -55.8737           28.83      -0.00816567          151.15
0.501                  -0.278276        -122.165         -55.9277         28.3993         -55.9258          28.395      -0.00822326         151.085
0.502                  -0.279131        -122.552         -55.9852         27.9669         -55.9812          27.959      -0.00828133          151.02
0.503                  -0.280012        -122.942         -56.0465         27.5328         -56.0404         27.5216       -0.0083399         150.955
0.504                   -0.28092        -123.334         -56.1122         27.0964         -56.1037         27.0825      -0.00839897          150.89
0.505                  -0.281856         -123.73         -56.1826         26.6571         -56.1715         26.6411      -0.00845855         150.824
0.506                  -0.282822        -124.128         -56.2581          26.214         -56.2443         26.1966      -0.00851864         150.759
0.507                  -0.283819        -124.529         -56.3395          25.766         -56.3228         25.7481      -0.00857926         150.693
0.508                   -0.28485        -124.933         -56.4273         25.3115         -56.4074         25.2943      -0.00864042         150.628
0.509                  -0.285915         -125.34         -56.5221         24.8488         -56.4988         24.8335      -0.00870211         150.562
0.51                   -0.287017         -125.75         -56.6248         24.3753         -56.5979         24.3636      -0.00876436         150.496
0.511                  -0.288158        -126.162         -56.7362         23.8882         -56.7054          23.882      -0.00882716          150.43
0.512                   -0.28934        -126.578         -56.8573         23.3835         -56.8223          23.385      -0.00889053         150.364
0.513                  -0.290564        -126.998         -56.9892         22.8563         -56.9497         22.8685      -0.00895448         150.298
0.514                  -0.291834         -127.42         -57.1331         22.3006         -57.0888         22.3266      -0.00901901         150.232
0.515                   -0.29315        -127.846         -57.2901         21.7086         -57.2409         21.7525      -0.00908413         150.166
0.516                  -0.294517        -128.275         -57.4619         21.0703         -57.4073         21.1369      -0.00914986           150.1
0.517                  -0.295936        -128.707         -57.6499         20.3735         -57.5898         20.4685       -0.0092162         150.034
0.518                   -0.29741        -129.143         -57.8557         19.6025         -57.7899         19.7328      -0.00928316         149.967
0.519                  -0.298942        -129.582          -58.081         18.7374         -58.0094         18.9113      -0.00935076         149.901
0.52                   -0.300535        -130.024         -58.3274         17.7536         -58.2501         17.9807      -0.00941899         149.834
0.521                  -0.302192        -130.471         -58.5962         16.6197         -58.5136         16.9114      -0.00948788         149.767
0.522                  -0.303916        -130.921         -58.8884         15.2968         -58.8011         15.6663      -0.00955744         149.701
0.523                  -0.305711        -131.374         -59.2041         13.7367         -59.1134         14.1991      -0.00962767         149.634
0.524                   -0.30758        -131.832         -59.5421         11.8809         -59.4499         12.4524      -0.00969858         149.567
0.525                  -0.309527        -132.293          -59.899         9.65973         -59.8081          10.357      -0.00977019           149.5
0.526                  -0.311556        -132.758          -60.268         6.99402         -60.1826          7.8322      -0.00984251         149.433
0.527                  -0.313672        -133.227         -60.6376          3.8001         -60.5634         4.78917      -0.00991554         149.365
0.528                  -0.315878          -133.7           -60.99      0.00131849         -60.9342         1.14062      -0.00998931         149.298
0.529                  -0.318179        -134.177         -61.3001        -4.45141          -61.271        -3.18053       -0.0100638         149.231
0.53                   -0.320581        -134.659          -61.536        -9.54981         -61.5419        -8.19108       -0.0101391         149.163
0.531                  -0.323087        -135.145         -61.6632        -15.1962           -61.71        -13.8209       -0.0102151         149.095
0.532                  -0.325705        -135.635         -61.6518         -21.187         -61.7406         -19.886        -0.010292         149.028
0.533                  -0.328439        -136.129         -61.4861         -27.232         -61.6117        -26.0959       -0.0103696          148.96
0.534                  -0.331295        -136.628         -61.1706        -33.0153         -61.3222        -32.1105        -0.010448         148.892
0.535                  -0.334281        -137.132         -60.7289        -38.2704         -60.8931        -37.6244       -0.0105272         148.824
0.536                  -0.337402         -137.64         -60.1961        -42.8308         -60.3604        -42.4335       -0.0106073         148.756
0.537                  -0.340666        -138.154         -59.6094        -46.6387         -59.7643        -46.4543       -0.0106883         148.688
0.538                  -0.344079        -138.672         -59.0012        -49.7208         -59.1409        -49.7027       -0.0107701         148.619
0.539                  -0.347652        -139.195         -58.3961        -52.1545         -58.5178        -52.2562       -0.0108528         148.551
0.54                    -0.35139        -139.723         -57.8112        -54.0393         -57.9144        -54.2199       -0.0109364         148.482
0.541                  -0.355305        -140.256         -57.2566        -55.4773         -57.3422        -55.7039       -0.0110209         148.414
0.542                  -0.359404        -140.795         -56.7379        -56.5633         -56.8075        -56.8107       -0.0111063         148.345
0.543                  -0.363697        -141.339          -56.257        -57.3797         -56.3126        -57.6297       -0.0111927         148.276
0.544                  -0.368197        -141.889         -55.8136        -57.9957         -55.8574        -58.2357         -0.01128         148.207
0.545                  -0.372912        -142.444         -55.4062        -58.4681           -55.44        -58.6897       -0.0113684         148.138
0.546                  -0.377856        -143.006         -55.0321        -58.8422         -55.0577        -59.0407       -0.0114577         148.069
0.547                  -0.383041        -143.573         -54.6885        -59.1543         -54.7076        -59.3271       -0.0115481         147.999
0.548                  -0.388481        -144.146         -54.3723        -59.4322         -54.3862        -59.5786       -0.0116395          147.93
0.549                  -0.394189        -144.725         -54.0806        -59.6976         -54.0903         -59.818       -0.0117319          147.86
0.55                   -0.400181        -145.311         -53.8103         -59.967         -53.8169        -60.0626       -0.0118254         147.791
0.551                  -0.406472        -145.904          -53.559        -60.2525         -53.5632        -60.3249       -0.0119201         147.721
0.552                   -0.41308        -146.502          -53.324        -60.5631         -53.3265        -60.6143       -0.0120158         147.651
0.553                  -0.420023        -147.108         -53.1032        -60.9052         -53.1044        -60.9373       -0.0121127         147.581
0.554                   -0.42732        -147.721         -52.8945        -61.2833         -52.8949        -61.2983       -0.0122108         147.511
0.555                  -0.434992        -148.341         -52.6962        -61.7002         -52.6961        -61.7002       -0.0123101         147.441
0.556                  -0.443062        -148.968         -52.5067        -62.1578         -52.5064        -62.1447       -0.0124105          147.37
0.557                  -0.451551        -149.603         -52.3247         -62.657         -52.3242        -62.6324       -0.0125123           147.3
0.558                  -0.460486        -150.245         -52.1488        -63.1979         -52.1483        -63.1636       -0.0126153         147.229
0.559                  -0.469893        -150.895         -51.9779        -63.7803         -51.9776        -63.7378       -0.0127195         147.158
0.56                     -0.4798        -151.554         -51.8112        -64.4037         -51.8111        -64.3543       -0.0128251         147.088
0.561                   -0.49024         -152.22         -51.6477        -65.0673         -51.6479        -65.0121       -0.0129321         147.017
0.562                  -0.501243        -152.896         -51.4868          -65.77         -51.4873        -65.7102       -0.0130404         146.945
0.563                  -0.512845         -153.58         -51.3277        -66.5109         -51.3285        -66.4474       -0.0131501         146.874
0.564                  -0.525084        -154.272         -51.1699        -67.2887          -51.171        -67.2225       -0.0132613         146.803
0.565                     -0.538        -154.975         -51.0129        -68.1025         -51.0143        -68.0342        -0.013374         146.731
0.566                  -0.551636        -155.686         -50.8562        -68.9511         -50.8579        -68.8814       -0.0134881          146.66
0.567                  -0.566038        -156.407         -50.6994        -69.8334         -50.7013        -69.7629       -0.0136038         146.588
0.568                  -0.581257        -157.139         -50.5421        -70.7485         -50.5443        -70.6776       -0.0137211         146.516
0.569                  -0.597345         -157.88         -50.3841        -71.6952         -50.3866        -71.6245         -0.01384         146.444
0.57                   -0.614361        -158.632         -50.2251        -72.6728         -50.2278        -72.6025       -0.0139605         146.371
0.571                  -0.632365        -159.395         -50.0648        -73.6804         -50.0676        -73.6109       -0.0140828         146.299
0.572                  -0.651426        -160.168         -49.9031        -74.7171          -49.906        -74.6488       -0.0142068         146.226
0.573                  -0.671614        -160.954         -49.7396        -75.7825         -49.7426        -75.7154       -0.0143325         146.154
0.574                  -0.693007         -161.75         -49.5743        -76.8757         -49.5774        -76.8102       -0.0144601         146.081
0.575                  -0.715688        -162.559          -49.407        -77.9963         -49.4102        -77.9325       -0.0145896         146.008
0.576                  -0.739748         -163.38         -49.2375        -79.1438         -49.2408        -79.0819        -0.014721         145.935
0.577                  -0.765284        -164.214         -49.0659        -80.3179         -49.0691        -80.2579       -0.0148544         145.862
0.578                    -0.7924        -165.061         -48.8919        -81.5181         -48.8951        -81.4602       -0.0149898         145.788
0.579                  -0.821211         -165.92         -48.7154        -82.7444         -48.7186        -82.6886       -0.0151274         145.715
0.58                   -0.851838        -166.794         -48.5365        -83.9965         -48.5397        -83.9429       -0.0152671         145.641
0.581                  -0.884415        -167.681         -48.3551        -85.2743         -48.3582         -85.223       -0.0154089         145.567
0.582                  -0.919086        -168.582         -48.1711        -86.5779         -48.1741        -86.5288       -0.0155531         145.493
0.583                  -0.956006        -169.498         -47.9844        -87.9073         -47.9874        -87.8605       -0.0156997         145.419
0.584                  -0.995343        -170.428         -47.7952        -89.2627          -47.798        -89.2181       -0.0158486         145.344
0.585                   -1.03728        -171.374         -47.6033        -90.6442          -47.606        -90.6018       -0.0160001          145.27
0.586                   -1.08201        -172.334         -47.4088        -92.0521         -47.4114         -92.012       -0.0161541         145.195
0.587                   -1.12976         -173.31         -47.2117        -93.4869         -47.2142         -93.449       -0.0163108          145.12
0.588                   -1.18075        -174.302          -47.012        -94.9488         -47.0144        -94.9131       -0.0164702         145.045
0.589                   -1.23523        -175.309         -46.8098        -96.4385          -46.812         -96.405       -0.0166325          144.97
0.59                    -1.29347        -176.332         -46.6052        -97.9564         -46.6072         -97.925       -0.0167977         144.894
0.591                   -1.35578         -177.37         -46.3981        -99.5032            -46.4        -99.4739       -0.0169659         144.819
0.592                   -1.42247        -178.424         -46.1887         -101.08         -46.1904        -101.052       -0.0171373         144.743
0.593                   -1.49387        -179.493         -45.9771        -102.686         -45.9787        -102.661       -0.0173119         144.667
0.594                   -1.57037         179.423         -45.7634        -104.324         -45.7648        -104.301       -0.0174898         144.591
0.595                   -1.65237         178.325         -45.5477        -105.994          -45.549        -105.972       -0.0176712         144.515
0.596                   -1.74028         177.213         -45.3302        -107.696         -45.3313        -107.677       -0.0178562         144.438
0.597                   -1.83459          176.09          -45.111        -109.433          -45.112        -109.415       -0.0180449         144.361
0.598                   -1.93578         174.954         -44.8904        -111.204         -44.8913        -111.188       -0.0182373         144.284
0.599                   -2.04439          173.81         -44.6686         -113.01         -44.6693        -112.996       -0.0184338         144.207
0.6                     -2.16097         172.657         -44.4457        -114.853         -44.4464        -114.841       -0.0186343          144.13
0.601                   -2.28614           171.5         -44.2221        -116.734         -44.2226        -116.723       -0.0188389         144.053
0.602                   -2.42053          170.34          -43.998        -118.653         -43.9985        -118.644        -0.019048         143.975
0.603                   -2.56479         169.181         -43.7738        -120.612         -43.7742        -120.604       -0.0192614         143.897
0.604                   -2.71963         168.027         -43.5498        -122.611           -43.55        -122.604       -0.0194794         143.819
0.605                   -2.88574         166.884         -43.3263         -124.65         -43.3265        -124.645       -0.0197022         143.741
0.606                   -3.06387         165.757         -43.1037        -126.732         -43.1039        -126.727       -0.0199297         143.662
0.607                   -3.25472         164.654         -42.8826        -128.855         -42.8826        -128.852       -0.0201621         143.584
0.608                   -3.45901         163.581         -42.6632        -131.021         -42.6632        -131.018       -0.0203995         143.505
0.609                    -3.6774          162.55         -42.4461        -133.229          -42.446        -133.227       -0.0206421         143.426
0.61                    -3.91048          161.57         -42.2317         -135.48         -42.2317        -135.479       -0.0208897         143.346
0.611                   -4.15876         160.654         -42.0207        -137.773         -42.0206        -137.772       -0.0211425         143.267
0.612                   -4.42257         159.817         -41.8135        -140.107         -41.8134        -140.107       -0.0214006         143.187
0.613                   -4.70201         159.075         -41.6106        -142.481         -41.6105        -142.482       -0.0216639         143.107
0.614                   -4.99693         158.447         -41.4127        -144.895         -41.4126        -144.896       -0.0219323         143.027
0.615                   -5.30674         157.953         -41.2202        -147.346         -41.2201        -147.348       -0.0222059         142.947
0.616                   -5.63037         157.615         -41.0337        -149.833         -41.0336        -149.835       -0.0224846         142.866
0.617                   -5.96609         157.458         -40.8537        -152.352         -40.8537        -152.354       -0.0227682         142.785
0.618                   -6.31136         157.507         -40.6808        -154.902         -40.6808        -154.904       -0.0230566         142.704
0.619                   -6.66268         157.787         -40.5154        -157.478         -40.5153        -157.481       -0.0233496         142.623
0.62                    -7.01541         158.323         -40.3579        -160.078         -40.3579         -160.08       -0.0236471         142.542
0.621                   -7.36365         159.134         -40.2087        -162.697         -40.2087        -162.699       -0.0239488          142.46
0.622                   -7.70022         160.235         -40.0681        -165.331         -40.0681        -165.332       -0.0242544         142.378
0.623                   -8.01676          161.63         -39.9364        -167.976         -39.9365        -167.977       -0.0245637         142.296
0.624                   -8.30406         163.311         -39.8138        -170.626         -39.8138        -170.627       -0.0248764         142.214
0.625                   -8.55265         165.252         -39.7003        -173.277         -39.7003        -173.277       -0.0251923         142.131
0.626                   -8.75364         167.412          -39.596        -175.925          -39.596        -175.924       -0.0255111         142.048
0.627                   -8.89974          169.73         -39.5008        -178.563         -39.5007        -178.562       -0.0258324         141.965
0.628                   -8.98619         172.132         -39.4145         178.811         -39.4145         178.813       -0.0261561         141.882
0.629                   -9.01145         174.538          -39.337         176.204         -39.3369         176.206       -0.0264819         141.798
