! TOUCHSTONE file generated by CST MICROWAVE STUDIO
! Date and time: Mon Nov 30 09:10:26 2020
! Project name: Scenario_1_Planar_Body_Tissue_Out_of_Line_v2.cst
! Parameters = {dy1=138.4; L_HA=400; Ltissue=700; MT=2.54; Rad_Dielectric=30; Rad_Lower=7.3; Rad_Upper=30; Wtissue=700; a_HA=580; a_WG=246; b_HA=500; b_WG=121; c_HA=0; c_WG=187; d_feed=85; dx1=346; h_feed=15; h_lower=18; h_upper=40; hfat=3; hgap=25; hmuscle=50; hskin=1.5}
! Header version: 2018
! Port assignment regex: !\s*Touchstone port\s*([0-9]+)\s*=\s*(CST MWS port|CST DS port)\s*([0-9]+|Zmin|Zmax)\s*\(\"(.*)\"\)(\s*mode\s*([0-9]+))?.*
! Touchstone port assignment:
! Touchstone port 1 = CST MWS port 1 ("")
! Touchstone port 2 = CST MWS port 2 ("")
# GHz S DB R 50
0.5                    -0.273069        -121.804         -56.0714         26.8599         -56.0714         26.8607      -0.00818331         151.147
0.501                  -0.281255        -122.187         -55.9273         24.3573         -55.9273         24.3581      -0.00825731         151.082
0.502                  -0.289083        -122.568         -55.7927           21.86         -55.7928         21.8607      -0.00833052         151.017
0.503                  -0.296498         -122.95         -55.6676         19.3725         -55.6676         19.3732      -0.00840292         150.952
0.504                  -0.303457        -123.331         -55.5516         16.8992         -55.5517         16.8999      -0.00847451         150.887
0.505                  -0.309924        -123.712         -55.4447         14.4442         -55.4447         14.4448      -0.00854528         150.822
0.506                  -0.315873        -124.094         -55.3463         12.0114         -55.3463          12.012      -0.00861522         150.756
0.507                  -0.321288        -124.478         -55.2562         9.60446         -55.2563         9.60512      -0.00868434         150.691
0.508                  -0.326163        -124.863          -55.174          7.2268         -55.1741         7.22747      -0.00875264         150.625
0.509                  -0.330504         -125.25         -55.0992         4.88139         -55.0993         4.88209      -0.00882016          150.56
0.51                   -0.334323         -125.64         -55.0314         2.57091         -55.0314         2.57164       -0.0088869         150.494
0.511                  -0.337641        -126.034           -54.97         0.29765           -54.97        0.298408      -0.00895292         150.428
0.512                  -0.340486         -126.43         -54.9144        -1.93645         -54.9144        -1.93566      -0.00901823         150.362
0.513                  -0.342892         -126.83         -54.8643        -4.12981         -54.8643        -4.12898      -0.00908291         150.296
0.514                  -0.344895        -127.235          -54.819         -6.2812          -54.819        -6.28032      -0.00914699          150.23
0.515                  -0.346535        -127.644          -54.778        -8.38969          -54.778        -8.38878      -0.00921056         150.164
0.516                  -0.347855        -128.057         -54.7409        -10.4547         -54.7409        -10.4537      -0.00927369         150.098
0.517                  -0.348896        -128.475          -54.707        -12.4759         -54.7071        -12.4749      -0.00933645         150.032
0.518                    -0.3497        -128.899          -54.676        -14.4532          -54.676        -14.4522      -0.00939894         149.966
0.519                  -0.350308        -129.327         -54.6474        -16.3868         -54.6474        -16.3857      -0.00946125         149.899
0.52                   -0.350759         -129.76         -54.6206         -18.277         -54.6206        -18.2759      -0.00952349         149.832
0.521                  -0.351091        -130.199         -54.5954        -20.1244         -54.5954        -20.1233      -0.00958577         149.766
0.522                  -0.351338        -130.643         -54.5713        -21.9297         -54.5713        -21.9286      -0.00964818         149.699
0.523                  -0.351534        -131.092         -54.5479        -23.6937         -54.5478        -23.6926      -0.00971085         149.632
0.524                  -0.351708        -131.547         -54.5248        -25.4173         -54.5248        -25.4162      -0.00977388         149.565
0.525                  -0.351889        -132.006         -54.5019        -27.1016         -54.5018        -27.1005      -0.00983739         149.498
0.526                  -0.352101        -132.471         -54.4786        -28.7477         -54.4786        -28.7466      -0.00990149         149.431
0.527                  -0.352369        -132.942         -54.4549        -30.3566         -54.4548        -30.3555      -0.00996628         149.364
0.528                  -0.352713        -133.417         -54.4303        -31.9296         -54.4303        -31.9286       -0.0100319         149.296
0.529                  -0.353153        -133.898         -54.4047         -33.468         -54.4047        -33.4669       -0.0100984         149.229
0.53                   -0.353707        -134.385         -54.3779        -34.9728         -54.3779        -34.9718       -0.0101658         149.161
0.531                  -0.354391        -134.876         -54.3496        -36.4455         -54.3496        -36.4445       -0.0102344         149.094
0.532                  -0.355219        -135.373         -54.3197        -37.8872         -54.3197        -37.8863       -0.0103041         149.026
0.533                  -0.356205        -135.875          -54.288        -39.2991         -54.2879        -39.2982        -0.010375         148.958
0.534                  -0.357363        -136.382         -54.2543        -40.6825         -54.2543        -40.6817       -0.0104472          148.89
0.535                  -0.358704        -136.895         -54.2185        -42.0387         -54.2185        -42.0379       -0.0105208         148.822
0.536                  -0.360239        -137.413         -54.1805        -43.3687         -54.1805         -43.368       -0.0105957         148.754
0.537                  -0.361979        -137.936         -54.1402        -44.6738         -54.1401        -44.6732       -0.0106721         148.686
0.538                  -0.363935        -138.465         -54.0973        -45.9552         -54.0973        -45.9546       -0.0107499         148.617
0.539                  -0.366117        -138.999         -54.0519        -47.2139         -54.0519        -47.2134       -0.0108292         148.549
0.54                   -0.368535        -139.539         -54.0039        -48.4512         -54.0038        -48.4507         -0.01091          148.48
0.541                  -0.371198        -140.084         -53.9531         -49.668         -53.9531        -49.6676       -0.0109924         148.412
0.542                  -0.374118        -140.634         -53.8995        -50.8655         -53.8995        -50.8651       -0.0110762         148.343
0.543                  -0.377305        -141.191         -53.8431        -52.0446          -53.843        -52.0443       -0.0111616         148.274
0.544                  -0.380768        -141.753         -53.7836        -53.2065         -53.7836        -53.2062       -0.0112485         148.205
0.545                   -0.38452        -142.321         -53.7212         -54.352         -53.7211        -54.3519        -0.011337         148.136
0.546                  -0.388572        -142.894         -53.6557        -55.4823         -53.6556        -55.4822       -0.0114269         148.066
0.547                  -0.392935        -143.474         -53.5871        -56.5982          -53.587        -56.5981       -0.0115184         147.997
0.548                  -0.397623         -144.06         -53.5153        -57.7006         -53.5152        -57.7006       -0.0116114         147.928
0.549                  -0.402648        -144.651         -53.4403        -58.7906         -53.4403        -58.7907       -0.0117059         147.858
0.55                   -0.408026         -145.25          -53.362         -59.869          -53.362        -59.8691       -0.0118019         147.788
0.551                   -0.41377        -145.854         -53.2805        -60.9367         -53.2805        -60.9369       -0.0118994         147.718
0.552                  -0.419896        -146.465         -53.1957        -61.9946         -53.1957        -61.9948       -0.0119983         147.649
0.553                  -0.426423        -147.083         -53.1075        -63.0435         -53.1075        -63.0437       -0.0120987         147.578
0.554                  -0.433367        -147.707         -53.0159        -64.0844         -53.0159        -64.0846       -0.0122005         147.508
0.555                  -0.440748        -148.339         -52.9209         -65.118         -52.9209        -65.1183       -0.0123038         147.438
0.556                  -0.448587        -148.977         -52.8225        -66.1452         -52.8225        -66.1455       -0.0124085         147.368
0.557                  -0.456905        -149.623         -52.7206        -67.1669         -52.7206        -67.1672       -0.0125146         147.297
0.558                  -0.465727        -150.276         -52.6152        -68.1839         -52.6152        -68.1842       -0.0126222         147.226
0.559                  -0.475078        -150.937         -52.5063        -69.1969         -52.5063        -69.1973       -0.0127311         147.156
0.56                   -0.484985        -151.606         -52.3939        -70.2069         -52.3939        -70.2073       -0.0128416         147.085
0.561                  -0.495476        -152.282         -52.2779        -71.2147          -52.278        -71.2151       -0.0129534         147.014
0.562                  -0.506584        -152.966         -52.1584        -72.2211         -52.1584        -72.2214       -0.0130667         146.943
0.563                   -0.51834        -153.659         -52.0352         -73.227         -52.0353        -73.2273       -0.0131814         146.871
0.564                  -0.530782        -154.361         -51.9085        -74.2331         -51.9086        -74.2334       -0.0132975           146.8
0.565                  -0.543948        -155.071         -51.7782        -75.2403         -51.7783        -75.2406       -0.0134151         146.728
0.566                  -0.557878         -155.79         -51.6442        -76.2495         -51.6444        -76.2498       -0.0135342         146.657
0.567                  -0.572618        -156.518         -51.5067        -77.2616         -51.5068        -77.2619       -0.0136548         146.585
0.568                  -0.588215        -157.256         -51.3655        -78.2774         -51.3656        -78.2777       -0.0137769         146.513
0.569                  -0.604721        -158.004         -51.2206        -79.2978         -51.2207         -79.298       -0.0139005         146.441
0.57                    -0.62219        -158.761         -51.0721        -80.3237         -51.0722        -80.3239       -0.0140256         146.369
0.571                  -0.640683        -159.529           -50.92        -81.3561         -50.9201        -81.3562       -0.0141524         146.296
0.572                  -0.660262        -160.307         -50.7642        -82.3957         -50.7643        -82.3959       -0.0142807         146.224
0.573                  -0.680998        -161.095         -50.6048        -83.4437         -50.6049        -83.4438       -0.0144107         146.151
0.574                  -0.702964        -161.895         -50.4417        -84.5009         -50.4418        -84.5009       -0.0145423         146.078
0.575                   -0.72624        -162.706          -50.275        -85.5683         -50.2751        -85.5684       -0.0146757         146.005
0.576                  -0.750913        -163.529         -50.1047         -86.647         -50.1048         -86.647       -0.0148108         145.932
0.577                  -0.777077        -164.363         -49.9308        -87.7379         -49.9309        -87.7379       -0.0149476         145.859
0.578                  -0.804832         -165.21         -49.7533        -88.8421         -49.7535        -88.8421       -0.0150863         145.786
0.579                  -0.834287        -166.069         -49.5723        -89.9608         -49.5724        -89.9607       -0.0152269         145.712
0.58                   -0.865559        -166.941         -49.3878        -91.0949         -49.3879        -91.0948       -0.0153694         145.638
0.581                  -0.898775        -167.826         -49.1997        -92.2456         -49.1998        -92.2455       -0.0155139         145.565
0.582                  -0.934074        -168.724         -49.0082        -93.4141         -49.0083         -93.414       -0.0156604         145.491
0.583                  -0.971603        -169.635         -48.8133        -94.6016         -48.8134        -94.6014        -0.015809         145.416
0.584                   -1.01152        -170.561         -48.6151        -95.8092         -48.6152         -95.809       -0.0159597         145.342
0.585                   -1.05401          -171.5         -48.4136        -97.0382         -48.4136         -97.038       -0.0161127         145.268
0.586                   -1.09925        -172.453         -48.2088        -98.2899         -48.2089        -98.2897        -0.016268         145.193
0.587                   -1.14744        -173.421         -48.0009        -99.5656          -48.001        -99.5654       -0.0164256         145.118
0.588                   -1.19882        -174.404           -47.79        -100.867         -47.7901        -100.866       -0.0165857         145.043
0.589                   -1.25361        -175.401         -47.5761        -102.194         -47.5762        -102.194       -0.0167483         144.968
0.59                    -1.31207        -176.412         -47.3594         -103.55         -47.3595         -103.55       -0.0169136         144.892
0.591                   -1.37449        -177.438           -47.14        -104.935           -47.14        -104.935       -0.0170815         144.817
0.592                   -1.44117        -178.478          -46.918        -106.351          -46.918        -106.351       -0.0172523         144.741
0.593                   -1.51242        -179.532         -46.6936          -107.8         -46.6936          -107.8        -0.017426         144.665
0.594                    -1.5886           179.4         -46.4669        -109.282         -46.4669        -109.282       -0.0176027         144.589
0.595                    -1.6701         178.319         -46.2382        -110.799         -46.2382        -110.799       -0.0177825         144.513
0.596                   -1.75731         177.225         -46.0076        -112.354         -46.0076        -112.354       -0.0179656         144.437
0.597                   -1.85068          176.12         -45.7754        -113.946         -45.7754        -113.946        -0.018152          144.36
0.598                   -1.95066         175.005         -45.5419        -115.578         -45.5419        -115.578       -0.0183419         144.283
0.599                   -2.05777         173.882         -45.3073        -117.251         -45.3072        -117.251       -0.0185354         144.206
0.6                     -2.17253         172.751         -45.0718        -118.967         -45.0718        -118.967       -0.0187327         144.129
0.601                   -2.29551         171.617         -44.8359        -120.726         -44.8359        -120.726       -0.0189339         144.051
0.602                   -2.42731          170.48         -44.5999         -122.53         -44.5999         -122.53       -0.0191391         143.974
0.603                   -2.56855         169.345         -44.3642         -124.38         -44.3642         -124.38       -0.0193484         143.896
0.604                   -2.71987         168.215         -44.1291        -126.277         -44.1291        -126.277        -0.019562         143.818
0.605                   -2.88195         167.096         -43.8952        -128.222         -43.8952        -128.222       -0.0197801          143.74
0.606                   -3.05547         165.992         -43.6629        -130.215         -43.6629        -130.215       -0.0200027         143.662
0.607                   -3.24111          164.91         -43.4326        -132.257         -43.4326        -132.257       -0.0202299         143.583
0.608                   -3.43954         163.859         -43.2049        -134.348         -43.2049        -134.348        -0.020462         143.504
0.609                   -3.65138         162.845         -42.9804        -136.487         -42.9804        -136.488       -0.0206989         143.425
0.61                    -3.87721         161.881         -42.7595        -138.676         -42.7595        -138.676       -0.0209408         143.346
0.611                   -4.11749         160.977          -42.543        -140.911          -42.543        -140.912       -0.0211876         143.267
0.612                   -4.37257         160.148         -42.3312        -143.194         -42.3312        -143.194       -0.0214396         143.187
0.613                   -4.64258         159.407         -42.1249        -145.521         -42.1249        -145.521       -0.0216966         143.107
0.614                   -4.92738         158.773         -41.9246        -147.892         -41.9246        -147.892       -0.0219586         143.027
0.615                   -5.22649         158.265         -41.7308        -150.303         -41.7308        -150.303       -0.0222257         142.947
0.616                   -5.53897         157.903         -41.5441        -152.752         -41.5442        -152.752       -0.0224976         142.866
0.617                   -5.86327          157.71         -41.3651        -155.236         -41.3651        -155.236       -0.0227743         142.786
0.618                   -6.19715          157.71         -41.1942         -157.75         -41.1942         -157.75       -0.0230557         142.705
0.619                   -6.53746         157.927         -41.0317        -160.292         -41.0317        -160.292       -0.0233414         142.623
0.62                    -6.88003         158.383         -40.8781        -162.857         -40.8781        -162.857       -0.0236313         142.542
0.621                   -7.21955           159.1         -40.7336        -165.439         -40.7336        -165.439       -0.0239252         142.461
0.622                   -7.54949          160.09         -40.5985        -168.035         -40.5986        -168.035       -0.0242226         142.379
0.623                   -7.86221         161.363         -40.4729        -170.639          -40.473        -170.639       -0.0245233         142.297
0.624                   -8.14918         162.911         -40.3569        -173.246         -40.3569        -173.246       -0.0248271         142.214
0.625                   -8.40147         164.716         -40.2504         -175.85         -40.2504         -175.85       -0.0251335         142.132
0.626                   -8.61049         166.743         -40.1532        -178.448         -40.1532        -178.448       -0.0254422         142.049
0.627                   -8.76882         168.939         -40.0653         178.967         -40.0653         178.967       -0.0257531         141.966
0.628                   -8.87117         171.238         -39.9863         176.398         -39.9863         176.398       -0.0260658         141.883
0.629                   -8.91508         173.566         -39.9158         173.851         -39.9158         173.851       -0.0263801           141.8
