! TOUCHSTONE file generated by CST MICROWAVE STUDIO
! Date and time: Tue Nov 24 13:45:13 2020
! Project name: Scenario_1_Planar_Body_Tissue_Out_of_Line.cst
! Parameters = {dy1=138.4; L_HA=400; Ltissue=700; MT=2.54; Rad_Dielectric=30; Rad_Lower=7.3; Rad_Upper=30; Wtissue=700; a_HA=580; a_WG=246; b_HA=500; b_WG=121; c_HA=0; c_WG=187; d_feed=85; dx1=1039; h_feed=15; h_lower=18; h_upper=40; hfat=3; hgap=25; hmuscle=50; hskin=1.5}
! Header version: 2018
! Port assignment regex: !\s*Touchstone port\s*([0-9]+)\s*=\s*(CST MWS port|CST DS port)\s*([0-9]+|Zmin|Zmax)\s*\(\"(.*)\"\)(\s*mode\s*([0-9]+))?.*
! Touchstone port assignment:
! Touchstone port 1 = CST MWS port 1 ("")
! Touchstone port 2 = CST MWS port 2 ("")
# GHz S DB R 50
0.5                    -0.155412        -121.623         -64.1789        -19.4695         -64.1786        -19.4668      -0.00763173         151.153
0.501                  -0.166363        -122.008         -64.4709        -20.5453         -64.4706        -20.5423      -0.00770006         151.088
0.502                  -0.177256        -122.394         -64.7723        -21.6687          -64.772        -21.6655      -0.00776912         151.023
0.503                  -0.188093        -122.781         -65.0837        -22.8445         -65.0834         -22.841       -0.0078389         150.958
0.504                  -0.198874         -123.17         -65.4058        -24.0783         -65.4055        -24.0745      -0.00790942         150.892
0.505                  -0.209599        -123.561         -65.7391        -25.3762         -65.7388        -25.3721      -0.00798067         150.827
0.506                  -0.220269        -123.953         -66.0842        -26.7455         -66.0839         -26.741      -0.00805267         150.761
0.507                  -0.230883        -124.347         -66.4419        -28.1945         -66.4417        -28.1896      -0.00812542         150.695
0.508                  -0.241442        -124.743          -66.813        -29.7329         -66.8127        -29.7276      -0.00819892          150.63
0.509                  -0.251948         -125.14          -67.198        -31.3719         -67.1978        -31.3663      -0.00827319         150.564
0.51                     -0.2624        -125.539         -67.5978        -33.1248         -67.5977        -33.1187      -0.00834822         150.498
0.511                  -0.272799         -125.94         -68.0131        -35.0069          -68.013        -35.0003      -0.00842402         150.432
0.512                  -0.283145        -126.343         -68.4444        -37.0364         -68.4443        -37.0292       -0.0085006         150.366
0.513                   -0.29344        -126.748         -68.8922        -39.2346         -68.8922        -39.2268      -0.00857797           150.3
0.514                  -0.303684        -127.154         -69.3568        -41.6267         -69.3569        -41.6183      -0.00865613         150.233
0.515                  -0.313878        -127.563         -69.8381        -44.2422         -69.8382        -44.2331      -0.00873509         150.167
0.516                  -0.324022        -127.973         -70.3353        -47.1159         -70.3355        -47.1061      -0.00881485         150.101
0.517                  -0.334117        -128.386         -70.8469         -50.288         -70.8472        -50.2775      -0.00889543         150.034
0.518                  -0.344165        -128.801         -71.3701        -53.8048         -71.3707        -53.7936      -0.00897682         149.968
0.519                  -0.354167        -129.217         -71.9005         -57.718         -71.9013        -57.7061      -0.00905905         149.901
0.52                   -0.364123        -129.636         -72.4311        -62.0828         -72.4321        -62.0703       -0.0091421         149.834
0.521                  -0.374034        -130.057          -72.952        -66.9548         -72.9533         -66.942        -0.009226         149.767
0.522                  -0.383902        -130.481         -73.4491        -72.3823         -73.4507        -72.3694      -0.00931075         149.701
0.523                  -0.393728        -130.907         -73.9042        -78.3954         -73.9061        -78.3828      -0.00939635         149.634
0.524                  -0.403513        -131.335          -74.295        -84.9905         -74.2974        -84.9788      -0.00948282         149.566
0.525                  -0.413259        -131.765         -74.5972        -92.1139            -74.6        -92.1037      -0.00957015         149.499
0.526                  -0.422967        -132.198         -74.7875        -99.6497         -74.7906        -99.6417      -0.00965838         149.432
0.527                  -0.432638        -132.633         -74.8487        -107.422          -74.852        -107.417      -0.00974749         149.365
0.528                  -0.442275        -133.071         -74.7738        -115.216         -74.7773        -115.214      -0.00983749         149.297
0.529                  -0.451879        -133.512         -74.5682        -122.815         -74.5717        -122.816      -0.00992841          149.23
0.53                   -0.461452        -133.955         -74.2479        -130.035         -74.2513        -130.039       -0.0100202         149.162
0.531                  -0.470995        -134.401         -73.8357        -136.753         -73.8389        -136.759        -0.010113         149.094
0.532                  -0.480512         -134.85          -73.356        -142.907          -73.359        -142.915       -0.0102067         149.027
0.533                  -0.490003        -135.302         -72.8315        -148.487         -72.8343        -148.497       -0.0103013         148.959
0.534                  -0.499471        -135.756          -72.281        -153.521         -72.2835        -153.532       -0.0103969         148.891
0.535                   -0.50892        -136.214          -71.719        -158.054         -71.7213        -158.066       -0.0104934         148.822
0.536                   -0.51835        -136.674         -71.1561        -162.143         -71.1582        -162.155        -0.010591         148.754
0.537                  -0.527765        -137.138         -70.5994        -165.842         -70.6013        -165.855       -0.0106895         148.686
0.538                  -0.537168        -137.604         -70.0538        -169.204         -70.0555        -169.217        -0.010789         148.618
0.539                  -0.546562        -138.074         -69.5222        -172.277         -69.5237        -172.289       -0.0108895         148.549
0.54                    -0.55595        -138.548         -69.0063          -175.1         -69.0077        -175.113        -0.010991          148.48
0.541                  -0.565335        -139.024         -68.5067        -177.711          -68.508        -177.723       -0.0110935         148.412
0.542                  -0.574721        -139.504         -68.0239         179.862          -68.025         179.849       -0.0111971         148.343
0.543                  -0.584111        -139.988         -67.5574         177.591         -67.5585         177.579       -0.0113018         148.274
0.544                  -0.593509        -140.475         -67.1069         175.456         -67.1078         175.444       -0.0114074         148.205
0.545                  -0.602921        -140.966         -66.6717         173.438         -66.6726         173.426       -0.0115142         148.136
0.546                  -0.612349        -141.461         -66.2511          171.52         -66.2519         171.508       -0.0116221         148.067
0.547                  -0.621799        -141.959         -65.8445          169.69         -65.8452         169.678        -0.011731         147.997
0.548                  -0.631275        -142.461          -65.451         167.935         -65.4517         167.923       -0.0118411         147.928
0.549                  -0.640783        -142.968           -65.07         166.245         -65.0706         166.234       -0.0119523         147.858
0.55                   -0.650329        -143.478         -64.7007         164.613         -64.7013         164.602       -0.0120646         147.788
0.551                  -0.659917        -143.993         -64.3425          163.03          -64.343          163.02       -0.0121781         147.719
0.552                  -0.669555        -144.512         -63.9946          161.49         -63.9952          161.48       -0.0122927         147.649
0.553                  -0.679248        -145.035         -63.6567         159.988         -63.6572         159.977       -0.0124085         147.579
0.554                  -0.689005        -145.563         -63.3279         158.517         -63.3284         158.507       -0.0125255         147.509
0.555                  -0.698831        -146.095         -63.0079         157.075         -63.0083         157.065       -0.0126438         147.438
0.556                  -0.708735        -146.633         -62.6961         155.656         -62.6965         155.646       -0.0127632         147.368
0.557                  -0.718725        -147.175          -62.392         154.257         -62.3924         154.248       -0.0128839         147.297
0.558                   -0.72881        -147.722         -62.0952         152.876         -62.0956         152.867       -0.0130058         147.227
0.559                  -0.738999        -148.274         -61.8054         151.509         -61.8058           151.5       -0.0131291         147.156
0.56                   -0.749302        -148.831         -61.5221         150.154         -61.5224         150.145       -0.0132536         147.085
0.561                   -0.75973        -149.393         -61.2449         148.808         -61.2453         148.799       -0.0133794         147.014
0.562                  -0.770293        -149.961         -60.9737          147.47          -60.974         147.461       -0.0135065         146.943
0.563                  -0.781003        -150.535         -60.7079         146.137         -60.7082         146.129       -0.0136349         146.872
0.564                  -0.791873        -151.114         -60.4474         144.808         -60.4477           144.8       -0.0137648           146.8
0.565                  -0.802917        -151.699         -60.1918         143.481         -60.1921         143.473        -0.013896         146.729
0.566                  -0.814148         -152.29          -59.941         142.154         -59.9413         142.147       -0.0140286         146.657
0.567                  -0.825582        -152.887         -59.6947         140.827         -59.6949          140.82       -0.0141626         146.585
0.568                  -0.837234        -153.491         -59.4526         139.498         -59.4529          139.49        -0.014298         146.513
0.569                  -0.849123        -154.101         -59.2146         138.165         -59.2149         138.158       -0.0144349         146.441
0.57                   -0.861266        -154.718         -58.9805         136.828         -58.9807         136.821       -0.0145732         146.369
0.571                  -0.873683        -155.341           -58.75         135.485         -58.7503         135.479       -0.0147131         146.297
0.572                  -0.886396        -155.972         -58.5231         134.136         -58.5233         134.129       -0.0148545         146.224
0.573                  -0.899425        -156.609         -58.2995         132.779         -58.2997         132.773       -0.0149974         146.152
0.574                  -0.912796        -157.254         -58.0791         131.414         -58.0793         131.407       -0.0151419         146.079
0.575                  -0.926534        -157.907         -57.8618         130.039          -57.862         130.033       -0.0152879         146.006
0.576                  -0.940666        -158.567         -57.6474         128.654         -57.6476         128.648       -0.0154356         145.933
0.577                  -0.955221        -159.236         -57.4358         127.258          -57.436         127.252       -0.0155848          145.86
0.578                  -0.970231        -159.912         -57.2269          125.85         -57.2271         125.845       -0.0157358         145.786
0.579                  -0.985729        -160.597         -57.0207         124.429         -57.0209         124.424       -0.0158884         145.713
0.58                    -1.00175        -161.291         -56.8169         122.996         -56.8171         122.991       -0.0160427         145.639
0.581                   -1.01834        -161.993         -56.6155         121.548         -56.6157         121.543       -0.0161988         145.565
0.582                   -1.03553        -162.704         -56.4164         120.085         -56.4166         120.081       -0.0163566         145.491
0.583                   -1.05337        -163.425         -56.2196         118.607         -56.2198         118.603       -0.0165162         145.417
0.584                    -1.0719        -164.155          -56.025         117.113         -56.0252         117.109       -0.0166776         145.343
0.585                   -1.09119        -164.896         -55.8325         115.603         -55.8326         115.599       -0.0168409         145.269
0.586                   -1.11127        -165.646          -55.642         114.075         -55.6421         114.071        -0.017006         145.194
0.587                   -1.13222        -166.407         -55.4535         112.529         -55.4537         112.525       -0.0171731         145.119
0.588                    -1.1541        -167.178          -55.267         110.965         -55.2671         110.961       -0.0173421         145.044
0.589                   -1.17697         -167.96         -55.0824         109.381         -55.0825         109.378        -0.017513         144.969
0.59                    -1.20092        -168.753         -54.8997         107.778         -54.8998         107.776        -0.017686         144.894
0.591                   -1.22601        -169.558         -54.7188         106.156          -54.719         106.153        -0.017861         144.818
0.592                   -1.25234        -170.374         -54.5398         104.512         -54.5399          104.51       -0.0180381         144.743
0.593                      -1.28        -171.203         -54.3626         102.847         -54.3627         102.845       -0.0182173         144.667
0.594                   -1.30909        -172.043         -54.1871         101.161         -54.1873         101.159       -0.0183987         144.591
0.595                   -1.33972        -172.896         -54.0135         99.4533         -54.0137         99.4515       -0.0185822         144.515
0.596                   -1.37201        -173.762         -53.8417         97.7228         -53.8419         97.7213       -0.0187681         144.438
0.597                   -1.40608        -174.641         -53.6717         95.9696         -53.6718         95.9683       -0.0189561         144.362
0.598                   -1.44206        -175.533         -53.5035         94.1933         -53.5036         94.1922       -0.0191466         144.285
0.599                   -1.48011        -176.439         -53.3371         92.3935         -53.3373         92.3926       -0.0193393         144.208
0.6                     -1.52039        -177.358         -53.1726         90.5699         -53.1727         90.5692       -0.0195346         144.131
0.601                   -1.56305         -178.29           -53.01         88.7224         -53.0101         88.7219       -0.0197322         144.054
0.602                    -1.6083        -179.237         -52.8492         86.8505         -52.8493         86.8503       -0.0199325         143.976
0.603                   -1.65632         179.803         -52.6904         84.9543         -52.6905         84.9542       -0.0201353         143.899
0.604                   -1.70734         178.829         -52.5336         83.0335         -52.5337         83.0336       -0.0203407         143.821
0.605                   -1.76157         177.842         -52.3788          81.088         -52.3788         81.0883       -0.0205489         143.743
0.606                   -1.81927         176.841          -52.226         79.1178         -52.2261         79.1183       -0.0207598         143.664
0.607                   -1.88069         175.826         -52.0753         77.1228         -52.0754         77.1236       -0.0209736         143.586
0.608                   -1.94613         174.799         -51.9269         75.1032         -51.9269         75.1041       -0.0211902         143.507
0.609                   -2.01588          173.76         -51.7806         73.0591         -51.7806         73.0601       -0.0214099         143.428
0.61                    -2.09026          172.71         -51.6366         70.9905         -51.6366         70.9917       -0.0216326         143.349
0.611                   -2.16962         171.649         -51.4949         68.8978         -51.4949         68.8992       -0.0218584          143.27
0.612                    -2.2543         170.578         -51.3556         66.7812         -51.3555         66.7827       -0.0220875          143.19
0.613                   -2.34468           169.5         -51.2187          64.641         -51.2186         64.6427       -0.0223199          143.11
0.614                   -2.44116         168.416         -51.0843         62.4778         -51.0843         62.4796       -0.0225556          143.03
0.615                   -2.54414         167.328         -50.9525         60.2919         -50.9524         60.2938       -0.0227949          142.95
0.616                   -2.65403         166.238         -50.8233          58.084         -50.8232          58.086       -0.0230378         142.869
0.617                   -2.77125          165.15         -50.6967         55.8545         -50.6966         55.8567       -0.0232843         142.789
0.618                   -2.89622         164.067         -50.5728         53.6044         -50.5727         53.6066       -0.0235347         142.708
0.619                   -3.02936         162.994         -50.4517         51.3342         -50.4516         51.3365        -0.023789         142.626
0.62                    -3.17103         161.934         -50.3333         49.0447         -50.3332         49.0471       -0.0240472         142.545
0.621                   -3.32161         160.893         -50.2178          46.737         -50.2176         46.7394       -0.0243096         142.463
0.622                   -3.48138         159.877         -50.1051         44.4118         -50.1049         44.4142       -0.0245763         142.381
0.623                   -3.65058         158.894         -49.9952         42.0702         -49.9951         42.0726       -0.0248473         142.299
0.624                   -3.82933         157.951         -49.8882         39.7132          -49.888         39.7156       -0.0251228         142.216
0.625                   -4.01765         157.055         -49.7841         37.3418         -49.7839         37.3443       -0.0254028         142.134
0.626                   -4.21538         156.218         -49.6828         34.9573         -49.6826         34.9597       -0.0256875         142.051
0.627                   -4.42216         155.449         -49.5844         32.5607         -49.5841         32.5631        -0.025977         141.967
0.628                   -4.63742         154.758         -49.4887         30.1533         -49.4885         30.1557       -0.0262713         141.884
0.629                   -4.86028         154.157         -49.3958         27.7362         -49.3955         27.7385       -0.0265706           141.8
