! TOUCHSTONE file generated by CST MICROWAVE STUDIO
! Date and time: Mon Nov 30 09:05:41 2020
! Project name: Scenario_1_Planar_Body_Tissue_Out_of_Line_v2.cst
! Parameters = {dy1=-328.7; L_HA=400; Ltissue=700; MT=2.54; Rad_Dielectric=30; Rad_Lower=7.3; Rad_Upper=30; Wtissue=700; a_HA=580; a_WG=246; b_HA=500; b_WG=121; c_HA=0; c_WG=187; d_feed=85; dx1=346; h_feed=15; h_lower=18; h_upper=40; hfat=3; hgap=25; hmuscle=50; hskin=1.5}
! Header version: 2018
! Port assignment regex: !\s*Touchstone port\s*([0-9]+)\s*=\s*(CST MWS port|CST DS port)\s*([0-9]+|Zmin|Zmax)\s*\(\"(.*)\"\)(\s*mode\s*([0-9]+))?.*
! Touchstone port assignment:
! Touchstone port 1 = CST MWS port 1 ("")
! Touchstone port 2 = CST MWS port 2 ("")
# GHz S DB R 50
0.5                     -0.22156         -121.74         -59.2949        -6.82466         -59.2949         -6.8232      -0.00803977         151.154
0.501                  -0.225468        -122.135         -59.2195        -9.36372         -59.2195        -9.36216      -0.00808633         151.089
0.502                  -0.229362        -122.532         -59.1445        -11.8798         -59.1445        -11.8782      -0.00813368         151.023
0.503                  -0.233245        -122.931         -59.0701        -14.3724         -59.0701        -14.3707      -0.00818185         150.958
0.504                  -0.237119        -123.334         -58.9964        -16.8409         -58.9963        -16.8391      -0.00823085         150.893
0.505                  -0.240987        -123.739         -58.9233        -19.2848         -58.9232        -19.2829      -0.00828071         150.827
0.506                  -0.244852        -124.147         -58.8509        -21.7037         -58.8509        -21.7017      -0.00833144         150.762
0.507                  -0.248717        -124.558         -58.7794        -24.0973         -58.7793        -24.0953      -0.00838306         150.696
0.508                  -0.252584        -124.972         -58.7087        -26.4653         -58.7086        -26.4633      -0.00843559          150.63
0.509                  -0.256456        -125.389         -58.6389        -28.8075         -58.6388        -28.8054      -0.00848905         150.565
0.51                   -0.260337        -125.809         -58.5699        -31.1238         -58.5698        -31.1217      -0.00854346         150.499
0.511                   -0.26423        -126.232         -58.5018        -33.4139         -58.5017        -33.4118      -0.00859884         150.433
0.512                  -0.268138        -126.658         -58.4347         -35.678         -58.4346        -35.6758      -0.00865522         150.367
0.513                  -0.272065        -127.087         -58.3684        -37.9158         -58.3683        -37.9137      -0.00871261         150.301
0.514                  -0.276014        -127.519         -58.3031        -40.1276         -58.3029        -40.1255      -0.00877103         150.235
0.515                   -0.27999        -127.955         -58.2386        -42.3134         -58.2384        -42.3113      -0.00883051         150.168
0.516                  -0.283996        -128.394          -58.175        -44.4733         -58.1748        -44.4712      -0.00889107         150.102
0.517                  -0.288037        -128.836         -58.1122        -46.6075          -58.112        -46.6054      -0.00895273         150.035
0.518                  -0.292116        -129.281         -58.0502        -48.7161           -58.05         -48.714       -0.0090155         149.969
0.519                  -0.296239         -129.73          -57.989        -50.7994         -57.9888        -50.7973      -0.00907942         149.902
0.52                    -0.30041        -130.183         -57.9285        -52.8576         -57.9283        -52.8556       -0.0091445         149.835
0.521                  -0.304634        -130.639         -57.8688        -54.8911         -57.8686        -54.8892      -0.00921078         149.769
0.522                  -0.308916        -131.098         -57.8097        -56.9002         -57.8094        -56.8983      -0.00927826         149.702
0.523                  -0.313262        -131.561         -57.7511        -58.8851         -57.7509        -58.8832      -0.00934697         149.635
0.524                  -0.317677        -132.028         -57.6932        -60.8463          -57.693        -60.8445      -0.00941693         149.568
0.525                  -0.322166        -132.499         -57.6358         -62.784         -57.6355        -62.7823      -0.00948817         149.501
0.526                  -0.326737        -132.973         -57.5788        -64.6988         -57.5785        -64.6971       -0.0095607         149.433
0.527                  -0.331395        -133.451         -57.5222         -66.591          -57.522        -66.5893      -0.00963455         149.366
0.528                  -0.336148        -133.934          -57.466        -68.4609         -57.4657        -68.4594      -0.00970974         149.298
0.529                  -0.341002         -134.42           -57.41        -70.3092         -57.4098        -70.3077      -0.00978629         149.231
0.53                   -0.345964         -134.91         -57.3543        -72.1361         -57.3541        -72.1347      -0.00986422         149.163
0.531                  -0.351043        -135.404         -57.2988        -73.9422         -57.2985        -73.9409      -0.00994355         149.095
0.532                  -0.356246        -135.903         -57.2434        -75.7279         -57.2431        -75.7266       -0.0100243         149.028
0.533                  -0.361582        -136.406          -57.188        -77.4936         -57.1878        -77.4925       -0.0101065          148.96
0.534                   -0.36706        -136.913         -57.1327        -79.2399         -57.1324        -79.2388       -0.0101901         148.892
0.535                  -0.372688        -137.425         -57.0773        -80.9672          -57.077        -80.9662       -0.0102753         148.823
0.536                  -0.378478        -137.941         -57.0218         -82.676         -57.0215         -82.675       -0.0103619         148.755
0.537                  -0.384439        -138.462         -56.9661        -84.3667         -56.9658        -84.3658         -0.01045         148.687
0.538                  -0.390582        -138.988         -56.9102        -86.0399         -56.9099        -86.0391       -0.0105397         148.618
0.539                  -0.396919        -139.518          -56.854         -87.696         -56.8537        -87.6953       -0.0106309          148.55
0.54                    -0.40346        -140.053         -56.7974        -89.3355         -56.7972        -89.3348       -0.0107236         148.481
0.541                   -0.41022        -140.593         -56.7405        -90.9589         -56.7402        -90.9583        -0.010818         148.412
0.542                  -0.417211        -141.138          -56.683        -92.5666         -56.6828        -92.5662       -0.0109139         148.344
0.543                  -0.424447        -141.688         -56.6251        -94.1593         -56.6249        -94.1589       -0.0110114         148.275
0.544                  -0.431943        -142.244         -56.5666        -95.7372         -56.5664        -95.7369       -0.0111106         148.206
0.545                  -0.439715        -142.805         -56.5075         -97.301         -56.5073        -97.3008       -0.0112113         148.136
0.546                  -0.447778        -143.371         -56.4477        -98.8511         -56.4475         -98.851       -0.0113137         148.067
0.547                   -0.45615        -143.942         -56.3871        -100.388         -56.3869        -100.388       -0.0114177         147.998
0.548                  -0.464849         -144.52         -56.3258        -101.912         -56.3256        -101.912       -0.0115234         147.928
0.549                  -0.473894        -145.103         -56.2636        -103.424         -56.2634        -103.424       -0.0116307         147.859
0.55                   -0.483306        -145.691         -56.2005        -104.924         -56.2003        -104.924       -0.0117397         147.789
0.551                  -0.493105        -146.286         -56.1364        -106.413         -56.1363        -106.413       -0.0118503         147.719
0.552                  -0.503315        -146.887         -56.0714        -107.891         -56.0712        -107.891       -0.0119626         147.649
0.553                   -0.51396        -147.494         -56.0053        -109.359         -56.0051        -109.359       -0.0120766         147.579
0.554                  -0.525063        -148.107         -55.9381        -110.817         -55.9379        -110.817       -0.0121923         147.509
0.555                  -0.536653        -148.727         -55.8697        -112.265         -55.8695        -112.266       -0.0123096         147.438
0.556                  -0.548757        -149.353         -55.8001        -113.705            -55.8        -113.706       -0.0124287         147.368
0.557                  -0.561405        -149.986         -55.7293        -115.136         -55.7291        -115.137       -0.0125494         147.297
0.558                  -0.574629        -150.625         -55.6571         -116.56          -55.657        -116.561       -0.0126718         147.227
0.559                  -0.588462        -151.271         -55.5836        -117.976         -55.5835        -117.977       -0.0127958         147.156
0.56                   -0.602939        -151.925         -55.5087        -119.385         -55.5086        -119.386       -0.0129216         147.085
0.561                  -0.618098        -152.585         -55.4323        -120.788         -55.4322        -120.789        -0.013049         147.014
0.562                  -0.633977        -153.253         -55.3544        -122.186         -55.3543        -122.186       -0.0131781         146.943
0.563                  -0.650621        -153.927          -55.275        -123.578         -55.2749        -123.578       -0.0133089         146.871
0.564                  -0.668071         -154.61          -55.194        -124.965         -55.1939        -124.966       -0.0134414           146.8
0.565                  -0.686377          -155.3         -55.1114        -126.348         -55.1113        -126.349       -0.0135755         146.728
0.566                  -0.705586        -155.997         -55.0271        -127.727          -55.027        -127.728       -0.0137113         146.657
0.567                  -0.725753        -156.702          -54.941        -129.104          -54.941        -129.105       -0.0138488         146.585
0.568                  -0.746932        -157.415         -54.8532        -130.478         -54.8532        -130.479       -0.0139879         146.513
0.569                  -0.769184        -158.136         -54.7637         -131.85         -54.7636        -131.851       -0.0141287         146.441
0.57                    -0.79257        -158.866         -54.6723        -133.221         -54.6722        -133.222       -0.0142712         146.369
0.571                  -0.817156        -159.603          -54.579        -134.591          -54.579        -134.592       -0.0144153         146.296
0.572                  -0.843014        -160.348         -54.4838        -135.962         -54.4838        -135.963       -0.0145611         146.224
0.573                  -0.870216        -161.101         -54.3868        -137.333         -54.3867        -137.334       -0.0147086         146.151
0.574                  -0.898841        -161.863         -54.2877        -138.706         -54.2877        -138.707       -0.0148577         146.078
0.575                  -0.928972        -162.633         -54.1867        -140.081         -54.1868        -140.082       -0.0150086         146.006
0.576                  -0.960696        -163.411         -54.0838        -141.459         -54.0838         -141.46        -0.015161         145.932
0.577                  -0.994106        -164.198         -53.9788         -142.84         -53.9788        -142.841       -0.0153152         145.859
0.578                    -1.0293        -164.992         -53.8718        -144.227         -53.8719        -144.228       -0.0154711         145.786
0.579                   -1.06637        -165.795         -53.7628        -145.618         -53.7629        -145.619       -0.0156286         145.712
0.58                    -1.10544        -166.606         -53.6518        -147.016         -53.6519        -147.016       -0.0157879         145.639
0.581                   -1.14662        -167.424         -53.5388         -148.42         -53.5389        -148.421       -0.0159488         145.565
0.582                   -1.19001         -168.25         -53.4239        -149.833         -53.4239        -149.833       -0.0161115         145.491
0.583                   -1.23576        -169.083         -53.3069        -151.254          -53.307        -151.255       -0.0162759         145.417
0.584                   -1.28398        -169.924         -53.1881        -152.685         -53.1882        -152.685       -0.0164421         145.343
0.585                   -1.33481        -170.771         -53.0673        -154.126         -53.0674        -154.127         -0.01661         145.268
0.586                    -1.3884        -171.624         -52.9447        -155.579         -52.9448         -155.58       -0.0167798         145.194
0.587                   -1.44488        -172.483         -52.8204        -157.045         -52.8205        -157.046       -0.0169513         145.119
0.588                   -1.50441        -173.347         -52.6943        -158.524         -52.6944        -158.525       -0.0171246         145.044
0.589                   -1.56715        -174.216         -52.5666        -160.018         -52.5667        -160.018       -0.0172998         144.969
0.59                    -1.63324        -175.088         -52.4375        -161.527         -52.4376        -161.527       -0.0174769         144.894
0.591                   -1.70285        -175.963         -52.3069        -163.052          -52.307        -163.053       -0.0176559         144.818
0.592                   -1.77615         -176.84          -52.175        -164.595         -52.1751        -164.596       -0.0178368         144.743
0.593                    -1.8533        -177.717          -52.042        -166.156         -52.0421        -166.157       -0.0180196         144.667
0.594                   -1.93445        -178.594          -51.908        -167.737         -51.9081        -167.737       -0.0182045         144.591
0.595                   -2.01977        -179.468         -51.7732        -169.337         -51.7734        -169.337       -0.0183913         144.515
0.596                   -2.10942         179.661         -51.6379        -170.958          -51.638        -170.958       -0.0185802         144.438
0.597                   -2.20353         178.796         -51.5021          -172.6         -51.5022        -172.601       -0.0187712         144.362
0.598                   -2.30225         177.938         -51.3661        -174.265         -51.3662        -174.265       -0.0189643         144.285
0.599                    -2.4057         177.091         -51.2302        -175.952         -51.2303        -175.952       -0.0191596         144.208
0.6                     -2.51398         176.255         -51.0946        -177.662         -51.0947        -177.662       -0.0193572         144.131
0.601                   -2.62717         175.434         -50.9596        -179.395         -50.9597        -179.395       -0.0195569         144.054
0.602                   -2.74533         174.631         -50.8255         178.849         -50.8256         178.849        -0.019759         143.977
0.603                   -2.86847         173.849         -50.6926         177.069         -50.6926         177.069       -0.0199634         143.899
0.604                   -2.99659          173.09         -50.5611         175.267         -50.5611         175.267       -0.0201703         143.821
0.605                   -3.12961         172.359         -50.4313         173.442         -50.4314         173.442       -0.0203795         143.743
0.606                   -3.26743         171.659         -50.3036         171.595         -50.3037         171.595       -0.0205913         143.665
0.607                   -3.40985         170.994         -50.1783         169.727         -50.1784         169.727       -0.0208057         143.586
0.608                   -3.55663         170.367         -50.0557          167.84         -50.0557          167.84       -0.0210226         143.508
0.609                   -3.70746         169.783          -49.936         165.933         -49.9361         165.934       -0.0212423         143.429
0.61                    -3.86192         169.246         -49.8196          164.01         -49.8196         164.011       -0.0214647          143.35
0.611                   -4.01953         168.759         -49.7066         162.072         -49.7066         162.072       -0.0216898          143.27
0.612                   -4.17968         168.327         -49.5973          160.12         -49.5974          160.12       -0.0219179         143.191
0.613                   -4.34168         167.953          -49.492         158.157          -49.492         158.157       -0.0221488         143.111
0.614                   -4.50475          167.64         -49.3908         156.185         -49.3908         156.186       -0.0223828         143.031
0.615                   -4.66798         167.391         -49.2937         154.207         -49.2937         154.207       -0.0226198         142.951
0.616                   -4.83038         167.209          -49.201         152.225          -49.201         152.225         -0.02286          142.87
0.617                   -4.99087         167.094         -49.1126         150.241         -49.1126         150.241       -0.0231034          142.79
0.618                   -5.14829         167.047         -49.0286         148.259         -49.0286         148.259       -0.0233501         142.709
0.619                   -5.30142         167.068          -48.949          146.28          -48.949          146.28       -0.0236001         142.628
0.62                    -5.44903         167.155         -48.8736         144.308         -48.8736         144.308       -0.0238536         142.546
0.621                   -5.58985         167.305         -48.8024         142.345         -48.8024         142.345       -0.0241105         142.465
0.622                   -5.72267         167.515         -48.7352         140.394         -48.7352         140.394       -0.0243711         142.383
0.623                   -5.84632         167.778         -48.6718         138.456         -48.6718         138.456       -0.0246354           142.3
0.624                   -5.95974         168.089          -48.612         136.533          -48.612         136.534       -0.0249035         142.218
0.625                   -6.06201          168.44         -48.5556         134.629         -48.5555         134.629       -0.0251754         142.135
0.626                   -6.15236         168.821         -48.5022         132.744         -48.5022         132.744       -0.0254512         142.052
0.627                   -6.23025         169.225         -48.4516         130.879         -48.4516         130.879       -0.0257311         141.969
0.628                   -6.29531         169.641         -48.4034         129.037         -48.4034         129.037       -0.0260152         141.886
0.629                   -6.34743         170.059         -48.3575         127.217         -48.3575         127.217       -0.0263035         141.802
