! TOUCHSTONE file generated by CST MICROWAVE STUDIO
! Date and time: Sat Nov 14 19:58:09 2020
! Project name: Scenario_1_Planar_Body_Tissue_Out_of_Line.cst
! Parameters = {dy1=328.7; L_HA=400; Ltissue=700; MT=2.54; Rad_Dielectric=30; Rad_Lower=7.3; Rad_Upper=30; Wtissue=700; a_HA=580; a_WG=246; b_HA=500; b_WG=121; c_HA=0; c_WG=187; d_feed=85; dx1=693; h_feed=15; h_lower=18; h_upper=40; hfat=3; hgap=25; hmuscle=50; hskin=1.5}
! Header version: 2018
! Port assignment regex: !\s*Touchstone port\s*([0-9]+)\s*=\s*(CST MWS port|CST DS port)\s*([0-9]+|Zmin|Zmax)\s*\(\"(.*)\"\)(\s*mode\s*([0-9]+))?.*
! Touchstone port assignment:
! Touchstone port 1 = CST MWS port 1 ("")
! Touchstone port 2 = CST MWS port 2 ("")
# GHz S DB R 50
0.5                    -0.172197        -121.678         -63.5305         162.161         -63.5298         162.165      -0.00773848         151.151
0.501                  -0.175867        -122.097         -63.4104         159.971         -63.4096         159.976      -0.00779758         151.086
0.502                  -0.179557        -122.519         -63.2924          157.78         -63.2915         157.785       -0.0078572         151.021
0.503                  -0.183271        -122.943         -63.1766         155.589         -63.1755         155.595      -0.00791735         150.955
0.504                  -0.187013         -123.37         -63.0628           153.4         -63.0617         153.405      -0.00797806          150.89
0.505                  -0.190788        -123.799         -62.9511         151.214         -62.9499         151.219      -0.00803935         150.824
0.506                  -0.194599        -124.232         -62.8413         149.032         -62.8401         149.037      -0.00810124         150.759
0.507                  -0.198452        -124.667         -62.7335         146.855         -62.7323          146.86      -0.00816376         150.693
0.508                  -0.202352        -125.105         -62.6276         144.686         -62.6263         144.691      -0.00822694         150.627
0.509                  -0.206304        -125.546         -62.5234         142.525         -62.5221          142.53       -0.0082908         150.562
0.51                   -0.210315        -125.991         -62.4208         140.374         -62.4196         140.379      -0.00835537         150.496
0.511                   -0.21439        -126.438         -62.3198         138.233         -62.3185         138.238      -0.00842066          150.43
0.512                  -0.218537        -126.889         -62.2201         136.104         -62.2189         136.109      -0.00848672         150.364
0.513                  -0.222762        -127.343         -62.1217         133.989         -62.1205         133.993      -0.00855355         150.298
0.514                  -0.227074          -127.8         -62.0244         131.887         -62.0233         131.891      -0.00862119         150.231
0.515                  -0.231479         -128.26          -61.928         129.799         -61.9269         129.804      -0.00868966         150.165
0.516                  -0.235987        -128.725         -61.8323         127.727         -61.8313         127.732        -0.008759         150.099
0.517                  -0.240607        -129.192         -61.7373         125.671         -61.7363         125.675      -0.00882921         150.032
0.518                  -0.245348        -129.664         -61.6426         123.631         -61.6417         123.635      -0.00890034         149.966
0.519                  -0.250222        -130.139         -61.5481         121.608         -61.5473         121.613      -0.00897241         149.899
0.52                   -0.255238        -130.617         -61.4536         119.602         -61.4529         119.607      -0.00904543         149.832
0.521                  -0.260408          -131.1          -61.359         117.614         -61.3583         117.619      -0.00911945         149.766
0.522                  -0.265746        -131.587          -61.264         115.643         -61.2634         115.648      -0.00919447         149.699
0.523                  -0.271264        -132.077         -61.1685          113.69         -61.1679         113.695      -0.00927054         149.632
0.524                  -0.276977        -132.572         -61.0722         111.754         -61.0716         111.759      -0.00934767         149.565
0.525                  -0.282899        -133.071         -60.9749         109.836         -60.9744         109.841      -0.00942589         149.497
0.526                  -0.289046        -133.575         -60.8766         107.935         -60.8762         107.939      -0.00950522          149.43
0.527                  -0.295436        -134.082         -60.7769          106.05         -60.7766         106.055       -0.0095857         149.363
0.528                  -0.302087        -134.594         -60.6758         104.181         -60.6755         104.186      -0.00966733         149.295
0.529                  -0.309018        -135.111         -60.5731         102.328         -60.5728         102.334      -0.00975016         149.228
0.53                   -0.316249        -135.632         -60.4685         100.491         -60.4683         100.496      -0.00983419          149.16
0.531                  -0.323803        -136.158          -60.362         98.6674         -60.3618         98.6728      -0.00991946         149.092
0.532                  -0.331703        -136.689         -60.2534         96.8578         -60.2531         96.8633        -0.010006         149.025
0.533                  -0.339973        -137.225         -60.1425          95.061         -60.1423         95.0666       -0.0100938         148.957
0.534                   -0.34864        -137.766         -60.0292         93.2762          -60.029         93.2818       -0.0101829         148.889
0.535                  -0.357733        -138.311         -59.9133         91.5023         -59.9131         91.5081       -0.0102733          148.82
0.536                   -0.36728        -138.862         -59.7948         89.7385         -59.7946         89.7443       -0.0103651         148.752
0.537                  -0.377315        -139.418         -59.6736         87.9836         -59.6734         87.9894       -0.0104583         148.684
0.538                   -0.38787         -139.98         -59.5494         86.2365         -59.5493         86.2423       -0.0105528         148.615
0.539                  -0.398983        -140.546         -59.4223          84.496         -59.4221         84.5018       -0.0106487         148.547
0.54                   -0.410691        -141.118         -59.2922         82.7609          -59.292         82.7666       -0.0107461         148.478
0.541                  -0.423034        -141.696         -59.1589         81.0299         -59.1587         81.0355       -0.0108449         148.409
0.542                  -0.436057        -142.278         -59.0224         79.3017         -59.0222         79.3072       -0.0109452          148.34
0.543                  -0.449805        -142.867         -58.8827         77.5749         -58.8824         77.5803       -0.0110469         148.272
0.544                  -0.464327        -143.461         -58.7396         75.8481         -58.7393         75.8533       -0.0111501         148.202
0.545                  -0.479675         -144.06         -58.5932         74.1198         -58.5929         74.1249       -0.0112549         148.133
0.546                  -0.495901        -144.665         -58.4435         72.3886         -58.4432         72.3935       -0.0113611         148.064
0.547                  -0.513066        -145.275         -58.2904          70.653         -58.2901         70.6577        -0.011469         147.995
0.548                  -0.531228        -145.891         -58.1339         68.9114         -58.1336         68.9158       -0.0115783         147.925
0.549                  -0.550452        -146.512         -57.9741         67.1622         -57.9737         67.1663       -0.0116892         147.855
0.55                   -0.570805        -147.139          -57.811         65.4038         -57.8106         65.4077       -0.0118017         147.786
0.551                  -0.592356         -147.77         -57.6446         63.6347         -57.6441         63.6382       -0.0119158         147.716
0.552                   -0.61518        -148.406         -57.4749         61.8531         -57.4745         61.8562       -0.0120315         147.646
0.553                  -0.639353        -149.047         -57.3021         60.0574         -57.3017         60.0602       -0.0121488         147.576
0.554                  -0.664952        -149.692         -57.1263          58.246         -57.1258         58.2484       -0.0122677         147.506
0.555                   -0.69206        -150.341         -56.9475         56.4171          -56.947         56.4192       -0.0123882         147.435
0.556                   -0.72076        -150.994         -56.7659         54.5692         -56.7654         54.5709       -0.0125104         147.365
0.557                  -0.751135         -151.65         -56.5817         52.7007         -56.5812          52.702       -0.0126342         147.294
0.558                  -0.783272        -152.309         -56.3949         50.8099         -56.3944         50.8108       -0.0127596         147.224
0.559                  -0.817254         -152.97         -56.2058         48.8952         -56.2053         48.8957       -0.0128867         147.153
0.56                   -0.853165        -153.632         -56.0146         46.9551         -56.0141         46.9553       -0.0130154         147.082
0.561                  -0.891085        -154.295         -55.8215         44.9881          -55.821         44.9879       -0.0131457         147.011
0.562                  -0.931089        -154.957         -55.6267         42.9929         -55.6263         42.9924       -0.0132778          146.94
0.563                  -0.973246        -155.618         -55.4306         40.9681         -55.4301         40.9673       -0.0134114         146.868
0.564                   -1.01762        -156.277         -55.2334         38.9125         -55.2329         38.9114       -0.0135467         146.797
0.565                   -1.06425        -156.932         -55.0354          36.825          -55.035         36.8236       -0.0136837         146.725
0.566                   -1.11317        -157.582          -54.837         34.7046         -54.8366          34.703       -0.0138223         146.654
0.567                   -1.16441        -158.225         -54.6384         32.5506          -54.638         32.5487       -0.0139625         146.582
0.568                   -1.21794        -158.861         -54.4401         30.3622         -54.4398         30.3602       -0.0141044          146.51
0.569                   -1.27374        -159.487         -54.2425         28.1391         -54.2422         28.1369        -0.014248         146.438
0.57                    -1.33175        -160.101         -54.0459          25.881         -54.0457         25.8787       -0.0143932         146.366
0.571                   -1.39186        -160.702         -53.8508         23.5879         -53.8506         23.5855         -0.01454         146.293
0.572                   -1.45394        -161.289         -53.6576         21.2599         -53.6573         21.2575       -0.0146884         146.221
0.573                    -1.5178        -161.858         -53.4666         18.8977         -53.4664         18.8953       -0.0148385         146.148
0.574                   -1.58321        -162.408         -53.2783         16.5019         -53.2782         16.4995       -0.0149902         146.075
0.575                    -1.6499        -162.937         -53.0932         14.0736         -53.0931         14.0713       -0.0151435         146.002
0.576                   -1.71754        -163.445         -52.9116         11.6141         -52.9115         11.6119       -0.0152985         145.929
0.577                   -1.78574        -163.928         -52.7339         9.12501         -52.7339         9.12291       -0.0154551         145.856
0.578                   -1.85407        -164.387         -52.5605         6.60814         -52.5605         6.60619       -0.0156132         145.783
0.579                   -1.92207         -164.82         -52.3918         4.06564         -52.3917         4.06387       -0.0157731         145.709
0.58                    -1.98921        -165.228          -52.228         1.49989         -52.2279         1.49832       -0.0159345         145.636
0.581                   -2.05495        -165.609         -52.0694        -1.08653         -52.0693        -1.08789       -0.0160976         145.562
0.582                   -2.11874        -165.966         -51.9162        -3.69083         -51.9162        -3.69197       -0.0162623         145.488
0.583                   -2.18001        -166.298         -51.7687        -6.31006         -51.7687        -6.31099       -0.0164286         145.414
0.584                   -2.23822        -166.608          -51.627        -8.94117         -51.6269        -8.94188       -0.0165966          145.34
0.585                   -2.29285        -166.899         -51.4911         -11.581          -51.491        -11.5815       -0.0167662         145.265
0.586                   -2.34344        -167.172         -51.3612        -14.2264         -51.3611        -14.2267       -0.0169376         145.191
0.587                   -2.38958        -167.432         -51.2371        -16.8741          -51.237        -16.8742       -0.0171106         145.116
0.588                   -2.43093        -167.683         -51.1189        -19.5211         -51.1188        -19.5211       -0.0172853         145.041
0.589                   -2.46728        -167.928         -51.0064        -22.1643         -51.0063        -22.1641       -0.0174618         144.966
0.59                    -2.49846        -168.173         -50.8995        -24.8009         -50.8993        -24.8005       -0.0176401          144.89
0.591                   -2.52445        -168.421          -50.798        -27.4279         -50.7977        -27.4275       -0.0178202         144.815
0.592                    -2.5453        -168.677         -50.7015         -30.043         -50.7013        -30.0425       -0.0180021         144.739
0.593                   -2.56117        -168.945           -50.61        -32.6439         -50.6097        -32.6432       -0.0181859         144.664
0.594                    -2.5723        -169.229          -50.523        -35.2283         -50.5227        -35.2276       -0.0183716         144.588
0.595                   -2.57901        -169.533         -50.4402        -37.7945         -50.4399        -37.7938       -0.0185593         144.512
0.596                   -2.58166        -169.861         -50.3614        -40.3409          -50.361        -40.3403       -0.0187491         144.435
0.597                   -2.58069        -170.214         -50.2861        -42.8663         -50.2857        -42.8657        -0.018941         144.359
0.598                   -2.57655        -170.596         -50.2139        -45.3695         -50.2135         -45.369       -0.0191351         144.282
0.599                   -2.56972        -171.008         -50.1446        -47.8498         -50.1442        -47.8493       -0.0193314         144.205
0.6                     -2.56069        -171.451         -50.0778        -50.3066         -50.0773        -50.3062         -0.01953         144.128
0.601                   -2.54993        -171.927          -50.013        -52.7397         -50.0125        -52.7394        -0.019731         144.051
0.602                   -2.53792        -172.436         -49.9501        -55.1488         -49.9495        -55.1486       -0.0199346         143.973
0.603                    -2.5251        -172.978         -49.8885        -57.5342          -49.888        -57.5341       -0.0201407         143.896
0.604                    -2.5119        -173.554          -49.828        -59.8961         -49.8275        -59.8961       -0.0203495         143.818
0.605                   -2.49871        -174.162         -49.7684        -62.2349         -49.7679         -62.235        -0.020561          143.74
0.606                   -2.48591        -174.803         -49.7092        -64.5512         -49.7087        -64.5515       -0.0207754         143.661
0.607                   -2.47383        -175.476         -49.6503        -66.8458         -49.6498        -66.8462       -0.0209928         143.583
0.608                   -2.46278         -176.18         -49.5914        -69.1195         -49.5909          -69.12       -0.0212133         143.504
0.609                   -2.45304        -176.914         -49.5322        -71.3732         -49.5317        -71.3738       -0.0214369         143.425
0.61                    -2.44485        -177.678         -49.4726        -73.6079          -49.472        -73.6086       -0.0216639         143.346
0.611                   -2.43846         -178.47         -49.4123        -75.8247         -49.4118        -75.8255       -0.0218941         143.267
0.612                   -2.43405         -179.29         -49.3511        -78.0247         -49.3506        -78.0257       -0.0221279         143.187
0.613                   -2.43183         179.864          -49.289        -80.2092         -49.2885        -80.2102       -0.0223653         143.107
0.614                   -2.43197         178.992         -49.2258        -82.3793         -49.2253        -82.3803       -0.0226063         143.027
0.615                   -2.43461         178.094         -49.1613        -84.5362         -49.1608        -84.5373       -0.0228511         142.947
0.616                    -2.4399         177.173         -49.0954        -86.6811          -49.095        -86.6823       -0.0230997         142.867
0.617                   -2.44798         176.228         -49.0281        -88.8154         -49.0278        -88.8166       -0.0233523         142.786
0.618                   -2.45898         175.261         -48.9593        -90.9403          -48.959        -90.9415       -0.0236089         142.705
0.619                   -2.47301         174.271          -48.889        -93.0569         -48.8886        -93.0582       -0.0238696         142.624
0.62                     -2.4902          173.26          -48.817        -95.1666         -48.8167        -95.1679       -0.0241345         142.542
0.621                   -2.51066         172.229         -48.7434        -97.2706         -48.7431        -97.2718       -0.0244036         142.461
0.622                   -2.53451         171.177         -48.6681          -99.37         -48.6678        -99.3712        -0.024677         142.379
0.623                   -2.56186         170.105         -48.5912        -101.466         -48.5909        -101.467       -0.0249548         142.297
0.624                   -2.59284         169.014         -48.5126         -103.56         -48.5124        -103.561       -0.0252371         142.214
0.625                   -2.62756         167.905         -48.4323        -105.652         -48.4322        -105.653       -0.0255238         142.131
0.626                   -2.66616         166.777         -48.3505        -107.745         -48.3504        -107.746       -0.0258151         142.049
0.627                   -2.70877         165.631         -48.2671        -109.839          -48.267         -109.84       -0.0261109         141.965
0.628                   -2.75552         164.468         -48.1822        -111.934         -48.1821        -111.935       -0.0264114         141.882
0.629                   -2.80656         163.289         -48.0959        -114.033         -48.0958        -114.034       -0.0267166         141.798
