! TOUCHSTONE file generated by CST MICROWAVE STUDIO
! Date and time: Mon Nov 30 09:10:35 2020
! Project name: Scenario_1_Planar_Body_Tissue_Out_of_Line_v2.cst
! Parameters = {dy1=155.7; L_HA=400; Ltissue=700; MT=2.54; Rad_Dielectric=30; Rad_Lower=7.3; Rad_Upper=30; Wtissue=700; a_HA=580; a_WG=246; b_HA=500; b_WG=121; c_HA=0; c_WG=187; d_feed=85; dx1=346; h_feed=15; h_lower=18; h_upper=40; hfat=3; hgap=25; hmuscle=50; hskin=1.5}
! Header version: 2018
! Port assignment regex: !\s*Touchstone port\s*([0-9]+)\s*=\s*(CST MWS port|CST DS port)\s*([0-9]+|Zmin|Zmax)\s*\(\"(.*)\"\)(\s*mode\s*([0-9]+))?.*
! Touchstone port assignment:
! Touchstone port 1 = CST MWS port 1 ("")
! Touchstone port 2 = CST MWS port 2 ("")
# GHz S DB R 50
0.5                    -0.268807        -121.819         -56.2754         24.6057         -56.2751          24.606      -0.00824858          151.15
0.501                   -0.26542        -122.253         -56.2776         23.6804         -56.2773         23.6807        -0.008296         151.085
0.502                  -0.262147        -122.689         -56.2789         22.7429         -56.2786         22.7432      -0.00834415          151.02
0.503                  -0.258991        -123.128         -56.2794         21.7932         -56.2791         21.7935      -0.00839303         150.955
0.504                  -0.255954        -123.569          -56.279         20.8309         -56.2787         20.8312      -0.00844267         150.889
0.505                   -0.25304        -124.013         -56.2776          19.856         -56.2773         19.8563      -0.00849307         150.824
0.506                  -0.250251         -124.46         -56.2753         18.8684          -56.275         18.8687      -0.00854424         150.759
0.507                  -0.247589        -124.909         -56.2719         17.8679         -56.2716         17.8682      -0.00859618         150.693
0.508                  -0.245059        -125.361         -56.2675         16.8543         -56.2672         16.8546      -0.00864891         150.627
0.509                  -0.242663        -125.816         -56.2619         15.8275         -56.2616         15.8278      -0.00870244         150.562
0.51                   -0.240404        -126.274         -56.2552         14.7874         -56.2549         14.7877      -0.00875678         150.496
0.511                  -0.238286        -126.734         -56.2472         13.7339         -56.2469         13.7342      -0.00881194          150.43
0.512                  -0.236312        -127.198         -56.2379         12.6668         -56.2377         12.6671      -0.00886792         150.364
0.513                  -0.234486        -127.664         -56.2274         11.5861         -56.2271         11.5864      -0.00892474         150.298
0.514                  -0.232812        -128.133         -56.2154         10.4916         -56.2151         10.4919      -0.00898241         150.232
0.515                  -0.231292        -128.606          -56.202         9.38323         -56.2017         9.38357      -0.00904094         150.166
0.516                  -0.229932        -129.081          -56.187         8.26096         -56.1868         8.26131      -0.00910035         150.099
0.517                  -0.228736         -129.56         -56.1706          7.1247         -56.1703         7.12506      -0.00916063         150.033
0.518                  -0.227707        -130.041         -56.1524         5.97439         -56.1521         5.97475      -0.00922181         149.967
0.519                   -0.22685        -130.526         -56.1326         4.80997         -56.1323         4.81034      -0.00928389           149.9
0.52                   -0.226169        -131.014         -56.1111         3.63141         -56.1108         3.63179      -0.00934689         149.834
0.521                   -0.22567        -131.505         -56.0877          2.4387         -56.0874         2.43908      -0.00941082         149.767
0.522                  -0.225357            -132         -56.0624         1.23181         -56.0621          1.2322      -0.00947568           149.7
0.523                  -0.225235        -132.498         -56.0352       0.0107629         -56.0349       0.0111584       -0.0095415         149.633
0.524                  -0.225309        -132.999          -56.006        -1.22443         -56.0057        -1.22403      -0.00960829         149.566
0.525                  -0.225586        -133.504         -55.9747        -2.47373         -55.9744        -2.47332      -0.00967605         149.499
0.526                   -0.22607        -134.012         -55.9412        -3.73709          -55.941        -3.73667      -0.00974481         149.432
0.527                  -0.226767        -134.524         -55.9056        -5.01444         -55.9053        -5.01402      -0.00981457         149.365
0.528                  -0.227685        -135.039         -55.8676         -6.3057         -55.8673        -6.30527      -0.00988534         149.297
0.529                  -0.228828        -135.558         -55.8273        -7.61078          -55.827        -7.61034      -0.00995715          149.23
0.53                   -0.230204        -136.081         -55.7846        -8.92954         -55.7843         -8.9291         -0.01003         149.162
0.531                   -0.23182        -136.607         -55.7394        -10.2619         -55.7391        -10.2614       -0.0101039         149.095
0.532                  -0.233682        -137.137         -55.6917        -11.6076         -55.6914        -11.6072       -0.0101789         149.027
0.533                  -0.235799        -137.671         -55.6413        -12.9666         -55.6411        -12.9662        -0.010255         148.959
0.534                  -0.238177        -138.209         -55.5883        -14.3387          -55.588        -14.3382       -0.0103321         148.891
0.535                  -0.240826        -138.751         -55.5326        -15.7236         -55.5323        -15.7231       -0.0104104         148.823
0.536                  -0.243753        -139.297          -55.474        -17.1212         -55.4737        -17.1207       -0.0104898         148.755
0.537                  -0.246967        -139.848         -55.4126        -18.5312         -55.4123        -18.5308       -0.0105704         148.687
0.538                  -0.250479        -140.402         -55.3482        -19.9535          -55.348         -19.953       -0.0106521         148.618
0.539                  -0.254296         -140.96         -55.2809        -21.3876         -55.2807        -21.3871        -0.010735          148.55
0.54                    -0.25843        -141.523         -55.2106        -22.8334         -55.2103        -22.8329       -0.0108191         148.481
0.541                   -0.26289        -142.091         -55.1372        -24.2906          -55.137        -24.2901       -0.0109044         148.413
0.542                  -0.267688        -142.662         -55.0607        -25.7588         -55.0605        -25.7583        -0.010991         148.344
0.543                  -0.272834        -143.239         -54.9811        -27.2379         -54.9808        -27.2374       -0.0110788         148.275
0.544                  -0.278342        -143.819         -54.8982        -28.7274          -54.898        -28.7269       -0.0111678         148.206
0.545                  -0.284224        -144.405         -54.8121        -30.2272         -54.8119        -30.2266       -0.0112582         148.137
0.546                  -0.290492        -144.995         -54.7228        -31.7367         -54.7225        -31.7362       -0.0113498         148.068
0.547                   -0.29716         -145.59         -54.6301        -33.2558         -54.6299        -33.2553       -0.0114427         147.998
0.548                  -0.304243         -146.19         -54.5342        -34.7841         -54.5339        -34.7836        -0.011537         147.929
0.549                  -0.311755        -146.795         -54.4348        -36.3213         -54.4346        -36.3208       -0.0116326         147.859
0.55                   -0.319713        -147.405         -54.3322        -37.8671         -54.3319        -37.8666       -0.0117296          147.79
0.551                  -0.328134         -148.02         -54.2261        -39.4211         -54.2259        -39.4206        -0.011828          147.72
0.552                  -0.337033        -148.641         -54.1167        -40.9831         -54.1164        -40.9826       -0.0119279          147.65
0.553                   -0.34643        -149.267         -54.0038        -42.5528         -54.0036        -42.5523       -0.0120291          147.58
0.554                  -0.356344        -149.898         -53.8876        -44.1298         -53.8874        -44.1293       -0.0121318          147.51
0.555                  -0.366794        -150.535          -53.768        -45.7139         -53.7678        -45.7134        -0.012236          147.44
0.556                  -0.377803        -151.177         -53.6451        -47.3048         -53.6448        -47.3043       -0.0123416         147.369
0.557                  -0.389391        -151.825         -53.5187        -48.9024         -53.5185        -48.9019       -0.0124488         147.299
0.558                  -0.401583        -152.479          -53.389        -50.5063         -53.3888        -50.5058       -0.0125575         147.228
0.559                  -0.414403        -153.138          -53.256        -52.1164         -53.2558        -52.1159       -0.0126678         147.157
0.56                   -0.427876        -153.804         -53.1197        -53.7324         -53.1195         -53.732       -0.0127796         147.086
0.561                  -0.442031        -154.476         -52.9801        -55.3543         -52.9798        -55.3539       -0.0128931         147.016
0.562                  -0.456896        -155.154         -52.8372        -56.9819          -52.837        -56.9815       -0.0130082         146.944
0.563                    -0.4725        -155.838         -52.6911         -58.615         -52.6909        -58.6146       -0.0131249         146.873
0.564                  -0.488877        -156.529         -52.5419        -60.2537         -52.5417        -60.2533       -0.0132434         146.802
0.565                  -0.506058        -157.226         -52.3895        -61.8978         -52.3893        -61.8975       -0.0133635          146.73
0.566                  -0.524081         -157.93          -52.234        -63.5474         -52.2339         -63.547       -0.0134853         146.659
0.567                  -0.542982        -158.641         -52.0755        -65.2024         -52.0754        -65.2021       -0.0136089         146.587
0.568                  -0.562801        -159.358         -51.9141        -66.8629         -51.9139        -66.8626       -0.0137343         146.515
0.569                   -0.58358        -160.082         -51.7497         -68.529         -51.7495        -68.5287       -0.0138615         146.443
0.57                   -0.605363        -160.814         -51.5824        -70.2008         -51.5822        -70.2004       -0.0139905         146.371
0.571                  -0.628195        -161.552         -51.4123        -71.8783         -51.4121         -71.878       -0.0141214         146.298
0.572                  -0.652128        -162.298         -51.2395        -73.5619         -51.2393        -73.5616       -0.0142542         146.226
0.573                  -0.677213        -163.051         -51.0639        -75.2516         -51.0638        -75.2514       -0.0143888         146.153
0.574                  -0.703504        -163.811         -50.8858        -76.9478         -50.8857        -76.9476       -0.0145255          146.08
0.575                  -0.731061        -164.579         -50.7052        -78.6507         -50.7051        -78.6505        -0.014664         146.008
0.576                  -0.759945        -165.355         -50.5221        -80.3606          -50.522        -80.3604       -0.0148046         145.934
0.577                  -0.790222        -166.138         -50.3367        -82.0779         -50.3365        -82.0778       -0.0149472         145.861
0.578                  -0.821961        -166.929         -50.1489         -83.803         -50.1488        -83.8028       -0.0150919         145.788
0.579                  -0.855236        -167.727          -49.959        -85.5362         -49.9588         -85.536       -0.0152387         145.714
0.58                   -0.890123        -168.534         -49.7669        -87.2779         -49.7668        -87.2778       -0.0153876         145.641
0.581                  -0.926706        -169.348         -49.5728        -89.0287         -49.5727        -89.0286       -0.0155386         145.567
0.582                  -0.965072        -170.171         -49.3769        -90.7891         -49.3768         -90.789       -0.0156919         145.493
0.583                   -1.00531        -171.001         -49.1791        -92.5595          -49.179        -92.5594       -0.0158473         145.419
0.584                   -1.04753        -171.839         -48.9796        -94.3404         -48.9795        -94.3404        -0.016005         145.345
0.585                   -1.09182        -172.685         -48.7785        -96.1326         -48.7784        -96.1326        -0.016165          145.27
0.586                   -1.13829        -173.538         -48.5759        -97.9364         -48.5758        -97.9364       -0.0163273         145.196
0.587                   -1.18707          -174.4          -48.372        -99.7527         -48.3719        -99.7527        -0.016492         145.121
0.588                   -1.23828        -175.269         -48.1669        -101.582         -48.1668        -101.582       -0.0166591         145.046
0.589                   -1.29204        -176.145         -47.9606        -103.425         -47.9606        -103.425       -0.0168286         144.971
0.59                     -1.3485        -177.028         -47.7534        -105.282         -47.7534        -105.282       -0.0170005         144.895
0.591                    -1.4078        -177.919         -47.5455        -107.153         -47.5454        -107.153        -0.017175          144.82
0.592                   -1.47008        -178.816         -47.3369        -109.041         -47.3368        -109.041        -0.017352         144.744
0.593                   -1.53553        -179.719         -47.1278        -110.944         -47.1277        -110.944       -0.0175315         144.669
0.594                    -1.6043         179.372         -46.9183        -112.864         -46.9183        -112.864       -0.0177137         144.593
0.595                   -1.67657         178.458         -46.7088        -114.802         -46.7088        -114.802       -0.0178985         144.516
0.596                   -1.75254         177.539         -46.4993        -116.757         -46.4993        -116.757       -0.0180861          144.44
0.597                    -1.8324         176.616         -46.2901        -118.731           -46.29        -118.731       -0.0182763         144.364
0.598                   -1.91636          175.69         -46.0813        -120.724         -46.0813        -120.724       -0.0184693         144.287
0.599                   -2.00463         174.762         -45.8732        -122.736         -45.8731        -122.736       -0.0186652          144.21
0.6                     -2.09743         173.833         -45.6659        -124.768         -45.6659        -124.768       -0.0188638         144.133
0.601                   -2.19501         172.905         -45.4598         -126.82         -45.4598         -126.82       -0.0190654         144.056
0.602                    -2.2976         171.978          -45.255        -128.893          -45.255        -128.893       -0.0192699         143.978
0.603                   -2.40543         171.055         -45.0519        -130.986         -45.0519        -130.986       -0.0194774           143.9
0.604                   -2.51877         170.137         -44.8506          -133.1         -44.8506          -133.1       -0.0196879         143.823
0.605                   -2.63787         169.227         -44.6514        -135.234         -44.6514        -135.235       -0.0199014         143.745
0.606                   -2.76296         168.327         -44.4546         -137.39         -44.4546         -137.39       -0.0201181         143.666
0.607                   -2.89431          167.44         -44.2604        -139.565         -44.2604        -139.566       -0.0203379         143.588
0.608                   -3.03214         166.569         -44.0691        -141.761         -44.0691        -141.761       -0.0205609         143.509
0.609                   -3.17669         165.717          -43.881        -143.976         -43.8811        -143.977       -0.0207871          143.43
0.61                    -3.32816         164.889         -43.6964        -146.211         -43.6964        -146.211       -0.0210166         143.351
0.611                   -3.48672         164.088         -43.5155        -148.463         -43.5155        -148.463       -0.0212494         143.272
0.612                   -3.65251          163.32         -43.3385        -150.732         -43.3386        -150.733       -0.0214855         143.192
0.613                   -3.82562         162.591         -43.1658        -153.018         -43.1659        -153.018       -0.0217251         143.113
0.614                   -4.00608         161.905         -42.9976        -155.319         -42.9976        -155.319       -0.0219681         143.033
0.615                   -4.19381          161.27          -42.834        -157.633         -42.8341        -157.633       -0.0222146         142.952
0.616                   -4.38867         160.692         -42.6754        -159.959         -42.6754        -159.959       -0.0224646         142.872
0.617                   -4.59037          160.18         -42.5219        -162.296         -42.5219        -162.296       -0.0227182         142.791
0.618                   -4.79847         159.741         -42.3736        -164.641         -42.3737        -164.641       -0.0229754          142.71
0.619                   -5.01236         159.384         -42.2308        -166.993         -42.2308        -166.993       -0.0232363         142.629
0.62                    -5.23121         159.118         -42.0935        -169.349         -42.0936        -169.349       -0.0235008         142.548
0.621                   -5.45393         158.953         -41.9619        -171.708          -41.962        -171.708       -0.0237691         142.466
0.622                   -5.67919         158.896          -41.836        -174.068         -41.8361        -174.068       -0.0240412         142.385
0.623                    -5.9053         158.957         -41.7159        -176.426          -41.716        -176.426       -0.0243171         142.302
0.624                   -6.13026         159.144         -41.6016         -178.78         -41.6016         -178.78       -0.0245968          142.22
0.625                    -6.3517         159.463          -41.493         178.872          -41.493         178.872       -0.0248804         142.138
0.626                   -6.56693         159.918         -41.3901         176.533         -41.3901         176.533        -0.025168         142.055
0.627                    -6.7729         160.512         -41.2928         174.204         -41.2928         174.204       -0.0254595         141.972
0.628                   -6.96633         161.243          -41.201         171.887          -41.201         171.887        -0.025755         141.888
0.629                   -7.14377         162.105         -41.1146         169.585         -41.1146         169.585       -0.0260545         141.805
