! TOUCHSTONE file generated by CST MICROWAVE STUDIO
! Date and time: Sat Nov 14 20:02:36 2020
! Project name: Scenario_1_Planar_Body_Tissue_Out_of_Line.cst
! Parameters = {dy1=-173; L_HA=400; Ltissue=700; MT=2.54; Rad_Dielectric=30; Rad_Lower=7.3; Rad_Upper=30; Wtissue=700; a_HA=580; a_WG=246; b_HA=500; b_WG=121; c_HA=0; c_WG=187; d_feed=85; dx1=693; h_feed=15; h_lower=18; h_upper=40; hfat=3; hgap=25; hmuscle=50; hskin=1.5}
! Header version: 2018
! Port assignment regex: !\s*Touchstone port\s*([0-9]+)\s*=\s*(CST MWS port|CST DS port)\s*([0-9]+|Zmin|Zmax)\s*\(\"(.*)\"\)(\s*mode\s*([0-9]+))?.*
! Touchstone port assignment:
! Touchstone port 1 = CST MWS port 1 ("")
! Touchstone port 2 = CST MWS port 2 ("")
# GHz S DB R 50
0.5                    -0.191042         -121.62         -61.9621         -175.08         -61.9622        -175.081      -0.00777281         151.158
0.501                  -0.192527        -122.044         -61.9096        -176.254         -61.9097        -176.255      -0.00783152         151.092
0.502                  -0.194089        -122.471         -61.8553        -177.441         -61.8554        -177.443      -0.00789093         151.027
0.503                  -0.195731          -122.9         -61.7991        -178.642         -61.7992        -178.643      -0.00795104         150.962
0.504                  -0.197458        -123.332         -61.7409        -179.855          -61.741        -179.856      -0.00801186         150.896
0.505                  -0.199272        -123.767         -61.6806         178.919         -61.6807         178.917       -0.0080734         150.831
0.506                  -0.201176        -124.204         -61.6183          177.68         -61.6184         177.678      -0.00813567         150.765
0.507                  -0.203175        -124.645         -61.5539         176.428          -61.554         176.426      -0.00819866           150.7
0.508                  -0.205272        -125.088         -61.4873         175.163         -61.4874         175.161       -0.0082624         150.634
0.509                  -0.207472        -125.535         -61.4184         173.884         -61.4185         173.882      -0.00832689         150.568
0.51                    -0.20978        -125.985         -61.3472         172.593         -61.3473         172.591      -0.00839214         150.502
0.511                  -0.212199        -126.437         -61.2737         171.288         -61.2737         171.286      -0.00845815         150.437
0.512                  -0.214735        -126.893         -61.1977          169.97         -61.1977         169.968      -0.00852494         150.371
0.513                  -0.217393        -127.352         -61.1192          168.64         -61.1193         168.637      -0.00859251         150.304
0.514                  -0.220179        -127.815         -61.0382         167.296         -61.0383         167.293      -0.00866087         150.238
0.515                  -0.223099        -128.281         -60.9546         165.938         -60.9547         165.936      -0.00873004         150.172
0.516                  -0.226159         -128.75         -60.8684         164.568         -60.8684         164.566      -0.00880002         150.106
0.517                  -0.229366        -129.223         -60.7794         163.185         -60.7794         163.182      -0.00887081         150.039
0.518                  -0.232727          -129.7         -60.6877         161.789         -60.6877         161.786      -0.00894244         149.973
0.519                  -0.236251         -130.18         -60.5931         160.379         -60.5931         160.376       -0.0090149         149.906
0.52                   -0.239944        -130.664         -60.4956         158.957         -60.4956         158.954      -0.00908822         149.839
0.521                  -0.243816        -131.151         -60.3952         157.521         -60.3952         157.519      -0.00916239         149.773
0.522                  -0.247876        -131.643         -60.2918         156.073         -60.2918          156.07      -0.00923744         149.706
0.523                  -0.252135        -132.139         -60.1854         154.612         -60.1854         154.609      -0.00931337         149.639
0.524                  -0.256601        -132.638         -60.0759         153.138         -60.0758         153.135      -0.00939019         149.572
0.525                  -0.261288        -133.142         -59.9632         151.651         -59.9631         151.648      -0.00946791         149.505
0.526                  -0.266207         -133.65         -59.8473         150.151         -59.8472         150.148      -0.00954655         149.437
0.527                  -0.271372        -134.163         -59.7281         148.638         -59.7281         148.636      -0.00962612          149.37
0.528                  -0.276795         -134.68         -59.6057         147.113         -59.6056          147.11      -0.00970663         149.303
0.529                  -0.282492        -135.201         -59.4799         145.575         -59.4798         145.572      -0.00978809         149.235
0.53                   -0.288479        -135.727         -59.3507         144.023         -59.3507         144.021      -0.00987051         149.167
0.531                  -0.294774        -136.258         -59.2181         142.459          -59.218         142.457      -0.00995392           149.1
0.532                  -0.301394        -136.794          -59.082         140.883          -59.082          140.88       -0.0100383         149.032
0.533                   -0.30836        -137.335         -58.9424         139.293         -58.9424          139.29       -0.0101237         148.964
0.534                  -0.315693        -137.881         -58.7993          137.69         -58.7992         137.687       -0.0102101         148.896
0.535                  -0.323416        -138.432         -58.6526         136.074         -58.6525         136.071       -0.0102976         148.828
0.536                  -0.331554        -138.988         -58.5022         134.445         -58.5022         134.442       -0.0103861          148.76
0.537                  -0.340134         -139.55         -58.3483         132.802         -58.3482           132.8       -0.0104757         148.691
0.538                  -0.349185        -140.118         -58.1906         131.146         -58.1905         131.144       -0.0105664         148.623
0.539                  -0.358738        -140.691         -58.0293         129.477         -58.0292         129.474       -0.0106581         148.554
0.54                   -0.368826         -141.27         -57.8642         127.793         -57.8641          127.79        -0.010751         148.486
0.541                  -0.379487        -141.855         -57.6954         126.095         -57.6953         126.093       -0.0108451         148.417
0.542                  -0.390759        -142.446         -57.5228         124.383         -57.5227          124.38       -0.0109402         148.348
0.543                  -0.402686        -143.043         -57.3465         122.655         -57.3464         122.653       -0.0110366         148.279
0.544                  -0.415314        -143.647         -57.1663         120.913         -57.1662         120.911       -0.0111342          148.21
0.545                  -0.428694        -144.258         -56.9824         119.155         -56.9823         119.153        -0.011233         148.141
0.546                  -0.442879        -144.874         -56.7947         117.381         -56.7946         117.379        -0.011333         148.072
0.547                  -0.457929        -145.498         -56.6033          115.59         -56.6032         115.588       -0.0114344         148.003
0.548                  -0.473909        -146.128          -56.408         113.782         -56.4079         113.781        -0.011537         147.933
0.549                  -0.490887        -146.766          -56.209         111.957         -56.2089         111.955       -0.0116409         147.863
0.55                    -0.50894         -147.41         -56.0062         110.112         -56.0061         110.111       -0.0117462         147.794
0.551                   -0.52815        -148.062         -55.7996         108.249         -55.7996         108.247        -0.011853         147.724
0.552                  -0.548605        -148.721         -55.5894         106.365         -55.5893         106.363       -0.0119611         147.654
0.553                  -0.570403        -149.386         -55.3755          104.46         -55.3755         104.459       -0.0120707         147.584
0.554                  -0.593648         -150.06          -55.158         102.533         -55.1579         102.532       -0.0121818         147.514
0.555                  -0.618453         -150.74         -54.9369         100.583         -54.9369         100.582       -0.0122944         147.443
0.556                  -0.644942        -151.427         -54.7124         98.6092         -54.7123         98.6079       -0.0124087         147.373
0.557                  -0.673246        -152.121         -54.4843         96.6096         -54.4843         96.6084       -0.0125245         147.302
0.558                  -0.703509        -152.822          -54.253         94.5832         -54.2529         94.5821       -0.0126421         147.232
0.559                  -0.735885        -153.529         -54.0184         92.5288         -54.0184         92.5277       -0.0127614         147.161
0.56                   -0.770537        -154.242         -53.7807         90.4447         -53.7807         90.4437       -0.0128826          147.09
0.561                  -0.807642         -154.96           -53.54         88.3294           -53.54         88.3285       -0.0130056         147.019
0.562                  -0.847386        -155.683         -53.2966         86.1814         -53.2965         86.1806       -0.0131305         146.948
0.563                  -0.889966         -156.41         -53.0504         83.9988         -53.0504         83.9981       -0.0132575         146.876
0.564                  -0.935588        -157.141         -52.8019           81.78         -52.8018         81.7794       -0.0133866         146.805
0.565                  -0.984465        -157.873         -52.5511         79.5231         -52.5511         79.5225       -0.0135179         146.733
0.566                   -1.03682        -158.605         -52.2984         77.2261         -52.2984         77.2256       -0.0136516         146.661
0.567                   -1.09286        -159.335         -52.0441         74.8871         -52.0441         74.8867       -0.0137876          146.59
0.568                   -1.15281        -160.063         -51.7885         72.5042         -51.7884         72.5039       -0.0139262         146.518
0.569                   -1.21687        -160.784         -51.5319         70.0754         -51.5319         70.0752       -0.0140674         146.445
0.57                    -1.28523        -161.496         -51.2749         67.5988         -51.2749         67.5987       -0.0142114         146.373
0.571                   -1.35804        -162.196         -51.0178         65.0726         -51.0178         65.0725       -0.0143583         146.301
0.572                   -1.43542        -162.881         -50.7612         62.4948         -50.7612         62.4948       -0.0145082         146.228
0.573                    -1.5174        -163.545         -50.5057          59.864         -50.5057         59.8641       -0.0146614         146.155
0.574                   -1.60396        -164.185         -50.2519         57.1787         -50.2519         57.1788       -0.0148179         146.083
0.575                   -1.69496        -164.794         -50.0004         54.4378         -50.0004          54.438       -0.0149778          146.01
0.576                   -1.79013        -165.368          -49.752         51.6404          -49.752         51.6406       -0.0151414         145.936
0.577                   -1.88906        -165.901         -49.5075          48.786         -49.5075         48.7863       -0.0153086         145.863
0.578                   -1.99114        -166.387         -49.2677         45.8748         -49.2678         45.8751       -0.0154797          145.79
0.579                   -2.09556         -166.82         -49.0335         42.9072         -49.0336         42.9076       -0.0156546         145.716
0.58                     -2.2013        -167.195         -48.8058         39.8845         -48.8059         39.8849       -0.0158334         145.642
0.581                   -2.30711        -167.507         -48.5855         36.8085         -48.5856         36.8089        -0.016016         145.569
0.582                    -2.4115        -167.753         -48.3736         33.6819         -48.3736         33.6824       -0.0162023         145.494
0.583                   -2.51283        -167.932         -48.1708         30.5081         -48.1709         30.5086       -0.0163921          145.42
0.584                    -2.6093        -168.045         -47.9783         27.2913         -47.9783         27.2919       -0.0165852         145.346
0.585                   -2.69905        -168.094         -47.7967         24.0367         -47.7967         24.0374       -0.0167812         145.272
0.586                   -2.78025        -168.085         -47.6268         20.7502         -47.6268         20.7508       -0.0169798         145.197
0.587                   -2.85124        -168.027         -47.4693         17.4383         -47.4693          17.439       -0.0171804         145.122
0.588                   -2.91059        -167.931         -47.3247         14.1084         -47.3248         14.1091       -0.0173826         145.047
0.589                   -2.95723        -167.809         -47.1935         10.7682         -47.1936          10.769       -0.0175858         144.972
0.59                    -2.99055        -167.677         -47.0759         7.42609         -47.0759         7.42689       -0.0177896         144.897
0.591                   -3.01037        -167.548          -46.972         4.09045          -46.972         4.09128       -0.0179934         144.822
0.592                   -3.01703        -167.439         -46.8816        0.769806         -46.8817         0.77067       -0.0181969         144.747
0.593                   -3.01127        -167.361         -46.8046        -2.52748         -46.8047        -2.52658       -0.0183998         144.671
0.594                   -2.99421        -167.327         -46.7406        -5.79334         -46.7406        -5.79241       -0.0186018         144.595
0.595                   -2.96723        -167.347          -46.689        -9.02019          -46.689        -9.01923       -0.0188029         144.519
0.596                   -2.93188        -167.427          -46.649        -12.2011         -46.6491        -12.2001        -0.019003         144.443
0.597                   -2.88977        -167.573           -46.62        -15.3297         -46.6201        -15.3287       -0.0192023         144.367
0.598                   -2.84252        -167.787          -46.601        -18.4008          -46.601        -18.3997        -0.019401          144.29
0.599                   -2.79162        -168.071          -46.591        -21.4096          -46.591        -21.4086       -0.0195993         144.213
0.6                     -2.73848        -168.423         -46.5891        -24.3526         -46.5891        -24.3515       -0.0197976         144.137
0.601                   -2.68432         -168.84         -46.5941         -27.227         -46.5941        -27.2259       -0.0199961         144.059
0.602                    -2.6302        -169.322         -46.6051        -30.0309         -46.6051        -30.0297       -0.0201953         143.982
0.603                   -2.57702        -169.863          -46.621         -32.763          -46.621        -32.7619       -0.0203955         143.905
0.604                    -2.5255         -170.46         -46.6407        -35.4231         -46.6407         -35.422       -0.0205969         143.827
0.605                   -2.47623         -171.11         -46.6634        -38.0115         -46.6634        -38.0103       -0.0208001         143.749
0.606                   -2.42968        -171.808         -46.6881         -40.529         -46.6881        -40.5278       -0.0210051         143.671
0.607                   -2.38618         -172.55         -46.7139        -42.9771         -46.7139        -42.9759       -0.0212124         143.592
0.608                   -2.34602        -173.334         -46.7399        -45.3576         -46.7399        -45.3565       -0.0214221         143.514
0.609                   -2.30936        -174.156         -46.7655         -47.673         -46.7655        -47.6719       -0.0216345         143.435
0.61                    -2.27633        -175.013           -46.79        -49.9257         -46.7899        -49.9246       -0.0218498         143.356
0.611                   -2.24702        -175.903         -46.8126        -52.1186         -46.8125        -52.1175       -0.0220681         143.277
0.612                   -2.22147        -176.823         -46.8328        -54.2548         -46.8327        -54.2538       -0.0222896         143.197
0.613                    -2.1997        -177.771         -46.8501        -56.3376           -46.85        -56.3367       -0.0225144         143.117
0.614                   -2.18172        -178.746          -46.864        -58.3704         -46.8639        -58.3695       -0.0227428         143.038
0.615                    -2.1675        -179.746         -46.8741        -60.3566          -46.874        -60.3558       -0.0229747         142.957
0.616                   -2.15705          179.23         -46.8801        -62.2998           -46.88        -62.2991       -0.0232102         142.877
0.617                   -2.15035         178.183         -46.8816        -64.2036         -46.8815         -64.203       -0.0234496         142.796
0.618                   -2.14737         177.115         -46.8785        -66.0716         -46.8784         -66.071       -0.0236929         142.715
0.619                   -2.14812         176.025         -46.8704        -67.9073         -46.8703        -67.9069       -0.0239401         142.634
0.62                    -2.15259         174.915         -46.8573        -69.7144         -46.8572         -69.714       -0.0241913         142.553
0.621                   -2.16079         173.785         -46.8389        -71.4964         -46.8388        -71.4961       -0.0244466         142.471
0.622                   -2.17273         172.634         -46.8153        -73.2567         -46.8152        -73.2565       -0.0247062         142.389
0.623                   -2.18844         171.465         -46.7864        -74.9988         -46.7863        -74.9987         -0.02497         142.307
0.624                   -2.20796         170.275         -46.7522        -76.7259         -46.7521        -76.7259       -0.0252381         142.225
0.625                   -2.23135         169.067         -46.7126        -78.4413         -46.7125        -78.4413       -0.0255107         142.142
0.626                   -2.25867         167.839         -46.6678        -80.1481         -46.6677        -80.1482       -0.0257877         142.059
0.627                   -2.29001         166.591         -46.6179        -81.8493         -46.6178        -81.8494       -0.0260693         141.976
0.628                   -2.32545         165.324         -46.5629        -83.5477         -46.5629        -83.5479       -0.0263555         141.893
0.629                   -2.36511         164.038         -46.5031        -85.2461          -46.503        -85.2464       -0.0266465         141.809
