! TOUCHSTONE file generated by CST MICROWAVE STUDIO
! Date and time: Mon Nov 30 08:10:18 2020
! Project name: Scenario_1_Planar_Body_Tissue_Out_of_Line.cst
! Parameters = {dy1=173; L_HA=400; Ltissue=700; MT=2.54; Rad_Dielectric=30; Rad_Lower=7.3; Rad_Upper=30; Wtissue=700; a_HA=580; a_WG=246; b_HA=500; b_WG=121; c_HA=0; c_WG=187; d_feed=85; dx1=866; h_feed=15; h_lower=18; h_upper=40; hfat=3; hgap=25; hmuscle=50; hskin=1.5}
! Header version: 2018
! Port assignment regex: !\s*Touchstone port\s*([0-9]+)\s*=\s*(CST MWS port|CST DS port)\s*([0-9]+|Zmin|Zmax)\s*\(\"(.*)\"\)(\s*mode\s*([0-9]+))?.*
! Touchstone port assignment:
! Touchstone port 1 = CST MWS port 1 ("")
! Touchstone port 2 = CST MWS port 2 ("")
# GHz S DB R 50
0.5                    -0.110565        -122.114         -64.2006         98.3835         -64.1999         98.3863      -0.00749493         151.159
0.501                  -0.124628        -122.544         -64.0071         94.3775         -64.0064         94.3812      -0.00757614         151.093
0.502                    -0.1388        -122.976         -63.7963         90.4799         -63.7956         90.4845      -0.00765772         151.028
0.503                  -0.153081        -123.409         -63.5707         86.6959           -63.57         86.7013      -0.00773967         150.963
0.504                  -0.167473        -123.843         -63.3327         83.0283          -63.332         83.0343        -0.007822         150.897
0.505                  -0.181976        -124.279         -63.0846         79.4777         -63.0839         79.4842      -0.00790472         150.832
0.506                  -0.196593        -124.717         -62.8284         76.0426         -62.8277         76.0496      -0.00798784         150.766
0.507                  -0.211325        -125.156          -62.566         72.7204         -62.5654         72.7277      -0.00807136         150.701
0.508                  -0.226172        -125.596         -62.2991         69.5072         -62.2986         69.5148       -0.0081553         150.635
0.509                  -0.241137        -126.038         -62.0293         66.3984         -62.0288         66.4061      -0.00823966         150.569
0.51                   -0.256221        -126.481         -61.7577         63.3887         -61.7573         63.3965      -0.00832446         150.504
0.511                  -0.271425        -126.927         -61.4855         60.4727         -61.4851         60.4804      -0.00840969         150.438
0.512                  -0.286751        -127.373         -61.2137         57.6446         -61.2133         57.6522      -0.00849538         150.372
0.513                  -0.302201        -127.821          -60.943         54.8988         -60.9427         54.9063      -0.00858153         150.305
0.514                  -0.317776        -128.271         -60.6741         52.2297         -60.6738         52.2369      -0.00866815         150.239
0.515                  -0.333478        -128.723         -60.4075         49.6317         -60.4073         49.6387      -0.00875524         150.173
0.516                  -0.349309        -129.176         -60.1437         47.0998         -60.1436         47.1065      -0.00884283         150.107
0.517                   -0.36527        -129.631         -59.8831         44.6289         -59.8829         44.6352      -0.00893093          150.04
0.518                  -0.381364        -130.088         -59.6258         42.2142         -59.6258         42.2201      -0.00901953         149.974
0.519                  -0.397593        -130.546         -59.3723         39.8513         -59.3722         39.8569      -0.00910865         149.907
0.52                   -0.413959        -131.007         -59.1225          37.536         -59.1225         37.5412      -0.00919831         149.841
0.521                  -0.430464        -131.469         -58.8767         35.2645         -58.8767         35.2691      -0.00928851         149.774
0.522                   -0.44711        -131.932         -58.6348         33.0329         -58.6349         33.0371      -0.00937927         149.707
0.523                  -0.463899        -132.398         -58.3971         30.8379         -58.3972         30.8416       -0.0094706          149.64
0.524                  -0.480835        -132.865         -58.1635         28.6763         -58.1636         28.6796       -0.0095625         149.573
0.525                  -0.497918        -133.335         -57.9339         26.5451          -57.934         26.5479        -0.009655         149.506
0.526                  -0.515153        -133.806         -57.7085         24.4416         -57.7086         24.4438      -0.00974809         149.439
0.527                  -0.532542        -134.279         -57.4872         22.3631         -57.4873         22.3649      -0.00984181         149.371
0.528                  -0.550087        -134.755         -57.2698         20.3073           -57.27         20.3086      -0.00993615         149.304
0.529                  -0.567791        -135.232         -57.0565         18.2719         -57.0567         18.2727       -0.0100311         149.237
0.53                   -0.585658        -135.711         -56.8472         16.2549         -56.8474         16.2551       -0.0101268         149.169
0.531                  -0.603691        -136.193         -56.6417         14.2542         -56.6419          14.254       -0.0102231         149.101
0.532                  -0.621892        -136.676           -56.44         12.2682         -56.4402         12.2674         -0.01032         149.034
0.533                  -0.640266        -137.162         -56.2421          10.295         -56.2424         10.2937       -0.0104177         148.966
0.534                  -0.658816        -137.649         -56.0479         8.33306         -56.0482         8.33129       -0.0105161         148.898
0.535                  -0.677545        -138.139         -55.8573         6.38093         -55.8576         6.37868       -0.0106152          148.83
0.536                  -0.696457        -138.631         -55.6703          4.4372         -55.6706         4.43446       -0.0107151         148.762
0.537                  -0.715557        -139.126         -55.4868         2.50054         -55.4871         2.49733       -0.0108157         148.693
0.538                  -0.734849        -139.622         -55.3067        0.569734          -55.307        0.566048        -0.010917         148.625
0.539                  -0.754336        -140.121         -55.1299        -1.35639         -55.1303        -1.36054       -0.0110192         148.557
0.54                   -0.774024        -140.623         -54.9565        -3.27893         -54.9568        -3.28353       -0.0111221         148.488
0.541                  -0.793917        -141.127         -54.7863        -5.19892         -54.7866        -5.20396       -0.0112259         148.419
0.542                  -0.814021        -141.633         -54.6192        -7.11733         -54.6196         -7.1228       -0.0113304         148.351
0.543                   -0.83434        -142.141         -54.4553        -9.03509         -54.4557        -9.04097       -0.0114359         148.282
0.544                  -0.854879        -142.653         -54.2944        -10.9531         -54.2948        -10.9594       -0.0115422         148.213
0.545                  -0.875645        -143.166         -54.1364        -12.8721         -54.1368        -12.8788       -0.0116493         148.144
0.546                  -0.896644        -143.683         -53.9814         -14.793         -53.9819           -14.8       -0.0117574         148.075
0.547                  -0.917881        -144.202         -53.8293        -16.7164         -53.8297        -16.7239       -0.0118664         148.005
0.548                  -0.939363        -144.723           -53.68        -18.6432         -53.6805         -18.651       -0.0119763         147.936
0.549                  -0.961097        -145.248         -53.5335        -20.5739         -53.5339        -20.5821       -0.0120872         147.866
0.55                    -0.98309        -145.775         -53.3897        -22.5093         -53.3901        -22.5177        -0.012199         147.797
0.551                   -1.00535        -146.305         -53.2485        -24.4499          -53.249        -24.4586       -0.0123118         147.727
0.552                   -1.02788        -146.838           -53.11        -26.3963         -53.1105        -26.4054       -0.0124256         147.657
0.553                    -1.0507        -147.374         -52.9741        -28.3491         -52.9746        -28.3584       -0.0125405         147.587
0.554                   -1.07381        -147.913         -52.8407        -30.3088         -52.8413        -30.3184       -0.0126564         147.517
0.555                   -1.09722        -148.454         -52.7099        -32.2759         -52.7104        -32.2857       -0.0127734         147.447
0.556                   -1.12093        -148.999         -52.5814        -34.2509          -52.582         -34.261       -0.0128914         147.377
0.557                   -1.14497        -149.547         -52.4555        -36.2343          -52.456        -36.2445       -0.0130106         147.306
0.558                   -1.16934        -150.098         -52.3319        -38.2264         -52.3325        -38.2369       -0.0131309         147.236
0.559                   -1.19405        -150.653         -52.2106        -40.2278         -52.2112        -40.2384       -0.0132523         147.165
0.56                    -1.21912        -151.211         -52.0917        -42.2387         -52.0923        -42.2495        -0.013375         147.094
0.561                   -1.24455        -151.772         -51.9751        -44.2596         -51.9757        -44.2706       -0.0134988         147.023
0.562                   -1.27036        -152.336         -51.8607        -46.2909         -51.8614        -46.3019       -0.0136238         146.952
0.563                   -1.29656        -152.904         -51.7486        -48.3328         -51.7492        -48.3439       -0.0137501         146.881
0.564                   -1.32317        -153.476         -51.6386        -50.3856         -51.6393        -50.3969       -0.0138776          146.81
0.565                    -1.3502        -154.051         -51.5309        -52.4498         -51.5315        -52.4611       -0.0140065         146.738
0.566                   -1.37768         -154.63         -51.4252        -54.5254         -51.4259        -54.5368       -0.0141366         146.666
0.567                   -1.40561        -155.212         -51.3217        -56.6128         -51.3224        -56.6243       -0.0142681         146.595
0.568                   -1.43401        -155.798         -51.2203        -58.7123          -51.221        -58.7237        -0.014401         146.523
0.569                   -1.46292        -156.388         -51.1209         -60.824         -51.1217        -60.8354       -0.0145352         146.451
0.57                    -1.49233        -156.982         -51.0236        -62.9481         -51.0244        -62.9595       -0.0146709         146.379
0.571                   -1.52229        -157.581         -50.9283        -65.0847          -50.929        -65.0961        -0.014808         146.307
0.572                   -1.55281        -158.183          -50.835        -67.2342         -50.8357        -67.2455       -0.0149466         146.234
0.573                   -1.58392        -158.789         -50.7436        -69.3964         -50.7444        -69.4077       -0.0150867         146.162
0.574                   -1.61564        -159.399         -50.6542        -71.5717         -50.6549        -71.5828       -0.0152284         146.089
0.575                     -1.648        -160.014         -50.5667          -73.76         -50.5674         -73.771       -0.0153716         146.016
0.576                   -1.68104        -160.633          -50.481        -75.9615         -50.4818        -75.9724       -0.0155163         145.943
0.577                   -1.71478        -161.256         -50.3972        -78.1761          -50.398        -78.1869       -0.0156628          145.87
0.578                   -1.74926        -161.884         -50.3153        -80.4039          -50.316        -80.4145       -0.0158108         145.797
0.579                   -1.78452        -162.517         -50.2351        -82.6449         -50.2359        -82.6553       -0.0159606         145.723
0.58                     -1.8206        -163.154         -50.1567        -84.8991         -50.1575        -84.9093        -0.016112          145.65
0.581                   -1.85754        -163.795           -50.08        -87.1664         -50.0808        -87.1764       -0.0162652         145.576
0.582                   -1.89538        -164.442         -50.0051        -89.4467         -50.0058        -89.4565       -0.0164202         145.502
0.583                   -1.93418        -165.093         -49.9318          -91.74         -49.9326        -91.7496        -0.016577         145.428
0.584                   -1.97399        -165.748         -49.8602        -94.0461         -49.8609        -94.0555       -0.0167357         145.354
0.585                   -2.01487        -166.409         -49.7901         -96.365         -49.7909        -96.3741       -0.0168962         145.279
0.586                   -2.05688        -167.074         -49.7217        -98.6963         -49.7224        -98.7052       -0.0170587         145.205
0.587                   -2.10008        -167.744         -49.6548         -101.04         -49.6555        -101.049       -0.0172231          145.13
0.588                   -2.14455        -168.419         -49.5893        -103.396           -49.59        -103.404       -0.0173895         145.055
0.589                   -2.19036        -169.099         -49.5253        -105.764          -49.526        -105.772        -0.017558          144.98
0.59                     -2.2376        -169.783         -49.4628        -108.143         -49.4635        -108.151       -0.0177285         144.905
0.591                   -2.28636        -170.472         -49.4016        -110.534         -49.4022        -110.541       -0.0179012          144.83
0.592                   -2.33673        -171.166         -49.3417        -112.936         -49.3423        -112.943        -0.018076         144.754
0.593                   -2.38883        -171.863         -49.2831        -115.348         -49.2837        -115.355       -0.0182531         144.678
0.594                   -2.44276        -172.565         -49.2257        -117.771         -49.2263        -117.778       -0.0184323         144.602
0.595                   -2.49865        -173.271         -49.1694        -120.205           -49.17        -120.211       -0.0186139         144.526
0.596                   -2.55664         -173.98         -49.1143        -122.647         -49.1149        -122.653       -0.0187978          144.45
0.597                   -2.61687        -174.693         -49.0603        -125.099         -49.0608        -125.105       -0.0189841         144.374
0.598                   -2.67949        -175.408         -49.0072         -127.56         -49.0078        -127.566       -0.0191728         144.297
0.599                   -2.74467        -176.125         -48.9551         -130.03         -48.9557        -130.034        -0.019364          144.22
0.6                      -2.8126        -176.843         -48.9039        -132.507         -48.9044        -132.511       -0.0195578         144.143
0.601                   -2.88347        -177.561         -48.8535        -134.992          -48.854        -134.996       -0.0197541         144.066
0.602                   -2.95749        -178.279         -48.8039        -137.483         -48.8044        -137.487       -0.0199531         143.988
0.603                   -3.03488        -178.995          -48.755        -139.982         -48.7554        -139.985       -0.0201548         143.911
0.604                   -3.11586        -179.707         -48.7067        -142.486         -48.7071        -142.489       -0.0203592         143.833
0.605                   -3.20069         179.587          -48.659        -144.996         -48.6594        -144.999       -0.0205665         143.755
0.606                   -3.28961         178.888         -48.6118         -147.51         -48.6121        -147.513       -0.0207767         143.677
0.607                   -3.38288           178.2          -48.565        -150.029         -48.5653        -150.032       -0.0209898         143.598
0.608                   -3.48075         177.526         -48.5186        -152.552         -48.5189        -152.555        -0.021206          143.52
0.609                   -3.58345          176.87         -48.4725        -155.079         -48.4727        -155.081       -0.0214253         143.441
0.61                    -3.69118         176.235         -48.4266        -157.608         -48.4268         -157.61       -0.0216478         143.362
0.611                   -3.80411         175.629         -48.3808        -160.139         -48.3811        -160.141       -0.0218735         143.283
0.612                   -3.92232         175.057         -48.3352        -162.672         -48.3354        -162.673       -0.0221027         143.203
0.613                   -4.04579         174.526         -48.2896        -165.206         -48.2898        -165.207       -0.0223354         143.123
0.614                   -4.17433         174.045          -48.244        -167.741         -48.2442        -167.742       -0.0225717         143.043
0.615                   -4.30755         173.623         -48.1983        -170.276         -48.1984        -170.276       -0.0228117         142.963
0.616                   -4.44476          173.27         -48.1524         -172.81         -48.1525         -172.81       -0.0230557         142.883
0.617                   -4.58488         172.999         -48.1062        -175.343         -48.1063        -175.343       -0.0233038         142.802
0.618                   -4.72638         172.822         -48.0598        -177.875         -48.0599        -177.875       -0.0235563         142.721
0.619                    -4.8671         172.749          -48.013         179.596         -48.0131         179.596       -0.0238133          142.64
0.62                    -5.00424          172.79         -47.9658         177.069         -47.9658         177.069       -0.0240754         142.559
0.621                   -5.13425         172.954         -47.9181         174.545         -47.9181         174.546       -0.0243428         142.477
0.622                   -5.25282         173.244         -47.8699         172.025         -47.8699         172.025       -0.0246161         142.395
0.623                    -5.3551         173.653         -47.8211         169.508         -47.8211         169.509        -0.024896         142.313
0.624                   -5.43589          174.17         -47.7716         166.996         -47.7716         166.997       -0.0251835         142.231
0.625                   -5.49019         174.769         -47.7215         164.489         -47.7214          164.49       -0.0254797         142.148
0.626                   -5.51377         175.415         -47.6706         161.987         -47.6705         161.988       -0.0257863         142.065
0.627                   -5.50385         176.064         -47.6189          159.49         -47.6188         159.491       -0.0261051         141.982
0.628                   -5.45972         176.662         -47.5664         156.999         -47.5663             157       -0.0264388         141.898
0.629                   -5.38301         177.159          -47.513         154.514         -47.5129         154.515       -0.0267898         141.815
