! TOUCHSTONE file generated by CST MICROWAVE STUDIO
! Date and time: Sat Nov 14 20:41:12 2020
! Project name: Scenario_1_Planar_Body_Tissue_Out_of_Line_v2.cst
! Parameters = {dy1=-190.3; L_HA=400; Ltissue=700; MT=2.54; Rad_Dielectric=30; Rad_Lower=7.3; Rad_Upper=30; Wtissue=700; a_HA=580; a_WG=246; b_HA=500; b_WG=121; c_HA=0; c_WG=187; d_feed=85; dx1=173; h_feed=15; h_lower=18; h_upper=40; hfat=3; hgap=25; hmuscle=50; hskin=1.5}
! Header version: 2018
! Port assignment regex: !\s*Touchstone port\s*([0-9]+)\s*=\s*(CST MWS port|CST DS port)\s*([0-9]+|Zmin|Zmax)\s*\(\"(.*)\"\)(\s*mode\s*([0-9]+))?.*
! Touchstone port assignment:
! Touchstone port 1 = CST MWS port 1 ("")
! Touchstone port 2 = CST MWS port 2 ("")
# GHz S DB R 50
0.5                   -0.0497679         -121.75         -60.4422         128.687         -60.4421         128.685      -0.00684766         151.143
0.501                 -0.0509274        -122.199         -60.2601         128.085         -60.2599         128.083      -0.00689992         151.077
0.502                 -0.0521698        -122.651         -60.0758         127.481         -60.0756         127.478      -0.00695322         151.012
0.503                 -0.0534997        -123.107         -59.8892         126.872          -59.889          126.87      -0.00700757         150.946
0.504                 -0.0549221        -123.566         -59.7004         126.261         -59.7001         126.258      -0.00706296         150.881
0.505                 -0.0564422        -124.029         -59.5093         125.645         -59.5089         125.642       -0.0071194         150.815
0.506                 -0.0580657        -124.496         -59.3157         125.026         -59.3153         125.022      -0.00717689         150.749
0.507                 -0.0597988        -124.967         -59.1198         124.402         -59.1194         124.398      -0.00723542         150.683
0.508                 -0.0616478        -125.441         -58.9214         123.774         -58.9209          123.77        -0.007295         150.618
0.509                 -0.0636199         -125.92         -58.7204         123.141           -58.72         123.137      -0.00735563         150.551
0.51                  -0.0657225        -126.402          -58.517         122.504         -58.5165         122.499      -0.00741731         150.485
0.511                 -0.0679638        -126.889         -58.3108         121.861         -58.3103         121.856      -0.00748003         150.419
0.512                 -0.0703525        -127.381         -58.1021         121.213         -58.1015         121.208       -0.0075438         150.353
0.513                 -0.0728982        -127.877         -57.8905          120.56           -57.89         120.555      -0.00760862         150.287
0.514                 -0.0756109        -128.378         -57.6762           119.9         -57.6757         119.895      -0.00767448          150.22
0.515                 -0.0785018        -128.883         -57.4591         119.234         -57.4585         119.229      -0.00774138         150.154
0.516                 -0.0815828        -129.393         -57.2391         118.562         -57.2385         118.557      -0.00780932         150.087
0.517                 -0.0848669        -129.909          -57.016         117.883         -57.0155         117.877      -0.00787829          150.02
0.518                 -0.0883682         -130.43           -56.79         117.196         -56.7894         117.191       -0.0079483         149.954
0.519                 -0.0921019        -130.956         -56.5608         116.502         -56.5602         116.497      -0.00801933         149.887
0.52                  -0.0960846        -131.488         -56.3285           115.8         -56.3279         115.794      -0.00809138          149.82
0.521                  -0.100335        -132.025         -56.0929         115.088         -56.0923         115.083      -0.00816446         149.753
0.522                  -0.104871        -132.569         -55.8539         114.368         -55.8534         114.363      -0.00823854         149.686
0.523                  -0.109717        -133.119         -55.6116         113.638         -55.6111         113.633      -0.00831362         149.619
0.524                  -0.114894        -133.675         -55.3658         112.898         -55.3653         112.893      -0.00838969         149.551
0.525                   -0.12043        -134.238         -55.1165         112.147          -55.116         112.142      -0.00846675         149.484
0.526                  -0.126351        -134.807         -54.8634         111.385          -54.863          111.38      -0.00854478         149.416
0.527                   -0.13269        -135.384         -54.6067          110.61         -54.6062         110.605      -0.00862376         149.349
0.528                   -0.13948        -135.969         -54.3461         109.822         -54.3457         109.817      -0.00870369         149.281
0.529                  -0.146759        -136.561         -54.0816         109.021         -54.0812         109.016      -0.00878455         149.214
0.53                   -0.154569        -137.161         -53.8131         108.205         -53.8127           108.2      -0.00886632         149.146
0.531                  -0.162955        -137.769         -53.5404         107.373         -53.5401         107.369      -0.00894898         149.078
0.532                  -0.171967        -138.386         -53.2635         106.525         -53.2632         106.521      -0.00903251          149.01
0.533                  -0.181663        -139.012         -52.9824         105.659         -52.9821         105.655      -0.00911689         148.942
0.534                  -0.192103        -139.648         -52.6967         104.774         -52.6965         104.771      -0.00920209         148.873
0.535                  -0.203358        -140.293         -52.4066          103.87         -52.4064         103.866      -0.00928807         148.805
0.536                  -0.215503        -140.949         -52.1118         102.943         -52.1116          102.94      -0.00937482         148.737
0.537                  -0.228625        -141.615         -51.8122         101.994         -51.8121         101.991       -0.0094623         148.668
0.538                  -0.242819        -142.292         -51.5078         101.021         -51.5077         101.018      -0.00955047         148.599
0.539                  -0.258192        -142.981         -51.1984         100.021         -51.1983         100.019      -0.00963929         148.531
0.54                   -0.274863        -143.682         -50.8839         98.9932         -50.8838         98.9911      -0.00972872         148.462
0.541                  -0.292967        -144.396         -50.5642         97.9352         -50.5642         97.9335      -0.00981872         148.393
0.542                  -0.312655        -145.123         -50.2393          96.845         -50.2392         96.8436      -0.00990925         148.324
0.543                  -0.334097        -145.863         -49.9089         95.7202         -49.9088         95.7192       -0.0100003         148.255
0.544                  -0.357483        -146.618          -49.573         94.5582         -49.5729         94.5575       -0.0100917         148.185
0.545                   -0.38303        -147.388         -49.2315         93.3562         -49.2315         93.3558       -0.0101835         148.116
0.546                  -0.410982        -148.173         -48.8844         92.1111         -48.8844         92.1111       -0.0102757         148.046
0.547                  -0.441616        -148.975         -48.5315         90.8198         -48.5315         90.8201       -0.0103683         147.977
0.548                  -0.475244        -149.793         -48.1729         89.4785         -48.1729         89.4791       -0.0104612         147.907
0.549                  -0.512221        -150.628         -47.8086         88.0833         -47.8086         88.0843       -0.0105544         147.837
0.55                   -0.552951         -151.48         -47.4385         86.6302         -47.4385         86.6315       -0.0106481         147.767
0.551                  -0.597891         -152.35         -47.0627         85.1144         -47.0626          85.116       -0.0107424         147.696
0.552                  -0.647561        -153.238         -46.6813          83.531         -46.6813         83.5329       -0.0108374         147.626
0.553                   -0.70255        -154.143         -46.2945         81.8747         -46.2944         81.8769       -0.0109336         147.556
0.554                  -0.763526        -155.066         -45.9024         80.1397         -45.9024         80.1422       -0.0110314         147.485
0.555                  -0.831245        -156.005         -45.5055         78.3199         -45.5055         78.3227       -0.0111315         147.414
0.556                   -0.90656        -156.959         -45.1042         76.4086         -45.1041         76.4116       -0.0112352         147.343
0.557                  -0.990425        -157.926         -44.6989          74.399         -44.6988         74.4022       -0.0113438         147.272
0.558                   -1.08391        -158.902         -44.2904         72.2837         -44.2902          72.287       -0.0114595           147.2
0.559                   -1.18819        -159.883         -43.8795         70.0551         -43.8793         70.0585        -0.011585         147.129
0.56                    -1.30455        -160.864         -43.4672         67.7056          -43.467          67.709       -0.0117243         147.057
0.561                   -1.43436        -161.836         -43.0548         65.2275         -43.0546         65.2309       -0.0118818         146.985
0.562                   -1.57905        -162.788         -42.6439         62.6132         -42.6437         62.6166       -0.0120632         146.912
0.563                   -1.74007        -163.708         -42.2362          59.856          -42.236         59.8592       -0.0122746          146.84
0.564                   -1.91874        -164.577         -41.8339         56.9497         -41.8336         56.9528       -0.0125216         146.767
0.565                   -2.11619        -165.374         -41.4392         53.8898         -41.4389         53.8926       -0.0128081         146.695
0.566                   -2.33308        -166.072          -41.055         50.6735         -41.0546          50.676       -0.0131343         146.622
0.567                   -2.56938         -166.64         -40.6841         47.3006         -40.6837         47.3028       -0.0134951         146.549
0.568                   -2.82399        -167.039         -40.3297         43.7739         -40.3294         43.7758       -0.0138795         146.477
0.569                   -3.09427        -167.228         -39.9951         40.1001         -39.9949         40.1016       -0.0142721         146.405
0.57                    -3.37559        -167.165         -39.6837         36.2899         -39.6835          36.291       -0.0146566         146.333
0.571                   -3.66089        -166.809         -39.3985         32.3584         -39.3984         32.3592       -0.0150191         146.261
0.572                   -3.94039        -166.129         -39.1425         28.3252         -39.1424         28.3257       -0.0153508         146.189
0.573                   -4.20186        -165.111         -38.9179          24.214         -38.9179         24.2143       -0.0156486         146.117
0.574                   -4.43138        -163.766         -38.7264         20.0516         -38.7265         20.0517       -0.0159137         146.045
0.575                   -4.61504         -162.14          -38.569         15.8668         -38.5692         15.8669       -0.0161503         145.973
0.576                   -4.74111         -160.31         -38.4456         11.6895         -38.4459         11.6897        -0.016364         145.901
0.577                   -4.80229         -158.38         -38.3554         7.54856         -38.3558         7.54898         -0.01656         145.828
0.578                    -4.7972        -156.465         -38.2969         3.47103         -38.2974         3.47179       -0.0167433         145.756
0.579                    -4.7305        -154.673         -38.2676       -0.519347         -38.2682       -0.518163        -0.016918         145.683
0.58                    -4.61156        -153.091         -38.2649        -4.40281         -38.2656        -4.40111       -0.0170872         145.609
0.581                   -4.45245        -151.775         -38.2856        -8.16399         -38.2863        -8.16171       -0.0172536         145.536
0.582                   -4.26574         -150.75         -38.3264         -11.792         -38.3272         -11.789       -0.0174189         145.462
0.583                   -4.06294        -150.017         -38.3841          -15.28         -38.3849        -15.2764       -0.0175846         145.389
0.584                   -3.85359        -149.558         -38.4554         -18.625         -38.4563        -18.6208       -0.0177515         145.315
0.585                   -3.64497        -149.346         -38.5375        -21.8273         -38.5384        -21.8224       -0.0179206          145.24
0.586                   -3.44229        -149.348         -38.6277        -24.8894         -38.6285        -24.8839       -0.0180921         145.166
0.587                   -3.24894        -149.533         -38.7236        -27.8161         -38.7244          -27.81       -0.0182666         145.091
0.588                   -3.06696         -149.87         -38.8231        -30.6132         -38.8239        -30.6067       -0.0184443         145.016
0.589                   -2.89736        -150.333         -38.9244        -33.2879         -38.9252        -33.2809       -0.0186253         144.941
0.59                    -2.74043        -150.898         -39.0261        -35.8476         -39.0268        -35.8402       -0.0188098         144.866
0.591                   -2.59599        -151.547         -39.1269        -38.3001         -39.1275        -38.2924       -0.0189978         144.791
0.592                   -2.46355        -152.262         -39.2258        -40.6532         -39.2264        -40.6452       -0.0191894         144.715
0.593                   -2.34244        -153.031          -39.322        -42.9145         -39.3225        -42.9063       -0.0193845         144.639
0.594                   -2.23191        -153.843         -39.4148        -45.0913         -39.4152         -45.083       -0.0195833         144.564
0.595                   -2.13117        -154.689         -39.5037        -47.1908          -39.504        -47.1825       -0.0197857         144.487
0.596                   -2.03944        -155.563         -39.5884        -49.2196         -39.5886        -49.2113       -0.0199917         144.411
0.597                   -1.95598        -156.459         -39.6685        -51.1838         -39.6687        -51.1756       -0.0202013         144.335
0.598                   -1.88008        -157.373          -39.744        -53.0894         -39.7441        -53.0813       -0.0204144         144.258
0.599                   -1.81109        -158.302         -39.8146        -54.9415         -39.8147        -54.9336       -0.0206312         144.181
0.6                     -1.74841        -159.242         -39.8804        -56.7453         -39.8804        -56.7377       -0.0208516         144.104
0.601                   -1.69151        -160.192         -39.9413        -58.5053         -39.9413         -58.498       -0.0210755         144.027
0.602                   -1.63988         -161.15         -39.9975        -60.2256         -39.9973        -60.2186        -0.021303         143.949
0.603                   -1.59309        -162.116         -40.0488        -61.9101         -40.0487        -61.9035        -0.021534         143.871
0.604                   -1.55073        -163.087         -40.0956        -63.5623         -40.0954         -63.556       -0.0217686         143.794
0.605                   -1.51245        -164.064         -40.1378        -65.1853         -40.1376        -65.1795       -0.0220068         143.715
0.606                   -1.47792        -165.046         -40.1756         -66.782         -40.1754        -66.7767       -0.0222485         143.637
0.607                   -1.44687        -166.033         -40.2092        -68.3551         -40.2089        -68.3502       -0.0224938         143.559
0.608                   -1.41902        -167.025         -40.2387        -69.9068         -40.2384        -69.9024       -0.0227427          143.48
0.609                   -1.39417        -168.022         -40.2643        -71.4394          -40.264        -71.4355       -0.0229951         143.401
0.61                    -1.37209        -169.024         -40.2861        -72.9547         -40.2858        -72.9513       -0.0232511         143.322
0.611                   -1.35261        -170.031         -40.3043        -74.4545          -40.304        -74.4516       -0.0235106         143.243
0.612                   -1.33557        -171.043          -40.319        -75.9403         -40.3188        -75.9378       -0.0237738         143.163
0.613                   -1.32082         -172.06         -40.3305        -77.4134         -40.3303        -77.4114       -0.0240406         143.083
0.614                   -1.30823        -173.084         -40.3389        -78.8751         -40.3387        -78.8735       -0.0243109         143.003
0.615                    -1.2977        -174.113         -40.3443        -80.3263         -40.3442        -80.3252       -0.0245849         142.923
0.616                   -1.28912        -175.149         -40.3469        -81.7681         -40.3468        -81.7674       -0.0248625         142.843
0.617                    -1.2824        -176.192         -40.3468        -83.2013         -40.3468        -83.2009       -0.0251438         142.762
0.618                   -1.27747        -177.242         -40.3442        -84.6265         -40.3442        -84.6264       -0.0254287         142.681
0.619                   -1.27426          -178.3         -40.3392        -86.0444         -40.3392        -86.0446       -0.0257173           142.6
0.62                    -1.27271        -179.366         -40.3318        -87.4554         -40.3319        -87.4559       -0.0260096         142.519
0.621                   -1.27277          179.56         -40.3223          -88.86         -40.3224        -88.8607       -0.0263056         142.437
0.622                   -1.27441         178.476         -40.3107        -90.2586         -40.3109        -90.2595       -0.0266053         142.355
0.623                   -1.27758         177.384         -40.2971        -91.6516         -40.2973        -91.6526       -0.0269087         142.273
0.624                   -1.28226         176.282         -40.2816         -93.039         -40.2819        -93.0401       -0.0272159         142.191
0.625                   -1.28843         175.169         -40.2642        -94.4212         -40.2646        -94.4224       -0.0275268         142.108
0.626                   -1.29607         174.046         -40.2451        -95.7984         -40.2455        -95.7996       -0.0278415         142.025
0.627                   -1.30517         172.911         -40.2243        -97.1707         -40.2248        -97.1718         -0.02816         141.942
0.628                   -1.31572         171.765         -40.2018        -98.5382         -40.2023        -98.5393       -0.0284824         141.859
0.629                   -1.32774         170.606         -40.1777        -99.9011         -40.1783        -99.9021       -0.0288085         141.775
