! TOUCHSTONE file generated by CST MICROWAVE STUDIO
! Date and time: Mon Nov 30 09:10:55 2020
! Project name: Scenario_1_Planar_Body_Tissue_Out_of_Line_v2.cst
! Parameters = {dy1=190.3; L_HA=400; Ltissue=700; MT=2.54; Rad_Dielectric=30; Rad_Lower=7.3; Rad_Upper=30; Wtissue=700; a_HA=580; a_WG=246; b_HA=500; b_WG=121; c_HA=0; c_WG=187; d_feed=85; dx1=346; h_feed=15; h_lower=18; h_upper=40; hfat=3; hgap=25; hmuscle=50; hskin=1.5}
! Header version: 2018
! Port assignment regex: !\s*Touchstone port\s*([0-9]+)\s*=\s*(CST MWS port|CST DS port)\s*([0-9]+|Zmin|Zmax)\s*\(\"(.*)\"\)(\s*mode\s*([0-9]+))?.*
! Touchstone port assignment:
! Touchstone port 1 = CST MWS port 1 ("")
! Touchstone port 2 = CST MWS port 2 ("")
# GHz S DB R 50
0.5                     -0.25981        -121.821         -56.7077         19.3439         -56.7079         19.3447      -0.00828924          151.15
0.501                  -0.261579        -122.214         -56.7447         18.1644         -56.7448         18.1651      -0.00833826         151.085
0.502                  -0.263369         -122.61         -56.7809         16.9634          -56.781          16.964      -0.00838804          151.02
0.503                  -0.265182        -123.009         -56.8161         15.7404         -56.8161         15.7409      -0.00843858         150.955
0.504                  -0.267017         -123.41         -56.8503          14.495         -56.8503         14.4955      -0.00848989          150.89
0.505                  -0.268878        -123.813         -56.8833          13.227         -56.8833         13.2273      -0.00854199         150.824
0.506                  -0.270765        -124.219          -56.915          11.936          -56.915         11.9362      -0.00859488         150.759
0.507                   -0.27268        -124.628         -56.9454         10.6217         -56.9454         10.6218      -0.00864856         150.693
0.508                  -0.274624         -125.04         -56.9743         9.28374         -56.9742         9.28378      -0.00870306         150.628
0.509                  -0.276599        -125.454         -57.0016         7.92194         -57.0015         7.92191      -0.00875837         150.562
0.51                   -0.278607         -125.87         -57.0271         6.53608          -57.027         6.53598      -0.00881451         150.496
0.511                   -0.28065         -126.29         -57.0507         5.12597         -57.0506          5.1258      -0.00887149          150.43
0.512                  -0.282729        -126.712         -57.0723         3.69147         -57.0721         3.69124      -0.00892931         150.364
0.513                  -0.284847        -127.138         -57.0917          2.2325         -57.0915         2.23221      -0.00898799         150.298
0.514                  -0.287006        -127.566         -57.1087        0.748995         -57.1085        0.748657      -0.00904754         150.232
0.515                  -0.289208        -127.997         -57.1233       -0.759016         -57.1231       -0.759397      -0.00910796         150.166
0.516                  -0.291455        -128.431         -57.1352        -2.29147         -57.1349        -2.29188      -0.00916927           150.1
0.517                  -0.293749        -128.869         -57.1443        -3.84822          -57.144        -3.84867      -0.00923148         150.033
0.518                  -0.296094        -129.309         -57.1504        -5.42908         -57.1501        -5.42955       -0.0092946         149.967
0.519                  -0.298492        -129.752         -57.1533        -7.03377          -57.153        -7.03426      -0.00935864           149.9
0.52                   -0.300946        -130.199         -57.1529        -8.66196         -57.1525        -8.66245       -0.0094236         149.834
0.521                  -0.303458        -130.649          -57.149        -10.3132         -57.1486        -10.3137      -0.00948951         149.767
0.522                  -0.306032        -131.103         -57.1414         -11.987          -57.141        -11.9875      -0.00955638           149.7
0.523                  -0.308671        -131.559           -57.13        -13.6828         -57.1296        -13.6833       -0.0096242         149.633
0.524                  -0.311378         -132.02         -57.1146           -15.4         -57.1141        -15.4004      -0.00969301         149.566
0.525                  -0.314158        -132.483          -57.095        -17.1377         -57.0945        -17.1381       -0.0097628         149.499
0.526                  -0.317013        -132.951         -57.0711        -18.8951         -57.0706        -18.8955       -0.0098336         149.432
0.527                  -0.319948        -133.422         -57.0428        -20.6714         -57.0423        -20.6718      -0.00990541         149.365
0.528                  -0.322967        -133.897         -57.0098        -22.4656         -57.0093        -22.4659      -0.00997824         149.297
0.529                  -0.326075        -134.375         -56.9721        -24.2766         -56.9716        -24.2769       -0.0100521          149.23
0.53                   -0.329275        -134.858         -56.9296        -26.1032         -56.9291        -26.1035       -0.0101271         149.162
0.531                  -0.332574        -135.344         -56.8821        -27.9443         -56.8816        -27.9445        -0.010203         149.094
0.532                  -0.335975        -135.834         -56.8295        -29.7987          -56.829        -29.7988       -0.0102801         149.027
0.533                  -0.339485        -136.329         -56.7718        -31.6649         -56.7713         -31.665       -0.0103583         148.959
0.534                   -0.34311        -136.828         -56.7089        -33.5418         -56.7084        -33.5418       -0.0104376         148.891
0.535                  -0.346855        -137.331         -56.6408        -35.4278         -56.6402        -35.4278        -0.010518         148.823
0.536                  -0.350726        -137.838         -56.5673        -37.3217         -56.5668        -37.3216       -0.0105995         148.755
0.537                  -0.354732         -138.35         -56.4886        -39.2219          -56.488        -39.2218       -0.0106822         148.686
0.538                  -0.358877        -138.866         -56.4045        -41.1271          -56.404        -41.1269       -0.0107661         148.618
0.539                  -0.363172        -139.387         -56.3151        -43.0358         -56.3146        -43.0356       -0.0108511         148.549
0.54                   -0.367622        -139.913         -56.2205        -44.9467         -56.2199        -44.9464       -0.0109374         148.481
0.541                  -0.372237        -140.444         -56.1206        -46.8583         -56.1201         -46.858       -0.0110248         148.412
0.542                  -0.377025        -140.979         -56.0155        -48.7693          -56.015        -48.7689       -0.0111135         148.343
0.543                  -0.381997         -141.52         -55.9054        -50.6784         -55.9049         -50.678       -0.0112035         148.274
0.544                  -0.387162        -142.065         -55.7902        -52.5844         -55.7898         -52.584       -0.0112947         148.205
0.545                   -0.39253        -142.616         -55.6702        -54.4861         -55.6697        -54.4856       -0.0113872         148.136
0.546                  -0.398114        -143.173         -55.5454        -56.3823         -55.5449        -56.3819        -0.011481         148.067
0.547                  -0.403924        -143.735         -55.4159         -58.272         -55.4154        -58.2716       -0.0115761         147.998
0.548                  -0.409974        -144.303         -55.2819        -60.1543         -55.2815        -60.1538       -0.0116725         147.928
0.549                  -0.416278        -144.876         -55.1435        -62.0282         -55.1431        -62.0278       -0.0117703         147.859
0.55                   -0.422849        -145.455         -55.0009        -63.8929         -55.0005        -63.8925       -0.0118695         147.789
0.551                  -0.429702        -146.041         -54.8542        -65.7478         -54.8538        -65.7474       -0.0119701         147.719
0.552                  -0.436855        -146.632         -54.7036        -67.5922         -54.7033        -67.5918        -0.012072         147.649
0.553                  -0.444324         -147.23         -54.5493        -69.4254          -54.549        -69.4251       -0.0121755         147.579
0.554                  -0.452127        -147.835         -54.3914        -71.2471         -54.3911        -71.2469       -0.0122803         147.509
0.555                  -0.460285        -148.446         -54.2302        -73.0569         -54.2299        -73.0567       -0.0123867         147.439
0.556                  -0.468817        -149.064         -54.0657        -74.8545         -54.0654        -74.8543       -0.0124945         147.368
0.557                  -0.477747        -149.689         -53.8981        -76.6396         -53.8979        -76.6395       -0.0126039         147.298
0.558                  -0.487098        -150.322         -53.7277        -78.4121         -53.7276         -78.412       -0.0127147         147.227
0.559                  -0.496895        -150.961         -53.5546        -80.1719         -53.5545        -80.1719       -0.0128272         147.156
0.56                   -0.507166        -151.608          -53.379         -81.919         -53.3789        -81.9191       -0.0129412         147.085
0.561                  -0.517939        -152.263          -53.201        -83.6534         -53.2009        -83.6537       -0.0130569         147.014
0.562                  -0.529245        -152.926         -53.0208        -85.3754         -53.0207        -85.3757       -0.0131741         146.943
0.563                  -0.541117        -153.597         -52.8385        -87.0849         -52.8384        -87.0853       -0.0132931         146.872
0.564                  -0.553592        -154.277         -52.6543        -88.7823         -52.6543        -88.7828       -0.0134137           146.8
0.565                  -0.566706        -154.965         -52.4684        -90.4678         -52.4684        -90.4684        -0.013536         146.729
0.566                  -0.580501        -155.662         -52.2809        -92.1416         -52.2809        -92.1424         -0.01366         146.657
0.567                  -0.595019        -156.368         -52.0919        -93.8043          -52.092        -93.8052       -0.0137858         146.585
0.568                  -0.610309        -157.083         -51.9017         -95.456         -51.9017         -95.457       -0.0139133         146.513
0.569                   -0.62642        -157.808         -51.7102        -97.0973         -51.7103        -97.0984       -0.0140427         146.441
0.57                   -0.643406        -158.543         -51.5176        -98.7284         -51.5177        -98.7297       -0.0141739         146.369
0.571                  -0.661325        -159.287         -51.3241         -100.35         -51.3243        -100.351        -0.014307         146.297
0.572                   -0.68024        -160.043         -51.1298        -101.962           -51.13        -101.964       -0.0144419         146.224
0.573                  -0.700218        -160.808         -50.9348        -103.566          -50.935        -103.568       -0.0145788         146.151
0.574                   -0.72133        -161.585         -50.7392        -105.162         -50.7394        -105.164       -0.0147176         146.079
0.575                  -0.743656        -162.372         -50.5431         -106.75         -50.5433        -106.752       -0.0148584         146.006
0.576                  -0.767278        -163.171         -50.3466         -108.33         -50.3469        -108.333       -0.0150011         145.932
0.577                  -0.792287        -163.982         -50.1499        -109.905         -50.1501        -109.907        -0.015146         145.859
0.578                  -0.818781        -164.805          -49.953        -111.473         -49.9532        -111.475       -0.0152928         145.786
0.579                  -0.846864         -165.64         -49.7559        -113.035         -49.7562        -113.038       -0.0154418         145.712
0.58                   -0.876651        -166.488         -49.5589        -114.592         -49.5592        -114.595       -0.0155929         145.639
0.581                  -0.908263        -167.348          -49.362        -116.145         -49.3623        -116.148       -0.0157462         145.565
0.582                  -0.941833        -168.222         -49.1653        -117.694         -49.1656        -117.697       -0.0159016         145.491
0.583                  -0.977503        -169.108         -48.9688        -119.239         -48.9692        -119.242       -0.0160593         145.416
0.584                   -1.01543        -170.009         -48.7727        -120.781         -48.7731        -120.784       -0.0162193         145.342
0.585                   -1.05578        -170.923         -48.5771        -122.321         -48.5775        -122.324       -0.0163815         145.268
0.586                   -1.09872        -171.851          -48.382        -123.858         -48.3824        -123.861       -0.0165461         145.193
0.587                   -1.14447        -172.793         -48.1876        -125.394          -48.188        -125.397        -0.016713         145.118
0.588                   -1.19322        -173.749         -47.9938        -126.928         -47.9943        -126.932       -0.0168823         145.043
0.589                    -1.2452         -174.72         -47.8008        -128.462         -47.8013        -128.466       -0.0170541         144.968
0.59                    -1.30066        -175.704         -47.6088        -129.995         -47.6092        -129.999       -0.0172283         144.892
0.591                   -1.35986        -176.703         -47.4176        -131.529         -47.4181        -131.532        -0.017405         144.817
0.592                   -1.42308        -177.716         -47.2276        -133.062         -47.2281        -133.066       -0.0175843         144.741
0.593                   -1.49063        -178.743         -47.0386        -134.597         -47.0392        -134.601       -0.0177661         144.665
0.594                   -1.56284        -179.782          -46.851        -136.132         -46.8515        -136.136       -0.0179506         144.589
0.595                   -1.64007         179.166         -46.6646        -137.669         -46.6651        -137.673       -0.0181377         144.513
0.596                   -1.72268         178.101         -46.4796        -139.207         -46.4802        -139.212       -0.0183276         144.437
0.597                   -1.81108         177.026         -46.2962        -140.748         -46.2967        -140.752       -0.0185201          144.36
0.598                   -1.90571         175.941         -46.1144         -142.29         -46.1149        -142.294       -0.0187154         144.283
0.599                   -2.00701         174.848         -45.9342        -143.835         -45.9348        -143.839       -0.0189136         144.206
0.6                     -2.11548         173.749         -45.7559        -145.382         -45.7564        -145.386       -0.0191146         144.129
0.601                   -2.23162         172.645         -45.5795        -146.932           -45.58        -146.936       -0.0193184         144.052
0.602                   -2.35596         171.539         -45.4051        -148.484         -45.4056        -148.489       -0.0195252         143.974
0.603                   -2.48906         170.436         -45.2328         -150.04         -45.2333        -150.044        -0.019735         143.896
0.604                   -2.63149         169.337         -45.0628        -151.598         -45.0633        -151.602       -0.0199477         143.818
0.605                   -2.78383         168.248         -44.8951        -153.159         -44.8956        -153.163       -0.0201635          143.74
0.606                   -2.94665         167.174         -44.7299        -154.723         -44.7304        -154.727       -0.0203824         143.662
0.607                   -3.12053         166.121         -44.5673         -156.29         -44.5678        -156.294       -0.0206044         143.583
0.608                   -3.30602         165.096         -44.4074        -157.859         -44.4078        -157.863       -0.0208295         143.505
0.609                   -3.50362         164.106         -44.2503        -159.432         -44.2508        -159.435       -0.0210578         143.426
0.61                    -3.71377         163.161         -44.0962        -161.006         -44.0967         -161.01       -0.0212894         143.347
0.611                    -3.9368         162.272         -43.9452        -162.584         -43.9457        -162.587       -0.0215242         143.267
0.612                   -4.17292         161.449         -43.7975        -164.163         -43.7979        -164.167       -0.0217622         143.188
0.613                   -4.42214         160.707         -43.6532        -165.745         -43.6535        -165.748       -0.0220036         143.108
0.614                   -4.68425         160.059         -43.5124        -167.329         -43.5127        -167.332       -0.0222484         143.028
0.615                   -4.95872         159.522         -43.3752        -168.914         -43.3755        -168.917       -0.0224965         142.947
0.616                   -5.24464         159.113         -43.2419        -170.501         -43.2422        -170.503        -0.022748         142.867
0.617                   -5.54062          158.85         -43.1126        -172.089         -43.1129        -172.091       -0.0230029         142.786
0.618                   -5.84471         158.752         -42.9875        -173.678         -42.9877         -173.68       -0.0232613         142.705
0.619                   -6.15427         158.838         -42.8666        -175.269         -42.8668        -175.271       -0.0235232         142.624
0.62                    -6.46591         159.126         -42.7503         -176.86         -42.7504        -176.862       -0.0237885         142.543
0.621                   -6.77541          159.63         -42.6386        -178.453         -42.6386        -178.454       -0.0240574         142.461
0.622                    -7.0777         160.362         -42.5317         179.954         -42.5317         179.953       -0.0243298         142.379
0.623                   -7.36692         161.328         -42.4298         178.359         -42.4297         178.359       -0.0246057         142.297
0.624                   -7.63659         162.525          -42.333         176.763         -42.3329         176.763       -0.0248852         142.214
0.625                    -7.8799         163.939         -42.2416         175.166         -42.2415         175.166       -0.0251682         142.132
0.626                   -8.09017         165.549         -42.1556         173.566         -42.1555         173.567       -0.0254548         142.049
0.627                    -8.2614         167.317         -42.0753         171.964         -42.0751         171.966       -0.0257449         141.966
0.628                   -8.38881         169.198         -42.0008         170.358         -42.0006          170.36       -0.0260386         141.882
0.629                   -8.46942         171.138         -41.9322         168.748         -41.9319         168.751       -0.0263359         141.798
