! TOUCHSTONE file generated by CST MICROWAVE STUDIO
! Date and time: Fri Dec 11 14:16:20 2020
! Project name: Scenario_1_Planar_Body_Tissue_Out_of_Line_v2.cst
! Parameters = {dy1=190.3; L_HA=400; Ltissue=700; MT=2.54; Rad_Dielectric=30; Rad_Lower=7.3; Rad_Upper=30; Wtissue=700; a_HA=580; a_WG=246; b_HA=500; b_WG=121; c_HA=0; c_WG=187; d_feed=85; dx1=520; h_feed=15; h_lower=18; h_upper=40; hfat=3; hgap=25; hmuscle=50; hskin=1.5}
! Header version: 2018
! Port assignment regex: !\s*Touchstone port\s*([0-9]+)\s*=\s*(CST MWS port|CST DS port)\s*([0-9]+|Zmin|Zmax)\s*\(\"(.*)\"\)(\s*mode\s*([0-9]+))?.*
! Touchstone port assignment:
! Touchstone port 1 = CST MWS port 1 ("")
! Touchstone port 2 = CST MWS port 2 ("")
# GHz S DB R 50
0.5                   -0.0859748        -121.944         -62.8742        -62.2983         -62.8737        -62.2917      -0.00736752         151.155
0.501                 -0.0882622        -122.405         -62.6534        -63.2858         -62.6529        -63.2796      -0.00743198          151.09
0.502                 -0.0908176         -122.87         -62.4293        -64.2917         -62.4288        -64.2857      -0.00749675         151.024
0.503                 -0.0936592        -123.338         -62.2019        -65.3167         -62.2014         -65.311      -0.00756185         150.959
0.504                 -0.0968066        -123.811         -61.9712        -66.3615         -61.9707        -66.3561      -0.00762728         150.894
0.505                  -0.100281        -124.287          -61.737        -67.4269         -61.7366        -67.4217      -0.00769308         150.828
0.506                  -0.104106        -124.768         -61.4994        -68.5138          -61.499        -68.5089      -0.00775927         150.763
0.507                  -0.108307        -125.252         -61.2583         -69.623         -61.2579        -69.6184      -0.00782587         150.697
0.508                   -0.11291        -125.741         -61.0137        -70.7556         -61.0133        -70.7512      -0.00789291         150.631
0.509                  -0.117945        -126.234         -60.7655        -71.9125         -60.7651        -71.9084      -0.00796045         150.565
0.51                   -0.123445        -126.732         -60.5136        -73.0949         -60.5132         -73.091      -0.00802852         150.499
0.511                  -0.129445        -127.234         -60.2581        -74.3038         -60.2578        -74.3002      -0.00809718         150.433
0.512                  -0.135981         -127.74         -59.9989        -75.5407         -59.9986        -75.5373       -0.0081665         150.367
0.513                  -0.143096        -128.251          -59.736        -76.8067         -59.7357        -76.8035      -0.00823655         150.301
0.514                  -0.150834        -128.766         -59.4694        -78.1033         -59.4691        -78.1004      -0.00830743         150.235
0.515                  -0.159244        -129.287         -59.1991         -79.432         -59.1988        -79.4293      -0.00837923         150.168
0.516                  -0.168377        -129.811          -58.925        -80.7943         -58.9248        -80.7918       -0.0084521         150.102
0.517                  -0.178291         -130.34         -58.6472         -82.192          -58.647        -82.1898      -0.00852618         150.035
0.518                  -0.189046        -130.874         -58.3657        -83.6269         -58.3655        -83.6249      -0.00860165         149.969
0.519                  -0.200709        -131.413         -58.0806        -85.1009         -58.0804        -85.0991      -0.00867871         149.902
0.52                    -0.21335        -131.955         -57.7918        -86.6161         -57.7916        -86.6144      -0.00875759         149.835
0.521                  -0.227044        -132.502         -57.4995        -88.1745         -57.4994         -88.173      -0.00883858         149.768
0.522                  -0.241873        -133.053         -57.2038        -89.7785         -57.2036        -89.7772      -0.00892196         149.701
0.523                  -0.257922        -133.608         -56.9048        -91.4304         -56.9046        -91.4293      -0.00900809         149.634
0.524                  -0.275281        -134.166         -56.6026        -93.1328         -56.6024        -93.1319      -0.00909733         149.567
0.525                  -0.294045        -134.728         -56.2973        -94.8883         -56.2972        -94.8876      -0.00919008         149.499
0.526                  -0.314312        -135.292         -55.9894        -96.6997         -55.9893        -96.6992      -0.00928676         149.432
0.527                  -0.336181        -135.858         -55.6789        -98.5699         -55.6788        -98.5695      -0.00938778         149.364
0.528                  -0.359753        -136.425         -55.3663        -100.502         -55.3662        -100.501      -0.00949352         149.297
0.529                  -0.385129        -136.993         -55.0518        -102.498         -55.0517        -102.498      -0.00960432         149.229
0.53                   -0.412403         -137.56         -54.7359        -104.562         -54.7359        -104.562      -0.00972039         149.161
0.531                  -0.441663        -138.126         -54.4191        -106.697         -54.4191        -106.697      -0.00984184         149.093
0.532                  -0.472985        -138.689          -54.102        -108.906          -54.102        -108.906       -0.0099686         149.025
0.533                  -0.506428        -139.247         -53.7852        -111.191         -53.7852        -111.192       -0.0101004         148.957
0.534                  -0.542027        -139.799         -53.4694        -113.556         -53.4695        -113.556       -0.0102367         148.889
0.535                  -0.579787        -140.343         -53.1555        -116.002         -53.1555        -116.003       -0.0103768         148.821
0.536                  -0.619674        -140.877         -52.8443        -118.533         -52.8444        -118.533       -0.0105199         148.753
0.537                  -0.661607        -141.399         -52.5369        -121.148          -52.537        -121.149       -0.0106648         148.684
0.538                  -0.705448        -141.906         -52.2343        -123.851         -52.2344        -123.852       -0.0108104         148.616
0.539                  -0.750994        -142.395         -51.9377         -126.64         -51.9378        -126.642       -0.0109557         148.548
0.54                   -0.797969        -142.866         -51.6484        -129.516         -51.6485        -129.517       -0.0110997         148.479
0.541                   -0.84602        -143.315         -51.3676        -132.477         -51.3677        -132.478       -0.0112416          148.41
0.542                  -0.894715        -143.741         -51.0967         -135.52         -51.0968        -135.521       -0.0113806         148.342
0.543                  -0.943544        -144.142          -50.837        -138.641         -50.8372        -138.642       -0.0115165         148.273
0.544                  -0.991926        -144.517         -50.5899        -141.835         -50.5901        -141.837        -0.011649         148.204
0.545                   -1.03923        -144.866         -50.3565        -145.096         -50.3568        -145.097       -0.0117782         148.135
0.546                   -1.08478        -145.189         -50.1382        -148.415         -50.1384        -148.417       -0.0119041         148.066
0.547                   -1.12792        -145.487         -49.9359        -151.784         -49.9361        -151.786        -0.012027         147.997
0.548                   -1.16797        -145.763         -49.7504        -155.193         -49.7506        -155.194       -0.0121473         147.928
0.549                   -1.20436        -146.019         -49.5824        -158.629         -49.5827        -158.631       -0.0122654         147.858
0.55                    -1.23657         -146.26         -49.4323        -162.082         -49.4326        -162.083       -0.0123816         147.789
0.551                    -1.2642        -146.489         -49.3003        -165.539         -49.3006         -165.54       -0.0124964         147.719
0.552                   -1.28699        -146.713         -49.1862        -168.988         -49.1865        -168.989       -0.0126101          147.65
0.553                   -1.30483        -146.934         -49.0896        -172.417           -49.09        -172.419       -0.0127232          147.58
0.554                   -1.31774         -147.16           -49.01        -175.816         -49.0104        -175.817       -0.0128359          147.51
0.555                   -1.32589        -147.393         -48.9465        -179.173         -48.9469        -179.174       -0.0129485         147.439
0.556                   -1.32954         -147.64         -48.8981         177.521         -48.8985          177.52       -0.0130613         147.369
0.557                   -1.32908        -147.902         -48.8636         174.273          -48.864         174.272       -0.0131745         147.299
0.558                   -1.32495        -148.185         -48.8418         171.091         -48.8422          171.09       -0.0132884         147.228
0.559                   -1.31764        -148.489         -48.8313         167.979         -48.8317         167.978        -0.013403         147.158
0.56                    -1.30765        -148.817         -48.8309         164.942         -48.8312         164.942       -0.0135186         147.087
0.561                    -1.2955        -149.171          -48.839         161.983         -48.8394         161.982       -0.0136352         147.016
0.562                   -1.28166        -149.549         -48.8545         159.103         -48.8548         159.102       -0.0137531         146.945
0.563                    -1.2666        -149.954          -48.876         156.302         -48.8764         156.301       -0.0138723         146.874
0.564                   -1.25073        -150.383         -48.9024         153.581         -48.9028          153.58       -0.0139928         146.802
0.565                   -1.23442        -150.838         -48.9326         150.938          -48.933         150.937       -0.0141148         146.731
0.566                     -1.218        -151.316         -48.9655         148.371         -48.9659         148.371       -0.0142384         146.659
0.567                   -1.20176        -151.818         -49.0003          145.88         -49.0006         145.879       -0.0143635         146.587
0.568                   -1.18593        -152.342          -49.036          143.46         -49.0363         143.459       -0.0144903         146.516
0.569                   -1.17071        -152.887         -49.0719         141.109         -49.0722         141.108       -0.0146188         146.443
0.57                    -1.15627        -153.451         -49.1074         138.824         -49.1077         138.824       -0.0147491         146.371
0.571                   -1.14275        -154.035         -49.1419         136.603         -49.1422         136.602       -0.0148811         146.299
0.572                   -1.13025        -154.637         -49.1748         134.441         -49.1751          134.44        -0.015015         146.226
0.573                   -1.11887        -155.255         -49.2057         132.335          -49.206         132.335       -0.0151507         146.154
0.574                   -1.10866         -155.89         -49.2343         130.284         -49.2346         130.283       -0.0152884         146.081
0.575                   -1.09967         -156.54         -49.2602         128.282         -49.2605         128.282        -0.015428         146.008
0.576                   -1.09196        -157.205         -49.2831         126.328         -49.2833         126.327       -0.0155696         145.935
0.577                   -1.08555        -157.883         -49.3027         124.417          -49.303         124.417       -0.0157132         145.862
0.578                   -1.08046        -158.576          -49.319         122.549         -49.3192         122.548       -0.0158589         145.789
0.579                   -1.07671        -159.281         -49.3316         120.718         -49.3319         120.718       -0.0160066         145.715
0.58                    -1.07431        -159.998         -49.3406         118.924         -49.3409         118.924       -0.0161565         145.641
0.581                   -1.07328        -160.728         -49.3457         117.164          -49.346         117.163       -0.0163085         145.567
0.582                   -1.07361        -161.469         -49.3469         115.434         -49.3472         115.434       -0.0164627         145.494
0.583                   -1.07533        -162.222         -49.3442         113.733         -49.3444         113.733        -0.016619         145.419
0.584                   -1.07843        -162.987         -49.3374         112.058         -49.3376         112.058       -0.0167777         145.345
0.585                   -1.08293        -163.763         -49.3265         110.408         -49.3268         110.408       -0.0169386         145.271
0.586                   -1.08885        -164.549         -49.3116         108.781         -49.3118         108.781       -0.0171018         145.196
0.587                   -1.09619        -165.347         -49.2926         107.174         -49.2928         107.174       -0.0172674         145.121
0.588                   -1.10497        -166.156         -49.2695         105.585         -49.2697         105.585       -0.0174354         145.046
0.589                   -1.11521        -166.976         -49.2423         104.014         -49.2425         104.014       -0.0176058         144.971
0.59                    -1.12693        -167.806         -49.2111         102.458         -49.2113         102.458       -0.0177786         144.896
0.591                   -1.14017        -168.648         -49.1758         100.915          -49.176         100.915       -0.0179539          144.82
0.592                   -1.15495        -169.501         -49.1365         99.3851         -49.1367         99.3853       -0.0181318         144.744
0.593                    -1.1713        -170.365         -49.0932         97.8656         -49.0934         97.8658       -0.0183122         144.669
0.594                   -1.18926         -171.24          -49.046         96.3554         -49.0462         96.3556       -0.0184953         144.593
0.595                   -1.20888        -172.126         -48.9949         94.8532         -48.9951         94.8534       -0.0186809         144.516
0.596                   -1.23021        -173.024           -48.94         93.3576         -48.9402         93.3578       -0.0188693          144.44
0.597                    -1.2533        -173.934         -48.8813         91.8673         -48.8814         91.8676       -0.0190603         144.363
0.598                    -1.2782        -174.855         -48.8188         90.3812         -48.8189         90.3815       -0.0192542         144.287
0.599                   -1.30498        -175.788         -48.7526         88.8981         -48.7527         88.8983       -0.0194508          144.21
0.6                     -1.33372        -176.733         -48.6828         87.4167         -48.6829          87.417       -0.0196502         144.133
0.601                   -1.36448        -177.691         -48.6094          85.936         -48.6095         85.9363       -0.0198526         144.055
0.602                   -1.39736        -178.661         -48.5325         84.4549         -48.5326         84.4552       -0.0200579         143.978
0.603                   -1.43244        -179.643         -48.4522         82.9722         -48.4523         82.9725       -0.0202661           143.9
0.604                   -1.46981         179.362         -48.3685          81.487         -48.3686         81.4873       -0.0204774         143.822
0.605                   -1.50959         178.354         -48.2815         79.9982         -48.2816         79.9985       -0.0206917         143.744
0.606                   -1.55188         177.333         -48.1913         78.5047         -48.1913         78.5051       -0.0209091         143.666
0.607                   -1.59681         176.299         -48.0979         77.0057          -48.098         77.0061       -0.0211296         143.587
0.608                   -1.64451         175.252         -48.0015         75.5001         -48.0015         75.5005       -0.0213534         143.508
0.609                   -1.69511         174.191          -47.902         73.9869         -47.9021         73.9873       -0.0215804         143.429
0.61                    -1.74877         173.117         -47.7997         72.4653         -47.7998         72.4657       -0.0218106          143.35
0.611                   -1.80565          172.03         -47.6947         70.9342         -47.6947         70.9346       -0.0220442         143.271
0.612                   -1.86591         170.928         -47.5869         69.3928         -47.5869         69.3932       -0.0222812         143.191
0.613                   -1.92975         169.814         -47.4765         67.8401         -47.4765         67.8405       -0.0225216         143.111
0.614                   -1.99735         168.686         -47.3637         66.2754         -47.3637         66.2758       -0.0227655         143.031
0.615                   -2.06891         167.544         -47.2484         64.6976         -47.2484          64.698       -0.0230129         142.951
0.616                   -2.14468          166.39          -47.131         63.1061          -47.131         63.1064       -0.0232639         142.871
0.617                   -2.22486         165.223         -47.0114         61.4998         -47.0114         61.5002       -0.0235186          142.79
0.618                   -2.30973         164.043         -46.8899         59.8782         -46.8899         59.8785       -0.0237769         142.709
0.619                   -2.39953         162.851         -46.7665         58.2403         -46.7665         58.2406       -0.0240389         142.628
0.62                    -2.49454         161.647         -46.6414         56.5854         -46.6414         56.5857       -0.0243047         142.546
0.621                   -2.59508         160.432         -46.5148         54.9129         -46.5148         54.9132       -0.0245744         142.465
0.622                   -2.70143         159.207         -46.3868          53.222         -46.3868         53.2223        -0.024848         142.383
0.623                   -2.81394         157.973         -46.2576         51.5121         -46.2576         51.5124       -0.0251255           142.3
0.624                   -2.93295         156.731         -46.1274         49.7827         -46.1273          49.783        -0.025407         142.218
0.625                   -3.05882         155.481         -45.9963         48.0332         -45.9963         48.0334       -0.0256926         142.135
0.626                   -3.19192         154.226         -45.8646         46.2632         -45.8646         46.2634       -0.0259823         142.052
0.627                   -3.33267         152.967         -45.7325         44.4721         -45.7324         44.4723       -0.0262762         141.969
0.628                   -3.48146         151.707         -45.6001         42.6598            -45.6           42.66       -0.0265743         141.886
0.629                   -3.63872         150.446         -45.4677         40.8259         -45.4676          40.826       -0.0268768         141.802
