! TOUCHSTONE file generated by CST MICROWAVE STUDIO
! Date and time: Tue Nov 24 13:45:42 2020
! Project name: Scenario_1_Planar_Body_Tissue_Out_of_Line.cst
! Parameters = {dy1=190.3; L_HA=400; Ltissue=700; MT=2.54; Rad_Dielectric=30; Rad_Lower=7.3; Rad_Upper=30; Wtissue=700; a_HA=580; a_WG=246; b_HA=500; b_WG=121; c_HA=0; c_WG=187; d_feed=85; dx1=1039; h_feed=15; h_lower=18; h_upper=40; hfat=3; hgap=25; hmuscle=50; hskin=1.5}
! Header version: 2018
! Port assignment regex: !\s*Touchstone port\s*([0-9]+)\s*=\s*(CST MWS port|CST DS port)\s*([0-9]+|Zmin|Zmax)\s*\(\"(.*)\"\)(\s*mode\s*([0-9]+))?.*
! Touchstone port assignment:
! Touchstone port 1 = CST MWS port 1 ("")
! Touchstone port 2 = CST MWS port 2 ("")
# GHz S DB R 50
0.5                    -0.151399        -121.629         -64.7293        -22.0201         -64.7293        -22.0172      -0.00762801         151.154
0.501                  -0.153369        -122.062         -64.6451        -23.5756         -64.6436        -23.5686      -0.00769603         151.089
0.502                  -0.155443        -122.498         -64.5582        -25.1487         -64.5553        -25.1377      -0.00776432         151.024
0.503                  -0.157626        -122.937         -64.4685        -26.7392         -64.4642        -26.7244      -0.00783289         150.958
0.504                  -0.159927        -123.379         -64.3761        -28.3474         -64.3704         -28.329      -0.00790176         150.893
0.505                   -0.16235        -123.825         -64.2807        -29.9733         -64.2737        -29.9514      -0.00797094         150.828
0.506                  -0.164906        -124.273         -64.1825        -31.6169         -64.1741        -31.5917      -0.00804046         150.762
0.507                    -0.1676        -124.726         -64.0812        -33.2783         -64.0715          -33.25      -0.00811034         150.696
0.508                  -0.170443        -125.181         -63.9768        -34.9575         -63.9659        -34.9263      -0.00818059         150.631
0.509                  -0.173443         -125.64         -63.8692        -36.6546         -63.8571        -36.6208      -0.00825123         150.565
0.51                   -0.176612        -126.103         -63.7584        -38.3697         -63.7452        -38.3335       -0.0083223         150.499
0.511                   -0.17996        -126.569         -63.6443        -40.1027           -63.63        -40.0644       -0.0083938         150.433
0.512                  -0.183499        -127.039         -63.5268        -41.8538         -63.5115        -41.8136      -0.00846576         150.367
0.513                  -0.187242        -127.513         -63.4059         -43.623         -63.3896        -43.5812      -0.00853822         150.301
0.514                  -0.191204        -127.991         -63.2815        -45.4103         -63.2642        -45.3673      -0.00861119         150.235
0.515                  -0.195401        -128.473         -63.1536        -47.2159         -63.1354        -47.1719       -0.0086847         150.168
0.516                  -0.199847        -128.959          -63.022        -49.0398         -63.0029        -48.9951      -0.00875877         150.102
0.517                  -0.204563        -129.449         -62.8867         -50.882         -62.8669         -50.837      -0.00883345         150.035
0.518                  -0.209566        -129.944         -62.7476        -52.7428         -62.7271        -52.6978      -0.00890875         149.969
0.519                   -0.21488        -130.442         -62.6048        -54.6222         -62.5836        -54.5776      -0.00898472         149.902
0.52                   -0.220527        -130.946          -62.458        -56.5204         -62.4363        -56.4765      -0.00906137         149.836
0.521                  -0.226532        -131.454         -62.3074        -58.4376         -62.2852        -58.3947      -0.00913876         149.769
0.522                  -0.232924        -131.966         -62.1527        -60.3739         -62.1302        -60.3324      -0.00921692         149.702
0.523                  -0.239732        -132.484         -61.9941        -62.3296         -61.9712        -62.2899      -0.00929588         149.635
0.524                   -0.24699        -133.006         -61.8313         -64.305         -61.8082        -64.2674      -0.00937569         149.568
0.525                  -0.254734        -133.533         -61.6644        -66.3004         -61.6412        -66.2652      -0.00945639         149.501
0.526                  -0.263003        -134.066         -61.4934        -68.3161           -61.47        -68.2837      -0.00953803         149.433
0.527                   -0.27184        -134.603         -61.3181        -70.3527         -61.2948        -70.3232      -0.00962066         149.366
0.528                  -0.281292        -135.146         -61.1386        -72.4105         -61.1154        -72.3844      -0.00970432         149.298
0.529                  -0.291411        -135.694         -60.9548        -74.4902         -60.9318        -74.4676      -0.00978908         149.231
0.53                   -0.302252        -136.247         -60.7666        -76.5924          -60.744        -76.5735      -0.00987498         149.163
0.531                  -0.313877        -136.806         -60.5741        -78.7179         -60.5519        -78.7029      -0.00996209         149.095
0.532                  -0.326353         -137.37         -60.3771        -80.8674         -60.3555        -80.8564       -0.0100505         149.028
0.533                  -0.339751        -137.939         -60.1758        -83.0419         -60.1548        -83.0349       -0.0101402          148.96
0.534                  -0.354151        -138.514         -59.9701        -85.2425         -59.9498        -85.2396       -0.0102313         148.892
0.535                  -0.369637        -139.093         -59.7599        -87.4703         -59.7405        -87.4715       -0.0103239         148.823
0.536                  -0.386303        -139.678         -59.5452        -89.7269         -59.5268        -89.7319        -0.010418         148.755
0.537                  -0.404246        -140.268         -59.3261        -92.0136         -59.3088        -92.0223       -0.0105138         148.687
0.538                  -0.423573        -140.862         -59.1027        -94.3322         -59.0864        -94.3443       -0.0106113         148.618
0.539                  -0.444397         -141.46         -58.8748        -96.6847         -58.8598        -96.6998       -0.0107105          148.55
0.54                   -0.466835        -142.063         -58.6427        -99.0732         -58.6289        -99.0909       -0.0108116         148.481
0.541                  -0.491012        -142.668         -58.4063          -101.5         -58.3939         -101.52       -0.0109147         148.412
0.542                  -0.517054        -143.275         -58.1658        -103.968         -58.1548        -103.989       -0.0110197         148.343
0.543                  -0.545089        -143.884         -57.9213         -106.48         -57.9117        -106.502       -0.0111268         148.274
0.544                  -0.575244        -144.493         -57.6731        -109.039         -57.6649        -109.061       -0.0112361         148.205
0.545                  -0.607637        -145.101         -57.4214        -111.649         -57.4146         -111.67       -0.0113475         148.136
0.546                  -0.642377        -145.707         -57.1666        -114.313          -57.161        -114.333       -0.0114612         148.067
0.547                  -0.679551        -146.308          -56.909        -117.036         -56.9046        -117.054       -0.0115771         147.997
0.548                  -0.719219        -146.903         -56.6491        -119.822         -56.6459        -119.837       -0.0116953         147.928
0.549                  -0.761401        -147.489         -56.3877        -122.675         -56.3855        -122.687       -0.0118158         147.858
0.55                   -0.806066        -148.064         -56.1255          -125.6         -56.1241         -125.61       -0.0119386         147.788
0.551                  -0.853116        -148.624         -55.8634        -128.602         -55.8627        -128.608       -0.0120635         147.718
0.552                  -0.902373        -149.168         -55.6027        -131.685         -55.6024        -131.688       -0.0121906         147.649
0.553                  -0.953563         -149.69         -55.3445        -134.852         -55.3445        -134.852       -0.0123197         147.578
0.554                    -1.0063         -150.19         -55.0906        -138.107         -55.0906        -138.105       -0.0124507         147.508
0.555                    -1.0601        -150.663         -54.8425        -141.451         -54.8426        -141.448       -0.0125835         147.438
0.556                   -1.11432        -151.108         -54.6023        -144.883         -54.6023        -144.881       -0.0127178         147.368
0.557                   -1.16824        -151.522         -54.3721        -148.402          -54.372        -148.402       -0.0128535         147.297
0.558                   -1.22103        -151.905         -54.1541        -152.003         -54.1539        -152.006       -0.0129904         147.226
0.559                   -1.27179        -152.258         -53.9504        -155.679         -53.9503        -155.686       -0.0131284         147.156
0.56                    -1.31959        -152.581         -53.7631        -159.418         -53.7633         -159.43        -0.013267         147.085
0.561                   -1.36355        -152.879         -53.5941        -163.205         -53.5947        -163.222       -0.0134063         147.014
0.562                   -1.40284        -153.154         -53.4448        -167.026          -53.446        -167.047        -0.013546         146.943
0.563                   -1.43679        -153.413         -53.3161        -170.859         -53.3181        -170.883       -0.0136859         146.872
0.564                   -1.46493        -153.662         -53.2084        -174.685         -53.2112         -174.71        -0.013826           146.8
0.565                   -1.48697        -153.908         -53.1213        -178.483         -53.1249        -178.507        -0.013966         146.729
0.566                    -1.5029        -154.158         -53.0538         177.766         -53.0579         177.746        -0.014106         146.657
0.567                   -1.51289        -154.419         -53.0044         174.081         -53.0086         174.065       -0.0142459         146.586
0.568                   -1.51735        -154.698         -52.9709         170.476         -52.9748         170.466       -0.0143857         146.514
0.569                   -1.51683            -155         -52.9511         166.962         -52.9542         166.956       -0.0145254         146.442
0.57                    -1.51201        -155.329         -52.9423         163.546         -52.9441         163.544       -0.0146652          146.37
0.571                   -1.50362        -155.688         -52.9421         160.231         -52.9421         160.231        -0.014805         146.298
0.572                   -1.49242        -156.081         -52.9479         157.018         -52.9458         157.015       -0.0149451         146.225
0.573                   -1.47916        -156.507         -52.9577         153.903         -52.9533         153.895       -0.0150855         146.153
0.574                   -1.46455        -156.967         -52.9695         150.883         -52.9627         150.865       -0.0152263          146.08
0.575                   -1.44922        -157.461         -52.9818          147.95         -52.9727         147.918       -0.0153678         146.007
0.576                   -1.43374        -157.988         -52.9932         145.097         -52.9822         145.048         -0.01551         145.934
0.577                    -1.4186        -158.547         -53.0028         142.317         -52.9902         142.247       -0.0156532         145.861
0.578                   -1.40423        -159.136         -53.0101         139.601         -52.9963         139.509       -0.0157974         145.788
0.579                   -1.39096        -159.753         -53.0144         136.944              -53         136.826       -0.0159429         145.714
0.58                    -1.37908        -160.397         -53.0155         134.338         -53.0012         134.194       -0.0160897         145.641
0.581                   -1.36883        -161.067         -53.0134         131.777         -52.9996         131.607        -0.016238         145.567
0.582                   -1.36038        -161.759         -53.0081         129.256         -52.9953         129.061        -0.016388         145.493
0.583                   -1.35388        -162.475         -52.9995         126.771         -52.9884         126.551       -0.0165397         145.419
0.584                   -1.34945         -163.21         -52.9878         124.317         -52.9788         124.075       -0.0166932         145.345
0.585                   -1.34718        -163.966         -52.9733         121.892         -52.9668         121.629       -0.0168488          145.27
0.586                   -1.34715         -164.74          -52.956         119.493         -52.9523         119.211       -0.0170064         145.196
0.587                   -1.34942        -165.531         -52.9361         117.117         -52.9356          116.82       -0.0171662         145.121
0.588                   -1.35405         -166.34         -52.9137         114.763         -52.9166         114.453       -0.0173283         145.046
0.589                   -1.36108        -167.164         -52.8891         112.429         -52.8955          112.11       -0.0174927         144.971
0.59                    -1.37058        -168.003         -52.8623         110.114         -52.8722         109.789       -0.0176595         144.895
0.591                   -1.38257        -168.857         -52.8334         107.818         -52.8469          107.49       -0.0178288          144.82
0.592                   -1.39713        -169.725         -52.8025         105.539         -52.8196          105.21       -0.0180007         144.744
0.593                   -1.41431        -170.607         -52.7697         103.277         -52.7902         102.951       -0.0181752         144.668
0.594                   -1.43418        -171.503         -52.7349         101.031         -52.7588          100.71       -0.0183523         144.592
0.595                   -1.45679        -172.411         -52.6983         98.8013         -52.7252         98.4869       -0.0185323         144.516
0.596                   -1.48224        -173.332         -52.6597         96.5864         -52.6896         96.2816        -0.018715          144.44
0.597                   -1.51062        -174.266         -52.6192         94.3862         -52.6518          94.093       -0.0189006         144.363
0.598                   -1.54201        -175.211         -52.5767         92.2002         -52.6117         91.9204       -0.0190891         144.287
0.599                   -1.57653        -176.168         -52.5322         90.0279         -52.5693         89.7631       -0.0192805          144.21
0.6                      -1.6143        -177.137         -52.4856         87.8688         -52.5245         87.6202       -0.0194749         144.133
0.601                   -1.65544        -178.117         -52.4368         85.7222         -52.4772          85.491       -0.0196724         144.055
0.602                    -1.7001        -179.107         -52.3858         83.5875         -52.4274         83.3745        -0.019873         143.978
0.603                   -1.74844         179.892         -52.3325          81.464         -52.3749         81.2699       -0.0200768           143.9
0.604                    -1.8006         178.882         -52.2767          79.351         -52.3197         79.1761       -0.0202837         143.822
0.605                   -1.85678         177.863         -52.2185         77.2476         -52.2617         77.0921       -0.0204938         143.744
0.606                   -1.91715         176.835         -52.1577         75.1529         -52.2008         75.0168       -0.0207073         143.666
0.607                   -1.98192           175.8         -52.0942          73.066         -52.1369         72.9491        -0.020924         143.587
0.608                   -2.05129         174.758         -52.0279         70.9858         -52.0699         70.8877       -0.0211441         143.508
0.609                   -2.12548         173.711         -51.9588         68.9112         -51.9997         68.8313       -0.0213677         143.429
0.61                    -2.20472         172.659         -51.8867         66.8411         -51.9264         66.7785       -0.0215947          143.35
0.611                   -2.28925         171.605         -51.8116         64.7741         -51.8497          64.728       -0.0218252         143.271
0.612                   -2.37929          170.55         -51.7334          62.709         -51.7697         62.6781       -0.0220592         143.191
0.613                   -2.47509         169.496          -51.652         60.6442         -51.6864         60.6274       -0.0222968         143.111
0.614                   -2.57689         168.445         -51.5675         58.5783         -51.5997         58.5741       -0.0225381         143.031
0.615                   -2.68492         167.399         -51.4797         56.5097         -51.5095         56.5165        -0.022783         142.951
0.616                    -2.7994         166.362         -51.3886         54.4366         -51.4159         54.4529       -0.0230316         142.871
0.617                   -2.92055         165.336         -51.2943         52.3574          -51.319         52.3813       -0.0232841          142.79
0.618                   -3.04854         164.325         -51.1967         50.2701         -51.2187         50.2998       -0.0235403         142.709
0.619                   -3.18353         163.334         -51.0958         48.1729         -51.1151         48.2066       -0.0238004         142.628
0.62                    -3.32563         162.365         -50.9918         46.0638         -51.0083         46.0995       -0.0240644         142.546
0.621                   -3.47489         161.425         -50.8847         43.9408         -50.8985         43.9766       -0.0243324         142.465
0.622                    -3.6313         160.517         -50.7746         41.8018         -50.7857         41.8358       -0.0246044         142.383
0.623                   -3.79478         159.649         -50.6617         39.6448         -50.6703         39.6752       -0.0248804           142.3
0.624                   -3.96514         158.825         -50.5462         37.4677         -50.5523         37.4927       -0.0251606         142.218
0.625                   -4.14206         158.052         -50.4282         35.2686         -50.4321         35.2864       -0.0254449         142.135
0.626                   -4.32513         157.336         -50.3081         33.0454         -50.3099         33.0547       -0.0257334         142.052
0.627                   -4.51375         156.685         -50.1862         30.7964         -50.1862         30.7958       -0.0260262         141.969
0.628                   -4.70715         156.104         -50.0627         28.5199         -50.0613         28.5083       -0.0263233         141.886
0.629                    -4.9044         155.601         -49.9382         26.2145         -49.9355         26.1912       -0.0266248         141.802
