! TOUCHSTONE file generated by CST MICROWAVE STUDIO
! Date and time: Sat Nov 14 20:41:55 2020
! Project name: Scenario_1_Planar_Body_Tissue_Out_of_Line_v2.cst
! Parameters = {dy1=-207.6; L_HA=400; Ltissue=700; MT=2.54; Rad_Dielectric=30; Rad_Lower=7.3; Rad_Upper=30; Wtissue=700; a_HA=580; a_WG=246; b_HA=500; b_WG=121; c_HA=0; c_WG=187; d_feed=85; dx1=173; h_feed=15; h_lower=18; h_upper=40; hfat=3; hgap=25; hmuscle=50; hskin=1.5}
! Header version: 2018
! Port assignment regex: !\s*Touchstone port\s*([0-9]+)\s*=\s*(CST MWS port|CST DS port)\s*([0-9]+|Zmin|Zmax)\s*\(\"(.*)\"\)(\s*mode\s*([0-9]+))?.*
! Touchstone port assignment:
! Touchstone port 1 = CST MWS port 1 ("")
! Touchstone port 2 = CST MWS port 2 ("")
# GHz S DB R 50
0.5                   -0.0515503        -121.774         -61.1947         127.782          -61.195         127.784      -0.00684944         151.149
0.501                 -0.0525534        -122.233         -61.0344         127.206         -61.0348         127.209      -0.00686443         151.084
0.502                 -0.0536732        -122.694          -60.871         126.629         -60.8714         126.632      -0.00688197         151.018
0.503                 -0.0549142        -123.159         -60.7043         126.048         -60.7048         126.052      -0.00690207         150.952
0.504                 -0.0562816        -123.627         -60.5343         125.465         -60.5349         125.469      -0.00692471         150.886
0.505                 -0.0577806        -124.099         -60.3611         124.878         -60.3616         124.883      -0.00694988         150.821
0.506                 -0.0594172        -124.575         -60.1844         124.288          -60.185         124.293      -0.00697758         150.755
0.507                 -0.0611974        -125.054         -60.0043         123.695          -60.005           123.7       -0.0070078         150.689
0.508                 -0.0631279        -125.537         -59.8208         123.098         -59.8215         123.103      -0.00704053         150.623
0.509                 -0.0652159        -126.023         -59.6338         122.496         -59.6345         122.502      -0.00707577         150.556
0.51                   -0.067469        -126.514         -59.4431          121.89         -59.4439         121.897       -0.0071135          150.49
0.511                 -0.0698955        -127.009         -59.2489         121.279         -59.2497         121.286      -0.00715373         150.424
0.512                 -0.0725042        -127.508         -59.0511         120.664         -59.0518         120.671      -0.00719644         150.358
0.513                 -0.0753049        -128.011         -58.8495         120.042         -58.8503          120.05      -0.00724163         150.291
0.514                 -0.0783078        -128.519         -58.6441         119.415         -58.6449         119.423      -0.00728929         150.225
0.515                 -0.0815242        -129.031         -58.4349         118.781         -58.4357         118.789      -0.00733942         150.158
0.516                 -0.0849661        -129.548         -58.2219         118.141         -58.2227         118.149      -0.00739201         150.091
0.517                 -0.0886467        -130.069         -58.0049         117.493         -58.0057         117.502      -0.00744705         150.025
0.518                 -0.0925802        -130.596         -57.7839         116.838         -57.7847         116.847      -0.00750454         149.958
0.519                 -0.0967819        -131.128         -57.5588         116.175         -57.5597         116.184      -0.00756448         149.891
0.52                   -0.101269        -131.665         -57.3297         115.502         -57.3305         115.511      -0.00762685         149.824
0.521                  -0.106059        -132.208         -57.0964          114.82         -57.0972          114.83      -0.00769165         149.757
0.522                  -0.111171        -132.756         -56.8588         114.128         -56.8596         114.138      -0.00775889          149.69
0.523                  -0.116629         -133.31         -56.6169         113.426         -56.6177         113.435      -0.00782855         149.622
0.524                  -0.122454         -133.87         -56.3707         112.711         -56.3715         112.721      -0.00790062         149.555
0.525                  -0.128673        -134.436           -56.12         111.985         -56.1208         111.995      -0.00797511         149.488
0.526                  -0.135314        -135.009         -55.8648         111.245         -55.8656         111.255      -0.00805202          149.42
0.527                  -0.142407        -135.589         -55.6051         110.492         -55.6058         110.501      -0.00813132         149.353
0.528                  -0.149987        -136.175         -55.3407         109.723         -55.3414         109.733      -0.00821304         149.285
0.529                  -0.158089        -136.769         -55.0716         108.939         -55.0722         108.949      -0.00829715         149.217
0.53                   -0.166755         -137.37         -54.7977         108.137         -54.7983         108.147      -0.00838365         149.149
0.531                   -0.17603        -137.979         -54.5189         107.318         -54.5195         107.328      -0.00847256         149.081
0.532                  -0.185962        -138.596         -54.2352         106.479         -54.2357         106.489      -0.00856385         149.013
0.533                  -0.196606        -139.221         -53.9464          105.62          -53.947         105.629      -0.00865753         148.945
0.534                  -0.208023        -139.855         -53.6526         104.738         -53.6531         104.748      -0.00875359         148.877
0.535                  -0.220277        -140.498         -53.3537         103.833         -53.3541         103.843      -0.00885204         148.809
0.536                  -0.233444         -141.15         -53.0494         102.904         -53.0498         102.913      -0.00895287          148.74
0.537                  -0.247604        -141.812         -52.7399         101.947         -52.7403         101.956      -0.00905608         148.672
0.538                  -0.262849        -142.485          -52.425         100.962         -52.4254          100.97      -0.00916166         148.603
0.539                  -0.279279        -143.168         -52.1047         99.9457          -52.105          99.954      -0.00926963         148.535
0.54                   -0.297007        -143.861         -51.7789         98.8972         -51.7792         98.9052      -0.00937997         148.466
0.541                  -0.316158        -144.567         -51.4476         97.8138         -51.4478         97.8214      -0.00949269         148.397
0.542                  -0.336874        -145.284         -51.1106         96.6929         -51.1108         96.7002      -0.00960778         148.328
0.543                   -0.35931        -146.014          -50.768         95.5321         -50.7682          95.539      -0.00972525         148.259
0.544                  -0.383643        -146.756         -50.4198         94.3285         -50.4199          94.335       -0.0098451          148.19
0.545                  -0.410071        -147.512          -50.066          93.079          -50.066         93.0851      -0.00996732         148.121
0.546                  -0.438815        -148.281         -49.7065         91.7803         -49.7065          91.786       -0.0100919         148.051
0.547                  -0.470124        -149.064         -49.3414         90.4291         -49.3414         90.4343       -0.0102189         147.982
0.548                   -0.50428        -149.862         -48.9708         89.0214         -48.9707         89.0261       -0.0103483         147.912
0.549                  -0.541599        -150.674         -48.5947         87.5533         -48.5947         87.5574         -0.01048         147.842
0.55                   -0.582437        -151.502         -48.2134         86.0204         -48.2134          86.024       -0.0106141         147.773
0.551                  -0.627194        -152.344         -47.8271          84.418          -47.827          84.421       -0.0107506         147.703
0.552                  -0.676324        -153.202         -47.4359         82.7412         -47.4358         82.7437       -0.0108895         147.633
0.553                  -0.730335        -154.074         -47.0402         80.9849         -47.0402         80.9868       -0.0110308         147.563
0.554                  -0.789799        -154.961         -46.6405         79.1434         -46.6404         79.1447       -0.0111745         147.492
0.555                  -0.855357        -155.861         -46.2372          77.211         -46.2372         77.2117       -0.0113205         147.422
0.556                  -0.927726        -156.772         -45.8311         75.1817          -45.831         75.1817        -0.011469         147.352
0.557                    -1.0077        -157.694         -45.4227         73.0492         -45.4227         73.0487       -0.0116199         147.281
0.558                   -1.09617        -158.622         -45.0132         70.8074         -45.0132         70.8063       -0.0117731          147.21
0.559                   -1.19409        -159.554         -44.6034         68.4502         -44.6035         68.4484       -0.0119288         147.139
0.56                    -1.30251        -160.483         -44.1949         65.9715          -44.195         65.9692       -0.0120869         147.069
0.561                   -1.42253        -161.404         -43.7889         63.3658         -43.7891          63.363       -0.0122474         146.998
0.562                   -1.55531        -162.307         -43.3872         60.6283         -43.3875         60.6251       -0.0124104         146.926
0.563                   -1.70198        -163.182         -42.9918         57.7553         -42.9922         57.7516       -0.0125757         146.855
0.564                   -1.86362        -164.015         -42.6048         54.7444         -42.6053         54.7403       -0.0127435         146.784
0.565                   -2.04114        -164.787         -42.2285         51.5948         -42.2291         51.5905       -0.0129136         146.712
0.566                   -2.23513        -165.479         -41.8655         48.3082         -41.8662         48.3038       -0.0130862          146.64
0.567                   -2.44569        -166.065         -41.5184         44.8889         -41.5191         44.8844       -0.0132613         146.569
0.568                   -2.67214        -166.516         -41.1899          41.344         -41.1907         41.3395       -0.0134387         146.497
0.569                   -2.91277          -166.8         -40.8825         37.6839         -40.8835         37.6796       -0.0136186         146.425
0.57                    -3.16445        -166.882         -40.5988         33.9225         -40.5998         33.9184        -0.013801         146.352
0.571                   -3.42228        -166.728         -40.3408         30.0765          -40.342         30.0727       -0.0139857          146.28
0.572                   -3.67939        -166.308         -40.1105         26.1657         -40.1117         26.1624        -0.014173         146.208
0.573                   -3.92684        -165.604         -39.9088          22.212         -39.9101         22.2093       -0.0143626         146.135
0.574                   -4.15402        -164.612         -39.7366         18.2388         -39.7379         18.2367       -0.0145548         146.062
0.575                   -4.34946         -163.35         -39.5937         14.2698          -39.595         14.2684       -0.0147494         145.989
0.576                    -4.5022        -161.865         -39.4795         10.3281         -39.4808         10.3274       -0.0149465         145.916
0.577                   -4.60348        -160.224         -39.3928         6.43543         -39.3941         6.43533       -0.0151461         145.843
0.578                   -4.64824        -158.517         -39.3318         2.61108         -39.3331          2.6116       -0.0153483          145.77
0.579                    -4.6361        -156.836         -39.2944        -1.12847         -39.2957        -1.12737       -0.0155529         145.696
0.58                    -4.57124        -155.269         -39.2782        -4.76995         -39.2795        -4.76834       -0.0157601         145.623
0.581                   -4.46143        -153.885         -39.2807        -8.30341         -39.2818        -8.30135       -0.0159697         145.549
0.582                   -4.31651        -152.732         -39.2991        -11.7221         -39.3002        -11.7196       -0.0161819         145.475
0.583                   -4.14679        -151.832          -39.331        -15.0221          -39.332        -15.0194       -0.0163967         145.401
0.584                    -3.9619        -151.187          -39.374        -18.2021         -39.3749        -18.1992       -0.0166139         145.327
0.585                   -3.76999        -150.786         -39.4257        -21.2631         -39.4265          -21.26       -0.0168336         145.252
0.586                   -3.57751        -150.608         -39.4842        -24.2075         -39.4849        -24.2044       -0.0170559         145.178
0.587                   -3.38921        -150.625         -39.5476        -27.0392         -39.5483        -27.0361       -0.0172806         145.103
0.588                   -3.20835        -150.812         -39.6143        -29.7632         -39.6149        -29.7601       -0.0175079         145.028
0.589                   -3.03702        -151.143          -39.683        -32.3847         -39.6835        -32.3817       -0.0177376         144.953
0.59                    -2.87639        -151.595         -39.7524        -34.9098         -39.7529        -34.9069       -0.0179698         144.878
0.591                   -2.72695        -152.146         -39.8216        -37.3444         -39.8221        -37.3417       -0.0182044         144.802
0.592                   -2.58872        -152.779         -39.8898        -39.6947         -39.8902        -39.6921       -0.0184416         144.727
0.593                   -2.46143        -153.479         -39.9563        -41.9666         -39.9566        -41.9643       -0.0186811         144.651
0.594                    -2.3446        -154.234         -40.0205        -44.1659         -40.0208        -44.1638       -0.0189231         144.575
0.595                   -2.23762        -155.033         -40.0821        -46.2983         -40.0823        -46.2964       -0.0191675         144.499
0.596                   -2.13986        -155.868         -40.1406         -48.369         -40.1408        -48.3673       -0.0194143         144.423
0.597                   -2.05065        -156.732         -40.1959        -50.3829          -40.196        -50.3815       -0.0196634         144.346
0.598                   -1.96934         -157.62         -40.2477        -52.3448         -40.2479        -52.3436        -0.019915          144.27
0.599                    -1.8953        -158.528          -40.296        -54.2589         -40.2961         -54.258       -0.0201688         144.193
0.6                     -1.82795        -159.451         -40.3407        -56.1294         -40.3408        -56.1287        -0.020425         144.116
0.601                   -1.76675        -160.388         -40.3817        -57.9599         -40.3818        -57.9594       -0.0206836         144.039
0.602                   -1.71119        -161.336          -40.419        -59.7539         -40.4191        -59.7537       -0.0209444         143.961
0.603                   -1.66081        -162.293         -40.4528        -61.5146         -40.4529        -61.5145       -0.0212074         143.884
0.604                    -1.6152        -163.258          -40.483        -63.2448          -40.483        -63.2449       -0.0214727         143.806
0.605                   -1.57398        -164.231         -40.5096        -64.9472         -40.5097        -64.9475       -0.0217403         143.728
0.606                   -1.53681         -165.21         -40.5329        -66.6243          -40.533        -66.6247         -0.02201          143.65
0.607                   -1.50338        -166.195         -40.5529        -68.2781         -40.5529        -68.2787        -0.022282         143.571
0.608                   -1.47343        -167.185         -40.5696        -69.9109         -40.5697        -69.9116       -0.0225561         143.493
0.609                    -1.4467        -168.182         -40.5833        -71.5243         -40.5833        -71.5251       -0.0228323         143.414
0.61                    -1.42296        -169.183         -40.5939        -73.1201          -40.594         -73.121       -0.0231107         143.335
0.611                   -1.40204         -170.19         -40.6017        -74.6997         -40.6018        -74.7006       -0.0233912         143.255
0.612                   -1.38374        -171.203         -40.6068        -76.2644         -40.6069        -76.2654       -0.0236739         143.176
0.613                   -1.36791        -172.222         -40.6092        -77.8156         -40.6093        -77.8166       -0.0239586         143.096
0.614                   -1.35441        -173.246          -40.609        -79.3542         -40.6091        -79.3553       -0.0242454         143.016
0.615                   -1.34312        -174.277         -40.6065        -80.8812         -40.6066        -80.8823       -0.0245344         142.936
0.616                   -1.33392        -175.314         -40.6016        -82.3976         -40.6017        -82.3987       -0.0248254         142.856
0.617                   -1.32672        -176.358         -40.5945         -83.904         -40.5946        -83.9051       -0.0251186         142.775
0.618                   -1.32144         -177.41         -40.5853        -85.4012         -40.5854        -85.4023       -0.0254139         142.694
0.619                   -1.31799        -178.468         -40.5741        -86.8898         -40.5742        -86.8909       -0.0257113         142.613
0.62                    -1.31632        -179.535         -40.5609        -88.3702          -40.561        -88.3713        -0.026011         142.532
0.621                   -1.31636          179.39         -40.5458        -89.8431          -40.546        -89.8441       -0.0263128          142.45
0.622                   -1.31808         178.306          -40.529        -91.3087         -40.5291        -91.3097       -0.0266169         142.369
0.623                   -1.32143         177.213         -40.5104        -92.7675         -40.5106        -92.7684       -0.0269232         142.286
0.624                   -1.32638          176.11         -40.4902        -94.2198         -40.4903        -94.2207       -0.0272319         142.204
0.625                    -1.3329         174.998         -40.4684        -95.6659         -40.4685        -95.6667        -0.027543         142.122
0.626                   -1.34097         173.874          -40.445        -97.1059         -40.4451        -97.1067       -0.0278565         142.039
0.627                   -1.35059          172.74           -40.42        -98.5403         -40.4202         -98.541       -0.0281726         141.956
0.628                   -1.36175         171.595         -40.3936        -99.9692         -40.3938        -99.9698       -0.0284912         141.872
0.629                   -1.37444         170.437         -40.3658        -101.393         -40.3659        -101.393       -0.0288125         141.789
