! TOUCHSTONE file generated by CST MICROWAVE STUDIO
! Date and time: Mon Nov 30 09:11:03 2020
! Project name: Scenario_1_Planar_Body_Tissue_Out_of_Line_v2.cst
! Parameters = {dy1=207.6; L_HA=400; Ltissue=700; MT=2.54; Rad_Dielectric=30; Rad_Lower=7.3; Rad_Upper=30; Wtissue=700; a_HA=580; a_WG=246; b_HA=500; b_WG=121; c_HA=0; c_WG=187; d_feed=85; dx1=346; h_feed=15; h_lower=18; h_upper=40; hfat=3; hgap=25; hmuscle=50; hskin=1.5}
! Header version: 2018
! Port assignment regex: !\s*Touchstone port\s*([0-9]+)\s*=\s*(CST MWS port|CST DS port)\s*([0-9]+|Zmin|Zmax)\s*\(\"(.*)\"\)(\s*mode\s*([0-9]+))?.*
! Touchstone port assignment:
! Touchstone port 1 = CST MWS port 1 ("")
! Touchstone port 2 = CST MWS port 2 ("")
# GHz S DB R 50
0.5                    -0.255512        -121.833         -56.9506         16.3252         -56.9506         16.3247      -0.00826183         151.148
0.501                   -0.25768        -122.226         -57.0112          15.238         -57.0113         15.2383      -0.00831487         151.082
0.502                  -0.259858        -122.621         -57.0714          14.127         -57.0716         14.1282      -0.00836852         151.017
0.503                  -0.262049        -123.018          -57.131         12.9917         -57.1314         12.9937      -0.00842278         150.952
0.504                  -0.264252        -123.418           -57.19         11.8314         -57.1905         11.8342      -0.00847766         150.887
0.505                   -0.26647         -123.82         -57.2483         10.6454          -57.249          10.649      -0.00853318         150.821
0.506                  -0.268705        -124.225         -57.3057         9.43311         -57.3066         9.43742      -0.00858933         150.756
0.507                  -0.270958        -124.633         -57.3622         8.19386         -57.3632         8.19887      -0.00864614          150.69
0.508                   -0.27323        -125.044         -57.4175         6.92703         -57.4187         6.93269      -0.00870361         150.625
0.509                  -0.275523        -125.457         -57.4716           5.632          -57.473         5.63827      -0.00876175         150.559
0.51                    -0.27784        -125.873         -57.5242         4.30818         -57.5258         4.31501      -0.00882057         150.493
0.511                  -0.280183        -126.291         -57.5753           2.955          -57.577         2.96234      -0.00888009         150.427
0.512                  -0.282553        -126.713         -57.6246         1.57194         -57.6265         1.57974       -0.0089403         150.361
0.513                  -0.284952        -127.137         -57.6719        0.158512          -57.674        0.166716      -0.00900122         150.295
0.514                  -0.287383        -127.565          -57.717        -1.28572         -57.7194        -1.27718      -0.00906287         150.229
0.515                  -0.289849        -127.995         -57.7598        -2.76113         -57.7623        -2.75232      -0.00912526         150.163
0.516                  -0.292351        -128.429         -57.7999        -4.26804         -57.8027        -4.25903      -0.00918838         150.097
0.517                  -0.294893        -128.866         -57.8372        -5.80668         -57.8402        -5.79754      -0.00925227          150.03
0.518                  -0.297477        -129.305         -57.8714        -7.37719         -57.8746        -7.36801      -0.00931692         149.964
0.519                  -0.300106        -129.749         -57.9023        -8.97963         -57.9056        -8.97049      -0.00938235         149.897
0.52                   -0.302784        -130.195         -57.9295         -10.614         -57.9331        -10.6049      -0.00944858          149.83
0.521                  -0.305512        -130.645         -57.9528          -12.28         -57.9566        -12.2712      -0.00951561         149.764
0.522                  -0.308296        -131.098          -57.972        -13.9774          -57.976        -13.9689      -0.00958346         149.697
0.523                  -0.311137        -131.554         -57.9867        -15.7059         -57.9908        -15.6978      -0.00965214          149.63
0.524                  -0.314041        -132.014         -57.9966        -17.4648          -58.001        -17.4571      -0.00972166         149.563
0.525                   -0.31701        -132.478         -58.0016        -19.2533         -58.0061        -19.2463      -0.00979204         149.496
0.526                   -0.32005        -132.945         -58.0012        -21.0707         -58.0058        -21.0643      -0.00986329         149.429
0.527                  -0.323163        -133.416         -57.9951        -22.9158              -58        -22.9102      -0.00993543         149.361
0.528                  -0.326356        -133.891         -57.9832        -24.7876         -57.9882        -24.7828       -0.0100085         149.294
0.529                  -0.329632         -134.37         -57.9651        -26.6845         -57.9703        -26.6806       -0.0100824         149.227
0.53                   -0.332996        -134.852         -57.9406         -28.605         -57.9459        -28.6021       -0.0101573         149.159
0.531                  -0.336455        -135.339         -57.9094        -30.5476         -57.9148        -30.5457       -0.0102331         149.091
0.532                  -0.340012         -135.83         -57.8714        -32.5102         -57.8768        -32.5095       -0.0103099         149.024
0.533                  -0.343676        -136.325         -57.8262         -34.491         -57.8317        -34.4914       -0.0103876         148.956
0.534                   -0.34745        -136.824         -57.7737        -36.4878         -57.7792        -36.4894       -0.0104664         148.888
0.535                  -0.351343        -137.328         -57.7138        -38.4983         -57.7193        -38.5011       -0.0105461          148.82
0.536                  -0.355361        -137.836         -57.6462        -40.5202         -57.6518        -40.5243       -0.0106269         148.751
0.537                  -0.359511        -138.348          -57.571        -42.5511         -57.5765        -42.5564       -0.0107087         148.683
0.538                  -0.363801        -138.865         -57.4881        -44.5886         -57.4935        -44.5951       -0.0107916         148.615
0.539                  -0.368239        -139.387         -57.3973        -46.6301         -57.4027        -46.6378       -0.0108756         148.546
0.54                   -0.372834        -139.914         -57.2987        -48.6731          -57.304        -48.6819       -0.0109606         148.478
0.541                  -0.377594        -140.445         -57.1924         -50.715         -57.1976         -50.725       -0.0110468         148.409
0.542                   -0.38253        -140.982         -57.0783        -52.7535         -57.0834        -52.7644       -0.0111341          148.34
0.543                  -0.387651        -141.524         -56.9566        -54.7861         -56.9615        -54.7979       -0.0112225         148.271
0.544                  -0.392968        -142.071         -56.8274        -56.8104         -56.8321        -56.8231       -0.0113121         148.202
0.545                  -0.398493        -142.623         -56.6908        -58.8242         -56.6953        -58.8376        -0.011403         148.133
0.546                  -0.404238        -143.181          -56.547        -60.8254         -56.5513        -60.8395        -0.011495         148.064
0.547                  -0.410214        -143.744         -56.3963         -62.812         -56.4003        -62.8265       -0.0115882         147.995
0.548                  -0.416437        -144.313         -56.2387        -64.7821         -56.2425         -64.797       -0.0116828         147.925
0.549                   -0.42292        -144.888         -56.0746        -66.7341         -56.0781        -66.7491       -0.0117786         147.856
0.55                   -0.429679        -145.469         -55.9042        -68.6662         -55.9075        -68.6812       -0.0118756         147.786
0.551                  -0.436729        -146.057         -55.7277        -70.5773         -55.7307        -70.5921       -0.0119741         147.716
0.552                  -0.444088         -146.65         -55.5455        -72.4659         -55.5482        -72.4805       -0.0120738         147.646
0.553                  -0.451774         -147.25         -55.3578        -74.3311         -55.3602        -74.3452       -0.0121749         147.576
0.554                  -0.459807        -147.856         -55.1649        -76.1719          -55.167        -76.1853       -0.0122775         147.506
0.555                  -0.468207         -148.47         -54.9671        -77.9875         -54.9689        -78.0002       -0.0123814         147.436
0.556                  -0.476997         -149.09         -54.7646        -79.7774         -54.7662         -79.789       -0.0124868         147.365
0.557                  -0.486199        -149.717         -54.5579         -81.541         -54.5592        -81.5515       -0.0125937         147.295
0.558                  -0.495839        -150.351         -54.3471         -83.278         -54.3481        -83.2871        -0.012702         147.224
0.559                  -0.505943        -150.993         -54.1325         -84.988         -54.1332        -84.9957       -0.0128119         147.154
0.56                    -0.51654        -151.643         -53.9145        -86.6711         -53.9149        -86.6771       -0.0129233         147.083
0.561                   -0.52766          -152.3         -53.6932        -88.3272         -53.6935        -88.3313       -0.0130364         147.012
0.562                  -0.539336        -152.965         -53.4691        -89.9562         -53.4691        -89.9584        -0.013151          146.94
0.563                  -0.551601        -153.638         -53.2423        -91.5585         -53.2421        -91.5586       -0.0132673         146.869
0.564                  -0.564493         -154.32         -53.0131        -93.1341         -53.0127         -93.132       -0.0133852         146.798
0.565                  -0.578051        -155.011         -52.7818        -94.6834         -52.7812        -94.6789       -0.0135048         146.726
0.566                  -0.592318         -155.71         -52.5486        -96.2068         -52.5479        -96.1999       -0.0136262         146.655
0.567                  -0.607338        -156.418         -52.3139        -97.7047          -52.313        -97.6951       -0.0137493         146.583
0.568                  -0.623161        -157.136         -52.0778        -99.1775         -52.0767        -99.1653       -0.0138743         146.511
0.569                  -0.639838        -157.863         -51.8405        -100.626         -51.8394        -100.611        -0.014001         146.439
0.57                   -0.657424        -158.599         -51.6025         -102.05         -51.6013        -102.032       -0.0141296         146.366
0.571                  -0.675979        -159.346         -51.3639        -103.451         -51.3627        -103.431       -0.0142601         146.294
0.572                  -0.695567        -160.103         -51.1249         -104.83         -51.1237        -104.806       -0.0143926         146.222
0.573                  -0.716257         -160.87         -50.8859        -106.186         -50.8847         -106.16        -0.014527         146.149
0.574                  -0.738122        -161.648         -50.6471        -107.522          -50.646        -107.492       -0.0146634         146.076
0.575                  -0.761241        -162.437         -50.4088        -108.837         -50.4078        -108.805       -0.0148018         146.003
0.576                    -0.7857        -163.237         -50.1713        -110.134         -50.1703        -110.098       -0.0149423          145.93
0.577                   -0.81159        -164.049         -49.9347        -111.412          -49.934        -111.373        -0.015085         145.857
0.578                  -0.839009        -164.872         -49.6995        -112.673          -49.699        -112.631       -0.0152298         145.783
0.579                  -0.868064        -165.708          -49.466        -113.918         -49.4656        -113.874       -0.0153767          145.71
0.58                   -0.898866        -166.555         -49.2343        -115.148         -49.2342        -115.102       -0.0155259         145.636
0.581                   -0.93154        -167.415         -49.0049        -116.366         -49.0051        -116.317       -0.0156774         145.562
0.582                  -0.966217        -168.287          -48.778        -117.573         -48.7786        -117.522       -0.0158311         145.488
0.583                   -1.00304        -169.172         -48.5541         -118.77         -48.5549        -118.717       -0.0159873         145.414
0.584                   -1.04216        -170.071         -48.3332        -119.959         -48.3345        -119.905       -0.0161457          145.34
0.585                   -1.08373        -170.982         -48.1159        -121.144         -48.1176        -121.088       -0.0163067         145.265
0.586                   -1.12795        -171.906         -47.9024        -122.325         -47.9045        -122.268         -0.01647         145.191
0.587                     -1.175        -172.844         -47.6931        -123.506         -47.6956        -123.448       -0.0166359         145.116
0.588                   -1.22507        -173.795         -47.4881        -124.689          -47.491         -124.63       -0.0168043         145.041
0.589                    -1.2784        -174.759         -47.2878        -125.877         -47.2912        -125.818       -0.0169753         144.966
0.59                    -1.33522        -175.736         -47.0924        -127.074         -47.0963        -127.015       -0.0171489          144.89
0.591                   -1.39577        -176.726         -46.9022        -128.282         -46.9065        -128.224       -0.0173252         144.815
0.592                   -1.46034        -177.729         -46.7173        -129.505          -46.722        -129.448       -0.0175041         144.739
0.593                   -1.52921        -178.744          -46.538        -130.747         -46.5431        -130.691       -0.0176858         144.663
0.594                   -1.60269        -179.771         -46.3643         -132.01         -46.3697        -131.956       -0.0178702         144.587
0.595                   -1.68111         179.191         -46.1962          -133.3          -46.202        -133.248       -0.0180574         144.511
0.596                   -1.76483         178.143         -46.0339        -134.619         -46.0399        -134.569       -0.0182475         144.435
0.597                   -1.85422         177.086         -45.8773         -135.97         -45.8836        -135.923       -0.0184404         144.358
0.598                   -1.94967         176.021         -45.7264        -137.358         -45.7328        -137.314       -0.0186362         144.282
0.599                    -2.0516         174.949         -45.5809        -138.785         -45.5875        -138.744       -0.0188348         144.205
0.6                     -2.16046         173.874         -45.4409        -140.255         -45.4475        -140.217       -0.0190364         144.128
0.601                   -2.27669         172.796         -45.3061         -141.77         -45.3127        -141.735        -0.019241          144.05
0.602                   -2.40077          171.72         -45.1762        -143.331         -45.1827          -143.3       -0.0194485         143.973
0.603                   -2.53319         170.646          -45.051        -144.942         -45.0575        -144.914        -0.019659         143.895
0.604                   -2.67444         169.581         -44.9303        -146.603         -44.9366        -146.578       -0.0198725         143.817
0.605                   -2.82501         168.527         -44.8137        -148.316         -44.8198        -148.293        -0.020089         143.739
0.606                   -2.98541          167.49          -44.701         -150.08         -44.7068         -150.06       -0.0203085         143.661
0.607                    -3.1561         166.475         -44.5918        -151.896         -44.5974        -151.879        -0.020531         143.582
0.608                   -3.33752         165.489          -44.486        -153.763         -44.4912        -153.749       -0.0207565         143.504
0.609                   -3.53006          164.54         -44.3833         -155.68         -44.3881        -155.668        -0.020985         143.425
0.61                    -3.73405         163.636         -44.2833        -157.646         -44.2878        -157.636       -0.0212164         143.346
0.611                   -3.94971         162.785          -44.186        -159.658         -44.1901         -159.65       -0.0214509         143.266
0.612                   -4.17712             162         -44.0911        -161.716         -44.0948        -161.709       -0.0216883         143.187
0.613                   -4.41622         161.291         -43.9986        -163.815         -44.0019         -163.81       -0.0219287         143.107
0.614                   -4.66669         160.672         -43.9082        -165.953         -43.9111        -165.949        -0.022172         143.027
0.615                   -4.92797         160.157           -43.82        -168.127         -43.8225        -168.124       -0.0224182         142.947
0.616                   -5.19915         159.759         -43.7339        -170.333         -43.7361        -170.331       -0.0226672         142.867
0.617                   -5.47891         159.496         -43.6499        -172.569         -43.6517        -172.567       -0.0229192         142.786
0.618                   -5.76546         159.383         -43.5679         -174.83         -43.5694        -174.829        -0.023174         142.705
0.619                   -6.05644         159.435         -43.4881        -177.113         -43.4893        -177.112       -0.0234316         142.624
0.62                    -6.34888         159.667         -43.4104        -179.413         -43.4113        -179.413       -0.0236921         142.543
0.621                   -6.63914         160.092          -43.335         178.272         -43.3357         178.272       -0.0239553         142.461
0.622                   -6.92292         160.719         -43.2619         175.946         -43.2623         175.946       -0.0242214         142.379
0.623                   -7.19528         161.553         -43.1911         173.613         -43.1914         173.614       -0.0244902         142.297
0.624                    -7.4508          162.59         -43.1228         171.277         -43.1229         171.277       -0.0247619         142.215
0.625                    -7.6838         163.822          -43.057         168.941         -43.0569         168.941       -0.0250364         142.133
0.626                   -7.88862          165.23         -42.9936         166.608         -42.9934         166.609       -0.0253138          142.05
0.627                    -8.0601         166.786         -42.9329         164.282         -42.9326         164.282       -0.0255941         141.967
0.628                   -8.19393         168.453         -42.8747         161.965         -42.8743         161.965       -0.0258773         141.883
0.629                   -8.28713         170.189         -42.8191          159.66         -42.8186          159.66       -0.0261635           141.8
