! TOUCHSTONE file generated by CST MICROWAVE STUDIO
! Date and time: Sat Nov 14 20:42:51 2020
! Project name: Scenario_1_Planar_Body_Tissue_Out_of_Line_v2.cst
! Parameters = {dy1=-224.9; L_HA=400; Ltissue=700; MT=2.54; Rad_Dielectric=30; Rad_Lower=7.3; Rad_Upper=30; Wtissue=700; a_HA=580; a_WG=246; b_HA=500; b_WG=121; c_HA=0; c_WG=187; d_feed=85; dx1=173; h_feed=15; h_lower=18; h_upper=40; hfat=3; hgap=25; hmuscle=50; hskin=1.5}
! Header version: 2018
! Port assignment regex: !\s*Touchstone port\s*([0-9]+)\s*=\s*(CST MWS port|CST DS port)\s*([0-9]+|Zmin|Zmax)\s*\(\"(.*)\"\)(\s*mode\s*([0-9]+))?.*
! Touchstone port assignment:
! Touchstone port 1 = CST MWS port 1 ("")
! Touchstone port 2 = CST MWS port 2 ("")
# GHz S DB R 50
0.5                   -0.0536648        -121.774         -62.0177         126.742         -62.0175         126.745      -0.00685948         151.149
0.501                 -0.0543017        -122.232         -61.8409         126.078         -61.8407         126.081      -0.00691049         151.083
0.502                 -0.0550494        -122.693         -61.6619         125.412         -61.6616         125.416       -0.0069634         151.017
0.503                 -0.0559135        -123.158         -61.4805         124.745         -61.4802         124.749       -0.0070182         150.952
0.504                 -0.0569001        -123.627         -61.2967         124.076         -61.2965          124.08      -0.00707488         150.886
0.505                  -0.058016        -124.099         -61.1105         123.405         -61.1103          123.41      -0.00713345          150.82
0.506                 -0.0592681        -124.575         -60.9219         122.732         -60.9216         122.737      -0.00719389         150.754
0.507                 -0.0606639        -125.054         -60.7307         122.057         -60.7305         122.062       -0.0072562         150.688
0.508                 -0.0622115        -125.538          -60.537         121.379         -60.5367         121.384      -0.00732039         150.622
0.509                 -0.0639196        -126.026         -60.3407         120.698         -60.3404         120.703      -0.00738644         150.556
0.51                  -0.0657975        -126.518         -60.1417         120.014         -60.1414          120.02      -0.00745435         150.489
0.511                 -0.0678551        -127.015         -59.9401         119.327         -59.9398         119.333      -0.00752412         150.423
0.512                 -0.0701033        -127.516         -59.7357         118.637         -59.7353         118.643      -0.00759575         150.357
0.513                 -0.0725536        -128.021         -59.5284         117.943         -59.5281         117.949      -0.00766923          150.29
0.514                 -0.0752185        -128.531         -59.3183         117.245          -59.318         117.252      -0.00774456         150.223
0.515                 -0.0781115        -129.046         -59.1053         116.543          -59.105          116.55      -0.00782174         150.157
0.516                  -0.081247        -129.566         -58.8893         115.836         -58.8889         115.843      -0.00790075          150.09
0.517                 -0.0846409        -130.091         -58.6703         115.124         -58.6699         115.131      -0.00798161         150.023
0.518                 -0.0883101        -130.621         -58.4481         114.407         -58.4477         114.415       -0.0080643         149.956
0.519                 -0.0922731        -131.157         -58.2227         113.684         -58.2223         113.692      -0.00814883         149.889
0.52                  -0.0965498        -131.698         -57.9941         112.956         -57.9937         112.963      -0.00823519         149.822
0.521                  -0.101162        -132.245         -57.7622          112.22         -57.7617         112.228      -0.00832337         149.755
0.522                  -0.106133        -132.798         -57.5269         111.477         -57.5264         111.485      -0.00841338         149.688
0.523                  -0.111489        -133.357         -57.2881         110.727         -57.2875         110.735      -0.00850522         149.621
0.524                  -0.117257        -133.923         -57.0457         109.968         -57.0452         109.976      -0.00859887         149.553
0.525                  -0.123468        -134.495         -56.7997         109.201         -56.7991         109.209      -0.00869434         149.486
0.526                  -0.130155        -135.074           -56.55         108.424         -56.5494         108.432      -0.00879163         149.419
0.527                  -0.137355        -135.659         -56.2964         107.637         -56.2958         107.645      -0.00889073         149.351
0.528                  -0.145107        -136.253          -56.039         106.839         -56.0383         106.847      -0.00899165         149.283
0.529                  -0.153454        -136.853         -55.7775         106.029         -55.7769         106.037      -0.00909437         149.215
0.53                   -0.162445        -137.462          -55.512         105.207         -55.5113         105.215      -0.00919891         149.148
0.531                  -0.172132        -138.078         -55.2423         104.371         -55.2416         104.379      -0.00930525          149.08
0.532                  -0.182572        -138.703         -54.9683          103.52         -54.9676         103.529       -0.0094134         149.011
0.533                  -0.193829        -139.336         -54.6899         102.654         -54.6892         102.662      -0.00952335         148.943
0.534                  -0.205973        -139.979          -54.407         101.771         -54.4063         101.779      -0.00963511         148.875
0.535                   -0.21908         -140.63         -54.1196          100.87         -54.1188         100.878      -0.00974867         148.807
0.536                  -0.233237        -141.292         -53.8274         99.9496         -53.8266         99.9577      -0.00986403         148.738
0.537                  -0.248537        -141.963         -53.5304         99.0082         -53.5296         99.0162       -0.0099812          148.67
0.538                  -0.265085        -142.644         -53.2285         98.0443         -53.2277         98.0522       -0.0101002         148.601
0.539                  -0.282996        -143.337         -52.9216         97.0562         -52.9207          97.064       -0.0102209         148.532
0.54                   -0.302399         -144.04         -52.6096          96.042         -52.6087         96.0496       -0.0103435         148.464
0.541                  -0.323436        -144.754         -52.2923         94.9997         -52.2914         95.0072       -0.0104679         148.395
0.542                  -0.346267        -145.481         -51.9698         93.9273         -51.9688         93.9346       -0.0105941         148.326
0.543                  -0.371068        -146.219         -51.6418         92.8222         -51.6408         92.8294       -0.0107221         148.257
0.544                  -0.398036         -146.97         -51.3083         91.6821         -51.3073          91.689       -0.0108519         148.187
0.545                   -0.42739        -147.733         -50.9693         90.5041         -50.9682         90.5108       -0.0109835         148.118
0.546                  -0.459375        -148.509         -50.6246         89.2853         -50.6235         89.2918       -0.0111169         148.049
0.547                  -0.494264        -149.298         -50.2743         88.0224         -50.2732         88.0287       -0.0112522         147.979
0.548                  -0.532362        -150.101         -49.9182          86.712         -49.9171          86.718       -0.0113892          147.91
0.549                  -0.574007        -150.916         -49.5565         85.3504         -49.5554         85.3561       -0.0115281          147.84
0.55                   -0.619578        -151.745         -49.1892         83.9334          -49.188         83.9388       -0.0116688          147.77
0.551                  -0.669496        -152.586         -48.8162         82.4567         -48.8151         82.4618       -0.0118114           147.7
0.552                  -0.724228        -153.439         -48.4379         80.9156         -48.4367         80.9203       -0.0119558          147.63
0.553                  -0.784291        -154.303         -48.0542          79.305          -48.053         79.3094        -0.012102          147.56
0.554                  -0.850255        -155.177         -47.6655         77.6195         -47.6644         77.6236         -0.01225          147.49
0.555                  -0.922747        -156.058         -47.2721         75.8535          -47.271         75.8571          -0.0124         147.419
0.556                   -1.00245        -156.945         -46.8745         74.0007         -46.8733          74.004       -0.0125517         147.349
0.557                    -1.0901        -157.835         -46.4731          72.055         -46.4719         72.0578       -0.0127054         147.278
0.558                   -1.18648        -158.723         -46.0686         70.0095         -46.0675         70.0119       -0.0128609         147.207
0.559                   -1.29242        -159.603         -45.6619         67.8576         -45.6608         67.8596       -0.0130183         147.137
0.56                    -1.40876         -160.47          -45.254         65.5923         -45.2529         65.5939       -0.0131776         147.066
0.561                   -1.53633        -161.315          -44.846          63.207         -44.8449         63.2081       -0.0133388         146.995
0.562                   -1.67591        -162.128         -44.4393         60.6951         -44.4383         60.6958       -0.0135019         146.923
0.563                   -1.82817        -162.896         -44.0357         58.0507         -44.0347          58.051       -0.0136669         146.852
0.564                   -1.99358        -163.605         -43.6369         55.2688          -43.636         55.2687       -0.0138339         146.781
0.565                   -2.17229        -164.237         -43.2453         52.3456         -43.2444         52.3451       -0.0140028         146.709
0.566                   -2.36402        -164.772          -42.863         49.2791         -42.8622         49.2783       -0.0141737         146.637
0.567                   -2.56786        -165.188         -42.4928         46.0694         -42.4921         46.0682       -0.0143465         146.566
0.568                   -2.78207        -165.461         -42.1375         42.7191         -42.1368         42.7177       -0.0145213         146.494
0.569                    -3.0039        -165.566         -41.7998         39.2343         -41.7992         39.2327       -0.0146981         146.422
0.57                    -3.22942        -165.479         -41.4827         35.6244         -41.4821         35.6226        -0.014877          146.35
0.571                   -3.45337        -165.182         -41.1889         31.9022         -41.1884         31.9004       -0.0150578         146.277
0.572                   -3.66925        -164.662         -40.9208         28.0847         -40.9205         28.0828       -0.0152407         146.205
0.573                   -3.86953        -163.917         -40.6807         24.1917         -40.6803         24.1899       -0.0154257         146.132
0.574                   -4.04619        -162.961         -40.4699         20.2461         -40.4696         20.2445       -0.0156127         146.059
0.575                   -4.19144        -161.823         -40.2894         16.2726         -40.2892         16.2712       -0.0158019         145.987
0.576                   -4.29873        -160.547         -40.1394         12.2968         -40.1393         12.2956       -0.0159932         145.914
0.577                    -4.3636        -159.191         -40.0193         8.34389         -40.0193         8.34292       -0.0161867         145.841
0.578                   -4.38432        -157.819         -39.9281         4.43777          -39.928         4.43709       -0.0163822         145.767
0.579                   -4.36214        -156.495         -39.8638        0.599923         -39.8638         0.59953         -0.01658         145.694
0.58                    -4.30092        -155.276         -39.8243        -3.15128         -39.8243        -3.15139       -0.0167799          145.62
0.581                    -4.2065        -154.206         -39.8069        -6.80101         -39.8069        -6.80084       -0.0169818         145.547
0.582                   -4.08573        -153.315         -39.8089        -10.3381          -39.809        -10.3377       -0.0171859         145.473
0.583                   -3.94571        -152.618         -39.8275        -13.7551         -39.8275        -13.7544       -0.0173918         145.399
0.584                   -3.79308        -152.117         -39.8598        -17.0476         -39.8598        -17.0468       -0.0175995         145.325
0.585                   -3.63362        -151.806         -39.9032        -20.2145         -39.9032        -20.2135       -0.0178088         145.251
0.586                   -3.47207        -151.671         -39.9552        -23.2568         -39.9552        -23.2556       -0.0180194         145.176
0.587                   -3.31212        -151.697         -40.0137        -26.1775         -40.0137        -26.1763       -0.0182307         145.102
0.588                   -3.15648        -151.865         -40.0766        -28.9811         -40.0766        -28.9799       -0.0184423         145.027
0.589                   -3.00705        -152.156         -40.1423        -31.6733         -40.1423         -31.672       -0.0186533         144.952
0.59                    -2.86504        -152.555         -40.2093        -34.2602         -40.2093        -34.2589       -0.0188626         144.877
0.591                   -2.73118        -153.045         -40.2764        -36.7486         -40.2763        -36.7473       -0.0190689         144.802
0.592                   -2.60577        -153.612         -40.3425        -39.1452         -40.3424        -39.1439       -0.0192702         144.727
0.593                   -2.48885        -154.245         -40.4067        -41.4569         -40.4066        -41.4557       -0.0194647         144.652
0.594                   -2.38028        -154.934         -40.4685        -43.6904         -40.4684        -43.6893       -0.0196501         144.576
0.595                   -2.27976        -155.668         -40.5273        -45.8522         -40.5272        -45.8511       -0.0198242         144.501
0.596                   -2.18692        -156.442         -40.5826        -47.9484         -40.5825        -47.9474       -0.0199858         144.425
0.597                   -2.10136        -157.248         -40.6343        -49.9848         -40.6342        -49.9838       -0.0201351         144.349
0.598                   -2.02263        -158.082          -40.682        -51.9669         -40.6819         -51.966       -0.0202748         144.272
0.599                    -1.9503        -158.939         -40.7257        -53.8998         -40.7256        -53.8989       -0.0204099         144.196
0.6                     -1.88395        -159.817         -40.7652        -55.7881         -40.7651        -55.7873       -0.0205473         144.119
0.601                   -1.82316        -160.712         -40.8006        -57.6362         -40.8005        -57.6355       -0.0206941         144.041
0.602                   -1.76755        -161.621         -40.8319        -59.4481         -40.8318        -59.4474       -0.0208563         143.964
0.603                   -1.71675        -162.544         -40.8591        -61.2274         -40.8591        -61.2268       -0.0210369         143.886
0.604                   -1.67043        -163.478         -40.8824        -62.9774         -40.8823        -62.9769       -0.0212365         143.808
0.605                   -1.62828        -164.422         -40.9018        -64.7012         -40.9017        -64.7007       -0.0214537         143.729
0.606                   -1.59002        -165.376         -40.9175        -66.4014         -40.9174        -66.4009        -0.021686         143.651
0.607                   -1.55539        -166.339         -40.9296        -68.0805         -40.9295        -68.0801       -0.0219304         143.572
0.608                   -1.52415         -167.31         -40.9382        -69.7407         -40.9382        -69.7403       -0.0221843         143.493
0.609                   -1.49609        -168.288         -40.9436        -71.3841         -40.9435        -71.3837       -0.0224456         143.414
0.61                    -1.47102        -169.274         -40.9458        -73.0123         -40.9458        -73.0119       -0.0227126         143.335
0.611                   -1.44875        -170.268         -40.9451        -74.6269          -40.945        -74.6265       -0.0229841         143.256
0.612                   -1.42914        -171.269         -40.9415        -76.2293         -40.9414         -76.229       -0.0232591         143.176
0.613                   -1.41203        -172.277         -40.9352        -77.8207         -40.9352        -77.8204        -0.023537         143.097
0.614                   -1.39731        -173.293         -40.9265        -79.4022         -40.9264        -79.4019       -0.0238176         143.017
0.615                   -1.38485        -174.316         -40.9153        -80.9747         -40.9153        -80.9744       -0.0241004         142.936
0.616                   -1.37456        -175.347         -40.9019         -82.539         -40.9019        -82.5387       -0.0243855         142.856
0.617                   -1.36635        -176.386         -40.8864        -84.0958         -40.8864        -84.0955       -0.0246727         142.776
0.618                   -1.36014        -177.433          -40.869        -85.6456         -40.8689        -85.6453        -0.024962         142.695
0.619                   -1.35586        -178.489         -40.8496         -87.189         -40.8496        -87.1887       -0.0252535         142.614
0.62                    -1.35344        -179.553         -40.8284        -88.7264         -40.8284        -88.7261       -0.0255472         142.533
0.621                   -1.35284         179.373         -40.8056         -90.258         -40.8056        -90.2578       -0.0258432         142.451
0.622                   -1.35401          178.29         -40.7812        -91.7844         -40.7812        -91.7841       -0.0261415          142.37
0.623                   -1.35691         177.198         -40.7553        -93.3055         -40.7553        -93.3052       -0.0264423         142.288
0.624                   -1.36152         176.095         -40.7279        -94.8217         -40.7279        -94.8214       -0.0267456         142.205
0.625                   -1.36781         174.982         -40.6992        -96.3332         -40.6992        -96.3329       -0.0270516         142.123
0.626                   -1.37576         173.858         -40.6691          -97.84         -40.6691        -97.8397       -0.0273603          142.04
0.627                   -1.38536         172.722         -40.6378        -99.3423         -40.6377         -99.342       -0.0276719         141.957
0.628                   -1.39661         171.575         -40.6051         -100.84         -40.6051         -100.84       -0.0279864         141.874
0.629                    -1.4095         170.416         -40.5713        -102.334         -40.5713        -102.334       -0.0283039         141.791
