! TOUCHSTONE file generated by CST MICROWAVE STUDIO
! Date and time: Mon Nov 30 09:11:13 2020
! Project name: Scenario_1_Planar_Body_Tissue_Out_of_Line_v2.cst
! Parameters = {dy1=224.9; L_HA=400; Ltissue=700; MT=2.54; Rad_Dielectric=30; Rad_Lower=7.3; Rad_Upper=30; Wtissue=700; a_HA=580; a_WG=246; b_HA=500; b_WG=121; c_HA=0; c_WG=187; d_feed=85; dx1=346; h_feed=15; h_lower=18; h_upper=40; hfat=3; hgap=25; hmuscle=50; hskin=1.5}
! Header version: 2018
! Port assignment regex: !\s*Touchstone port\s*([0-9]+)\s*=\s*(CST MWS port|CST DS port)\s*([0-9]+|Zmin|Zmax)\s*\(\"(.*)\"\)(\s*mode\s*([0-9]+))?.*
! Touchstone port assignment:
! Touchstone port 1 = CST MWS port 1 ("")
! Touchstone port 2 = CST MWS port 2 ("")
# GHz S DB R 50
0.5                    -0.251168        -121.829         -57.2077         12.9739         -57.2075         12.9749      -0.00826813         151.152
0.501                  -0.259519        -122.217         -57.0656         10.5209         -57.0654         10.5216      -0.00832599         151.087
0.502                  -0.267484        -122.606         -56.9302         8.06286           -56.93         8.06327      -0.00838374         151.022
0.503                  -0.275054        -122.995         -56.8016         5.60299         -56.8014         5.60317      -0.00844139         150.957
0.504                  -0.282224        -123.385         -56.6799         3.14442         -56.6797         3.14441      -0.00849895         150.892
0.505                  -0.288995        -123.776         -56.5651        0.690332         -56.5649        0.690172      -0.00855645         150.827
0.506                  -0.295368        -124.169         -56.4571         -1.7561         -56.4569        -1.75638      -0.00861389         150.761
0.507                  -0.301351        -124.563         -56.3558        -4.19177         -56.3556        -4.19213      -0.00867129         150.696
0.508                  -0.306952         -124.96         -56.2612        -6.61363          -56.261        -6.61404      -0.00872868          150.63
0.509                  -0.312183        -125.359         -56.1731        -9.01877         -56.1729        -9.01921      -0.00878606         150.565
0.51                   -0.317059         -125.76         -56.0912        -11.4044          -56.091        -11.4049      -0.00884346         150.499
0.511                  -0.321595        -126.164         -56.0154         -13.768         -56.0152        -13.7684      -0.00890091         150.433
0.512                  -0.325809        -126.571         -55.9453         -16.107         -55.9451        -16.1074      -0.00895843         150.367
0.513                  -0.329719        -126.981         -55.8807        -18.4194         -55.8805        -18.4197      -0.00901604         150.301
0.514                  -0.333347        -127.395         -55.8213         -20.703          -55.821        -20.7034      -0.00907378         150.235
0.515                  -0.336712        -127.812         -55.7666        -22.9563         -55.7664        -22.9566      -0.00913167         150.169
0.516                  -0.339837        -128.232         -55.7165        -25.1776         -55.7162        -25.1778      -0.00918976         150.103
0.517                  -0.342741        -128.657         -55.6704        -27.3657         -55.6701        -27.3659      -0.00924809         150.036
0.518                  -0.345448        -129.085         -55.6281        -29.5196         -55.6278        -29.5197      -0.00930669          149.97
0.519                  -0.347979        -129.517         -55.5892        -31.6383         -55.5889        -31.6383      -0.00936562         149.903
0.52                   -0.350356        -129.954         -55.5533        -33.7213          -55.553        -33.7213      -0.00942493         149.837
0.521                  -0.352599        -130.395         -55.5201        -35.7681         -55.5197        -35.7681      -0.00948468          149.77
0.522                  -0.354731         -130.84         -55.4891        -37.7786         -55.4888        -37.7785      -0.00954493         149.703
0.523                  -0.356771        -131.289         -55.4602        -39.7526         -55.4598        -39.7525      -0.00960577         149.636
0.524                   -0.35874        -131.743         -55.4329        -41.6902         -55.4325        -41.6901      -0.00966725         149.569
0.525                  -0.360657        -132.202         -55.4069        -43.5918         -55.4065        -43.5916      -0.00972947         149.502
0.526                  -0.362542        -132.665         -55.3819        -45.4575         -55.3815        -45.4573      -0.00979251         149.435
0.527                  -0.364414        -133.133         -55.3576         -47.288         -55.3573        -47.2878      -0.00985648         149.368
0.528                  -0.366291        -133.606         -55.3339        -49.0837         -55.3334        -49.0835      -0.00992147           149.3
0.529                   -0.36819        -134.083         -55.3102        -50.8454         -55.3098        -50.8452      -0.00998759         149.233
0.53                   -0.370128        -134.566         -55.2866        -52.5737         -55.2862        -52.5735        -0.010055         149.165
0.531                  -0.372123        -135.053         -55.2626        -54.2695         -55.2622        -54.2693       -0.0101237         149.098
0.532                  -0.374191        -135.545         -55.2382        -55.9335         -55.2378        -55.9334       -0.0101939          149.03
0.533                  -0.376348        -136.043          -55.213        -57.5667         -55.2126        -57.5666       -0.0102656         148.962
0.534                   -0.37861        -136.545          -55.187          -59.17         -55.1866        -59.1699       -0.0103391         148.894
0.535                  -0.380991        -137.053         -55.1599        -60.7444         -55.1594        -60.7443       -0.0104144         148.826
0.536                  -0.383509        -137.565         -55.1315        -62.2906         -55.1311        -62.2906       -0.0104916         148.757
0.537                  -0.386176        -138.084         -55.1018        -63.8098         -55.1013        -63.8099       -0.0105709         148.689
0.538                  -0.389009        -138.607         -55.0705         -65.303         -55.0701        -65.3031       -0.0106522         148.621
0.539                  -0.392021        -139.136         -55.0376         -66.771         -55.0372        -66.7711       -0.0107357         148.552
0.54                   -0.395229         -139.67         -55.0029        -68.2149         -55.0025         -68.215       -0.0108214         148.484
0.541                  -0.398646         -140.21         -54.9663        -69.6356         -54.9659        -69.6358       -0.0109093         148.415
0.542                  -0.402288        -140.755         -54.9277        -71.0341         -54.9273        -71.0344       -0.0109996         148.346
0.543                   -0.40617        -141.306         -54.8871        -72.4114         -54.8867        -72.4117       -0.0110921         148.277
0.544                  -0.410307        -141.863         -54.8442        -73.7684         -54.8438        -73.7687       -0.0111868         148.208
0.545                  -0.414714        -142.425         -54.7991         -75.106         -54.7987        -75.1064       -0.0112838         148.139
0.546                  -0.419408        -142.994         -54.7516        -76.4252         -54.7513        -76.4257       -0.0113829         148.069
0.547                  -0.424405        -143.568         -54.7018        -77.7269         -54.7014        -77.7274        -0.011484             148
0.548                  -0.429722        -144.149         -54.6495         -79.012         -54.6491        -79.0126       -0.0115872          147.93
0.549                  -0.435375        -144.735         -54.5946        -80.2814         -54.5943         -80.282       -0.0116923         147.861
0.55                   -0.441384        -145.328         -54.5372        -81.5359         -54.5368        -81.5365       -0.0117992         147.791
0.551                  -0.447767        -145.927         -54.4771        -82.7764         -54.4768        -82.7771       -0.0119078         147.721
0.552                  -0.454543        -146.533         -54.4143        -84.0038          -54.414        -84.0045       -0.0120181         147.651
0.553                  -0.461732        -147.146         -54.3488        -85.2189         -54.3485        -85.2197       -0.0121299         147.581
0.554                  -0.469357        -147.765         -54.2805        -86.4226         -54.2803        -86.4234       -0.0122431         147.511
0.555                  -0.477438         -148.39         -54.2094        -87.6157         -54.2092        -87.6164       -0.0123577         147.441
0.556                  -0.486001        -149.023         -54.1354        -88.7989         -54.1352        -88.7997       -0.0124736          147.37
0.557                  -0.495069        -149.663         -54.0586        -89.9731         -54.0584        -89.9739       -0.0125907           147.3
0.558                  -0.504669         -150.31         -53.9788        -91.1391         -53.9787          -91.14        -0.012709         147.229
0.559                  -0.514828        -150.965         -53.8961        -92.2978          -53.896        -92.2986       -0.0128285         147.158
0.56                   -0.525576        -151.627         -53.8104        -93.4498         -53.8103        -93.4506       -0.0129491         147.088
0.561                  -0.536943        -152.297         -53.7217        -94.5959         -53.7216        -94.5968       -0.0130708         147.016
0.562                  -0.548962        -152.974           -53.63        -95.7371         -53.6299        -95.7379       -0.0131936         146.945
0.563                  -0.561669        -153.659         -53.5352         -96.874         -53.5351        -96.8748       -0.0133176         146.874
0.564                    -0.5751        -154.353         -53.4374        -98.0075         -53.4373        -98.0082       -0.0134427         146.803
0.565                  -0.589295        -155.055         -53.3364        -99.1383         -53.3364         -99.139        -0.013569         146.731
0.566                  -0.604296        -155.765         -53.2324        -100.267         -53.2323        -100.268       -0.0136964          146.66
0.567                  -0.620148        -156.484         -53.1252        -101.395         -53.1252        -101.396       -0.0138251         146.588
0.568                  -0.636898        -157.212         -53.0149        -102.523         -53.0148        -102.523       -0.0139551         146.516
0.569                  -0.654597        -157.949         -52.9014        -103.651         -52.9014        -103.652       -0.0140863         146.444
0.57                   -0.673302        -158.695         -52.7847        -104.781         -52.7847        -104.781        -0.014219         146.372
0.571                  -0.693068        -159.451         -52.6648        -105.912         -52.6649        -105.913       -0.0143531         146.299
0.572                   -0.71396        -160.216         -52.5418        -107.047         -52.5419        -107.048       -0.0144886         146.227
0.573                  -0.736044        -160.991         -52.4156        -108.186         -52.4156        -108.187       -0.0146257         146.154
0.574                  -0.759391        -161.776         -52.2862         -109.33         -52.2862         -109.33       -0.0147644         146.081
0.575                  -0.784078        -162.571         -52.1536        -110.479         -52.1536         -110.48       -0.0149048         146.008
0.576                  -0.810188        -163.377         -52.0178        -111.635         -52.0178        -111.636       -0.0150468         145.935
0.577                  -0.837807        -164.193         -51.8788        -112.799         -51.8789        -112.799       -0.0151907         145.862
0.578                  -0.867032         -165.02         -51.7366        -113.971         -51.7367        -113.972       -0.0153364         145.789
0.579                  -0.897962        -165.857         -51.5913        -115.153         -51.5914        -115.153       -0.0154839         145.715
0.58                   -0.930708        -166.706         -51.4428        -116.345         -51.4429        -116.345       -0.0156335         145.642
0.581                  -0.965384        -167.567         -51.2912        -117.549         -51.2913        -117.549        -0.015785         145.568
0.582                   -1.00212        -168.438         -51.1366        -118.765         -51.1367        -118.765       -0.0159387         145.494
0.583                   -1.04104        -169.321         -50.9788        -119.995         -50.9789        -119.995       -0.0160944          145.42
0.584                    -1.0823        -170.216         -50.8181         -121.24         -50.8182         -121.24       -0.0162524         145.345
0.585                   -1.12605        -171.123         -50.6544          -122.5         -50.6545          -122.5       -0.0164126         145.271
0.586                   -1.17245        -172.041         -50.4877        -123.778         -50.4878        -123.778       -0.0165751         145.196
0.587                   -1.22169        -172.971         -50.3182        -125.073         -50.3183        -125.073       -0.0167399         145.121
0.588                   -1.27395        -173.912          -50.146        -126.388         -50.1461        -126.388       -0.0169072         145.046
0.589                   -1.32944        -174.865          -49.971        -127.724         -49.9711        -127.724       -0.0170769         144.971
0.59                    -1.38837        -175.829         -49.7935        -129.081         -49.7936        -129.081       -0.0172491         144.896
0.591                   -1.45099        -176.805         -49.6134        -130.462         -49.6135        -130.461       -0.0174238         144.821
0.592                   -1.51753        -177.791          -49.431        -131.866         -49.4311        -131.866       -0.0176011         144.745
0.593                   -1.58827        -178.787         -49.2463        -133.297         -49.2464        -133.296       -0.0177811         144.669
0.594                   -1.66349        -179.793         -49.0596        -134.754         -49.0596        -134.753       -0.0179636         144.593
0.595                   -1.74349         179.192         -48.8709        -136.239         -48.8709        -136.238       -0.0181489         144.517
0.596                   -1.82859          178.17         -48.6805        -137.754         -48.6805        -137.753       -0.0183369         144.441
0.597                   -1.91912          177.14         -48.4885        -139.299         -48.4885        -139.298       -0.0185277         144.364
0.598                   -2.01543         176.105         -48.2952        -140.876         -48.2952        -140.875       -0.0187212         144.287
0.599                   -2.11791         175.066         -48.1007        -142.486         -48.1008        -142.485       -0.0189175          144.21
0.6                     -2.22694         174.026         -47.9055         -144.13         -47.9055        -144.129       -0.0191167         144.133
0.601                   -2.34292         172.985         -47.7097        -145.809         -47.7097        -145.809       -0.0193187         144.056
0.602                   -2.46625         171.948         -47.5137        -147.525         -47.5137        -147.524       -0.0195235         143.978
0.603                   -2.59738         170.916         -47.3177        -149.277         -47.3177        -149.277       -0.0197312         143.901
0.604                   -2.73671         169.894         -47.1222        -151.068         -47.1221        -151.067       -0.0199418         143.823
0.605                   -2.88467         168.886         -46.9274        -152.896         -46.9274        -152.895       -0.0201553         143.745
0.606                   -3.04168         167.896         -46.7338        -154.764         -46.7338        -154.763       -0.0203716         143.667
0.607                   -3.20811         166.929         -46.5419         -156.67         -46.5418        -156.669       -0.0205909         143.588
0.608                   -3.38433         165.992         -46.3519        -158.615         -46.3518        -158.615        -0.020813         143.509
0.609                   -3.57064         165.091         -46.1644        -160.599         -46.1643        -160.599        -0.021038         143.431
0.61                    -3.76726         164.235         -45.9797        -162.622         -45.9797        -162.621       -0.0212658         143.351
0.611                   -3.97435         163.431         -45.7985        -164.682         -45.7984        -164.681       -0.0214966         143.272
0.612                   -4.19191          162.69         -45.6211        -166.778          -45.621        -166.778       -0.0217301         143.193
0.613                   -4.41979         162.021         -45.4479         -168.91         -45.4478        -168.909       -0.0219666         143.113
0.614                   -4.65766         161.436         -45.2795        -171.075         -45.2794        -171.074       -0.0222059         143.033
0.615                   -4.90492         160.949         -45.1163        -173.271         -45.1162        -173.271        -0.022448         142.953
0.616                   -5.16069          160.57         -44.9586        -175.497         -44.9585        -175.496        -0.022693         142.872
0.617                   -5.42372         160.315         -44.8069        -177.749         -44.8068        -177.748       -0.0229408         142.792
0.618                   -5.69236         160.196         -44.6615         179.976         -44.6614         179.976       -0.0231915         142.711
0.619                   -5.96447         160.227         -44.5228         177.681         -44.5227         177.681       -0.0234451          142.63
0.62                    -6.23741          160.42         -44.3909         175.368         -44.3908         175.368       -0.0237015         142.548
0.621                   -6.50798         160.785         -44.2662         173.043         -44.2661         173.043       -0.0239608         142.467
0.622                   -6.77243          161.33         -44.1487         170.708         -44.1486         170.708        -0.024223         142.385
0.623                   -7.02653         162.059         -44.0385         168.368         -44.0384         168.368       -0.0244882         142.303
0.624                   -7.26563         162.969         -43.9357         166.026         -43.9356         166.026       -0.0247564         142.221
0.625                   -7.48488         164.052         -43.8402         163.687         -43.8401         163.687       -0.0250276         142.138
0.626                   -7.67944         165.293          -43.752         161.355         -43.7519         161.355       -0.0253019         142.055
0.627                   -7.84484         166.668         -43.6708         159.033         -43.6708         159.033       -0.0255794         141.972
0.628                   -7.97729         168.148         -43.5965         156.725         -43.5965         156.725       -0.0258602         141.889
0.629                   -8.07399         169.697         -43.5288         154.434         -43.5287         154.434       -0.0261443         141.805
