! TOUCHSTONE file generated by CST MICROWAVE STUDIO
! Date and time: Mon Nov 30 08:09:51 2020
! Project name: Scenario_1_Planar_Body_Tissue_Out_of_Line.cst
! Parameters = {dy1=224.9; L_HA=400; Ltissue=700; MT=2.54; Rad_Dielectric=30; Rad_Lower=7.3; Rad_Upper=30; Wtissue=700; a_HA=580; a_WG=246; b_HA=500; b_WG=121; c_HA=0; c_WG=187; d_feed=85; dx1=866; h_feed=15; h_lower=18; h_upper=40; hfat=3; hgap=25; hmuscle=50; hskin=1.5}
! Header version: 2018
! Port assignment regex: !\s*Touchstone port\s*([0-9]+)\s*=\s*(CST MWS port|CST DS port)\s*([0-9]+|Zmin|Zmax)\s*\(\"(.*)\"\)(\s*mode\s*([0-9]+))?.*
! Touchstone port assignment:
! Touchstone port 1 = CST MWS port 1 ("")
! Touchstone port 2 = CST MWS port 2 ("")
# GHz S DB R 50
0.5                    -0.116709        -122.112         -64.5492         92.6416         -64.5481         92.6411      -0.00751648         151.148
0.501                  -0.126419         -122.51         -64.4118         90.6667         -64.4098         90.6593      -0.00759149         151.083
0.502                  -0.136053         -122.91         -64.2713          88.665         -64.2685         88.6508      -0.00766697         151.017
0.503                  -0.145614        -123.311         -64.1279         86.6363         -64.1242         86.6153      -0.00774292         150.952
0.504                  -0.155103        -123.715         -63.9815         84.5805         -63.9771         84.5527      -0.00781934         150.887
0.505                  -0.164522         -124.12         -63.8323         82.4973         -63.8271         82.4626      -0.00789625         150.821
0.506                  -0.173871        -124.528         -63.6803         80.3864         -63.6743         80.3448      -0.00797365         150.756
0.507                  -0.183153        -124.937         -63.5256         78.2475         -63.5189         78.1991      -0.00805155          150.69
0.508                   -0.19237        -125.349         -63.3683         76.0806         -63.3608         76.0254      -0.00812995         150.624
0.509                  -0.201524        -125.762         -63.2084         73.8853         -63.2002         73.8232      -0.00820886         150.558
0.51                   -0.210617        -126.178         -63.0461         71.6615         -63.0372         71.5926      -0.00828828         150.492
0.511                   -0.21965        -126.595         -62.8815         69.4089          -62.872         69.3334      -0.00836823         150.427
0.512                  -0.228627        -127.015         -62.7148         67.1276         -62.7047         67.0453      -0.00844871         150.361
0.513                  -0.237549        -127.438          -62.546         64.8172         -62.5354         64.7283      -0.00852973         150.294
0.514                  -0.246419        -127.862         -62.3755         62.4778         -62.3644         62.3823      -0.00861129         150.228
0.515                   -0.25524        -128.289         -62.2034         60.1094         -62.1918         60.0073      -0.00869341         150.162
0.516                  -0.264014        -128.719         -62.0298         57.7118         -62.0178         57.6033      -0.00877609         150.096
0.517                  -0.272745        -129.151          -61.855         55.2852         -61.8427         55.1703      -0.00885934         150.029
0.518                  -0.281435        -129.585         -61.6792         52.8297         -61.6666         52.7087      -0.00894316         149.963
0.519                  -0.290087        -130.022         -61.5027         50.3455         -61.4899         50.2184      -0.00902758         149.896
0.52                   -0.298705        -130.462         -61.3258          47.833         -61.3128            47.7      -0.00911259         149.829
0.521                  -0.307292        -130.905         -61.1486         45.2924         -61.1356         45.1537       -0.0091982         149.763
0.522                  -0.315853         -131.35         -60.9716         42.7243         -60.9585         42.5801      -0.00928443         149.696
0.523                   -0.32439        -131.798         -60.7949         40.1293         -60.7819         39.9799      -0.00937128         149.629
0.524                  -0.332908        -132.249          -60.619         37.5082         -60.6061         37.3537      -0.00945876         149.562
0.525                  -0.341412        -132.704          -60.444         34.8617         -60.4313         34.7026      -0.00954689         149.495
0.526                  -0.349905        -133.161         -60.2704         32.1909         -60.2579         32.0275      -0.00963567         149.427
0.527                  -0.358393        -133.621         -60.0984         29.4971         -60.0863         29.3296      -0.00972512          149.36
0.528                   -0.36688        -134.085         -59.9284         26.7814         -59.9166         26.6103      -0.00981524         149.293
0.529                  -0.375372        -134.552         -59.7606         24.0454         -59.7493         23.8711      -0.00990605         149.225
0.53                   -0.383875        -135.022         -59.5954         21.2907         -59.5846         21.1136      -0.00999756         149.157
0.531                  -0.392394        -135.495         -59.4331         18.5191         -59.4229         18.3398       -0.0100898          149.09
0.532                  -0.400935        -135.972         -59.2739         15.7327         -59.2643         15.5516       -0.0101827         149.022
0.533                  -0.409505        -136.453         -59.1182         12.9334         -59.1092         12.7511       -0.0102764         148.954
0.534                  -0.418111        -136.938          -58.966         10.1236         -58.9578          9.9406       -0.0103708         148.886
0.535                   -0.42676        -137.426         -58.8178         7.30573         -58.8103         7.12253        -0.010466         148.818
0.536                  -0.435459        -137.918         -58.6736         4.48218         -58.6668         4.29939        -0.010562          148.75
0.537                  -0.444218        -138.414         -58.5336         1.65558         -58.5276         1.47378       -0.0106587         148.682
0.538                  -0.453043        -138.914         -58.3979        -1.17139         -58.3928        -1.35164       -0.0107563         148.613
0.539                  -0.461945        -139.418         -58.2666        -3.99603         -58.2623        -4.17416       -0.0108546         148.545
0.54                   -0.470933        -139.926         -58.1399         -6.8156         -58.1364        -6.99106       -0.0109538         148.476
0.541                  -0.480016        -140.439         -58.0176        -9.62737         -58.0149        -9.79963       -0.0110539         148.407
0.542                  -0.489207        -140.956         -57.8997        -12.4286         -57.8978        -12.5972       -0.0111548         148.339
0.543                  -0.498515        -141.477         -57.7863        -15.2168         -57.7851        -15.3812       -0.0112566          148.27
0.544                  -0.507953        -142.003         -57.6771        -17.9893         -57.6767         -18.149       -0.0113593         148.201
0.545                  -0.517534        -142.534         -57.5722        -20.7436         -57.5725        -20.8983        -0.011463         148.132
0.546                  -0.527271         -143.07         -57.4713        -23.4775         -57.4722        -23.6268       -0.0115675         148.062
0.547                  -0.537179         -143.61         -57.3741        -26.1888         -57.3757        -26.3323       -0.0116731         147.993
0.548                  -0.547272        -144.156         -57.2806        -28.8755         -57.2827        -29.0131       -0.0117796         147.924
0.549                  -0.557567        -144.707         -57.1904        -31.5359          -57.193        -31.6672       -0.0118871         147.854
0.55                   -0.568081        -145.263         -57.1034        -34.1683         -57.1064        -34.2932       -0.0119956         147.784
0.551                  -0.578832        -145.825         -57.0191        -36.7713         -57.0225        -36.8896       -0.0121052         147.715
0.552                  -0.589839        -146.392         -56.9373        -39.3438          -56.941        -39.4554       -0.0122158         147.645
0.553                  -0.601124        -146.964         -56.8577        -41.8847         -56.8617        -41.9896       -0.0123275         147.575
0.554                  -0.612707        -147.543           -56.78        -44.3933         -56.7842        -44.4915       -0.0124404         147.504
0.555                  -0.624613        -148.128         -56.7039         -46.869         -56.7083        -46.9606       -0.0125544         147.434
0.556                  -0.636866        -148.718         -56.6289        -49.3114         -56.6334        -49.3964       -0.0126695         147.364
0.557                  -0.649492        -149.315         -56.5549        -51.7204         -56.5595         -51.799       -0.0127858         147.293
0.558                   -0.66252        -149.918         -56.4815         -54.096          -56.486        -54.1683       -0.0129034         147.223
0.559                  -0.675979        -150.528         -56.4083        -56.4384         -56.4128        -56.5045       -0.0130222         147.152
0.56                   -0.689903        -151.144         -56.3351         -58.748         -56.3395        -58.8081       -0.0131423         147.081
0.561                  -0.704325        -151.767         -56.2615        -61.0252         -56.2658        -61.0795       -0.0132637          147.01
0.562                  -0.719281        -152.397         -56.1873        -63.2706         -56.1914        -63.3195       -0.0133864         146.939
0.563                  -0.734812        -153.034         -56.1121        -65.4852         -56.1161        -65.5289       -0.0135105         146.868
0.564                  -0.750957        -153.678         -56.0358        -67.6698         -56.0395        -67.7085        -0.013636         146.796
0.565                  -0.767763        -154.329         -55.9579        -69.8255         -55.9615        -69.8595        -0.013763         146.725
0.566                  -0.785276        -154.988         -55.8784        -71.9533         -55.8816        -71.9829       -0.0138914         146.653
0.567                  -0.803547        -155.655         -55.7969        -74.0546         -55.7999        -74.0801       -0.0140213         146.581
0.568                  -0.822631        -156.329         -55.7132        -76.1307         -55.7159        -76.1523       -0.0141528         146.509
0.569                  -0.842585        -157.011         -55.6271        -78.1829         -55.6295         -78.201       -0.0142859         146.437
0.57                   -0.863472        -157.701         -55.5384        -80.2128         -55.5405        -80.2276       -0.0144207         146.365
0.571                  -0.885358        -158.399          -55.447        -82.2219         -55.4488        -82.2338       -0.0145571         146.293
0.572                  -0.908314        -159.106         -55.3526        -84.2119          -55.354        -84.2211       -0.0146952          146.22
0.573                  -0.932416         -159.82         -55.2551        -86.1845         -55.2562        -86.1912       -0.0148351         146.147
0.574                  -0.957744        -160.543         -55.1543        -88.1413         -55.1551         -88.146       -0.0149769         146.075
0.575                  -0.984384        -161.275         -55.0502        -90.0843         -55.0507        -90.0871       -0.0151204         146.002
0.576                   -1.01243        -162.015         -54.9425        -92.0152         -54.9427        -92.0164       -0.0152659         145.929
0.577                   -1.04198        -162.763         -54.8312         -93.936         -54.8311        -93.9359       -0.0154133         145.855
0.578                   -1.07313        -163.519         -54.7163        -95.8487         -54.7159        -95.8474       -0.0155628         145.782
0.579                     -1.106        -164.284         -54.5975        -97.7552         -54.5969         -97.753       -0.0157143         145.708
0.58                    -1.14071        -165.057          -54.475        -99.6576         -54.4741        -99.6547       -0.0158679         145.635
0.581                   -1.17737        -165.838         -54.3485        -101.558         -54.3474        -101.555       -0.0160237         145.561
0.582                   -1.21613        -166.627         -54.2182        -103.458         -54.2169        -103.455       -0.0161817         145.487
0.583                   -1.25712        -167.424          -54.084        -105.361         -54.0824        -105.357       -0.0163419         145.413
0.584                   -1.30048        -168.227         -53.9458        -107.268         -53.9441        -107.264       -0.0165045         145.338
0.585                   -1.34638        -169.038         -53.8038        -109.182          -53.802        -109.178       -0.0166694         145.264
0.586                   -1.39496        -169.854          -53.658        -111.105          -53.656        -111.101       -0.0168368         145.189
0.587                    -1.4464        -170.676         -53.5085        -113.039         -53.5064        -113.035       -0.0170067         145.114
0.588                   -1.50087        -171.503         -53.3553        -114.986         -53.3531        -114.983       -0.0171791         145.039
0.589                   -1.55854        -172.333         -53.1986        -116.949         -53.1963        -116.946        -0.017354         144.964
0.59                    -1.61959        -173.166         -53.0385        -118.929         -53.0362        -118.927       -0.0175316         144.889
0.591                   -1.68421        -174.001         -52.8752         -120.93         -52.8729        -120.929       -0.0177119         144.813
0.592                   -1.75255        -174.836         -52.7089        -122.953         -52.7065        -122.952       -0.0178949         144.738
0.593                   -1.82481        -175.669         -52.5398            -125         -52.5375            -125       -0.0180807         144.662
0.594                   -1.90114        -176.498         -52.3682        -127.074         -52.3659        -127.075       -0.0182692         144.586
0.595                    -1.9817        -177.322         -52.1943        -129.176         -52.1921        -129.178       -0.0184606          144.51
0.596                   -2.06661        -178.137         -52.0186        -131.309         -52.0164        -131.311       -0.0186549         144.433
0.597                   -2.15599        -178.942         -51.8412        -133.473         -51.8391        -133.476       -0.0188521         144.357
0.598                   -2.24989        -179.733         -51.6627        -135.671         -51.6607        -135.674       -0.0190523          144.28
0.599                   -2.34837         179.493         -51.4833        -137.904         -51.4814        -137.908       -0.0192554         144.203
0.6                     -2.45139          178.74         -51.3036        -140.173         -51.3019        -140.177       -0.0194615         144.126
0.601                   -2.55888         178.011         -51.1241        -142.479         -51.1224        -142.483       -0.0196705         144.049
0.602                   -2.67067         177.311         -50.9451        -144.823         -50.9436        -144.827       -0.0198826         143.971
0.603                   -2.78653         176.643         -50.7672        -147.204         -50.7658        -147.209       -0.0200976         143.893
0.604                   -2.90612         176.012         -50.5909        -149.624         -50.5897        -149.628       -0.0203157         143.815
0.605                   -3.02898         175.422         -50.4168         -152.08         -50.4157        -152.085       -0.0205367         143.737
0.606                   -3.15455         174.877         -50.2454        -154.574         -50.2444        -154.578       -0.0207607         143.659
0.607                   -3.28212         174.382         -50.0771        -157.103         -50.0763        -157.107       -0.0209877         143.581
0.608                   -3.41088          173.94         -49.9126        -159.666         -49.9119         -159.67       -0.0212177         143.502
0.609                   -3.53986         173.554         -49.7522        -162.262         -49.7516        -162.265       -0.0214506         143.423
0.61                    -3.66797         173.226         -49.5966        -164.887         -49.5961         -164.89       -0.0216864         143.344
0.611                   -3.79403         172.957          -49.446        -167.539         -49.4456        -167.541       -0.0219252         143.265
0.612                   -3.91676         172.748         -49.3009        -170.215         -49.3006        -170.217       -0.0221668         143.185
0.613                   -4.03483         172.597         -49.1616        -172.912         -49.1613        -172.913       -0.0224113         143.105
0.614                    -4.1469         172.501         -49.0283        -175.625         -49.0281        -175.627       -0.0226587         143.025
0.615                   -4.25164         172.455         -48.9013        -178.352         -48.9012        -178.353       -0.0229089         142.945
0.616                   -4.34784         172.454         -48.7807         178.912         -48.7806         178.911        -0.023162         142.865
0.617                   -4.43441         172.491         -48.6666          176.17         -48.6665          176.17       -0.0234179         142.784
0.618                   -4.51044         172.556         -48.5589         173.428         -48.5588         173.428       -0.0236766         142.703
0.619                   -4.57525         172.639         -48.4575         170.688         -48.4574         170.688       -0.0239383         142.622
0.62                    -4.62842          172.73         -48.3623         167.955         -48.3623         167.955       -0.0242028         142.541
0.621                   -4.66981         172.819         -48.2731         165.232          -48.273         165.233       -0.0244703         142.459
0.622                   -4.69954         172.893         -48.1895         162.522         -48.1895         162.523       -0.0247408         142.377
0.623                   -4.71802         172.944         -48.1113         159.829         -48.1113         159.831       -0.0250142         142.295
0.624                   -4.72586         172.962         -48.0381         157.156          -48.038         157.157       -0.0252908         142.213
0.625                   -4.72389         172.937         -47.9695         154.504         -47.9694         154.506       -0.0255705          142.13
0.626                   -4.71309         172.863         -47.9049         151.877         -47.9048         151.878       -0.0258535         142.047
0.627                   -4.69454         172.733         -47.8441         149.274         -47.8439         149.275       -0.0261398         141.964
0.628                    -4.6694         172.544         -47.7864         146.699         -47.7863           146.7       -0.0264295         141.881
0.629                   -4.63883         172.291         -47.7314         144.151         -47.7313         144.152       -0.0267228         141.797
