! TOUCHSTONE file generated by CST MICROWAVE STUDIO
! Date and time: Mon Nov 30 09:11:26 2020
! Project name: Scenario_1_Planar_Body_Tissue_Out_of_Line_v2.cst
! Parameters = {dy1=242.2; L_HA=400; Ltissue=700; MT=2.54; Rad_Dielectric=30; Rad_Lower=7.3; Rad_Upper=30; Wtissue=700; a_HA=580; a_WG=246; b_HA=500; b_WG=121; c_HA=0; c_WG=187; d_feed=85; dx1=346; h_feed=15; h_lower=18; h_upper=40; hfat=3; hgap=25; hmuscle=50; hskin=1.5}
! Header version: 2018
! Port assignment regex: !\s*Touchstone port\s*([0-9]+)\s*=\s*(CST MWS port|CST DS port)\s*([0-9]+|Zmin|Zmax)\s*\(\"(.*)\"\)(\s*mode\s*([0-9]+))?.*
! Touchstone port assignment:
! Touchstone port 1 = CST MWS port 1 ("")
! Touchstone port 2 = CST MWS port 2 ("")
# GHz S DB R 50
0.5                    -0.246543        -121.806         -57.4863         9.39233         -57.4865         9.39356      -0.00824818         151.149
0.501                  -0.249123         -122.19         -57.3909         7.59183         -57.3917         7.59718      -0.00829786         151.084
0.502                   -0.25171        -122.577          -57.296         5.76903         -57.2974         5.77848      -0.00834816         151.019
0.503                  -0.254306        -122.967         -57.2017         3.92428         -57.2037         3.93782      -0.00839911         150.953
0.504                  -0.256913        -123.359         -57.1082         2.05802         -57.1108         2.07562      -0.00845073         150.888
0.505                  -0.259533        -123.755         -57.0156        0.170749         -57.0187        0.192372      -0.00850301         150.823
0.506                  -0.262168        -124.153          -56.924        -1.73693         -56.9276        -1.71134      -0.00855599         150.757
0.507                  -0.264819        -124.554         -56.8337        -3.66435         -56.8377        -3.63487      -0.00860966         150.691
0.508                  -0.267489        -124.959         -56.7447        -5.61075         -56.7491        -5.57746      -0.00866406         150.626
0.509                  -0.270181        -125.366         -56.6572        -7.57529         -56.6619        -7.53828      -0.00871919          150.56
0.51                   -0.272895        -125.777         -56.5713        -9.55701         -56.5763        -9.51641      -0.00877507         150.494
0.511                  -0.275636         -126.19         -56.4872        -11.5549         -56.4924        -11.5108      -0.00883171         150.428
0.512                  -0.278405        -126.607         -56.4049        -13.5679         -56.4103        -13.5205      -0.00888914         150.362
0.513                  -0.281205        -127.027         -56.3246        -15.5946         -56.3302        -15.5441      -0.00894736         150.296
0.514                  -0.284039         -127.45         -56.2465         -17.634         -56.2522        -17.5805      -0.00900639          150.23
0.515                  -0.286909        -127.877         -56.1706        -19.6845         -56.1763        -19.6283      -0.00906625         150.164
0.516                  -0.289819        -128.307         -56.0971        -21.7447         -56.1028         -21.686      -0.00912696         150.098
0.517                  -0.292771         -128.74         -56.0259        -23.8132         -56.0316        -23.7521      -0.00918852         150.031
0.518                  -0.295769        -129.177         -55.9573        -25.8882          -55.963        -25.8251      -0.00925096         149.965
0.519                  -0.298817        -129.617         -55.8913        -27.9682         -55.8968        -27.9033       -0.0093143         149.898
0.52                   -0.301917        -130.061         -55.8278        -30.0514         -55.8332         -29.985      -0.00937855         149.831
0.521                  -0.305074        -130.509          -55.767        -32.1362         -55.7723        -32.0685      -0.00944372         149.765
0.522                   -0.30829         -130.96         -55.7089        -34.2206          -55.714         -34.152      -0.00950984         149.698
0.523                  -0.311572        -131.414         -55.6535        -36.3031         -55.6583        -36.2338      -0.00957693         149.631
0.524                  -0.314922        -131.873         -55.6007        -38.3816         -55.6052        -38.3121      -0.00964499         149.564
0.525                  -0.318344        -132.335         -55.5505        -40.4545         -55.5548        -40.3849      -0.00971405         149.497
0.526                  -0.321845        -132.802         -55.5029          -42.52         -55.5069        -42.4507      -0.00978412         149.429
0.527                  -0.325428        -133.272         -55.4578        -44.5762         -55.4615        -44.5075      -0.00985523         149.362
0.528                  -0.329099        -133.746         -55.4151        -46.6216         -55.4185        -46.5538       -0.0099274         149.295
0.529                  -0.332862        -134.224         -55.3748        -48.6543         -55.3779        -48.5877       -0.0100006         149.227
0.53                   -0.336724        -134.707         -55.3366        -50.6729         -55.3394        -50.6077       -0.0100749          149.16
0.531                   -0.34069        -135.193         -55.3005        -52.6756          -55.303        -52.6122       -0.0101504         149.092
0.532                  -0.344767        -135.684         -55.2664        -54.6612         -55.2686        -54.5998       -0.0102269         149.024
0.533                  -0.348961         -136.18          -55.234        -56.6281         -55.2359         -56.569       -0.0103046         148.956
0.534                  -0.353279        -136.679         -55.2032        -58.5752         -55.2049        -58.5185       -0.0103835         148.888
0.535                  -0.357728        -137.184         -55.1739        -60.5011         -55.1753        -60.4471       -0.0104635          148.82
0.536                  -0.362316        -137.693         -55.1458        -62.4048          -55.147        -62.3536       -0.0105448         148.752
0.537                   -0.36705        -138.206         -55.1188        -64.2853         -55.1197        -64.2371       -0.0106273         148.683
0.538                  -0.371939        -138.724         -55.0927        -66.1416         -55.0933        -66.0966        -0.010711         148.615
0.539                  -0.376991        -139.248         -55.0671        -67.9731         -55.0676        -67.9313       -0.0107959         148.547
0.54                   -0.382216        -139.776         -55.0421        -69.7789         -55.0424        -69.7405       -0.0108822         148.478
0.541                  -0.387624        -140.309         -55.0172        -71.5585         -55.0174        -71.5236       -0.0109698         148.409
0.542                  -0.393225        -140.847         -54.9924        -73.3115         -54.9925        -73.2801       -0.0110586          148.34
0.543                  -0.399029        -141.391         -54.9674        -75.0375         -54.9674        -75.0096       -0.0111489         148.271
0.544                  -0.405049         -141.94          -54.942        -76.7362         -54.9419        -76.7119       -0.0112404         148.202
0.545                  -0.411297        -142.494          -54.916        -78.4074         -54.9158        -78.3866       -0.0113334         148.133
0.546                  -0.417784        -143.054         -54.8891         -80.051         -54.8889        -80.0338       -0.0114278         148.064
0.547                  -0.424525        -143.619         -54.8612        -81.6671          -54.861        -81.6534       -0.0115236         147.995
0.548                  -0.431534        -144.191         -54.8321        -83.2558          -54.832        -83.2455       -0.0116208         147.925
0.549                  -0.438827        -144.768         -54.8016        -84.8172         -54.8015        -84.8103       -0.0117196         147.855
0.55                   -0.446419        -145.351         -54.7694        -86.3517         -54.7694         -86.348       -0.0118198         147.786
0.551                  -0.454326        -145.941         -54.7354        -87.8595         -54.7355         -87.859       -0.0119215         147.716
0.552                  -0.462569        -146.536         -54.6995        -89.3411         -54.6996        -89.3436       -0.0120247         147.646
0.553                  -0.471164        -147.139         -54.6613         -90.797         -54.6616        -90.8024       -0.0121295         147.576
0.554                  -0.480134        -147.747         -54.6208        -92.2277         -54.6212        -92.2359       -0.0122359         147.506
0.555                  -0.489498        -148.363         -54.5778        -93.6339         -54.5783        -93.6446       -0.0123438         147.435
0.556                  -0.499281        -148.985         -54.5321        -95.0162         -54.5328        -95.0294       -0.0124534         147.365
0.557                  -0.509505        -149.614         -54.4835        -96.3754         -54.4844        -96.3909       -0.0125646         147.294
0.558                  -0.520199        -150.251          -54.432        -97.7122          -54.433        -97.7299       -0.0126775         147.224
0.559                  -0.531387        -150.894         -54.3773        -99.0276         -54.3785        -99.0472        -0.012792         147.153
0.56                   -0.543101        -151.546         -54.3194        -100.322         -54.3208        -100.344       -0.0129083         147.082
0.561                   -0.55537        -152.204          -54.258        -101.598         -54.2597        -101.621       -0.0130263         147.011
0.562                  -0.568229        -152.871         -54.1931        -102.854          -54.195        -102.879        -0.013146          146.94
0.563                  -0.581712        -153.546         -54.1246        -104.094         -54.1267        -104.119       -0.0132675         146.868
0.564                  -0.595858        -154.229         -54.0524        -105.316         -54.0546        -105.343       -0.0133907         146.797
0.565                  -0.610705         -154.92         -53.9763        -106.524         -53.9787        -106.551       -0.0135158         146.725
0.566                  -0.626298         -155.62         -53.8962        -107.717         -53.8989        -107.745       -0.0136427         146.654
0.567                  -0.642682        -156.328         -53.8121        -108.897         -53.8149        -108.926       -0.0137714         146.582
0.568                  -0.659906        -157.046         -53.7238        -110.066         -53.7269        -110.095        -0.013902          146.51
0.569                  -0.678022        -157.772         -53.6314        -111.224         -53.6346        -111.253       -0.0140345         146.438
0.57                   -0.697086        -158.508         -53.5346        -112.373          -53.538        -112.403       -0.0141689         146.365
0.571                  -0.717159        -159.254         -53.4336        -113.515         -53.4371        -113.544       -0.0143053         146.293
0.572                  -0.738303        -160.009         -53.3281        -114.651         -53.3318        -114.679       -0.0144435          146.22
0.573                  -0.760587        -160.774         -53.2182        -115.781         -53.2221         -115.81       -0.0145838         146.148
0.574                  -0.784085        -161.549         -53.1039        -116.909         -53.1079        -116.937        -0.014726         146.075
0.575                  -0.808875        -162.335          -52.985        -118.035         -52.9891        -118.062       -0.0148702         146.002
0.576                  -0.835042        -163.131         -52.8617         -119.16         -52.8659        -119.187       -0.0150165         145.929
0.577                  -0.862674        -163.938         -52.7338        -120.287         -52.7381        -120.313       -0.0151647         145.856
0.578                   -0.89187        -164.756         -52.6014        -121.417         -52.6057        -121.442       -0.0153151         145.782
0.579                  -0.922731        -165.585         -52.4645        -122.552         -52.4689        -122.576       -0.0154675         145.709
0.58                    -0.95537        -166.425          -52.323        -123.693         -52.3275        -123.715        -0.015622         145.635
0.581                  -0.989905        -167.276         -52.1772        -124.842         -52.1816        -124.863       -0.0157786         145.561
0.582                   -1.02646        -168.139         -52.0269        -126.001         -52.0314        -126.021       -0.0159374         145.487
0.583                   -1.06518        -169.014         -51.8723        -127.171         -51.8767         -127.19       -0.0160982         145.413
0.584                   -1.10621          -169.9         -51.7134        -128.355         -51.7178        -128.372       -0.0162613         145.339
0.585                    -1.1497        -170.798         -51.5503        -129.554         -51.5547         -129.57       -0.0164265         145.264
0.586                   -1.19582        -171.708         -51.3832        -130.769         -51.3874        -130.784       -0.0165939         145.189
0.587                   -1.24475         -172.63          -51.212        -132.003         -51.2162        -132.017       -0.0167635         145.115
0.588                   -1.29668        -173.563          -51.037        -133.258         -51.0411         -133.27       -0.0169353          145.04
0.589                   -1.35182        -174.508         -50.8583        -134.535         -50.8623        -134.546       -0.0171094         144.964
0.59                    -1.41039        -175.463         -50.6761        -135.836           -50.68        -135.846       -0.0172857         144.889
0.591                   -1.47262         -176.43         -50.4906        -137.163         -50.4942        -137.171       -0.0174643         144.814
0.592                   -1.53875        -177.407         -50.3018        -138.518         -50.3054        -138.525       -0.0176451         144.738
0.593                   -1.60906        -178.394         -50.1102        -139.902         -50.1136        -139.908       -0.0178282         144.662
0.594                   -1.68383        -179.391         -49.9159        -141.317         -49.9191        -141.322       -0.0180137         144.586
0.595                   -1.76334         179.605         -49.7193        -142.764         -49.7223        -142.768       -0.0182014          144.51
0.596                   -1.84791         178.593         -49.5205        -144.247         -49.5233         -144.25       -0.0183915         144.434
0.597                   -1.93787         177.574         -49.3199        -145.765         -49.3225        -145.767        -0.018584         144.357
0.598                   -2.03357         176.551         -49.1178         -147.32         -49.1202        -147.321       -0.0187788          144.28
0.599                   -2.13535         175.525         -48.9147        -148.913         -48.9169        -148.914        -0.018976         144.203
0.6                     -2.24359         174.499         -48.7108        -150.547         -48.7128        -150.547       -0.0191755         144.126
0.601                   -2.35867         173.473         -48.5067        -152.221         -48.5085        -152.221       -0.0193775         144.049
0.602                   -2.48097         172.452         -48.3027        -153.937         -48.3042        -153.936       -0.0195819         143.971
0.603                   -2.61089         171.437         -48.0992        -155.694         -48.1006        -155.694       -0.0197888         143.894
0.604                    -2.7488         170.434         -47.8968        -157.495          -47.898        -157.494       -0.0199981         143.816
0.605                   -2.89509         169.446          -47.696        -159.338          -47.697        -159.337         -0.02021         143.738
0.606                   -3.05011         168.477         -47.4972        -161.224          -47.498        -161.223       -0.0204243          143.66
0.607                   -3.21418         167.534          -47.301        -163.152         -47.3016        -163.151       -0.0206412         143.581
0.608                   -3.38759         166.622         -47.1078        -165.122         -47.1083        -165.121       -0.0208606         143.502
0.609                   -3.57055         165.748         -46.9183        -167.132         -46.9185        -167.131       -0.0210827         143.423
0.61                    -3.76322         164.919         -46.7328        -169.181         -46.7329         -169.18       -0.0213073         143.344
0.611                   -3.96562         164.144          -46.552        -171.268          -46.552        -171.267       -0.0215346         143.265
0.612                   -4.17765         163.432         -46.3763         -173.39         -46.3761         -173.39       -0.0217646         143.185
0.613                   -4.39906         162.793         -46.2061        -175.545         -46.2059        -175.545       -0.0219974         143.106
0.614                    -4.6294         162.237         -46.0419         -177.73         -46.0416        -177.731       -0.0222329         143.026
0.615                   -4.86794         161.776         -45.8841        -179.942         -45.8837        -179.944       -0.0224712         142.945
0.616                    -5.1137         161.422          -45.733         177.821         -45.7326         177.819       -0.0227124         142.865
0.617                   -5.36537         161.185          -45.589         175.565         -45.5884         175.562       -0.0229565         142.784
0.618                   -5.62124         161.079         -45.4522         173.292         -45.4516         173.289       -0.0232036         142.703
0.619                   -5.87919         161.113         -45.3228         171.007         -45.3222         171.003       -0.0234537         142.622
0.62                    -6.13667         161.299         -45.2009         168.713         -45.2003         168.709       -0.0237069         142.541
0.621                   -6.39067         161.642         -45.0867         166.415         -45.0861         166.411       -0.0239633         142.459
0.622                   -6.63774         162.149         -44.9799         164.116         -44.9794         164.112       -0.0242229         142.377
0.623                   -6.87409         162.819         -44.8807         161.821         -44.8801         161.817       -0.0244859         142.295
0.624                   -7.09563          163.65         -44.7888         159.534         -44.7883          159.53       -0.0247522         142.212
0.625                   -7.29823         164.632          -44.704         157.259         -44.7035         157.254        -0.025022          142.13
0.626                   -7.47782         165.749         -44.6261         154.998         -44.6256         154.993       -0.0252954         142.047
0.627                   -7.63075         166.981         -44.5547         152.755         -44.5543          152.75       -0.0255725         141.964
0.628                   -7.75396           168.3         -44.4896         150.534         -44.4891         150.529       -0.0258533          141.88
0.629                   -7.84529         169.676         -44.4302         148.336         -44.4298         148.331        -0.026138         141.796
