! TOUCHSTONE file generated by CST MICROWAVE STUDIO
! Date and time: Mon Nov 30 09:12:53 2020
! Project name: Scenario_1_Planar_Body_Tissue_Out_of_Line_v2.cst
! Parameters = {dy1=259.5; L_HA=400; Ltissue=700; MT=2.54; Rad_Dielectric=30; Rad_Lower=7.3; Rad_Upper=30; Wtissue=700; a_HA=580; a_WG=246; b_HA=500; b_WG=121; c_HA=0; c_WG=187; d_feed=85; dx1=346; h_feed=15; h_lower=18; h_upper=40; hfat=3; hgap=25; hmuscle=50; hskin=1.5}
! Header version: 2018
! Port assignment regex: !\s*Touchstone port\s*([0-9]+)\s*=\s*(CST MWS port|CST DS port)\s*([0-9]+|Zmin|Zmax)\s*\(\"(.*)\"\)(\s*mode\s*([0-9]+))?.*
! Touchstone port assignment:
! Touchstone port 1 = CST MWS port 1 ("")
! Touchstone port 2 = CST MWS port 2 ("")
# GHz S DB R 50
0.5                    -0.242089        -121.785         -57.7885         5.49219         -57.7887         5.49304      -0.00821576         151.151
0.501                  -0.246625        -122.167         -57.6729         2.98129         -57.6731         2.98259      -0.00825939         151.086
0.502                  -0.251077        -122.551         -57.5617        0.478961         -57.5619        0.480663      -0.00830385         151.021
0.503                  -0.255448        -122.938         -57.4549        -2.01301         -57.4551        -2.01094      -0.00834917         150.955
0.504                  -0.259743        -123.328         -57.3525        -4.49285         -57.3527        -4.49045      -0.00839536          150.89
0.505                  -0.263964        -123.721         -57.2545        -6.95884         -57.2547        -6.95615      -0.00844246         150.825
0.506                  -0.268115        -124.117         -57.1609         -9.4093         -57.1611        -9.40635      -0.00849049         150.759
0.507                  -0.272199        -124.516         -57.0716        -11.8426         -57.0718        -11.8394      -0.00853946         150.694
0.508                  -0.276221        -124.918         -56.9866        -14.2571         -56.9867        -14.2538      -0.00858941         150.628
0.509                  -0.280184        -125.324         -56.9056        -16.6515         -56.9057         -16.648      -0.00864035         150.562
0.51                   -0.284092        -125.732         -56.8286        -19.0243         -56.8287        -19.0207       -0.0086923         150.497
0.511                  -0.287949        -126.144         -56.7555        -21.3742         -56.7556        -21.3705      -0.00874528         150.431
0.512                  -0.291759        -126.558         -56.6861           -23.7         -56.6862        -23.6962      -0.00879932         150.365
0.513                  -0.295526        -126.977         -56.6202        -26.0007         -56.6203        -25.9969      -0.00885444         150.299
0.514                  -0.299256        -127.398         -56.5578        -28.2753         -56.5578        -28.2714      -0.00891065         150.232
0.515                  -0.302951        -127.823         -56.4984        -30.5229         -56.4985         -30.519      -0.00896798         150.166
0.516                  -0.306616        -128.251         -56.4421        -32.7428         -56.4422        -32.7389      -0.00902644           150.1
0.517                  -0.310258        -128.683         -56.3886        -34.9344         -56.3887        -34.9305      -0.00908606         150.033
0.518                  -0.313879        -129.119         -56.3377         -37.097         -56.3378        -37.0933      -0.00914685         149.967
0.519                  -0.317486        -129.558         -56.2892        -39.2305         -56.2892        -39.2268      -0.00920882           149.9
0.52                   -0.321083        -130.001         -56.2429        -41.3343         -56.2429        -41.3307      -0.00927201         149.834
0.521                  -0.324676        -130.447         -56.1986        -43.4083         -56.1986        -43.4048      -0.00933642         149.767
0.522                   -0.32827        -130.897         -56.1561        -45.4524         -56.1561         -45.449      -0.00940207           149.7
0.523                  -0.331872        -131.351         -56.1151        -47.4666         -56.1152        -47.4633      -0.00946898         149.633
0.524                  -0.335486        -131.809         -56.0756        -49.4509         -56.0756        -49.4477      -0.00953716         149.566
0.525                   -0.33912        -132.271         -56.0373        -51.4054         -56.0373        -51.4023      -0.00960664         149.499
0.526                   -0.34278        -132.737              -56        -53.3304              -56        -53.3274      -0.00967742         149.431
0.527                  -0.346471        -133.208         -55.9636         -55.226         -55.9636        -55.2232      -0.00974952         149.364
0.528                  -0.350202        -133.682         -55.9278        -57.0927         -55.9278          -57.09      -0.00982296         149.297
0.529                  -0.353979        -134.161         -55.8925        -58.9308         -55.8925        -58.9282      -0.00989775         149.229
0.53                   -0.357809        -134.644         -55.8576        -60.7407         -55.8576        -60.7383      -0.00997391         149.162
0.531                  -0.361702        -135.131         -55.8228        -62.5229         -55.8228        -62.5206       -0.0100514         149.094
0.532                  -0.365663        -135.623         -55.7881        -64.2779         -55.7881        -64.2758       -0.0101304         149.026
0.533                  -0.369703        -136.119         -55.7532        -66.0062         -55.7532        -66.0042       -0.0102107         148.958
0.534                  -0.373829         -136.62         -55.7181        -67.7084         -55.7181        -67.7065       -0.0102925          148.89
0.535                  -0.378052        -137.126         -55.6826        -69.3851         -55.6827        -69.3833       -0.0103756         148.822
0.536                  -0.382379        -137.636         -55.6466        -71.0368         -55.6466        -71.0351       -0.0104603         148.754
0.537                  -0.386823        -138.152           -55.61        -72.6642           -55.61        -72.6626       -0.0105464         148.685
0.538                  -0.391392        -138.672         -55.5726        -74.2679         -55.5726        -74.2664       -0.0106339         148.617
0.539                  -0.396098        -139.198         -55.5343        -75.8485         -55.5344        -75.8471       -0.0107229         148.548
0.54                   -0.400953        -139.728         -55.4951        -77.4067         -55.4952        -77.4055       -0.0108134          148.48
0.541                  -0.405968        -140.264         -55.4549        -78.9433         -55.4549        -78.9421       -0.0109055         148.411
0.542                  -0.411156        -140.806         -55.4134        -80.4587         -55.4135        -80.4576        -0.010999         148.342
0.543                  -0.416531        -141.353         -55.3707        -81.9537         -55.3708        -81.9527        -0.011094         148.273
0.544                  -0.422105        -141.905         -55.3267         -83.429         -55.3268        -83.4281       -0.0111906         148.204
0.545                  -0.427895        -142.463         -55.2813        -84.8852         -55.2813        -84.8843       -0.0112887         148.135
0.546                  -0.433915        -143.027         -55.2343         -86.323         -55.2344        -86.3222       -0.0113884         148.065
0.547                  -0.440181        -143.597         -55.1858        -87.7431         -55.1858        -87.7423       -0.0114896         147.996
0.548                  -0.446711        -144.173         -55.1356         -89.146         -55.1356        -89.1454       -0.0115923         147.927
0.549                  -0.453522        -144.755         -55.0837        -90.5326         -55.0837         -90.532       -0.0116967         147.857
0.55                   -0.460633        -145.343           -55.03        -91.9035           -55.03        -91.9029       -0.0118026         147.787
0.551                  -0.468064        -145.937         -54.9744        -93.2593         -54.9745        -93.2587       -0.0119101         147.717
0.552                  -0.475837        -146.539         -54.9169        -94.6007          -54.917        -94.6001       -0.0120193         147.647
0.553                  -0.483973        -147.147         -54.8575        -95.9283         -54.8576        -95.9278         -0.01213         147.577
0.554                  -0.492496        -147.761          -54.796        -97.2428         -54.7961        -97.2424       -0.0122423         147.507
0.555                  -0.501431        -148.383         -54.7324         -98.545         -54.7325        -98.5445       -0.0123562         147.437
0.556                  -0.510803        -149.012         -54.6666        -99.8354         -54.6667        -99.8349       -0.0124718         147.366
0.557                  -0.520642        -149.648         -54.5987        -101.115         -54.5987        -101.114        -0.012589         147.296
0.558                  -0.530976        -150.291         -54.5284        -102.384         -54.5285        -102.383       -0.0127078         147.225
0.559                  -0.541836        -150.942         -54.4559        -103.643         -54.4559        -103.642       -0.0128283         147.154
0.56                   -0.553256          -151.6          -54.381        -104.893          -54.381        -104.892       -0.0129504         147.083
0.561                   -0.56527        -152.267         -54.3036        -106.135         -54.3037        -106.134       -0.0130742         147.012
0.562                  -0.577916        -152.941         -54.2239        -107.369         -54.2239        -107.368       -0.0131996         146.941
0.563                  -0.591233        -153.624         -54.1416        -108.596         -54.1416        -108.595       -0.0133267          146.87
0.564                  -0.605264        -154.315         -54.0567        -109.816         -54.0567        -109.816       -0.0134554         146.798
0.565                  -0.620052        -155.015         -53.9693        -111.032         -53.9693        -111.031       -0.0135859         146.727
0.566                  -0.635645        -155.723         -53.8792        -112.242         -53.8792        -112.241        -0.013718         146.655
0.567                  -0.652095         -156.44         -53.7864        -113.448         -53.7864        -113.447       -0.0138518         146.583
0.568                  -0.669453        -157.166         -53.6909        -114.651         -53.6909         -114.65       -0.0139873         146.511
0.569                  -0.687778        -157.902         -53.5926        -115.851         -53.5926        -115.851       -0.0141246         146.439
0.57                    -0.70713        -158.646         -53.4916         -117.05         -53.4916        -117.049       -0.0142635         146.367
0.571                  -0.727575        -159.401         -53.3877        -118.247         -53.3877        -118.247       -0.0144041         146.294
0.572                  -0.749181        -160.165         -53.2809        -119.445         -53.2809        -119.444       -0.0145465         146.222
0.573                  -0.772021        -160.939         -53.1713        -120.643         -53.1713        -120.642       -0.0146906         146.149
0.574                  -0.796175        -161.723         -53.0587        -121.843         -53.0587        -121.842       -0.0148364         146.076
0.575                  -0.821725        -162.517         -52.9432        -123.045         -52.9431        -123.044       -0.0149839         146.003
0.576                  -0.848762        -163.322         -52.8247         -124.25         -52.8246        -124.249       -0.0151333          145.93
0.577                   -0.87738        -164.137         -52.7032         -125.46         -52.7032        -125.459       -0.0152843         145.857
0.578                  -0.907681        -164.962         -52.5788        -126.675         -52.5787        -126.674       -0.0154372         145.784
0.579                  -0.939772        -165.799         -52.4513        -127.897         -52.4512        -127.896       -0.0155918          145.71
0.58                   -0.973771        -166.646         -52.3208        -129.126         -52.3207        -129.125       -0.0157482         145.636
0.581                    -1.0098        -167.504         -52.1873        -130.363         -52.1871        -130.362       -0.0159064         145.563
0.582                   -1.04799        -168.373         -52.0507         -131.61         -52.0506        -131.609       -0.0160665         145.489
0.583                   -1.08848        -169.253         -51.9112        -132.867         -51.9111        -132.866       -0.0162283         145.414
0.584                   -1.13141        -170.144         -51.7688        -134.137         -51.7686        -134.135        -0.016392          145.34
0.585                   -1.17696        -171.046         -51.6233        -135.419         -51.6231        -135.418       -0.0165575         145.266
0.586                   -1.22528        -171.958          -51.475        -136.715         -51.4748        -136.714        -0.016725         145.191
0.587                   -1.27656        -172.881         -51.3238        -138.028         -51.3236        -138.026       -0.0168942         145.116
0.588                   -1.33098        -173.815         -51.1699        -139.356         -51.1696        -139.355       -0.0170654         145.041
0.589                   -1.38875        -174.758         -51.0132        -140.703         -51.0129        -140.702       -0.0172385         144.966
0.59                    -1.45007        -175.711         -50.8538         -142.07         -50.8535        -142.069       -0.0174136         144.891
0.591                   -1.51519        -176.673          -50.692        -143.457         -50.6917        -143.456       -0.0175906         144.815
0.592                   -1.58432        -177.643         -50.5277        -144.867         -50.5274        -144.866       -0.0177696          144.74
0.593                   -1.65773        -178.621         -50.3611          -146.3         -50.3608        -146.299       -0.0179505         144.664
0.594                   -1.73567        -179.606         -50.1924        -147.758          -50.192        -147.757       -0.0181336         144.588
0.595                   -1.81841         179.403         -50.0217        -149.242         -50.0213        -149.241       -0.0183186         144.512
0.596                   -1.90625         178.408         -49.8492        -150.754         -49.8488        -150.753       -0.0185058         144.435
0.597                   -1.99948          177.41         -49.6752        -152.295         -49.6748        -152.295        -0.018695         144.359
0.598                   -2.09839          176.41         -49.4998        -153.867         -49.4993        -153.866       -0.0188864         144.282
0.599                   -2.20331         175.411         -49.3233        -155.469         -49.3228        -155.469         -0.01908         144.205
0.6                     -2.31454         174.415         -49.1459        -157.105         -49.1455        -157.105       -0.0192757         144.128
0.601                    -2.4324         173.424         -48.9681        -158.774         -48.9676        -158.774       -0.0194738         144.051
0.602                   -2.55721         172.441         -48.7901        -160.478         -48.7896        -160.478       -0.0196741         143.973
0.603                   -2.68926         171.471         -48.6122        -162.218         -48.6117        -162.218       -0.0198767         143.895
0.604                   -2.82886         170.515         -48.4349        -163.994         -48.4344        -163.994       -0.0200817         143.818
0.605                   -2.97626         169.579         -48.2584        -165.806          -48.258        -165.806       -0.0202891         143.739
0.606                   -3.13171         168.667         -48.0833        -167.655         -48.0829        -167.656       -0.0204989         143.661
0.607                    -3.2954         167.785           -47.91        -169.541         -47.9095        -169.542       -0.0207113         143.583
0.608                   -3.46747         166.939         -47.7389        -171.464         -47.7384        -171.465       -0.0209262         143.504
0.609                   -3.64797         166.134         -47.5704        -173.423           -47.57        -173.424       -0.0211438         143.425
0.61                     -3.8369         165.378         -47.4051        -175.418         -47.4046        -175.419        -0.021364         143.346
0.611                   -4.03411         164.678         -47.2433        -177.447         -47.2429        -177.448       -0.0215869         143.266
0.612                   -4.23933         164.043         -47.0856        -179.508         -47.0852        -179.509       -0.0218127         143.187
0.613                   -4.45213          163.48         -46.9324         178.399          -46.932         178.398       -0.0220413         143.107
0.614                    -4.6719             163          -46.784         176.278         -46.7836         176.276       -0.0222728         143.027
0.615                   -4.89778         162.612          -46.641          174.13         -46.6406         174.128       -0.0225073         142.947
0.616                   -5.12869         162.324         -46.5037         171.958         -46.5033         171.956       -0.0227448         142.866
0.617                   -5.36325         162.146         -46.3723         169.766          -46.372         169.764       -0.0229856         142.786
0.618                   -5.59978         162.087         -46.2472         167.556          -46.247         167.554       -0.0232295         142.705
0.619                   -5.83629         162.154         -46.1287         165.333         -46.1284         165.331       -0.0234767         142.623
0.62                    -6.07043         162.354         -46.0168         163.099         -46.0166         163.097       -0.0237273         142.542
0.621                   -6.29956         162.691         -45.9117         160.859         -45.9115         160.857       -0.0239814          142.46
0.622                   -6.52077         163.165         -45.8135         158.617         -45.8133         158.615        -0.024239         142.378
0.623                   -6.73092         163.777         -45.7221         156.377         -45.7219         156.375       -0.0245003         142.296
0.624                   -6.92676         164.519         -45.6374         154.141         -45.6373         154.139       -0.0247653         142.214
0.625                   -7.10506         165.382         -45.5593         151.915         -45.5592         151.914       -0.0250341         142.131
0.626                   -7.26279         166.353         -45.4876         149.702         -45.4876         149.701       -0.0253069         142.048
0.627                   -7.39724         167.412         -45.4221         147.506         -45.4221         147.504       -0.0255837         141.965
0.628                   -7.50624         168.537         -45.3624         145.328         -45.3624         145.326       -0.0258647         141.881
0.629                   -7.58826         169.704         -45.3081         143.173         -45.3082         143.171         -0.02615         141.797
