! TOUCHSTONE file generated by CST MICROWAVE STUDIO
! Date and time: Tue Nov 24 13:46:21 2020
! Project name: Scenario_1_Planar_Body_Tissue_Out_of_Line.cst
! Parameters = {dy1=259.5; L_HA=400; Ltissue=700; MT=2.54; Rad_Dielectric=30; Rad_Lower=7.3; Rad_Upper=30; Wtissue=700; a_HA=580; a_WG=246; b_HA=500; b_WG=121; c_HA=0; c_WG=187; d_feed=85; dx1=1039; h_feed=15; h_lower=18; h_upper=40; hfat=3; hgap=25; hmuscle=50; hskin=1.5}
! Header version: 2018
! Port assignment regex: !\s*Touchstone port\s*([0-9]+)\s*=\s*(CST MWS port|CST DS port)\s*([0-9]+|Zmin|Zmax)\s*\(\"(.*)\"\)(\s*mode\s*([0-9]+))?.*
! Touchstone port assignment:
! Touchstone port 1 = CST MWS port 1 ("")
! Touchstone port 2 = CST MWS port 2 ("")
# GHz S DB R 50
0.5                     -0.14725        -121.679         -65.4058        -26.4658         -65.4059        -26.4635       -0.0076252         151.156
0.501                  -0.157873        -122.069         -65.4322        -27.7863         -65.4332          -27.79      -0.00769467          151.09
0.502                  -0.168477        -122.462         -65.4583        -29.1319         -65.4602        -29.1418      -0.00776491         151.025
0.503                  -0.179062        -122.856         -65.4839        -30.5032         -65.4867        -30.5196      -0.00783594          150.96
0.504                   -0.18963        -123.251          -65.509        -31.9011         -65.5128        -31.9241      -0.00790774         150.894
0.505                   -0.20018        -123.648         -65.5335        -33.3262         -65.5382        -33.3561      -0.00798032         150.829
0.506                  -0.210712        -124.048         -65.5574        -34.7793         -65.5631        -34.8163      -0.00805369         150.763
0.507                  -0.221229        -124.448         -65.5805        -36.2611         -65.5871        -36.3056      -0.00812784         150.697
0.508                  -0.231729        -124.851         -65.6028        -37.7724         -65.6103        -37.8245      -0.00820278         150.632
0.509                  -0.242214        -125.255          -65.624        -39.3138         -65.6325        -39.3739      -0.00827852         150.566
0.51                   -0.252684        -125.662         -65.6443        -40.8863         -65.6537        -40.9546      -0.00835505           150.5
0.511                  -0.263141         -126.07         -65.6633        -42.4904         -65.6737        -42.5673      -0.00843238         150.434
0.512                  -0.273584         -126.48          -65.681         -44.127         -65.6923        -44.2127       -0.0085105         150.368
0.513                  -0.284015        -126.892         -65.6972        -45.7968         -65.7095        -45.8916      -0.00858944         150.302
0.514                  -0.294435        -127.306         -65.7119        -47.5005          -65.725        -47.6048      -0.00866917         150.235
0.515                  -0.304844        -127.722         -65.7247        -49.2389         -65.7388        -49.3529      -0.00874972         150.169
0.516                  -0.315243        -128.141         -65.7356        -51.0125         -65.7506        -51.1366      -0.00883109         150.103
0.517                  -0.325634        -128.561         -65.7444        -52.8221         -65.7602        -52.9566      -0.00891326         150.036
0.518                  -0.336018        -128.983         -65.7509        -54.6683         -65.7676        -54.8135      -0.00899626         149.969
0.519                  -0.346395        -129.408         -65.7549        -56.5516         -65.7724        -56.7078      -0.00908009         149.903
0.52                   -0.356766        -129.835         -65.7562        -58.4725         -65.7744          -58.64      -0.00916474         149.836
0.521                  -0.367134        -130.264         -65.7546        -60.4315         -65.7735        -60.6106      -0.00925023         149.769
0.522                  -0.377499        -130.695         -65.7498        -62.4289         -65.7695          -62.62      -0.00933655         149.702
0.523                  -0.387863        -131.129         -65.7416        -64.4652          -65.762        -64.6684      -0.00942371         149.635
0.524                  -0.398227        -131.565         -65.7299        -66.5404         -65.7508        -66.7561      -0.00951172         149.568
0.525                  -0.408593        -132.003         -65.7142        -68.6548         -65.7357        -68.8831      -0.00960058         149.501
0.526                  -0.418962        -132.444         -65.6944        -70.8083         -65.7164        -71.0495      -0.00969029         149.434
0.527                  -0.429337        -132.887         -65.6702        -73.0009         -65.6926        -73.2552      -0.00978087         149.366
0.528                  -0.439718        -133.333         -65.6414        -75.2324         -65.6642        -75.4998      -0.00987231         149.299
0.529                  -0.450108        -133.782         -65.6076        -77.5024         -65.6307        -77.7832      -0.00996462         149.231
0.53                   -0.460509        -134.233         -65.5687        -79.8105         -65.5921        -80.1046       -0.0100578         149.164
0.531                  -0.470924        -134.687         -65.5243         -82.156         -65.5479        -82.4636       -0.0101519         149.096
0.532                  -0.481353        -135.144         -65.4743        -84.5383         -65.4979        -84.8593       -0.0102468         149.028
0.533                    -0.4918        -135.603         -65.4183        -86.9565          -65.442        -87.2909       -0.0103427          148.96
0.534                  -0.502268        -136.066         -65.3561        -89.4096         -65.3798        -89.7571       -0.0104394         148.892
0.535                  -0.512758        -136.531         -65.2876        -91.8964         -65.3111         -92.257       -0.0105371         148.824
0.536                  -0.523274        -136.999         -65.2124        -94.4156         -65.2357         -94.789       -0.0106357         148.756
0.537                  -0.533818        -137.471         -65.1305        -96.9659         -65.1535        -97.3518       -0.0107352         148.688
0.538                  -0.544394        -137.945         -65.0416        -99.5457         -65.0643        -99.9439       -0.0108356         148.619
0.539                  -0.555005        -138.423         -64.9456        -102.153         -64.9679        -102.563       -0.0109369         148.551
0.54                   -0.565655        -138.903         -64.8424        -104.787         -64.8642        -105.209       -0.0110392         148.482
0.541                  -0.576346        -139.387         -64.7319        -107.446         -64.7532        -107.878       -0.0111425         148.414
0.542                  -0.587084        -139.875         -64.6141        -110.127         -64.6348        -110.569       -0.0112467         148.345
0.543                  -0.597872        -140.366         -64.4889        -112.829         -64.5089        -113.281       -0.0113519         148.276
0.544                  -0.608714         -140.86         -64.3562         -115.55         -64.3756        -116.011       -0.0114581         148.207
0.545                  -0.619615        -141.358         -64.2163        -118.288          -64.235        -118.757       -0.0115652         148.138
0.546                  -0.630579        -141.859          -64.069        -121.041          -64.087        -121.517       -0.0116734         148.068
0.547                  -0.641613        -142.364         -63.9146        -123.807         -63.9319        -124.291       -0.0117825         147.999
0.548                  -0.652721        -142.873         -63.7532        -126.586         -63.7697        -127.075       -0.0118927          147.93
0.549                  -0.663908        -143.386         -63.5848        -129.374         -63.6006        -129.869       -0.0120039          147.86
0.55                   -0.675182        -143.903         -63.4098        -132.172         -63.4249        -132.671       -0.0121162          147.79
0.551                  -0.686548        -144.424         -63.2284        -134.976         -63.2427        -135.478       -0.0122295         147.721
0.552                  -0.698013        -144.949         -63.0407        -137.786         -63.0544        -138.292       -0.0123439         147.651
0.553                  -0.709584        -145.478          -62.847        -140.602         -62.8601        -141.109       -0.0124593         147.581
0.554                  -0.721269        -146.011         -62.6477        -143.421         -62.6602        -143.929       -0.0125759         147.511
0.555                  -0.733075        -146.549          -62.443        -146.243          -62.455        -146.751       -0.0126935          147.44
0.556                  -0.745012        -147.092         -62.2333        -149.067         -62.2448        -149.575       -0.0128123          147.37
0.557                  -0.757087        -147.639         -62.0189        -151.894           -62.03          -152.4       -0.0129322         147.299
0.558                  -0.769312         -148.19         -61.8002        -154.721          -61.811        -155.225       -0.0130533         147.229
0.559                  -0.781695        -148.747         -61.5775         -157.55          -61.588        -158.051       -0.0131755         147.158
0.56                   -0.794247        -149.308         -61.3512        -160.379         -61.3614        -160.877        -0.013299         147.087
0.561                   -0.80698        -149.874         -61.1217        -163.209         -61.1317        -163.703       -0.0134236         147.016
0.562                  -0.819906        -150.446         -60.8893        -166.041         -60.8993        -166.529       -0.0135495         146.945
0.563                  -0.833038        -151.023         -60.6544        -168.873         -60.6644        -169.356       -0.0136765         146.874
0.564                  -0.846389        -151.605         -60.4175        -171.707         -60.4275        -172.184       -0.0138049         146.802
0.565                  -0.859973        -152.193         -60.1789        -174.543          -60.189        -175.012       -0.0139345         146.731
0.566                  -0.873806        -152.786          -59.939         -177.38         -59.9493        -177.842       -0.0140655         146.659
0.567                  -0.887905        -153.385         -59.6981          179.78         -59.7087         179.326       -0.0141978         146.587
0.568                  -0.902286         -153.99         -59.4568         176.937         -59.4676         176.492       -0.0143314         146.516
0.569                  -0.916968        -154.601         -59.2154         174.091         -59.2265         173.656       -0.0144664         146.444
0.57                    -0.93197        -155.218         -58.9742         171.241         -58.9857         170.816       -0.0146028         146.371
0.571                  -0.947314        -155.841         -58.7336         168.388         -58.7456         167.973       -0.0147407         146.299
0.572                  -0.963022        -156.471         -58.4941          165.53         -58.5065         165.127         -0.01488         146.227
0.573                  -0.979117        -157.108          -58.256         162.668         -58.2688         162.276       -0.0150207         146.154
0.574                  -0.995624        -157.751         -58.0196         159.801         -58.0329         159.421        -0.015163         146.081
0.575                   -1.01257        -158.402         -57.7854         156.929         -57.7991         156.562       -0.0153069         146.008
0.576                   -1.02999        -159.059         -57.5536         154.052         -57.5678         153.699       -0.0154523         145.935
0.577                    -1.0479        -159.724         -57.3247         151.171         -57.3393         150.831       -0.0155994         145.862
0.578                   -1.06635        -160.396         -57.0989         148.286         -57.1139          147.96       -0.0157481         145.789
0.579                   -1.08536        -161.075         -56.8766         145.397          -56.892         145.086       -0.0158985         145.715
0.58                    -1.10497        -161.763         -56.6581         142.504         -56.6738         142.208       -0.0160506         145.641
0.581                   -1.12523        -162.458         -56.4437         139.609         -56.4596         139.328       -0.0162045         145.568
0.582                   -1.14617        -163.162         -56.2335         136.712         -56.2497         136.446       -0.0163602         145.494
0.583                   -1.16784        -163.874          -56.028         133.815         -56.0443         133.564       -0.0165178          145.42
0.584                    -1.1903        -164.594         -55.8272         130.917         -55.8436         130.682       -0.0166772         145.345
0.585                   -1.21358        -165.323         -55.6315         128.021         -55.6479         127.801       -0.0168386         145.271
0.586                   -1.23775        -166.061         -55.4409         125.127         -55.4572         124.923        -0.017002         145.196
0.587                   -1.26286        -166.808         -55.2556         122.238         -55.2717          122.05       -0.0171675         145.121
0.588                   -1.28898        -167.564         -55.0758         119.355         -55.0916         119.181        -0.017335         145.046
0.589                   -1.31618        -168.329         -54.9014         116.479         -54.9169         116.321       -0.0175046         144.971
0.59                    -1.34452        -169.104         -54.7326         113.612         -54.7476         113.469       -0.0176765         144.896
0.591                   -1.37409        -169.888         -54.5694         110.756         -54.5838         110.627       -0.0178506         144.821
0.592                   -1.40496        -170.683         -54.4117         107.913         -54.4254         107.797        -0.018027         144.745
0.593                   -1.43723        -171.487         -54.2594         105.083         -54.2725         104.982       -0.0182057         144.669
0.594                   -1.47099        -172.301         -54.1126          102.27         -54.1248         102.181       -0.0183869         144.593
0.595                   -1.50633        -173.125          -53.971         99.4749         -53.9822         99.3982       -0.0185706         144.517
0.596                   -1.54337         -173.96         -53.8344         96.6988         -53.8447         96.6336       -0.0187568         144.441
0.597                   -1.58221        -174.805         -53.7028         93.9437         -53.7121         93.8891       -0.0189456         144.364
0.598                   -1.62298         -175.66         -53.5759         91.2109          -53.584         91.1662        -0.019137         144.287
0.599                   -1.66582        -176.526         -53.4533         88.5018         -53.4604         88.4661       -0.0193312          144.21
0.6                     -1.71084        -177.401         -53.3349         85.8176         -53.3408           85.79       -0.0195281         144.133
0.601                   -1.75821        -178.287         -53.2204         83.1593         -53.2251         83.1389       -0.0197279         144.056
0.602                   -1.80806        -179.182         -53.1094         80.5278         -53.1128         80.5137       -0.0199306         143.978
0.603                   -1.86058         179.913         -53.0015         77.9238         -53.0038          77.915       -0.0201363         143.901
0.604                   -1.91591         178.998         -52.8964         75.3478         -52.8975         75.3434        -0.020345         143.823
0.605                   -1.97426         178.075         -52.7938         72.8001         -52.7938         72.7993       -0.0205567         143.745
0.606                    -2.0358         177.143         -52.6932         70.2809         -52.6921         70.2827       -0.0207717         143.666
0.607                   -2.10073         176.203         -52.5943           67.79         -52.5921         67.7936       -0.0209898         143.588
0.608                   -2.16926         175.256         -52.4966         65.3272         -52.4934         65.3316       -0.0212112         143.509
0.609                   -2.24159         174.303         -52.3997         62.8918         -52.3956         62.8964       -0.0214359          143.43
0.61                    -2.31795         173.345         -52.3033          60.483         -52.2983          60.487       -0.0216641         143.351
0.611                   -2.39856         172.383         -52.2068         58.0998         -52.2011         58.1026       -0.0218956         143.272
0.612                   -2.48365         171.418         -52.1099         55.7408         -52.1036         55.7418       -0.0221306         143.192
0.613                   -2.57343         170.452         -52.0123         53.4045         -52.0054         53.4031       -0.0223692         143.112
0.614                   -2.66813         169.488         -51.9134         51.0889         -51.9061         51.0849       -0.0226114         143.032
0.615                   -2.76797         168.526          -51.813         48.7919         -51.8054         48.7849       -0.0228571         142.952
0.616                   -2.87314          167.57         -51.7107         46.5111          -51.703         46.5009       -0.0231066         142.871
0.617                   -2.98384         166.622         -51.6062         44.2437         -51.5985         44.2302       -0.0233598         142.791
0.618                   -3.10023         165.685         -51.4993         41.9866         -51.4916         41.9698       -0.0236167          142.71
0.619                   -3.22245         164.762         -51.3896         39.7365         -51.3821         39.7167       -0.0238775         142.628
0.62                    -3.35057         163.858          -51.277         37.4899         -51.2699         37.4673       -0.0241421         142.547
0.621                   -3.48466         162.976         -51.1614         35.2429         -51.1547         35.2179       -0.0244106         142.465
0.622                   -3.62468         162.121         -51.0428         32.9915         -51.0366         32.9646        -0.024683         142.383
0.623                   -3.77055         161.297         -50.9212         30.7316         -50.9156         30.7034       -0.0249594         142.301
0.624                    -3.9221         160.509         -50.7967         28.4589         -50.7918         28.4301       -0.0252398         142.219
0.625                   -4.07905         159.762         -50.6696         26.1694         -50.6653         26.1406       -0.0255243         142.136
0.626                   -4.24101         159.061         -50.5401         23.8589         -50.5365          23.831       -0.0258128         142.053
0.627                   -4.40746         158.413         -50.4087         21.5237         -50.4058         21.4973       -0.0261054          141.97
0.628                   -4.57774         157.821         -50.2759         19.1603         -50.2737         19.1363       -0.0264023         141.886
0.629                   -4.75107         157.292         -50.1424          16.766         -50.1408         16.7449       -0.0267033         141.803
