! TOUCHSTONE file generated by CST MICROWAVE STUDIO
! Date and time: Mon Nov 30 09:13:01 2020
! Project name: Scenario_1_Planar_Body_Tissue_Out_of_Line_v2.cst
! Parameters = {dy1=276.8; L_HA=400; Ltissue=700; MT=2.54; Rad_Dielectric=30; Rad_Lower=7.3; Rad_Upper=30; Wtissue=700; a_HA=580; a_WG=246; b_HA=500; b_WG=121; c_HA=0; c_WG=187; d_feed=85; dx1=346; h_feed=15; h_lower=18; h_upper=40; hfat=3; hgap=25; hmuscle=50; hskin=1.5}
! Header version: 2018
! Port assignment regex: !\s*Touchstone port\s*([0-9]+)\s*=\s*(CST MWS port|CST DS port)\s*([0-9]+|Zmin|Zmax)\s*\(\"(.*)\"\)(\s*mode\s*([0-9]+))?.*
! Touchstone port assignment:
! Touchstone port 1 = CST MWS port 1 ("")
! Touchstone port 2 = CST MWS port 2 ("")
# GHz S DB R 50
0.5                    -0.237486        -121.792         -58.1323         1.31288          -58.132         1.31407       -0.0081445         151.154
0.501                  -0.239323         -122.21          -58.244        0.563482         -58.2437        0.564561       -0.0081941         151.088
0.502                  -0.241234         -122.63         -58.3569       -0.221185         -58.3566       -0.220202      -0.00824452         151.023
0.503                  -0.243222        -123.053         -58.4709        -1.04246         -58.4704        -1.04156      -0.00829578         150.958
0.504                  -0.245286        -123.477         -58.5857        -1.90172         -58.5852        -1.90089      -0.00834789         150.893
0.505                  -0.247429        -123.904         -58.7012        -2.80035         -58.7007        -2.79958      -0.00840085         150.827
0.506                  -0.249652        -124.333         -58.8173        -3.73976         -58.8168        -3.73902      -0.00845468         150.762
0.507                  -0.251955        -124.764         -58.9338        -4.72135         -58.9332        -4.72064      -0.00850939         150.696
0.508                  -0.254341        -125.198         -59.0504        -5.74654         -59.0498        -5.74584      -0.00856498          150.63
0.509                  -0.256811        -125.634          -59.167        -6.81674         -59.1663        -6.81603      -0.00862148         150.565
0.51                   -0.259367        -126.072         -59.2832        -7.93333         -59.2825        -7.93259      -0.00867889         150.499
0.511                  -0.262011        -126.513         -59.3988        -9.09765          -59.398        -9.09687      -0.00873722         150.433
0.512                  -0.264743        -126.956         -59.5134         -10.311         -59.5126        -10.3102      -0.00879648         150.367
0.513                  -0.267567        -127.402         -59.6268        -11.5746          -59.626        -11.5737      -0.00885669         150.301
0.514                  -0.270483         -127.85         -59.7386        -12.8897         -59.7377        -12.8886      -0.00891785         150.235
0.515                  -0.273495        -128.301         -59.8483        -14.2571         -59.8474         -14.256      -0.00897998         150.168
0.516                  -0.276605        -128.754         -59.9557        -15.6779         -59.9547        -15.6766      -0.00904309         150.102
0.517                  -0.279814        -129.211         -60.0601        -17.1528         -60.0591        -17.1514      -0.00910719         150.036
0.518                  -0.283125         -129.67         -60.1613        -18.6823         -60.1602        -18.6807      -0.00917229         149.969
0.519                  -0.286541        -130.131         -60.2586        -20.2667         -60.2575        -20.2649      -0.00923841         149.902
0.52                   -0.290064        -130.596         -60.3515        -21.9062         -60.3504        -21.9041      -0.00930555         149.836
0.521                  -0.293698        -131.064         -60.4395        -23.6004         -60.4384        -23.5982      -0.00937372         149.769
0.522                  -0.297445        -131.534         -60.5221         -25.349          -60.521        -25.3465      -0.00944295         149.702
0.523                  -0.301309        -132.007         -60.5987         -27.151         -60.5976        -27.1482      -0.00951323         149.635
0.524                  -0.305292        -132.484         -60.6687        -29.0052         -60.6675        -29.0022      -0.00958459         149.568
0.525                  -0.309398        -132.963         -60.7316        -30.9101         -60.7304        -30.9067      -0.00965703         149.501
0.526                  -0.313632        -133.446         -60.7867        -32.8635         -60.7855        -32.8599      -0.00973057         149.434
0.527                  -0.317996        -133.932         -60.8335        -34.8631         -60.8323        -34.8592      -0.00980521         149.366
0.528                  -0.322496        -134.421         -60.8716        -36.9061         -60.8704        -36.9019      -0.00988098         149.299
0.529                  -0.327134        -134.914         -60.9004        -38.9893         -60.8992        -38.9848      -0.00995788         149.232
0.53                   -0.331917         -135.41         -60.9195         -41.109         -60.9183        -41.1042       -0.0100359         149.164
0.531                  -0.336849        -135.909         -60.9285        -43.2614         -60.9273        -43.2563       -0.0101151         149.096
0.532                  -0.341934        -136.412         -60.9271        -45.4421          -60.926        -45.4368       -0.0101955         149.028
0.533                  -0.347179        -136.919          -60.915        -47.6469         -60.9139        -47.6413       -0.0102771         148.961
0.534                  -0.352588        -137.429         -60.8921        -49.8709         -60.8909        -49.8651       -0.0103598         148.893
0.535                  -0.358169        -137.943         -60.8581        -52.1095          -60.857        -52.1034       -0.0104438         148.825
0.536                  -0.363927        -138.461         -60.8131        -54.3578          -60.812        -54.3515        -0.010529         148.756
0.537                   -0.36987        -138.983         -60.7572         -56.611         -60.7561        -56.6046       -0.0106154         148.688
0.538                  -0.376004        -139.509         -60.6904        -58.8645         -60.6894        -58.8579       -0.0107031          148.62
0.539                  -0.382336        -140.039          -60.613        -61.1137          -60.612         -61.107        -0.010792         148.551
0.54                   -0.388876        -140.573         -60.5252        -63.3544         -60.5242        -63.3476       -0.0108822         148.483
0.541                   -0.39563        -141.112         -60.4273        -65.5826         -60.4264        -65.5757       -0.0109737         148.414
0.542                  -0.402609        -141.654         -60.3198        -67.7945          -60.319        -67.7877       -0.0110665         148.345
0.543                  -0.409822        -142.202          -60.203        -69.9871         -60.2023        -69.9802       -0.0111606         148.276
0.544                  -0.417279        -142.754         -60.0775        -72.1572         -60.0768        -72.1503        -0.011256         148.207
0.545                   -0.42499         -143.31         -59.9438        -74.3025         -59.9431        -74.2957       -0.0113528         148.138
0.546                  -0.432967        -143.871         -59.8023        -76.4209         -59.8016        -76.4141       -0.0114509         148.069
0.547                  -0.441222        -144.437         -59.6535        -78.5107         -59.6529         -78.504       -0.0115504         147.999
0.548                  -0.449768        -145.009         -59.4981        -80.5706         -59.4975         -80.564       -0.0116512          147.93
0.549                  -0.458617        -145.585         -59.3366        -82.5997          -59.336        -82.5932       -0.0117535          147.86
0.55                   -0.467786        -146.166         -59.1693        -84.5975         -59.1688        -84.5912       -0.0118572         147.791
0.551                  -0.477288        -146.753          -58.997        -86.5637         -58.9965        -86.5576       -0.0119623         147.721
0.552                  -0.487141        -147.346           -58.82        -88.4985         -58.8195        -88.4924       -0.0120688         147.651
0.553                  -0.497361        -147.943         -58.6388         -90.402         -58.6384        -90.3962       -0.0121767         147.581
0.554                  -0.507967        -148.547         -58.4539        -92.2749         -58.4535        -92.2692       -0.0122862         147.511
0.555                  -0.518979        -149.157         -58.2656        -94.1179         -58.2653        -94.1125       -0.0123971         147.441
0.556                  -0.530417        -149.772         -58.0745         -95.932         -58.0741        -95.9267       -0.0125095          147.37
0.557                  -0.542303        -150.394         -57.8807        -97.7182         -57.8804        -97.7131       -0.0126234           147.3
0.558                  -0.554663        -151.022         -57.6847        -99.4777         -57.6844        -99.4728       -0.0127388         147.229
0.559                  -0.567519        -151.656         -57.4868        -101.212         -57.4865        -101.207       -0.0128558         147.158
0.56                   -0.580901        -152.297         -57.2872        -102.922         -57.2869        -102.917       -0.0129743         147.088
0.561                  -0.594835        -152.945         -57.0863        -104.609          -57.086        -104.605       -0.0130943         147.017
0.562                  -0.609354          -153.6         -56.8842        -106.276         -56.8839        -106.272        -0.013216         146.945
0.563                   -0.62449        -154.262         -56.6812        -107.922          -56.681        -107.918       -0.0133392         146.874
0.564                  -0.640277        -154.931         -56.4775        -109.551         -56.4773        -109.547        -0.013464         146.803
0.565                  -0.656754        -155.607         -56.2733        -111.163          -56.273        -111.159       -0.0135905         146.731
0.566                   -0.67396        -156.291         -56.0686         -112.76         -56.0684        -112.756       -0.0137186          146.66
0.567                  -0.691938        -156.983         -55.8638        -114.343         -55.8636         -114.34       -0.0138483         146.588
0.568                  -0.710734        -157.683         -55.6589        -115.914         -55.6586        -115.911       -0.0139797         146.516
0.569                  -0.730397        -158.391         -55.4539        -117.474         -55.4537        -117.472       -0.0141128         146.444
0.57                   -0.750979        -159.108         -55.2492        -119.026          -55.249        -119.023       -0.0142475         146.372
0.571                  -0.772536        -159.833         -55.0447        -120.569         -55.0444        -120.567        -0.014384           146.3
0.572                  -0.795129        -160.567         -54.8405        -122.107         -54.8403        -122.104       -0.0145222         146.227
0.573                  -0.818822        -161.309         -54.6367        -123.639         -54.6365        -123.637       -0.0146622         146.154
0.574                  -0.843684        -162.061         -54.4335        -125.168         -54.4332        -125.166       -0.0148039         146.082
0.575                  -0.869788        -162.822         -54.2308        -126.694         -54.2306        -126.692       -0.0149474         146.009
0.576                  -0.897215        -163.592         -54.0288        -128.219         -54.0285        -128.217       -0.0150926         145.936
0.577                  -0.926048        -164.373         -53.8274        -129.744         -53.8272        -129.743       -0.0152397         145.863
0.578                  -0.956379        -165.162         -53.6269         -131.27         -53.6267        -131.269       -0.0153886         145.789
0.579                  -0.988306        -165.962         -53.4272        -132.799          -53.427        -132.798       -0.0155394         145.716
0.58                    -1.02193        -166.772         -53.2284        -134.332         -53.2282        -134.331        -0.015692         145.642
0.581                   -1.05737        -167.592         -53.0306        -135.869         -53.0304        -135.868       -0.0158465         145.569
0.582                   -1.09474        -168.422         -52.8338        -137.412         -52.8336        -137.411       -0.0160028         145.495
0.583                   -1.13418        -169.263         -52.6381        -138.961         -52.6379         -138.96       -0.0161611          145.42
0.584                   -1.17581        -170.114         -52.4436        -140.518         -52.4434        -140.518       -0.0163214         145.346
0.585                   -1.21978        -170.975         -52.2502        -142.084           -52.25        -142.083       -0.0164836         145.272
0.586                   -1.26626        -171.847         -52.0582        -143.658          -52.058        -143.658       -0.0166477         145.197
0.587                   -1.31542        -172.729         -51.8675        -145.244         -51.8673        -145.243       -0.0168139         145.123
0.588                   -1.36742        -173.621         -51.6783         -146.84         -51.6781         -146.84       -0.0169821         145.048
0.589                   -1.42246        -174.523         -51.4906        -148.447         -51.4904        -148.447       -0.0171523         144.973
0.59                    -1.48075        -175.434         -51.3045        -150.068         -51.3043        -150.068       -0.0173246         144.897
0.591                   -1.54251        -176.355         -51.1201        -151.701         -51.1199        -151.701       -0.0174989         144.822
0.592                   -1.60795        -177.285         -50.9374        -153.348         -50.9372        -153.348       -0.0176754         144.746
0.593                   -1.67733        -178.222         -50.7566        -155.009         -50.7565        -155.009        -0.017854         144.671
0.594                    -1.7509        -179.167         -50.5778        -156.684         -50.5777        -156.685       -0.0180348         144.595
0.595                   -1.82892         179.881         -50.4011        -158.375         -50.4009        -158.375       -0.0182178         144.519
0.596                   -1.91169         178.924         -50.2265        -160.081         -50.2264        -160.081        -0.018403         144.442
0.597                   -1.99949         177.963         -50.0543        -161.802         -50.0541        -161.803       -0.0185904         144.366
0.598                   -2.09262         176.999         -49.8844         -163.54         -49.8842         -163.54       -0.0187802         144.289
0.599                    -2.1914         176.035          -49.717        -165.293         -49.7169        -165.293       -0.0189722         144.212
0.6                     -2.29615         175.072         -49.5523        -167.062         -49.5522        -167.063       -0.0191666         144.135
0.601                   -2.40719         174.112         -49.3903        -168.847         -49.3902        -168.848       -0.0193634         144.058
0.602                   -2.52483         173.159         -49.2312        -170.648         -49.2311        -170.648       -0.0195626         143.981
0.603                    -2.6494         172.216         -49.0751        -172.464          -49.075        -172.465       -0.0197643         143.903
0.604                    -2.7812         171.286         -48.9221        -174.295          -48.922        -174.296       -0.0199684         143.825
0.605                    -2.9205         170.373         -48.7723        -176.142         -48.7723        -176.142       -0.0201751         143.747
0.606                   -3.06755         169.481         -48.6259        -178.002         -48.6258        -178.003       -0.0203844         143.669
0.607                   -3.22257         168.617          -48.483        -179.877         -48.4829        -179.878       -0.0205963         143.591
0.608                    -3.3857         167.785         -48.3436         178.236         -48.3435         178.235       -0.0208109         143.512
0.609                   -3.55702         166.993         -48.2078         176.336         -48.2078         176.335       -0.0210282         143.433
0.61                    -3.73651         166.246         -48.0758         174.424         -48.0758         174.423       -0.0212483         143.354
0.611                   -3.92405         165.552         -47.9477         172.502         -47.9477         172.501       -0.0214712         143.275
0.612                   -4.11937          164.92         -47.8235          170.57         -47.8235          170.57        -0.021697         143.195
0.613                   -4.32202         164.357         -47.7033          168.63         -47.7033         168.629       -0.0219258         143.116
0.614                    -4.5314         163.873         -47.5871         166.683         -47.5871         166.682       -0.0221575         143.036
0.615                   -4.74663         163.477          -47.475         164.729          -47.475         164.728       -0.0223924         142.956
0.616                   -4.96661         163.178          -47.367          162.77          -47.367         162.769       -0.0226304         142.875
0.617                   -5.18996         162.984         -47.2631         160.807         -47.2631         160.807       -0.0228716         142.795
0.618                   -5.41499         162.903         -47.1633         158.843         -47.1634         158.842        -0.023116         142.714
0.619                    -5.6397         162.944         -47.0677         156.877         -47.0677         156.876       -0.0233639         142.633
0.62                    -5.86178          163.11         -46.9761         154.912         -46.9761         154.911       -0.0236151         142.551
0.621                   -6.07865         163.405         -46.8885         152.948         -46.8886         152.948       -0.0238699          142.47
0.622                   -6.28746          163.83         -46.8049         150.988          -46.805         150.987       -0.0241283         142.388
0.623                   -6.48524         164.382         -46.7252         149.032         -46.7253         149.032       -0.0243904         142.306
0.624                   -6.66894         165.055         -46.6493         147.082         -46.6493         147.082       -0.0246562         142.224
0.625                   -6.83559         165.837          -46.577         145.139         -46.5771         145.139       -0.0249259         142.141
0.626                   -6.98245         166.715         -46.5083         143.205         -46.5083         143.205       -0.0251996         142.058
0.627                   -7.10717         167.669          -46.443          141.28          -46.443          141.28       -0.0254774         141.975
0.628                   -7.20794         168.679         -46.3809         139.367          -46.381         139.367       -0.0257593         141.892
0.629                   -7.28358         169.721          -46.322         137.465         -46.3221         137.465       -0.0260455         141.808
