! TOUCHSTONE file generated by CST MICROWAVE STUDIO
! Date and time: Fri Dec 11 14:17:35 2020
! Project name: Scenario_1_Planar_Body_Tissue_Out_of_Line_v2.cst
! Parameters = {dy1=276.8; L_HA=400; Ltissue=700; MT=2.54; Rad_Dielectric=30; Rad_Lower=7.3; Rad_Upper=30; Wtissue=700; a_HA=580; a_WG=246; b_HA=500; b_WG=121; c_HA=0; c_WG=187; d_feed=85; dx1=520; h_feed=15; h_lower=18; h_upper=40; hfat=3; hgap=25; hmuscle=50; hskin=1.5}
! Header version: 2018
! Port assignment regex: !\s*Touchstone port\s*([0-9]+)\s*=\s*(CST MWS port|CST DS port)\s*([0-9]+|Zmin|Zmax)\s*\(\"(.*)\"\)(\s*mode\s*([0-9]+))?.*
! Touchstone port assignment:
! Touchstone port 1 = CST MWS port 1 ("")
! Touchstone port 2 = CST MWS port 2 ("")
# GHz S DB R 50
0.5                   -0.0961088        -121.957         -64.4592        -77.1414         -64.4558          -77.13      -0.00735333         151.155
0.501                 -0.0996259        -122.412         -64.2566         -78.191         -64.2533        -78.1806       -0.0074196          151.09
0.502                  -0.103383        -122.871         -64.0499        -79.2562         -64.0468        -79.2467      -0.00748668         151.025
0.503                  -0.107398        -123.333         -63.8391        -80.3376         -63.8362         -80.329       -0.0075546         150.959
0.504                  -0.111686        -123.799         -63.6242        -81.4363         -63.6215        -81.4285      -0.00762341         150.894
0.505                  -0.116267        -124.269         -63.4052        -82.5529         -63.4027        -82.5459      -0.00769313         150.828
0.506                  -0.121161        -124.742         -63.1819        -83.6885         -63.1796        -83.6822       -0.0077638         150.763
0.507                  -0.126391        -125.219         -62.9545        -84.8441         -62.9523        -84.8385      -0.00783545         150.697
0.508                   -0.13198          -125.7         -62.7227        -86.0208         -62.7207        -86.0157      -0.00790812         150.631
0.509                  -0.137954        -126.184         -62.4867        -87.2196         -62.4849        -87.2151      -0.00798186         150.565
0.51                   -0.144342        -126.673         -62.2465        -88.4417         -62.2448        -88.4378      -0.00805671         150.499
0.511                  -0.151173        -127.165         -62.0019        -89.6885         -62.0003         -89.685      -0.00813271         150.433
0.512                  -0.158481        -127.662          -61.753        -90.9613         -61.7515        -90.9582       -0.0082099         150.367
0.513                  -0.166301        -128.162         -61.4998        -92.2615         -61.4985        -92.2587      -0.00828834         150.301
0.514                  -0.174672        -128.667         -61.2422        -93.5905         -61.2411         -93.588      -0.00836806         150.235
0.515                  -0.183634        -129.176         -60.9805          -94.95         -60.9794        -94.9478      -0.00844914         150.168
0.516                  -0.193233        -129.689         -60.7145        -96.3417         -60.7135        -96.3396      -0.00853161         150.102
0.517                  -0.203517        -130.206         -60.4443        -97.7672         -60.4434        -97.7653      -0.00861553         150.035
0.518                  -0.214538        -130.727           -60.17        -99.2285         -60.1692        -99.2268      -0.00870096         149.969
0.519                  -0.226349        -131.252         -59.8916        -100.727          -59.891        -100.726      -0.00878795         149.902
0.52                   -0.239012        -131.781         -59.6094        -102.266         -59.6088        -102.265      -0.00887656         149.835
0.521                  -0.252588        -132.313         -59.3233        -103.847         -59.3228        -103.845      -0.00896686         149.768
0.522                  -0.267143        -132.849         -59.0335        -105.471         -59.0331         -105.47      -0.00905889         149.701
0.523                  -0.282749        -133.389         -58.7403        -107.142           -58.74        -107.141      -0.00915271         149.634
0.524                  -0.299477        -133.931         -58.4438        -108.862         -58.4435        -108.861      -0.00924839         149.567
0.525                  -0.317403        -134.476         -58.1443        -110.633         -58.1441        -110.632      -0.00934596           149.5
0.526                  -0.336605        -135.024          -57.842        -112.458         -57.8418        -112.456      -0.00944549         149.433
0.527                   -0.35716        -135.573         -57.5374        -114.339         -57.5372        -114.337        -0.009547         149.365
0.528                  -0.379147        -136.123         -57.2306        -116.278         -57.2305        -116.276      -0.00965054         149.298
0.529                   -0.40264        -136.674         -56.9223        -118.279         -56.9221        -118.277      -0.00975614          149.23
0.53                   -0.427709        -137.224         -56.6127        -120.344         -56.6126        -120.342      -0.00986381         149.163
0.531                  -0.454416        -137.773         -56.3026        -122.475         -56.3025        -122.473      -0.00997356         149.095
0.532                  -0.482812        -138.319         -55.9924        -124.674         -55.9923        -124.672       -0.0100854         149.027
0.533                  -0.512932        -138.862         -55.6829        -126.944         -55.6828        -126.942       -0.0101992         148.959
0.534                  -0.544792          -139.4         -55.3747        -129.286         -55.3746        -129.284       -0.0103151         148.891
0.535                  -0.578382        -139.931         -55.0687        -131.702         -55.0686          -131.7       -0.0104328         148.823
0.536                  -0.613657        -140.454         -54.7657        -134.193         -54.7656         -134.19       -0.0105524         148.755
0.537                  -0.650539        -140.967         -54.4666        -136.759         -54.4665        -136.756       -0.0106738         148.686
0.538                  -0.688902        -141.468         -54.1724          -139.4         -54.1723        -139.398       -0.0107967         148.618
0.539                  -0.728573        -141.956         -53.8841        -142.116         -53.8839        -142.114       -0.0109211         148.549
0.54                   -0.769323        -142.429         -53.6028        -144.905         -53.6026        -144.903       -0.0110467         148.481
0.541                  -0.810866        -142.885         -53.3294        -147.765         -53.3293        -147.763       -0.0111733         148.412
0.542                  -0.852859        -143.324         -53.0652        -150.693          -53.065        -150.691       -0.0113008         148.343
0.543                  -0.894906        -143.743         -52.8111        -153.684         -52.8109        -153.682       -0.0114289         148.275
0.544                  -0.936562        -144.142         -52.5681        -156.733         -52.5679        -156.732       -0.0115573         148.206
0.545                  -0.977347        -144.522         -52.3372        -159.834         -52.3369        -159.833       -0.0116859         148.137
0.546                   -1.01676        -144.882          -52.119        -162.981         -52.1188         -162.98       -0.0118143         148.067
0.547                    -1.0543        -145.224         -51.9145        -166.165         -51.9142        -166.164       -0.0119425         147.998
0.548                   -1.08947        -145.549         -51.7239        -169.378         -51.7237        -169.377       -0.0120701         147.929
0.549                   -1.12185        -145.859         -51.5479         -172.61         -51.5477         -172.61       -0.0121971          147.86
0.55                    -1.15104        -146.158         -51.3864        -175.854         -51.3862        -175.854       -0.0123232          147.79
0.551                   -1.17675        -146.449         -51.2396          -179.1         -51.2395        -179.099       -0.0124484          147.72
0.552                   -1.19878        -146.735         -51.1073         177.662         -51.1072         177.663       -0.0125727         147.651
0.553                   -1.21702        -147.019         -50.9891         174.441          -50.989         174.441        -0.012696         147.581
0.554                   -1.23147        -147.307         -50.8845         171.244         -50.8843         171.244       -0.0128183         147.511
0.555                   -1.24223          -147.6         -50.7927         168.079         -50.7926         168.079       -0.0129398         147.441
0.556                   -1.24948        -147.904         -50.7132         164.953         -50.7131         164.954       -0.0130605          147.37
0.557                   -1.25348        -148.219         -50.6448         161.872         -50.6448         161.873       -0.0131805           147.3
0.558                   -1.25455         -148.55         -50.5868         158.842         -50.5868         158.842          -0.0133          147.23
0.559                   -1.25304        -148.898         -50.5381         155.864         -50.5381         155.865       -0.0134192         147.159
0.56                    -1.24931        -149.265         -50.4977         152.944         -50.4977         152.945       -0.0135383         147.088
0.561                   -1.24375        -149.652         -50.4646         150.083         -50.4646         150.084       -0.0136574         147.017
0.562                   -1.23672        -150.059         -50.4378         147.283         -50.4378         147.283       -0.0137767         146.946
0.563                   -1.22858        -150.487         -50.4164         144.543         -50.4163         144.544       -0.0138965         146.875
0.564                   -1.21967        -150.936         -50.3993         141.865         -50.3993         141.866        -0.014017         146.804
0.565                   -1.21027        -151.405         -50.3859         139.247         -50.3859         139.248       -0.0141383         146.733
0.566                   -1.20067        -151.895         -50.3752         136.688         -50.3752         136.689       -0.0142607         146.661
0.567                    -1.1911        -152.404         -50.3666         134.187         -50.3666         134.188       -0.0143842         146.589
0.568                   -1.18177        -152.933         -50.3594         131.741         -50.3594         131.743       -0.0145091         146.517
0.569                   -1.17286        -153.479          -50.353          129.35          -50.353         129.351       -0.0146354         146.445
0.57                    -1.16452        -154.043         -50.3469          127.01         -50.3468         127.012       -0.0147634         146.373
0.571                   -1.15689        -154.624         -50.3405          124.72         -50.3405         124.721       -0.0148932         146.301
0.572                   -1.15006        -155.222         -50.3335         122.476         -50.3335         122.478       -0.0150248         146.229
0.573                   -1.14414        -155.834         -50.3255         120.277         -50.3255         120.279       -0.0151584         146.156
0.574                   -1.13918        -156.461         -50.3162          118.12         -50.3161         118.121        -0.015294         146.083
0.575                   -1.13526        -157.103         -50.3052         116.002         -50.3052         116.003       -0.0154318          146.01
0.576                   -1.13242        -157.757         -50.2925         113.921         -50.2924         113.922       -0.0155717         145.937
0.577                   -1.13071        -158.425         -50.2776         111.875         -50.2775         111.876       -0.0157139         145.864
0.578                   -1.13016        -159.106         -50.2606         109.861         -50.2605         109.862       -0.0158585         145.791
0.579                    -1.1308        -159.799         -50.2412         107.877          -50.241         107.878       -0.0160054         145.717
0.58                    -1.13265        -160.503         -50.2193          105.92         -50.2192         105.921       -0.0161547         145.644
0.581                   -1.13573        -161.219         -50.1949          103.99         -50.1947         103.991       -0.0163065          145.57
0.582                   -1.14007        -161.947         -50.1678         102.083         -50.1677         102.084       -0.0164608         145.496
0.583                    -1.1457        -162.685         -50.1381         100.199         -50.1379           100.2       -0.0166176         145.422
0.584                   -1.15261        -163.434         -50.1056         98.3343         -50.1055          98.335        -0.016777         145.348
0.585                   -1.16085        -164.194         -50.0704         96.4882         -50.0703         96.4888       -0.0169389         145.273
0.586                   -1.17043        -164.965         -50.0325         94.6588         -50.0324         94.6593       -0.0171035         145.198
0.587                   -1.18137        -165.746         -49.9918         92.8446         -49.9917          92.845       -0.0172707         145.124
0.588                    -1.1937        -166.538         -49.9484         91.0441         -49.9482         91.0445       -0.0174405         145.049
0.589                   -1.20745         -167.34         -49.9022         89.2559         -49.9021         89.2562        -0.017613         144.974
0.59                    -1.22264        -168.152         -49.8533         87.4787         -49.8532         87.4788       -0.0177881         144.898
0.591                   -1.23932        -168.975         -49.8018         85.7111         -49.8017         85.7112        -0.017966         144.823
0.592                   -1.25752        -169.808         -49.7476          83.952         -49.7475         83.9519       -0.0181466         144.747
0.593                   -1.27727        -170.652         -49.6908         82.2001         -49.6907            82.2       -0.0183299         144.672
0.594                   -1.29863        -171.506         -49.6315         80.4545         -49.6314         80.4543        -0.018516         144.596
0.595                   -1.32165        -172.371         -49.5696         78.7139         -49.5696         78.7137       -0.0187048         144.519
0.596                   -1.34637        -173.247         -49.5053         76.9775         -49.5053         76.9772       -0.0188964         144.443
0.597                   -1.37286        -174.133         -49.4386         75.2443         -49.4386         75.2439       -0.0190908         144.367
0.598                   -1.40117         -175.03         -49.3695         73.5133         -49.3695         73.5129        -0.019288          144.29
0.599                   -1.43137        -175.938         -49.2982         71.7837         -49.2982         71.7833        -0.019488         144.213
0.6                     -1.46354        -176.856         -49.2245         70.0546         -49.2246         70.0542       -0.0196908         144.136
0.601                   -1.49776        -177.786         -49.1487         68.3253         -49.1488         68.3248       -0.0198965         144.059
0.602                    -1.5341        -178.727         -49.0708         66.5948         -49.0709         66.5944       -0.0201051         143.981
0.603                   -1.57265        -179.678         -48.9909         64.8626          -48.991         64.8621       -0.0203166         143.904
0.604                   -1.61352         179.359         -48.9089         63.1278          -48.909         63.1274       -0.0205309         143.826
0.605                   -1.65679         178.385          -48.825         61.3899         -48.8251         61.3894       -0.0207482         143.748
0.606                   -1.70259           177.4         -48.7393          59.648         -48.7394         59.6476       -0.0209684         143.669
0.607                   -1.75103         176.403         -48.6517         57.9015         -48.6519         57.9012       -0.0211915         143.591
0.608                   -1.80222         175.396         -48.5625         56.1499         -48.5626         56.1496       -0.0214176         143.512
0.609                   -1.85631         174.378         -48.4716         54.3924         -48.4717         54.3922       -0.0216467         143.434
0.61                    -1.91342         173.348         -48.3791         52.6286         -48.3793         52.6284       -0.0218788         143.354
0.611                    -1.9737         172.308         -48.2851         50.8578         -48.2853         50.8577        -0.022114         143.275
0.612                    -2.0373         171.258         -48.1897         49.0795         -48.1899         49.0794       -0.0223522         143.196
0.613                    -2.1044         170.196          -48.093         47.2931         -48.0932         47.2931       -0.0225935         143.116
0.614                   -2.17515         169.125          -47.995         45.4981         -47.9952         45.4982       -0.0228379         143.036
0.615                   -2.24974         168.044         -47.8959          43.694         -47.8961         43.6942       -0.0230854         142.956
0.616                   -2.32835         166.954         -47.7957         41.8804         -47.7959         41.8806       -0.0233361         142.875
0.617                   -2.41119         165.855         -47.6945         40.0566         -47.6947          40.057         -0.02359         142.795
0.618                   -2.49845         164.748         -47.5924         38.2224         -47.5926         38.2228       -0.0238471         142.714
0.619                   -2.59036         163.633         -47.4895         36.3772         -47.4897         36.3777       -0.0241074         142.633
0.62                    -2.68714         162.511          -47.386         34.5207         -47.3862         34.5213       -0.0243711         142.552
0.621                   -2.78902         161.383         -47.2818         32.6525          -47.282         32.6531        -0.024638          142.47
0.622                   -2.89623         160.251         -47.1772         30.7722         -47.1774         30.7729       -0.0249084         142.388
0.623                   -3.00904         159.115         -47.0723         28.8795         -47.0724         28.8802       -0.0251822         142.306
0.624                   -3.12768         157.976         -46.9671         26.9741         -46.9672         26.9748       -0.0254594         142.224
0.625                   -3.25243         156.837         -46.8618         25.0557         -46.8619         25.0565       -0.0257401         142.141
0.626                   -3.38355         155.698         -46.7565         23.1241         -46.7566         23.1249       -0.0260244         142.059
0.627                    -3.5213         154.562         -46.6514         21.1792         -46.6515           21.18       -0.0263123         141.975
0.628                   -3.66597         153.431         -46.5466         19.2208         -46.5466         19.2216       -0.0266039         141.892
0.629                   -3.81781         152.307         -46.4421         17.2488         -46.4422         17.2495       -0.0268992         141.809
