! TOUCHSTONE file generated by CST MICROWAVE STUDIO
! Date and time: Sat Nov 14 20:03:22 2020
! Project name: Scenario_1_Planar_Body_Tissue_Out_of_Line.cst
! Parameters = {dy1=-276.8; L_HA=400; Ltissue=700; MT=2.54; Rad_Dielectric=30; Rad_Lower=7.3; Rad_Upper=30; Wtissue=700; a_HA=580; a_WG=246; b_HA=500; b_WG=121; c_HA=0; c_WG=187; d_feed=85; dx1=693; h_feed=15; h_lower=18; h_upper=40; hfat=3; hgap=25; hmuscle=50; hskin=1.5}
! Header version: 2018
! Port assignment regex: !\s*Touchstone port\s*([0-9]+)\s*=\s*(CST MWS port|CST DS port)\s*([0-9]+|Zmin|Zmax)\s*\(\"(.*)\"\)(\s*mode\s*([0-9]+))?.*
! Touchstone port assignment:
! Touchstone port 1 = CST MWS port 1 ("")
! Touchstone port 2 = CST MWS port 2 ("")
# GHz S DB R 50
0.5                    -0.177903        -121.668         -62.9784         174.725         -62.9787         174.727      -0.00775321         151.148
0.501                  -0.180544        -122.087         -62.7877          173.69         -62.7896         173.679      -0.00780433         151.083
0.502                  -0.183234        -122.509         -62.5923         172.645         -62.5958         172.622      -0.00785644         151.017
0.503                  -0.185977        -122.933         -62.3918         171.592         -62.3971         171.555      -0.00790955         150.952
0.504                  -0.188776        -123.361         -62.1861         170.529         -62.1932         170.478      -0.00796367         150.887
0.505                  -0.191635        -123.791         -61.9747         169.456         -61.9839          169.39      -0.00801881         150.821
0.506                   -0.19456        -124.224         -61.7573         168.373         -61.7688         168.291      -0.00807497         150.756
0.507                  -0.197554        -124.661         -61.5336         167.278         -61.5476         167.179      -0.00813216          150.69
0.508                  -0.200624          -125.1         -61.3032         166.171         -61.3198         166.054       -0.0081904         150.624
0.509                  -0.203773        -125.542         -61.0655         165.051         -61.0851         164.915      -0.00824969         150.558
0.51                   -0.207009        -125.988           -60.82         163.917         -60.8429         163.761      -0.00831004         150.492
0.511                  -0.210336        -126.436         -60.5662         162.767         -60.5926          162.59      -0.00837146         150.426
0.512                  -0.213761        -126.888         -60.3033           161.6         -60.3338           161.4      -0.00843396          150.36
0.513                   -0.21729        -127.344         -60.0305         160.413         -60.0655         160.189      -0.00849755         150.294
0.514                  -0.220931        -127.802         -59.7471         159.205         -59.7871         158.954      -0.00856223         150.228
0.515                  -0.224691        -128.265          -59.452         157.971         -59.4977         157.694      -0.00862802         150.162
0.516                  -0.228577         -128.73         -59.1441          156.71         -59.1962         156.403      -0.00869492         150.095
0.517                  -0.232598        -129.199         -58.8219         155.415         -58.8813         155.077      -0.00876295         150.029
0.518                  -0.236762        -129.672          -58.484         154.081         -58.5518          153.71      -0.00883212         149.962
0.519                   -0.24108        -130.149         -58.1286         152.701         -58.2061         152.295      -0.00890242         149.896
0.52                    -0.24556        -130.629         -57.7535         151.265         -57.8423         150.823      -0.00897389         149.829
0.521                  -0.250213        -131.114         -57.3563         149.762         -57.4583         149.281      -0.00904652         149.762
0.522                   -0.25505        -131.602          -56.934         148.174         -57.0516         147.656      -0.00912032         149.695
0.523                  -0.260084        -132.094         -56.4833         146.483         -56.6194         145.926      -0.00919531         149.628
0.524                  -0.265326        -132.591         -56.0001         144.658         -56.1583         144.065      -0.00927149         149.561
0.525                   -0.27079        -133.091         -55.4796         142.663         -55.6646         142.039      -0.00934888         149.494
0.526                   -0.27649        -133.596         -54.9164         140.444         -55.1339           139.8      -0.00942749         149.427
0.527                  -0.282441        -134.105         -54.3043         137.927         -54.5617         137.284      -0.00950733         149.359
0.528                   -0.28866        -134.619         -53.6369         135.008         -53.9436         134.399       -0.0095884         149.292
0.529                  -0.295163        -135.137         -52.9086         131.535          -53.276         131.022      -0.00967073         149.224
0.53                   -0.301969         -135.66         -52.1171          127.29         -52.5586         126.974      -0.00975432         149.157
0.531                  -0.309097        -136.187         -51.2695         121.957         -51.7985         122.015       -0.0098392         149.089
0.532                  -0.316569         -136.72         -50.3946          115.11         -51.0189         115.822      -0.00992536         149.021
0.533                  -0.324406        -137.257         -49.5667         106.238         -50.2736         108.024       -0.0100128         148.953
0.534                  -0.332633        -137.799         -48.9359         94.9762         -49.6663         98.3205       -0.0101016         148.885
0.535                  -0.341274        -138.346         -48.7254         81.6424         -49.3556         86.8008       -0.0101917         148.817
0.536                  -0.350359        -138.899         -49.1203          67.738         -49.5032         74.3191       -0.0102832         148.749
0.537                  -0.359914        -139.456         -50.1028         55.3851         -50.1649         62.4135       -0.0103759          148.68
0.538                  -0.369971        -140.019         -51.4643         45.9719         -51.2388         52.5125       -0.0104699         148.612
0.539                  -0.380564        -140.588         -52.9736         39.7324         -52.5428         45.2749       -0.0105654         148.543
0.54                   -0.391727        -141.162         -54.4725         36.2873         -53.9153         40.6719       -0.0106622         148.475
0.541                    -0.4035        -141.741         -55.8704          35.136          -55.247         38.3727       -0.0107605         148.406
0.542                  -0.415924        -142.326         -57.1142         35.8259         -56.4694          37.989       -0.0108602         148.337
0.543                  -0.429041        -142.917         -58.1682         37.9525         -57.5377         39.1471       -0.0109613         148.268
0.544                  -0.442898        -143.513         -59.0083         41.1221         -58.4211         41.4821       -0.0110638         148.199
0.545                  -0.457547        -144.116          -59.623         44.9326         -59.1009         44.6224       -0.0111678          148.13
0.546                  -0.473039        -144.724         -60.0169         48.9915          -59.573         48.1957       -0.0112733         148.061
0.547                  -0.489432        -145.338         -60.2103          52.957         -59.8483         51.8584       -0.0113802         147.991
0.548                  -0.506788        -145.958         -60.2352         56.5752         -59.9505         55.3318       -0.0114886         147.922
0.549                  -0.525171        -146.584         -60.1276          59.693         -59.9105         58.4238       -0.0115986         147.852
0.55                   -0.544651        -147.216          -59.922         62.2454         -59.7606          61.029         -0.01171         147.782
0.551                  -0.565301        -147.853         -59.6474         64.2299         -59.5301          63.111        -0.011823         147.713
0.552                    -0.5872        -148.497         -59.3265         65.6808         -59.2431         64.6795       -0.0119376         147.643
0.553                  -0.610431        -149.145         -58.9762         66.6492         -58.9181           65.77       -0.0120537         147.572
0.554                  -0.635082        -149.799         -58.6082         67.1911          -58.569         66.4293       -0.0121715         147.502
0.555                  -0.661247        -150.459         -58.2309         67.3598         -58.2054         66.7062       -0.0122908         147.432
0.556                  -0.689021        -151.123         -57.8499         67.2032         -57.8343         66.6467       -0.0124117         147.362
0.557                  -0.718508        -151.791         -57.4689         66.7628         -57.4604          66.292       -0.0125343         147.291
0.558                  -0.749814        -152.464         -57.0905         66.0739          -57.087         65.6779       -0.0126585          147.22
0.559                  -0.783048        -153.141         -56.7163         65.1659         -56.7162         64.8348       -0.0127844          147.15
0.56                   -0.818323         -153.82         -56.3476         64.0634         -56.3497         63.7883        -0.012912         147.079
0.561                  -0.855754        -154.502         -55.9849         62.7867         -55.9884         62.5598       -0.0130413         147.008
0.562                  -0.895457        -155.185         -55.6289         61.3531         -55.6331         61.1676       -0.0131723         146.936
0.563                  -0.937546        -155.869         -55.2798         59.7769         -55.2844         59.6266        -0.013305         146.865
0.564                  -0.982131        -156.552         -54.9381           58.07         -54.9426           57.95       -0.0134395         146.794
0.565                   -1.02932        -157.233         -54.6039          56.243         -54.6082         56.1486       -0.0135758         146.722
0.566                    -1.0792        -157.912         -54.2776         54.3047         -54.2814         54.2321       -0.0137138          146.65
0.567                   -1.13186        -158.585         -53.9593         52.2631         -53.9625         52.2088       -0.0138537         146.579
0.568                   -1.18737        -159.252         -53.6493         50.1252         -53.6519         50.0862       -0.0139953         146.507
0.569                   -1.24577        -159.911         -53.3479         47.8974         -53.3499         47.8713       -0.0141388         146.435
0.57                    -1.30706        -160.559         -53.0554         45.5859         -53.0567         45.5703       -0.0142842         146.362
0.571                   -1.37122        -161.194         -52.7721         43.1964         -52.7727         43.1893       -0.0144314          146.29
0.572                   -1.43818        -161.813         -52.4983         40.7345         -52.4982         40.7343       -0.0145805         146.218
0.573                   -1.50782        -162.414         -52.2342         38.2057         -52.2336         38.2109       -0.0147316         146.145
0.574                   -1.57995        -162.994         -51.9802         35.6157          -51.979          35.625       -0.0148845         146.072
0.575                   -1.65433        -163.551         -51.7366           32.97         -51.7349         32.9822       -0.0150393         145.999
0.576                   -1.73062        -164.081         -51.5036         30.2743         -51.5014         30.2886       -0.0151961         145.926
0.577                   -1.80841        -164.581         -51.2813         27.5344         -51.2788         27.5499       -0.0153549         145.853
0.578                    -1.8872        -165.051           -51.07         24.7562         -51.0672         24.7722       -0.0155156          145.78
0.579                   -1.96641        -165.486         -50.8698         21.9455         -50.8667         21.9616       -0.0156783         145.706
0.58                    -2.04537        -165.887         -50.6806         19.1084         -50.6773          19.124        -0.015843         145.632
0.581                   -2.12334        -166.251         -50.5025         16.2507         -50.4991         16.2656       -0.0160097         145.559
0.582                   -2.19951        -166.578         -50.3354         13.3783         -50.3319         13.3922       -0.0161784         145.485
0.583                   -2.27304         -166.87         -50.1791          10.497         -50.1755         10.5096       -0.0163491         145.411
0.584                   -2.34308        -167.127         -50.0333         7.61229         -50.0298         7.62357       -0.0165218         145.336
0.585                   -2.40878        -167.353         -49.8978         4.72944         -49.8943         4.73932       -0.0166965         145.262
0.586                   -2.46935         -167.55         -49.7721         1.85346         -49.7688         1.86194       -0.0168733         145.187
0.587                   -2.52407        -167.724          -49.656          -1.011         -49.6527        -1.00389        -0.017052         145.112
0.588                   -2.57236        -167.879         -49.5488        -3.85968         -49.5457        -3.85388       -0.0172327         145.038
0.589                   -2.61374        -168.023         -49.4501        -6.68873         -49.4472        -6.68415       -0.0174154         144.962
0.59                    -2.64792         -168.16         -49.3593        -9.49475         -49.3566        -9.49128       -0.0176001         144.887
0.591                   -2.67478          -168.3         -49.2759        -12.2748         -49.2735        -12.2723       -0.0177868         144.812
0.592                   -2.69438        -168.447         -49.1993        -15.0262          -49.197        -15.0246       -0.0179753         144.736
0.593                   -2.70692        -168.608         -49.1288        -17.7471         -49.1268        -17.7463       -0.0181658          144.66
0.594                   -2.71277        -168.791         -49.0639        -20.4357         -49.0622        -20.4355       -0.0183581         144.585
0.595                   -2.71245        -168.999          -49.004        -23.0908         -49.0025        -23.0911       -0.0185523         144.508
0.596                   -2.70655        -169.239         -48.9486        -25.7114         -48.9472        -25.7121       -0.0187484         144.432
0.597                   -2.69574        -169.513         -48.8969        -28.2971         -48.8958        -28.2981       -0.0189462         144.356
0.598                   -2.68074        -169.825         -48.8486        -30.8476         -48.8477        -30.8488       -0.0191457         144.279
0.599                   -2.66228        -170.177         -48.8031        -33.3631         -48.8024        -33.3644        -0.019347         144.202
0.6                      -2.6411         -170.57         -48.7599        -35.8437         -48.7593        -35.8451         -0.01955         144.125
0.601                    -2.6179        -171.006         -48.7185        -38.2901         -48.7181        -38.2914       -0.0197546         144.048
0.602                   -2.59335        -171.483         -48.6785         -40.703         -48.6783        -40.7042       -0.0199609         143.971
0.603                   -2.56805        -172.003         -48.6396        -43.0833         -48.6395        -43.0843       -0.0201688         143.893
0.604                   -2.54259        -172.563         -48.6013         -45.432         -48.6013        -45.4329       -0.0203784         143.815
0.605                   -2.51745        -173.164         -48.5633        -47.7502         -48.5634        -47.7509       -0.0205897         143.737
0.606                    -2.4931        -173.803         -48.5253        -50.0392         -48.5255        -50.0397       -0.0208027         143.659
0.607                   -2.46992         -174.48         -48.4869        -52.3003         -48.4873        -52.3006       -0.0210176         143.581
0.608                   -2.44825        -175.193          -48.448        -54.5349         -48.4485        -54.5349       -0.0212343         143.502
0.609                    -2.4284         -175.94         -48.4083        -56.7444         -48.4088        -56.7441        -0.021453         143.423
0.61                    -2.41062         -176.72         -48.3676        -58.9302         -48.3682        -58.9296       -0.0216738         143.344
0.611                   -2.39512        -177.532         -48.3257        -61.0937         -48.3263        -61.0929        -0.021897         143.265
0.612                    -2.3821        -178.373         -48.2824        -63.2365          -48.283        -63.2354       -0.0221227         143.185
0.613                   -2.37171        -179.243         -48.2376        -65.3599         -48.2382        -65.3586        -0.022351         143.105
0.614                   -2.36408          179.86         -48.1911        -67.4655         -48.1918         -67.464       -0.0225823         143.026
0.615                   -2.35936         178.936         -48.1429        -69.5548         -48.1435        -69.5531       -0.0228168         142.945
0.616                   -2.35763         177.987         -48.0928         -71.629         -48.0935        -71.6271       -0.0230546         142.865
0.617                     -2.359         177.014         -48.0407        -73.6897         -48.0414        -73.6877       -0.0232961         142.784
0.618                   -2.36357         176.017         -47.9867        -75.7383         -47.9874        -75.7361       -0.0235415         142.703
0.619                    -2.3714         174.998         -47.9306         -77.776         -47.9313        -77.7737        -0.023791         142.622
0.62                    -2.38261         173.957         -47.8724        -79.8044         -47.8731        -79.8019       -0.0240448         142.541
0.621                   -2.39725         172.894         -47.8121        -81.8246         -47.8127        -81.8221       -0.0243031         142.459
0.622                   -2.41543          171.81         -47.7496         -83.838         -47.7502        -83.8354       -0.0245661         142.377
0.623                   -2.43724         170.706          -47.685        -85.8459         -47.6856        -85.8432       -0.0248339         142.295
0.624                   -2.46276         169.582         -47.6183        -87.8494         -47.6189        -87.8468       -0.0251066         142.212
0.625                   -2.49211         168.438         -47.5494        -89.8499           -47.55        -89.8472       -0.0253843          142.13
0.626                   -2.52539         167.275         -47.4785        -91.8484          -47.479        -91.8457       -0.0256672         142.047
0.627                   -2.56272         166.093         -47.4055        -93.8461         -47.4059        -93.8435       -0.0259553         141.964
0.628                   -2.60422         164.892         -47.3304        -95.8442         -47.3309        -95.8416       -0.0262486          141.88
0.629                   -2.65004         163.673         -47.2534        -97.8437         -47.2538        -97.8411       -0.0265471         141.796
