! TOUCHSTONE file generated by CST MICROWAVE STUDIO
! Date and time: Mon Nov 30 09:13:18 2020
! Project name: Scenario_1_Planar_Body_Tissue_Out_of_Line_v2.cst
! Parameters = {dy1=311.4; L_HA=400; Ltissue=700; MT=2.54; Rad_Dielectric=30; Rad_Lower=7.3; Rad_Upper=30; Wtissue=700; a_HA=580; a_WG=246; b_HA=500; b_WG=121; c_HA=0; c_WG=187; d_feed=85; dx1=346; h_feed=15; h_lower=18; h_upper=40; hfat=3; hgap=25; hmuscle=50; hskin=1.5}
! Header version: 2018
! Port assignment regex: !\s*Touchstone port\s*([0-9]+)\s*=\s*(CST MWS port|CST DS port)\s*([0-9]+|Zmin|Zmax)\s*\(\"(.*)\"\)(\s*mode\s*([0-9]+))?.*
! Touchstone port assignment:
! Touchstone port 1 = CST MWS port 1 ("")
! Touchstone port 2 = CST MWS port 2 ("")
# GHz S DB R 50
0.5                    -0.227645        -121.751         -58.9172        -7.93313         -58.9174        -7.93185      -0.00801765         151.153
0.501                  -0.231335        -122.144         -58.8522        -10.4728         -58.8523        -10.4721      -0.00806425         151.088
0.502                  -0.235005        -122.539         -58.7877        -12.9934         -58.7878        -12.9933      -0.00811183         151.022
0.503                  -0.238659        -122.937         -58.7237        -15.4942         -58.7238        -15.4946      -0.00816042         150.957
0.504                    -0.2423        -123.338         -58.6603        -17.9744         -58.6603        -17.9753      -0.00821002         150.892
0.505                  -0.245931        -123.742         -58.5975        -20.4333         -58.5975        -20.4347      -0.00826064         150.826
0.506                  -0.249554        -124.149         -58.5352        -22.8703         -58.5353        -22.8721       -0.0083123         150.761
0.507                  -0.253172        -124.558         -58.4736         -25.285         -58.4736        -25.2871      -0.00836502         150.695
0.508                  -0.256789        -124.971         -58.4127        -27.6767         -58.4126        -27.6792       -0.0084188         150.629
0.509                  -0.260408        -125.386         -58.3523        -30.0452         -58.3522        -30.0479      -0.00847365         150.564
0.51                   -0.264033        -125.804         -58.2925          -32.39         -58.2924         -32.393      -0.00852958         150.498
0.511                  -0.267666        -126.225         -58.2333        -34.7108         -58.2333         -34.714      -0.00858662         150.432
0.512                  -0.271312        -126.649         -58.1747        -37.0075         -58.1746        -37.0109      -0.00864477         150.366
0.513                  -0.274973        -127.077         -58.1167        -39.2798         -58.1166        -39.2833      -0.00870404           150.3
0.514                  -0.278655        -127.507         -58.0592        -41.5277         -58.0591        -41.5313      -0.00876444         150.233
0.515                   -0.28236        -127.941         -58.0022        -43.7509         -58.0021        -43.7547      -0.00882599         150.167
0.516                  -0.286093        -128.378         -57.9457        -45.9496         -57.9456        -45.9534      -0.00888869         150.101
0.517                  -0.289858        -128.818         -57.8897        -48.1238         -57.8896        -48.1276      -0.00895257         150.034
0.518                   -0.29366        -129.262         -57.8341        -50.2735         -57.8339        -50.2773      -0.00901762         149.968
0.519                  -0.297503        -129.709         -57.7788        -52.3987         -57.7787        -52.4026      -0.00908387         149.901
0.52                   -0.301391        -130.159         -57.7239        -54.4998         -57.7238        -54.5036      -0.00915132         149.834
0.521                  -0.305331        -130.613         -57.6693        -56.5767         -57.6692        -56.5805      -0.00921998         149.768
0.522                  -0.309326        -131.071          -57.615        -58.6298         -57.6149        -58.6335      -0.00928987         149.701
0.523                  -0.313382        -131.532         -57.5609        -60.6593         -57.5608        -60.6629      -0.00936099         149.634
0.524                  -0.317505        -131.997          -57.507        -62.6655         -57.5068         -62.669      -0.00943336         149.567
0.525                    -0.3217        -132.465         -57.4532        -64.6486          -57.453         -64.652      -0.00950699         149.499
0.526                  -0.325974        -132.937         -57.3995         -66.609         -57.3993        -66.6122      -0.00958188         149.432
0.527                  -0.330332        -133.413         -57.3458        -68.5469         -57.3457        -68.5501      -0.00965805         149.365
0.528                  -0.334781        -133.894         -57.2922        -70.4629          -57.292        -70.4659      -0.00973551         149.297
0.529                  -0.339328        -134.378         -57.2385        -72.3571         -57.2383          -72.36      -0.00981427          149.23
0.53                    -0.34398        -134.866         -57.1847        -74.2301         -57.1846        -74.2328      -0.00989434         149.162
0.531                  -0.348745        -135.358         -57.1308        -76.0822         -57.1306        -76.0847      -0.00997572         149.094
0.532                   -0.35363        -135.854         -57.0767        -77.9139         -57.0766        -77.9162       -0.0100584         149.027
0.533                  -0.358643        -136.355         -57.0224        -79.7255         -57.0222        -79.7277       -0.0101425         148.959
0.534                  -0.363792         -136.86         -56.9678        -81.5175         -56.9677        -81.5195       -0.0102279         148.891
0.535                  -0.369088         -137.37         -56.9129        -83.2903         -56.9128        -83.2921       -0.0103146         148.823
0.536                  -0.374538        -137.884         -56.8576        -85.0444         -56.8575        -85.0461       -0.0104027         148.754
0.537                  -0.380153        -138.402          -56.802        -86.7802         -56.8018        -86.7817       -0.0104922         148.686
0.538                  -0.385943        -138.925         -56.7459        -88.4983         -56.7457        -88.4996       -0.0105831         148.618
0.539                  -0.391919        -139.453         -56.6893        -90.1989         -56.6892        -90.2001       -0.0106753         148.549
0.54                   -0.398092        -139.986         -56.6322        -91.8827         -56.6321        -91.8837        -0.010769         148.481
0.541                  -0.404474        -140.524         -56.5745        -93.5501         -56.5744        -93.5509        -0.010864         148.412
0.542                  -0.411077        -141.067         -56.5162        -95.2015         -56.5161        -95.2021       -0.0109605         148.343
0.543                  -0.417915        -141.615         -56.4572        -96.8374         -56.4571        -96.8379       -0.0110583         148.274
0.544                  -0.425001        -142.168         -56.3976        -98.4583         -56.3975        -98.4586       -0.0111576         148.205
0.545                  -0.432349        -142.726         -56.3372        -100.065         -56.3371        -100.065       -0.0112584         148.136
0.546                  -0.439976         -143.29         -56.2761        -101.657         -56.2759        -101.657       -0.0113605         148.067
0.547                  -0.447898         -143.86         -56.2141        -103.236          -56.214        -103.235       -0.0114641         147.997
0.548                  -0.456131        -144.435         -56.1513        -104.801         -56.1512        -104.801       -0.0115692         147.928
0.549                  -0.464693        -145.015         -56.0876        -106.354         -56.0874        -106.354       -0.0116757         147.858
0.55                   -0.473603        -145.602         -56.0229        -107.895         -56.0228        -107.894       -0.0117837         147.788
0.551                  -0.482882        -146.194         -55.9573        -109.424         -55.9572        -109.423       -0.0118932         147.719
0.552                   -0.49255        -146.793         -55.8907        -110.941         -55.8906         -110.94       -0.0120041         147.649
0.553                   -0.50263        -147.398          -55.823        -112.448         -55.8229        -112.447       -0.0121165         147.579
0.554                  -0.513145        -148.009         -55.7543        -113.945         -55.7541        -113.944       -0.0122304         147.509
0.555                  -0.524121        -148.626         -55.6844        -115.432         -55.6843         -115.43       -0.0123458         147.438
0.556                  -0.535584        -149.251         -55.6134        -116.909         -55.6133        -116.908       -0.0124627         147.368
0.557                  -0.547562        -149.881         -55.5412        -118.378          -55.541        -118.376       -0.0125811         147.297
0.558                  -0.560084        -150.519         -55.4677        -119.838         -55.4676        -119.836        -0.012701         147.227
0.559                  -0.573182        -151.164          -55.393         -121.29         -55.3929        -121.289       -0.0128224         147.156
0.56                    -0.58689        -151.815          -55.317        -122.735         -55.3169        -122.733       -0.0129453         147.085
0.561                  -0.601243        -152.474         -55.2397        -124.173         -55.2396        -124.171       -0.0130697         147.014
0.562                  -0.616277         -153.14          -55.161        -125.604         -55.1609        -125.603       -0.0131957         146.943
0.563                  -0.632034        -153.814         -55.0809         -127.03         -55.0808        -127.028       -0.0133232         146.872
0.564                  -0.648554        -154.495         -54.9994         -128.45         -54.9993        -128.448       -0.0134522           146.8
0.565                  -0.665883        -155.184         -54.9164        -129.865         -54.9163        -129.863       -0.0135828         146.729
0.566                  -0.684068        -155.881         -54.8319        -131.276         -54.8318        -131.274       -0.0137149         146.657
0.567                   -0.70316        -156.586         -54.7459        -132.683         -54.7458        -132.681       -0.0138486         146.585
0.568                  -0.723212        -157.299         -54.6583        -134.087         -54.6582        -134.085       -0.0139838         146.513
0.569                  -0.744281        -158.021         -54.5692        -135.488          -54.569        -135.486       -0.0141206         146.441
0.57                   -0.766427         -158.75         -54.4784        -136.887         -54.4783        -136.885        -0.014259         146.369
0.571                  -0.789715        -159.488          -54.386        -138.284         -54.3859        -138.282        -0.014399         146.297
0.572                  -0.814212        -160.235          -54.292        -139.681         -54.2918        -139.679       -0.0145405         146.224
0.573                   -0.83999        -160.991         -54.1962        -141.077         -54.1961        -141.075       -0.0146837         146.152
0.574                  -0.867127        -161.755         -54.0988        -142.473         -54.0986        -142.471       -0.0148284         146.079
0.575                  -0.895704        -162.528         -53.9996         -143.87         -53.9994        -143.868       -0.0149748         146.006
0.576                  -0.925807         -163.31         -53.8987        -145.269         -53.8985        -145.267       -0.0151228         145.933
0.577                  -0.957528        -164.101          -53.796         -146.67         -53.7959        -146.668       -0.0152724          145.86
0.578                  -0.990964        -164.901         -53.6916        -148.074         -53.6914        -148.072       -0.0154237         145.787
0.579                   -1.02622         -165.71         -53.5854        -149.482         -53.5853         -149.48       -0.0155767         145.713
0.58                     -1.0634        -166.527         -53.4774        -150.894         -53.4773        -150.892       -0.0157313          145.64
0.581                   -1.10262        -167.354         -53.3677        -152.311         -53.3676         -152.31       -0.0158877         145.566
0.582                   -1.14401        -168.189         -53.2562        -153.734         -53.2561        -153.733       -0.0160458         145.492
0.583                   -1.18769        -169.033          -53.143        -155.164         -53.1429        -155.163       -0.0162055         145.418
0.584                    -1.2338        -169.886          -53.028        -156.602         -53.0279        -156.601       -0.0163671         145.344
0.585                   -1.28248        -170.746         -52.9114        -158.048         -52.9113        -158.047       -0.0165304         145.269
0.586                   -1.33388        -171.615         -52.7931        -159.503          -52.793        -159.502       -0.0166955         145.195
0.587                   -1.38816        -172.491         -52.6731        -160.969          -52.673        -160.968       -0.0168625          145.12
0.588                   -1.44548        -173.374         -52.5516        -162.445         -52.5515        -162.444       -0.0170312         145.045
0.589                   -1.50602        -174.263         -52.4286        -163.934         -52.4285        -163.933       -0.0172019          144.97
0.59                    -1.56995        -175.159         -52.3041        -165.435          -52.304        -165.434       -0.0173745         144.895
0.591                   -1.63746        -176.059         -52.1782         -166.95         -52.1782        -166.949        -0.017549         144.819
0.592                   -1.70874        -176.964         -52.0511         -168.48          -52.051        -168.479       -0.0177254         144.744
0.593                   -1.78398        -177.872         -51.9228        -170.025         -51.9228        -170.024       -0.0179039         144.668
0.594                   -1.86339        -178.782         -51.7935        -171.587         -51.7934        -171.586       -0.0180844         144.592
0.595                   -1.94717        -179.693         -51.6632        -173.166         -51.6632        -173.165       -0.0182669         144.516
0.596                   -2.03552         179.397         -51.5322        -174.763         -51.5321        -174.763       -0.0184516          144.44
0.597                   -2.12864         178.489         -51.4005        -176.379         -51.4005        -176.379       -0.0186385         144.363
0.598                   -2.22673         177.585         -51.2685        -178.015         -51.2684        -178.015       -0.0188275         144.287
0.599                   -2.32999         176.688         -51.1361        -179.672         -51.1361        -179.671       -0.0190188          144.21
0.6                     -2.43859         175.799         -51.0038         178.651         -51.0038         178.651       -0.0192125         144.133
0.601                   -2.55271         174.922         -50.8716         176.952         -50.8716         176.952       -0.0194084         144.055
0.602                   -2.67248         174.059         -50.7399         175.231         -50.7399         175.232       -0.0196068         143.978
0.603                   -2.79803         173.214         -50.6088         173.488         -50.6088         173.488       -0.0198076           143.9
0.604                   -2.92944          172.39         -50.4787         171.723         -50.4787         171.723       -0.0200109         143.823
0.605                   -3.06676         171.591         -50.3498         169.935         -50.3498         169.935       -0.0202169         143.745
0.606                   -3.20999          170.82         -50.2224         168.125         -50.2225         168.125       -0.0204254         143.666
0.607                   -3.35907         170.083         -50.0968         166.293         -50.0969         166.293       -0.0206367         143.588
0.608                   -3.51386         169.384         -49.9733          164.44         -49.9734          164.44       -0.0208508         143.509
0.609                   -3.67416         168.728         -49.8522         162.566         -49.8523         162.566       -0.0210676          143.43
0.61                    -3.83966         168.119         -49.7339         160.672          -49.734         160.672       -0.0212874         143.351
0.611                   -4.00995         167.564         -49.6184          158.76         -49.6185         158.761       -0.0215102         143.272
0.612                   -4.18451         167.068         -49.5063         156.832         -49.5064         156.832       -0.0217361         143.192
0.613                   -4.36269         166.635         -49.3977         154.887         -49.3978         154.888       -0.0219651         143.113
0.614                   -4.54369         166.271         -49.2928          152.93         -49.2929          152.93       -0.0221973         143.033
0.615                   -4.72658         165.981         -49.1919         150.961          -49.192         150.961       -0.0224328         142.953
0.616                   -4.91028         165.769         -49.0951         148.982         -49.0952         148.983       -0.0226717         142.872
0.617                   -5.09355         165.638         -49.0027         146.997         -49.0028         146.997        -0.022914         142.791
0.618                   -5.27502         165.591         -48.9147         145.008         -48.9148         145.008         -0.02316         142.711
0.619                   -5.45318          165.63         -48.8311         143.016         -48.8313         143.017       -0.0234095         142.629
0.62                    -5.62643         165.754         -48.7521         141.026         -48.7522         141.027       -0.0236628         142.548
0.621                   -5.79309         165.963         -48.6777          139.04         -48.6778          139.04       -0.0239199         142.466
0.622                   -5.95144         166.253         -48.6076          137.06         -48.6077          137.06        -0.024181         142.384
0.623                   -6.09981         166.619          -48.542         135.089          -48.542         135.089        -0.024446         142.302
0.624                   -6.23658         167.055         -48.4805          133.13         -48.4806          133.13       -0.0247152          142.22
0.625                   -6.36026         167.551         -48.4231         131.184         -48.4231         131.185       -0.0249886         142.137
0.626                   -6.46959         168.097         -48.3694         129.256         -48.3695         129.256       -0.0252663         142.054
0.627                   -6.56354         168.681         -48.3193         127.345         -48.3194         127.346       -0.0255484         141.971
0.628                   -6.64139         169.291         -48.2725         125.455         -48.2726         125.456        -0.025835         141.888
0.629                   -6.70272         169.912         -48.2286         123.588         -48.2287         123.588       -0.0261263         141.804
