! TOUCHSTONE file generated by CST MICROWAVE STUDIO
! Date and time: Mon Nov 30 09:05:49 2020
! Project name: Scenario_1_Planar_Body_Tissue_Out_of_Line_v2.cst
! Parameters = {dy1=-311.4; L_HA=400; Ltissue=700; MT=2.54; Rad_Dielectric=30; Rad_Lower=7.3; Rad_Upper=30; Wtissue=700; a_HA=580; a_WG=246; b_HA=500; b_WG=121; c_HA=0; c_WG=187; d_feed=85; dx1=346; h_feed=15; h_lower=18; h_upper=40; hfat=3; hgap=25; hmuscle=50; hskin=1.5}
! Header version: 2018
! Port assignment regex: !\s*Touchstone port\s*([0-9]+)\s*=\s*(CST MWS port|CST DS port)\s*([0-9]+|Zmin|Zmax)\s*\(\"(.*)\"\)(\s*mode\s*([0-9]+))?.*
! Touchstone port assignment:
! Touchstone port 1 = CST MWS port 1 ("")
! Touchstone port 2 = CST MWS port 2 ("")
# GHz S DB R 50
0.5                    -0.226774        -121.748         -58.8587        -2.11846         -58.8587        -2.11749      -0.00811218          151.15
0.501                  -0.232475        -122.147          -58.726        -4.46268         -58.7262        -4.46176      -0.00814775         151.085
0.502                  -0.238062        -122.547         -58.5983        -6.81088         -58.5986        -6.80996      -0.00818492          151.02
0.503                  -0.243533        -122.948         -58.4756        -9.16105          -58.476        -9.16008      -0.00822367         150.955
0.504                  -0.248888        -123.352         -58.3579        -11.5111         -58.3585        -11.5101      -0.00826399          150.89
0.505                  -0.254127        -123.758         -58.2453        -13.8591          -58.246        -13.8579      -0.00830587         150.824
0.506                  -0.259252        -124.166         -58.1377        -16.2028         -58.1385        -16.2015      -0.00834931         150.759
0.507                  -0.264264        -124.576         -58.0351        -18.5403          -58.036        -18.5388      -0.00839428         150.693
0.508                  -0.269164        -124.988         -57.9374        -20.8696         -57.9383        -20.8679      -0.00844078         150.628
0.509                  -0.273956        -125.403         -57.8445        -23.1888         -57.8455        -23.1868      -0.00848881         150.562
0.51                   -0.278642         -125.82         -57.7563        -25.4959         -57.7574        -25.4937      -0.00853836         150.496
0.511                  -0.283226         -126.24         -57.6728        -27.7893         -57.6739        -27.7869      -0.00858942          150.43
0.512                  -0.287713        -126.663         -57.5936        -30.0671         -57.5947        -30.0645      -0.00864198         150.364
0.513                  -0.292108        -127.088         -57.5187         -32.328         -57.5199        -32.3252      -0.00869605         150.298
0.514                  -0.296415        -127.517         -57.4479        -34.5703          -57.449        -34.5673      -0.00875161         150.232
0.515                  -0.300641        -127.948         -57.3809        -36.7928         -57.3821        -36.7896      -0.00880866         150.166
0.516                  -0.304793        -128.382         -57.3176        -38.9943         -57.3187        -38.9909      -0.00886721         150.099
0.517                  -0.308877         -128.82         -57.2577        -41.1737         -57.2588        -41.1701      -0.00892723         150.033
0.518                    -0.3129         -129.26          -57.201          -43.33         -57.2021        -43.3263      -0.00898875         149.966
0.519                  -0.316872        -129.704         -57.1473        -45.4624         -57.1484        -45.4586      -0.00905174           149.9
0.52                     -0.3208        -130.152         -57.0964        -47.5702         -57.0974        -47.5663      -0.00911621         149.833
0.521                  -0.324693        -130.603         -57.0479        -49.6529         -57.0489        -49.6489      -0.00918215         149.766
0.522                  -0.328561        -131.058         -57.0017          -51.71         -57.0027         -51.706      -0.00924957         149.699
0.523                  -0.332414        -131.516         -56.9576        -53.7411         -56.9585        -53.7371      -0.00931847         149.632
0.524                  -0.336261        -131.978         -56.9152        -55.7462         -56.9161        -55.7421      -0.00938884         149.565
0.525                  -0.340112        -132.445         -56.8744         -57.725         -56.8753        -57.7209      -0.00946068         149.498
0.526                   -0.34398        -132.915          -56.835        -59.6775         -56.8358        -59.6735      -0.00953399          149.43
0.527                  -0.347875        -133.389         -56.7967        -61.6037         -56.7975        -61.5998      -0.00960878         149.363
0.528                  -0.351809        -133.867         -56.7594        -63.5039         -56.7601        -63.5001      -0.00968503         149.296
0.529                  -0.355794         -134.35         -56.7228        -65.3783         -56.7234        -65.3745      -0.00976277         149.228
0.53                   -0.359841        -134.836         -56.6867        -67.2271         -56.6873        -67.2234      -0.00984197          149.16
0.531                  -0.363964        -135.328          -56.651        -69.0506         -56.6515         -69.047      -0.00992265         149.093
0.532                  -0.368176        -135.823         -56.6154        -70.8493         -56.6159        -70.8458       -0.0100048         149.025
0.533                  -0.372489        -136.324         -56.5799        -72.6237         -56.5803        -72.6203       -0.0100884         148.957
0.534                  -0.376917        -136.828         -56.5442        -74.3741         -56.5446        -74.3709       -0.0101735         148.889
0.535                  -0.381473        -137.338         -56.5082        -76.1012         -56.5086        -76.0981       -0.0102601          148.82
0.536                  -0.386173        -137.852         -56.4717        -77.8055         -56.4721        -77.8025       -0.0103482         148.752
0.537                   -0.39103        -138.372         -56.4347        -79.4875          -56.435        -79.4847       -0.0104378         148.684
0.538                  -0.396059        -138.896          -56.397        -81.1479         -56.3972        -81.1453       -0.0105288         148.615
0.539                  -0.401276        -139.425         -56.3584        -82.7873         -56.3586        -82.7848       -0.0106213         148.547
0.54                   -0.406695        -139.959         -56.3188        -84.4063         -56.3191         -84.404       -0.0107153         148.478
0.541                  -0.412333        -140.499         -56.2783        -86.0056         -56.2784        -86.0034       -0.0108109         148.409
0.542                  -0.418206        -141.044         -56.2365        -87.5858         -56.2367        -87.5838       -0.0109079          148.34
0.543                   -0.42433        -141.594         -56.1935        -89.1476         -56.1937        -89.1458       -0.0110064         148.271
0.544                  -0.430724        -142.149         -56.1492        -90.6917         -56.1493          -90.69       -0.0111064         148.202
0.545                  -0.437404        -142.711         -56.1034        -92.2188         -56.1035        -92.2172       -0.0112079         148.133
0.546                   -0.44439        -143.277         -56.0561        -93.7294         -56.0562        -93.7279       -0.0113109         148.064
0.547                    -0.4517         -143.85         -56.0073        -95.2244         -56.0074         -95.223       -0.0114155         147.994
0.548                  -0.459353        -144.428         -55.9568        -96.7043         -55.9569         -96.703       -0.0115216         147.925
0.549                  -0.467371        -145.012         -55.9046        -98.1698         -55.9046        -98.1687       -0.0116291         147.855
0.55                   -0.475774        -145.602         -55.8507        -99.6217         -55.8507        -99.6207       -0.0117383         147.785
0.551                  -0.484585        -146.198         -55.7949        -101.061         -55.7949         -101.06       -0.0118489         147.716
0.552                  -0.493825        -146.801         -55.7372        -102.487         -55.7372        -102.486       -0.0119611         147.646
0.553                  -0.503519        -147.409         -55.6776        -103.902         -55.6776        -103.901       -0.0120748         147.576
0.554                  -0.513693        -148.024          -55.616        -105.306          -55.616        -105.305       -0.0121901         147.505
0.555                  -0.524371        -148.645         -55.5524        -106.699         -55.5524        -106.699        -0.012307         147.435
0.556                  -0.535582        -149.273         -55.4868        -108.083         -55.4868        -108.083       -0.0124254         147.364
0.557                  -0.547353        -149.908         -55.4191        -109.458          -55.419        -109.458       -0.0125453         147.294
0.558                  -0.559716        -150.549         -55.3492        -110.825         -55.3492        -110.824       -0.0126669         147.223
0.559                  -0.572702        -151.198         -55.2772        -112.184         -55.2771        -112.183         -0.01279         147.152
0.56                   -0.586343        -151.853          -55.203        -113.535         -55.2029        -113.535       -0.0129147         147.081
0.561                  -0.600676        -152.516         -55.1265        -114.881         -55.1265        -114.881        -0.013041          147.01
0.562                  -0.615737        -153.185         -55.0478        -116.221         -55.0478         -116.22       -0.0131689         146.939
0.563                  -0.631565        -153.862         -54.9669        -117.556         -54.9668        -117.555       -0.0132985         146.868
0.564                  -0.648203        -154.547         -54.8837        -118.886         -54.8836        -118.886       -0.0134296         146.796
0.565                  -0.665692        -155.239         -54.7981        -120.213         -54.7981        -120.213       -0.0135624         146.725
0.566                  -0.684081        -155.938         -54.7102        -121.537         -54.7102        -121.537       -0.0136968         146.653
0.567                  -0.703418        -156.646           -54.62        -122.859           -54.62        -122.858       -0.0138329         146.581
0.568                  -0.723755        -157.361         -54.5275        -124.179         -54.5274        -124.178       -0.0139706         146.509
0.569                  -0.745147        -158.085         -54.4326        -125.498         -54.4325        -125.498         -0.01411         146.437
0.57                   -0.767653        -158.816         -54.3353        -126.817         -54.3352        -126.817        -0.014251         146.365
0.571                  -0.791334        -159.556         -54.2356        -128.137         -54.2356        -128.137       -0.0143938         146.293
0.572                  -0.816258        -160.304         -54.1336        -129.458         -54.1336        -129.458       -0.0145382          146.22
0.573                  -0.842492         -161.06         -54.0292        -130.781         -54.0292        -130.781       -0.0146844         146.147
0.574                  -0.870113        -161.825         -53.9224        -132.107         -53.9224        -132.107       -0.0148323         146.075
0.575                  -0.899198        -162.598         -53.8133        -133.437         -53.8133        -133.436       -0.0149819         146.002
0.576                  -0.929831         -163.38         -53.7019        -134.771         -53.7019         -134.77       -0.0151333         145.929
0.577                    -0.9621        -164.171         -53.5881         -136.11         -53.5881        -136.109       -0.0152865         145.855
0.578                    -0.9961         -164.97          -53.472        -137.455          -53.472        -137.454       -0.0154414         145.782
0.579                   -1.03193        -165.777         -53.3537        -138.807         -53.3536        -138.806       -0.0155981         145.708
0.58                     -1.0697        -166.593         -53.2331        -140.167          -53.233        -140.166       -0.0157566         145.635
0.581                   -1.10951        -167.418         -53.1103        -141.535         -53.1102        -141.534        -0.015917         145.561
0.582                   -1.15149         -168.25         -52.9853        -142.913         -52.9853        -142.912       -0.0160792         145.487
0.583                   -1.19576        -169.091         -52.8582        -144.301         -52.8582        -144.299       -0.0162433         145.413
0.584                   -1.24245         -169.94         -52.7291          -145.7          -52.729        -145.698       -0.0164092         145.338
0.585                    -1.2917        -170.797         -52.5979         -147.11         -52.5979        -147.109        -0.016577         145.264
0.586                   -1.34365        -171.661         -52.4649        -148.534         -52.4648        -148.533       -0.0167468         145.189
0.587                   -1.39846        -172.532           -52.33        -149.972         -52.3299        -149.971       -0.0169185         145.115
0.588                    -1.4563         -173.41         -52.1934        -151.425         -52.1933        -151.423       -0.0170921          145.04
0.589                   -1.51731        -174.294         -52.0551        -152.893          -52.055        -152.891       -0.0172677         144.964
0.59                    -1.58169        -175.183         -51.9153        -154.377         -51.9152        -154.376       -0.0174453         144.889
0.591                    -1.6496        -176.077          -51.774        -155.879         -51.7739        -155.878        -0.017625         144.814
0.592                   -1.72124        -176.974         -51.6315        -157.399         -51.6314        -157.398       -0.0178066         144.738
0.593                   -1.79679        -177.875         -51.4879        -158.939         -51.4878        -158.937       -0.0179904         144.662
0.594                   -1.87645        -178.777         -51.3433        -160.498         -51.3432        -160.496       -0.0181763         144.586
0.595                   -1.96042         -179.68         -51.1979        -162.077         -51.1978        -162.076       -0.0183642          144.51
0.596                   -2.04889         179.419         -51.0518        -163.678         -51.0517        -163.677       -0.0185543         144.434
0.597                   -2.14206          178.52         -50.9054        -165.301         -50.9053          -165.3       -0.0187466         144.357
0.598                   -2.24012         177.626         -50.7588        -166.947         -50.7586        -166.945       -0.0189412         144.281
0.599                   -2.34326         176.739         -50.6121        -168.616          -50.612        -168.614       -0.0191379         144.204
0.6                     -2.45166         175.861         -50.4657        -170.308         -50.4656        -170.306       -0.0193369         144.127
0.601                   -2.56546         174.994         -50.3199        -172.023         -50.3197        -172.022       -0.0195383         144.049
0.602                   -2.68482         174.142         -50.1747        -173.763         -50.1746        -173.762       -0.0197419         143.972
0.603                   -2.80983         173.308         -50.0307        -175.526         -50.0305        -175.525        -0.019948         143.894
0.604                   -2.94059         172.495         -49.8879        -177.314         -49.8877        -177.313       -0.0201564         143.816
0.605                   -3.07714         171.707         -49.7467        -179.125         -49.7466        -179.124       -0.0203673         143.738
0.606                   -3.21945         170.948         -49.6074         179.041         -49.6072         179.042       -0.0205807          143.66
0.607                   -3.36746         170.223         -49.4702         177.184         -49.4701         177.185       -0.0207966         143.581
0.608                   -3.52103         169.536         -49.3355         175.305         -49.3354         175.306       -0.0210151         143.503
0.609                   -3.67994         168.891         -49.2036         173.406         -49.2034         173.407       -0.0212362         143.424
0.61                    -3.84388         168.295         -49.0746         171.487         -49.0745         171.488         -0.02146         143.345
0.611                   -4.01242         167.751          -48.949         169.549         -48.9489          169.55       -0.0216865         143.265
0.612                   -4.18503         167.265         -48.8268         167.595         -48.8267         167.596       -0.0219157         143.186
0.613                   -4.36105         166.843         -48.7085         165.625         -48.7084         165.626       -0.0221478         143.106
0.614                   -4.53968          166.49         -48.5941         163.643          -48.594         163.643       -0.0223827         143.026
0.615                   -4.71998         166.209         -48.4839         161.649         -48.4838          161.65       -0.0226206         142.946
0.616                   -4.90085         166.004          -48.378         159.646         -48.3779         159.647       -0.0228614         142.865
0.617                   -5.08106         165.881         -48.2765         157.636         -48.2764         157.637       -0.0231053         142.785
0.618                   -5.25924          165.84         -48.1796         155.623         -48.1795         155.624       -0.0233523         142.704
0.619                    -5.4339         165.882         -48.0872         153.607         -48.0872         153.608       -0.0236025         142.623
0.62                    -5.60345         166.009         -47.9995         151.592         -47.9994         151.593       -0.0238559         142.541
0.621                   -5.76623         166.217         -47.9163         149.581         -47.9163         149.582       -0.0241126          142.46
0.622                   -5.92057         166.504         -47.8377         147.575         -47.8377         147.576       -0.0243728         142.378
0.623                   -6.06483         166.865         -47.7635         145.577         -47.7635         145.578       -0.0246364         142.295
0.624                   -6.19745         167.291         -47.6936          143.59         -47.6936         143.591       -0.0249036         142.213
0.625                   -6.31703         167.775         -47.6278         141.616         -47.6278         141.617       -0.0251744          142.13
0.626                   -6.42235         168.306          -47.566         139.656          -47.566         139.657        -0.025449         142.047
0.627                   -6.51247         168.872         -47.5079         137.714         -47.5079         137.714       -0.0257274         141.964
0.628                   -6.58673          169.46         -47.4532          135.79         -47.4533          135.79       -0.0260098         141.881
0.629                    -6.6448         170.057         -47.4018         133.886         -47.4018         133.887       -0.0262962         141.797
