! TOUCHSTONE file generated by CST MICROWAVE STUDIO
! Date and time: Sat Nov 14 19:58:17 2020
! Project name: Scenario_1_Planar_Body_Tissue_Out_of_Line.cst
! Parameters = {dy1=311.4; L_HA=400; Ltissue=700; MT=2.54; Rad_Dielectric=30; Rad_Lower=7.3; Rad_Upper=30; Wtissue=700; a_HA=580; a_WG=246; b_HA=500; b_WG=121; c_HA=0; c_WG=187; d_feed=85; dx1=693; h_feed=15; h_lower=18; h_upper=40; hfat=3; hgap=25; hmuscle=50; hskin=1.5}
! Header version: 2018
! Port assignment regex: !\s*Touchstone port\s*([0-9]+)\s*=\s*(CST MWS port|CST DS port)\s*([0-9]+|Zmin|Zmax)\s*\(\"(.*)\"\)(\s*mode\s*([0-9]+))?.*
! Touchstone port assignment:
! Touchstone port 1 = CST MWS port 1 ("")
! Touchstone port 2 = CST MWS port 2 ("")
# GHz S DB R 50
0.5                    -0.174288        -121.703         -63.3324         165.339         -63.3317          165.34       -0.0077553         151.154
0.501                  -0.177157        -122.123         -63.3806         163.571         -63.3814         163.576      -0.00781134         151.088
0.502                  -0.180092        -122.546         -63.4225         161.752         -63.4247         161.759      -0.00786825         151.023
0.503                  -0.183097        -122.971         -63.4575         159.883         -63.4611         159.893      -0.00792603         150.958
0.504                  -0.186174          -123.4         -63.4848         157.967         -63.4898         157.977       -0.0079847         150.892
0.505                  -0.189329        -123.831         -63.5039         156.005         -63.5102         156.015      -0.00804425         150.827
0.506                  -0.192565        -124.264         -63.5142         154.002         -63.5218         154.011       -0.0081047         150.761
0.507                  -0.195886        -124.701         -63.5152         151.961         -63.5239         151.968      -0.00816607         150.696
0.508                  -0.199297        -125.141         -63.5064         149.886         -63.5162         149.889      -0.00822834          150.63
0.509                  -0.202803        -125.583         -63.4875         147.781         -63.4982         147.781      -0.00829155         150.564
0.51                   -0.206408        -126.029         -63.4581         145.651         -63.4696         145.647      -0.00835568         150.498
0.511                  -0.210119        -126.477          -63.418         143.501         -63.4301         143.492      -0.00842077         150.432
0.512                   -0.21394        -126.929          -63.367         141.337         -63.3796         141.323       -0.0084868         150.366
0.513                  -0.217878        -127.384         -63.3052         139.163          -63.318         139.144       -0.0085538           150.3
0.514                   -0.22194        -127.842         -63.2325         136.986         -63.2455         136.961      -0.00862177         150.234
0.515                  -0.226131        -128.304         -63.1493         134.809         -63.1623         134.779      -0.00869072         150.168
0.516                  -0.230459        -128.769         -63.0556         132.638         -63.0684         132.602      -0.00876066         150.101
0.517                  -0.234933        -129.237          -62.952         130.477         -62.9644         130.437       -0.0088316         150.035
0.518                  -0.239559        -129.709         -62.8387          128.33         -62.8507         128.286      -0.00890356         149.968
0.519                  -0.244347        -130.185         -62.7162         126.202         -62.7277         126.154      -0.00897654         149.901
0.52                   -0.249306        -130.664         -62.5851         124.095          -62.596         124.044      -0.00905056         149.835
0.521                  -0.254446        -131.147          -62.446         122.011         -62.4561         121.959      -0.00912562         149.768
0.522                  -0.259776        -131.634         -62.2995         119.953         -62.3088           119.9      -0.00920173         149.701
0.523                  -0.265309        -132.125          -62.146         117.923         -62.1546         117.869      -0.00927892         149.634
0.524                  -0.271055        -132.619         -61.9864         115.922         -61.9941         115.868      -0.00935718         149.567
0.525                  -0.277028        -133.118         -61.8211          113.95          -61.828         113.896      -0.00943653           149.5
0.526                  -0.283241        -133.621         -61.6508         112.007         -61.6568         111.955      -0.00951698         149.432
0.527                  -0.289708        -134.128          -61.476         110.092         -61.4812         110.043      -0.00959855         149.365
0.528                  -0.296445        -134.639         -61.2973         108.207         -61.3017          108.16      -0.00968125         149.298
0.529                  -0.303467        -135.154         -61.1152         106.348         -61.1189         106.304      -0.00976508          149.23
0.53                   -0.310793        -135.674         -60.9301         104.516         -60.9331         104.475      -0.00985007         149.162
0.531                  -0.318441        -136.199         -60.7426         102.708         -60.7449         102.672      -0.00993622         149.095
0.532                   -0.32643        -136.728         -60.5529         100.923         -60.5547         100.891       -0.0100235         149.027
0.533                  -0.334782        -137.262         -60.3615         99.1583         -60.3628         99.1308       -0.0101121         148.959
0.534                   -0.34352          -137.8         -60.1687         97.4129         -60.1695           97.39       -0.0102018         148.891
0.535                  -0.352668        -138.344         -59.9747         95.6842         -59.9751         95.6661       -0.0102927         148.823
0.536                  -0.362252        -138.892         -59.7799         93.9702           -59.78         93.9568       -0.0103849         148.754
0.537                    -0.3723        -139.446         -59.5845         92.2684         -59.5843         92.2598       -0.0104784         148.686
0.538                  -0.382841        -140.004         -59.3886         90.5768         -59.3881          90.573       -0.0105731         148.618
0.539                  -0.393909        -140.568         -59.1924          88.893         -59.1918         88.8938        -0.010669         148.549
0.54                   -0.405536        -141.137         -58.9961         87.2149         -58.9953         87.2202       -0.0107663          148.48
0.541                  -0.417759        -141.712         -58.7997         85.5401         -58.7989         85.5498       -0.0108649         148.412
0.542                  -0.430617        -142.291         -58.6034         83.8666         -58.6026         83.8803       -0.0109648         148.343
0.543                  -0.444153        -142.877         -58.4073         82.1921         -58.4065         82.2098        -0.011066         148.274
0.544                  -0.458411        -143.467         -58.2115         80.5145         -58.2106         80.5359       -0.0111686         148.205
0.545                  -0.473439        -144.064         -58.0159         78.8319         -58.0151         78.8568       -0.0112726         148.136
0.546                  -0.489287        -144.666         -57.8206         77.1422         -57.8199         77.1703        -0.011378         148.066
0.547                  -0.506011        -145.273         -57.6257         75.4436          -57.625         75.4745       -0.0114847         147.997
0.548                  -0.523668        -145.886         -57.4312          73.734         -57.4306         73.7675       -0.0115929         147.927
0.549                  -0.542321        -146.505         -57.2371         72.0118         -57.2366         72.0476       -0.0117026         147.858
0.55                   -0.562036        -147.129         -57.0434         70.2751         -57.0431         70.3131       -0.0118137         147.788
0.551                  -0.582881        -147.759         -56.8502         68.5224         -56.8499         68.5621       -0.0119263         147.718
0.552                  -0.604932        -148.394         -56.6574          66.752         -56.6573         66.7931       -0.0120404         147.648
0.553                  -0.628267        -149.034         -56.4651         64.9623         -56.4651         65.0047       -0.0121561         147.578
0.554                  -0.652968        -149.679         -56.2733         63.1519         -56.2734         63.1953       -0.0122732         147.508
0.555                  -0.679121        -150.329          -56.082         61.3195         -56.0823         61.3635        -0.012392         147.437
0.556                  -0.706818        -150.983         -55.8913         59.4636         -55.8917          59.508       -0.0125123         147.367
0.557                  -0.736152        -151.641         -55.7012          57.583         -55.7017         57.6275       -0.0126343         147.296
0.558                   -0.76722        -152.304         -55.5118         55.6765         -55.5123          55.721       -0.0127578         147.226
0.559                  -0.800123        -152.969         -55.3231          53.743         -55.3237         53.7873       -0.0128831         147.155
0.56                   -0.834961        -153.637         -55.1351         51.7816         -55.1357         51.8253         -0.01301         147.084
0.561                  -0.871837        -154.307          -54.948         49.7912         -54.9487         49.8342       -0.0131386         147.013
0.562                  -0.910851        -154.977         -54.7618         47.7711         -54.7625         47.8131       -0.0132689         146.942
0.563                  -0.952101        -155.648         -54.5766         45.7204         -54.5773         45.7614        -0.013401          146.87
0.564                   -0.99568        -156.318         -54.3926         43.6385         -54.3933         43.6783       -0.0135349         146.799
0.565                   -1.04167        -156.986         -54.2098          41.525         -54.2105         41.5633       -0.0136706         146.727
0.566                   -1.09015        -157.651         -54.0284         39.3793         -54.0292         39.4161       -0.0138081         146.656
0.567                   -1.14118         -158.31         -53.8486         37.2012         -53.8493         37.2363       -0.0139475         146.584
0.568                   -1.19479        -158.963         -53.6704         34.9905         -53.6711         35.0238       -0.0140888         146.512
0.569                     -1.251        -159.607         -53.4941         32.7472         -53.4948         32.7786        -0.014232          146.44
0.57                    -1.30978        -160.241         -53.3199         30.4713         -53.3205         30.5007       -0.0143772         146.367
0.571                    -1.3711        -160.862         -53.1479         28.1631         -53.1485         28.1905       -0.0145244         146.295
0.572                   -1.43485        -161.468         -52.9783         25.8231         -52.9788         25.8484       -0.0146736         146.222
0.573                   -1.50088        -162.057         -52.8113         23.4519         -52.8118          23.475       -0.0148248          146.15
0.574                   -1.56899        -162.626         -52.6472         21.0501         -52.6476          21.071       -0.0149782         146.077
0.575                   -1.63891        -163.173         -52.4861         18.6188         -52.4864         18.6375       -0.0151337         146.004
0.576                   -1.71031        -163.697         -52.3282          16.159         -52.3284         16.1755       -0.0152913         145.931
0.577                   -1.78279        -164.193         -52.1737          13.672         -52.1739         13.6863       -0.0154512         145.857
0.578                   -1.85586        -164.662         -52.0229         11.1593          -52.023         11.1714       -0.0156133         145.784
0.579                     -1.929        -165.101         -51.8758         8.62255         -51.8759          8.6325       -0.0157777          145.71
0.58                    -2.00159         -165.51         -51.7328         6.06345         -51.7328         6.07134       -0.0159444         145.637
0.581                   -2.07298        -165.888         -51.5938         3.48401         -51.5938         3.48989       -0.0161134         145.563
0.582                   -2.14247        -166.235         -51.4592        0.886301         -51.4591        0.890274       -0.0162848         145.489
0.583                   -2.20936        -166.552         -51.3289        -1.72745         -51.3288        -1.72529       -0.0164587         145.415
0.584                   -2.27293        -166.842         -51.2031         -4.3549          -51.203        -4.35445       -0.0166348          145.34
0.585                   -2.33252        -167.106         -51.0819        -6.99366         -51.0818        -6.99479       -0.0168134         145.266
0.586                   -2.38751        -167.349         -50.9652        -9.64122         -50.9651        -9.64381       -0.0169944         145.191
0.587                   -2.43736        -167.574         -50.8532         -12.295         -50.8531         -12.299       -0.0171776         145.116
0.588                   -2.48162        -167.787         -50.7457        -14.9526         -50.7457        -14.9577        -0.017363         145.041
0.589                   -2.51999        -167.992         -50.6429        -17.6113         -50.6428        -17.6174       -0.0175504         144.966
0.59                    -2.55229        -168.194         -50.5444        -20.2687         -50.5444        -20.2757       -0.0177396         144.891
0.591                   -2.57847          -168.4         -50.4504        -22.9222         -50.4504          -22.93       -0.0179304         144.815
0.592                   -2.59863        -168.616         -50.3606        -25.5696         -50.3607        -25.5779       -0.0181223          144.74
0.593                   -2.61298        -168.845         -50.2749        -28.2085          -50.275        -28.2172       -0.0183149         144.664
0.594                   -2.62187        -169.094         -50.1931        -30.8367         -50.1932        -30.8457       -0.0185077         144.588
0.595                   -2.62571        -169.366          -50.115        -33.4522         -50.1151        -33.4613       -0.0187002         144.512
0.596                   -2.62502        -169.665         -50.0404        -36.0532         -50.0405        -36.0623       -0.0188919         144.436
0.597                   -2.62034        -169.994          -49.969        -38.6379         -49.9692        -38.6468       -0.0190825         144.359
0.598                   -2.61226        -170.356         -49.9006        -41.2047         -49.9008        -41.2135       -0.0192718         144.282
0.599                   -2.60137        -170.752          -49.835        -43.7525         -49.8352        -43.7608       -0.0194602         144.206
0.6                     -2.58826        -171.184         -49.7717        -46.2799         -49.7719        -46.2877       -0.0196482         144.128
0.601                    -2.5735        -171.651         -49.7106        -48.7859         -49.7109        -48.7932       -0.0198368         144.051
0.602                   -2.55763        -172.155         -49.6515        -51.2699         -49.6517        -51.2766        -0.020027         143.974
0.603                   -2.54115        -172.696         -49.5939        -53.7312         -49.5941        -53.7371       -0.0202199         143.896
0.604                   -2.52454        -173.272         -49.5376        -56.1693         -49.5378        -56.1745       -0.0204166         143.818
0.605                   -2.50821        -173.882         -49.4824        -58.5839         -49.4826        -58.5883       -0.0206179          143.74
0.606                   -2.49253        -174.527         -49.4279        -60.9751         -49.4281        -60.9787       -0.0208242         143.661
0.607                   -2.47785        -175.205          -49.374        -63.3428         -49.3741        -63.3455       -0.0210357         143.583
0.608                   -2.46446        -175.915         -49.3203        -65.6873         -49.3204        -65.6891       -0.0212526         143.504
0.609                   -2.45262        -176.655         -49.2667        -68.0088         -49.2667        -68.0097       -0.0214748         143.425
0.61                    -2.44256        -177.425         -49.2128        -70.3078         -49.2128        -70.3078       -0.0217022         143.345
0.611                    -2.4345        -178.223         -49.1585         -72.585         -49.1584        -72.5841       -0.0219344         143.266
0.612                   -2.42859        -179.049         -49.1036        -74.8409         -49.1034        -74.8392       -0.0221714         143.186
0.613                   -2.42501        -179.901         -49.0478        -77.0764         -49.0476        -77.0739       -0.0224129         143.106
0.614                   -2.42388         179.222         -48.9911        -79.2924         -48.9908         -79.289       -0.0226588         143.026
0.615                   -2.42534          178.32         -48.9332        -81.4896         -48.9328        -81.4856        -0.022909         142.946
0.616                    -2.4295         177.395          -48.874        -83.6693         -48.8736        -83.6645       -0.0231633         142.865
0.617                   -2.43647         176.446         -48.8133        -85.8323         -48.8128        -85.8269       -0.0234217         142.784
0.618                   -2.44634         175.476         -48.7511        -87.9799         -48.7506        -87.9738       -0.0236841         142.703
0.619                   -2.45923         174.484         -48.6873        -90.1131         -48.6867        -90.1065       -0.0239505         142.622
0.62                    -2.47522         173.471         -48.6217        -92.2332          -48.621        -92.2261       -0.0242208          142.54
0.621                   -2.49441         172.437         -48.5543        -94.3414         -48.5535        -94.3339       -0.0244952         142.459
0.622                   -2.51691         171.384          -48.485        -96.4389         -48.4841         -96.431       -0.0247735         142.377
0.623                   -2.54281          170.31         -48.4137         -98.527         -48.4128        -98.5188       -0.0250557         142.294
0.624                   -2.57223         169.218         -48.3405        -100.607         -48.3396        -100.598       -0.0253421         142.212
0.625                   -2.60527         168.107         -48.2654         -102.68         -48.2644        -102.671       -0.0256325         142.129
0.626                   -2.64205         166.977         -48.1882        -104.747         -48.1872        -104.739       -0.0259271         142.046
0.627                   -2.68271         165.829         -48.1091        -106.811          -48.108        -106.802       -0.0262258         141.963
0.628                   -2.72737         164.663          -48.028        -108.871         -48.0268        -108.862       -0.0265288         141.879
0.629                   -2.77619         163.479          -47.945        -110.929         -47.9438         -110.92       -0.0268361         141.795
