! TOUCHSTONE file generated by CST MICROWAVE STUDIO
! Date and time: Mon Nov 30 08:41:58 2020
! Project name: Scenario_1_Planar_Body_Tissue_Out_of_Line.cst
! Parameters = {dy1=-311.4; L_HA=400; Ltissue=700; MT=2.54; Rad_Dielectric=30; Rad_Lower=7.3; Rad_Upper=30; Wtissue=700; a_HA=580; a_WG=246; b_HA=500; b_WG=121; c_HA=0; c_WG=187; d_feed=85; dx1=866; h_feed=15; h_lower=18; h_upper=40; hfat=3; hgap=25; hmuscle=50; hskin=1.5}
! Header version: 2018
! Port assignment regex: !\s*Touchstone port\s*([0-9]+)\s*=\s*(CST MWS port|CST DS port)\s*([0-9]+|Zmin|Zmax)\s*\(\"(.*)\"\)(\s*mode\s*([0-9]+))?.*
! Touchstone port assignment:
! Touchstone port 1 = CST MWS port 1 ("")
! Touchstone port 2 = CST MWS port 2 ("")
# GHz S DB R 50
0.5                    -0.126442        -122.083         -65.1827         83.4601         -65.1823         83.4655      -0.00752455         151.149
0.501                  -0.134608        -122.481          -65.194         82.9678         -65.1916         82.9703      -0.00759934         151.084
0.502                  -0.142756        -122.882          -65.206         82.4728         -65.2017         82.4723      -0.00767442         151.019
0.503                  -0.150887        -123.285          -65.219         81.9751         -65.2126         81.9717      -0.00774982         150.954
0.504                  -0.159002        -123.691         -65.2329         81.4749         -65.2244         81.4688      -0.00782555         150.888
0.505                  -0.167104        -124.098         -65.2479         80.9726          -65.237         80.9638      -0.00790162         150.823
0.506                  -0.175194        -124.507         -65.2639         80.4682         -65.2506         80.4568      -0.00797806         150.757
0.507                  -0.183273        -124.919         -65.2809         79.9622         -65.2652         79.9483      -0.00805487         150.692
0.508                  -0.191345        -125.333         -65.2992         79.4548         -65.2809         79.4386      -0.00813207         150.626
0.509                   -0.19941        -125.749         -65.3188         78.9464         -65.2977          78.928      -0.00820969          150.56
0.51                   -0.207472        -126.168         -65.3396         78.4373         -65.3157         78.4169      -0.00828772         150.495
0.511                  -0.215532        -126.589         -65.3619         77.9281          -65.335         77.9058       -0.0083662         150.429
0.512                  -0.223592        -127.012         -65.3857         77.4192         -65.3557         77.3952      -0.00844513         150.363
0.513                  -0.231655        -127.438         -65.4112         76.9112         -65.3778         76.8858      -0.00852453         150.297
0.514                  -0.239724        -127.866         -65.4383         76.4047         -65.4014         76.3781      -0.00860442          150.23
0.515                  -0.247801        -128.297         -65.4673         75.9005         -65.4268         75.8729      -0.00868482         150.164
0.516                  -0.255889         -128.73         -65.4983         75.3993         -65.4539         75.3711      -0.00876574         150.098
0.517                  -0.263991        -129.166         -65.5314         74.9021         -65.4829         74.8735      -0.00884719         150.031
0.518                   -0.27211        -129.605         -65.5667         74.4098         -65.5139         74.3812       -0.0089292         149.965
0.519                  -0.280249        -130.047         -65.6046         73.9236         -65.5472         73.8955      -0.00901178         149.898
0.52                   -0.288412        -130.491         -65.6451         73.4448         -65.5829         73.4175      -0.00909495         149.832
0.521                  -0.296603        -130.938         -65.6885         72.9749         -65.6212         72.9489      -0.00917873         149.765
0.522                  -0.304824        -131.388          -65.735         72.5155         -65.6623         72.4913      -0.00926313         149.698
0.523                  -0.313081        -131.841         -65.7849         72.0684         -65.7064         72.0466      -0.00934817         149.631
0.524                  -0.321377        -132.297         -65.8384         71.6357         -65.7538         71.6169      -0.00943388         149.564
0.525                  -0.329717        -132.756          -65.896         71.2199         -65.8048         71.2048      -0.00952026         149.497
0.526                  -0.338105        -133.219         -65.9579         70.8236         -65.8597          70.813      -0.00960734         149.429
0.527                  -0.346546        -133.684         -66.0247         70.4501         -65.9189         70.4447      -0.00969513         149.362
0.528                  -0.355045        -134.153         -66.0967         70.1027         -65.9829         70.1036      -0.00978365         149.295
0.529                  -0.363608        -134.625         -66.1744         69.7856          -66.052         69.7937      -0.00987293         149.227
0.53                   -0.372241          -135.1         -66.2586         69.5036         -66.1268         69.5199      -0.00996297          149.16
0.531                  -0.380948        -135.579         -66.3498         69.2619         -66.2078         69.2877       -0.0100538         149.092
0.532                  -0.389738        -136.061         -66.4488         69.0671         -66.2958         69.1035       -0.0101455         149.024
0.533                  -0.398615        -136.547         -66.5564         68.9263         -66.3915         68.9748       -0.0102379         148.956
0.534                  -0.407588        -137.037         -66.6736         68.8484         -66.4958         68.9102       -0.0103313         148.888
0.535                  -0.416664         -137.53         -66.8016         68.8433         -66.6095         68.9199       -0.0104254          148.82
0.536                   -0.42585        -138.027         -66.9415         68.9232         -66.7337         69.0161       -0.0105205         148.752
0.537                  -0.435155        -138.528         -67.0948         69.1024         -66.8697          69.213       -0.0106165         148.684
0.538                  -0.444587        -139.033         -67.2632         69.3982         -67.0189         69.5277       -0.0107134         148.615
0.539                  -0.454156        -139.542         -67.4484         69.8315         -67.1827         69.9808       -0.0108113         148.547
0.54                   -0.463872        -140.055         -67.6525         70.4279         -67.3627         70.5972       -0.0109101         148.478
0.541                  -0.473744        -140.572         -67.8778         71.2188          -67.561         71.4075         -0.01101         148.409
0.542                  -0.483784        -141.093         -68.1268         72.2432         -67.7793         72.4489       -0.0111108          148.34
0.543                  -0.494002        -141.619         -68.4021         73.5502         -68.0196          73.768       -0.0112127         148.271
0.544                  -0.504413        -142.149         -68.7064         75.2019         -68.2837         75.4227       -0.0113156         148.202
0.545                  -0.515027        -142.684         -69.0417         77.2774         -68.5729         77.4858       -0.0114196         148.133
0.546                   -0.52586        -143.224         -69.4095         79.8784         -68.8874         80.0485       -0.0115247         148.064
0.547                  -0.536925        -143.768         -69.8087         83.1348         -69.2251         83.2253        -0.011631         147.995
0.548                  -0.548237        -144.317          -70.234         87.2117         -69.5804         87.1576       -0.0117383         147.925
0.549                  -0.559814        -144.871         -70.6722         92.3113         -69.9408         92.0135       -0.0118469         147.855
0.55                   -0.571672         -145.43         -71.0968          98.664         -70.2833          97.979       -0.0119566         147.786
0.551                  -0.583829        -145.994         -71.4606         106.489         -70.5692         105.227       -0.0120676         147.716
0.552                  -0.596306        -146.563         -71.6905         115.901         -70.7415         113.854       -0.0121798         147.646
0.553                  -0.609122        -147.138         -71.6942         126.766         -70.7283         123.776       -0.0122932         147.576
0.554                    -0.6223        -147.718         -71.3886         138.579         -70.4615         134.647        -0.012408         147.506
0.555                  -0.635863        -148.304         -70.7429         150.541         -69.9058         145.877        -0.012524         147.435
0.556                  -0.649835        -148.895         -69.7993         161.866         -69.0789         156.822       -0.0126414         147.365
0.557                  -0.664243        -149.492         -68.6494         172.079          -68.044         167.002       -0.0127602         147.294
0.558                  -0.679114        -150.095         -67.3913        -178.935         -66.8818         176.211       -0.0128803         147.224
0.559                  -0.694479        -150.704          -66.103        -171.055         -65.6657        -175.536       -0.0130019         147.153
0.56                   -0.710369        -151.319         -64.8376        -164.073         -64.4518         -168.11       -0.0131248         147.082
0.561                  -0.726817         -151.94         -63.6283        -157.784         -63.2789        -161.352       -0.0132493         147.011
0.562                  -0.743859        -152.567         -62.4956        -152.024          -62.173        -155.123       -0.0133752          146.94
0.563                  -0.761532        -153.201         -61.4517         -146.68         -61.1508        -149.325       -0.0135027         146.868
0.564                  -0.779878        -153.841         -60.5034        -141.685         -60.2226          -143.9       -0.0136317         146.797
0.565                  -0.798938        -154.488         -59.6536        -137.009         -59.3931        -138.828       -0.0137622         146.725
0.566                  -0.818758        -155.141         -58.9015        -132.653         -58.6628        -134.115       -0.0138944         146.654
0.567                  -0.839387        -155.801         -58.2435        -128.633          -58.028        -129.781       -0.0140281         146.582
0.568                  -0.860875        -156.468          -57.673        -124.973          -57.482        -125.853       -0.0141635          146.51
0.569                  -0.883278        -157.142         -57.1817        -121.695         -57.0155        -122.354       -0.0143006         146.438
0.57                   -0.906652        -157.822         -56.7598        -118.817          -56.618        -119.297       -0.0144394         146.366
0.571                   -0.93106         -158.51         -56.3973        -116.345         -56.2786        -116.685         -0.01458         146.293
0.572                  -0.956566        -159.205         -56.0841        -114.278         -55.9869        -114.511       -0.0147222         146.221
0.573                   -0.98324        -159.906          -55.811        -112.606         -55.7331         -112.76       -0.0148663         146.148
0.574                   -1.01115        -160.615         -55.5698        -111.312          -55.509         -111.41       -0.0150122         146.075
0.575                   -1.04038         -161.33         -55.3533        -110.377         -55.3075        -110.435       -0.0151599         146.002
0.576                   -1.07101        -162.052         -55.1557        -109.776         -55.1226        -109.808       -0.0153095         145.929
0.577                   -1.10313        -162.781         -54.9721        -109.486         -54.9497        -109.502        -0.015461         145.856
0.578                   -1.13681        -163.517         -54.7984        -109.484          -54.785         -109.49       -0.0156145         145.782
0.579                   -1.17217        -164.259         -54.6317        -109.744         -54.6257        -109.746       -0.0157698         145.709
0.58                    -1.20929        -165.007         -54.4695        -110.247         -54.4695        -110.248       -0.0159272         145.635
0.581                   -1.24828        -165.761           -54.31        -110.972         -54.3148        -110.974       -0.0160866         145.561
0.582                   -1.28925        -166.521         -54.1518          -111.9         -54.1605        -111.904        -0.016248         145.487
0.583                   -1.33231        -167.286          -53.994        -113.015         -54.0056        -113.022       -0.0164116         145.413
0.584                   -1.37757        -168.055         -53.8358        -114.301         -53.8497        -114.311       -0.0165772         145.339
0.585                   -1.42515        -168.829          -53.677        -115.745         -53.6925        -115.758       -0.0167449         145.264
0.586                   -1.47516        -169.607         -53.5172        -117.333         -53.5339        -117.349       -0.0169148          145.19
0.587                   -1.52774        -170.387         -53.3565        -119.055         -53.3739        -119.073       -0.0170869         145.115
0.588                   -1.58299        -171.168         -53.1949          -120.9         -53.2127         -120.92       -0.0172612          145.04
0.589                   -1.64104        -171.951         -53.0326        -122.858         -53.0505         -122.88       -0.0174378         144.965
0.59                      -1.702        -172.734           -52.87        -124.922         -52.8877        -124.945       -0.0176166         144.889
0.591                   -1.76598        -173.515         -52.7073        -127.082         -52.7247        -127.105       -0.0177977         144.814
0.592                   -1.83308        -174.294         -52.5449        -129.331         -52.5618        -129.355       -0.0179812         144.738
0.593                   -1.90338        -175.068         -52.3833        -131.663         -52.3996        -131.686        -0.018167         144.662
0.594                   -1.97696        -175.836         -52.2229        -134.069         -52.2385        -134.092       -0.0183552         144.586
0.595                   -2.05388        -176.596         -52.0641        -136.545         -52.0789        -136.567       -0.0185458          144.51
0.596                   -2.13415        -177.345         -51.9075        -139.083         -51.9214        -139.104       -0.0187389         144.433
0.597                   -2.21779        -178.083         -51.7533        -141.678         -51.7664        -141.697       -0.0189344         144.357
0.598                   -2.30475        -178.806         -51.6021        -144.324         -51.6144        -144.342       -0.0191325          144.28
0.599                   -2.39496        -179.512         -51.4543        -147.014         -51.4656        -147.031        -0.019333         144.203
0.6                      -2.4883         179.801         -51.3102        -149.745         -51.3206         -149.76       -0.0195361         144.126
0.601                    -2.5846         179.138         -51.1701        -152.509         -51.1797        -152.523       -0.0197418         144.049
0.602                   -2.68361         178.499         -51.0343        -155.302         -51.0431        -155.315       -0.0199501         143.971
0.603                   -2.78503         177.888         -50.9031        -158.119         -50.9111         -158.13        -0.020161         143.893
0.604                    -2.8885         177.307         -50.7767        -160.955         -50.7839        -160.964       -0.0203746         143.816
0.605                   -2.99357          176.76         -50.6551        -163.804         -50.6616        -163.812       -0.0205909         143.737
0.606                   -3.09972         176.248         -50.5385        -166.662         -50.5443        -166.669       -0.0208099         143.659
0.607                   -3.20636         175.772          -50.427        -169.525         -50.4321        -169.531       -0.0210317         143.581
0.608                   -3.31282         175.336         -50.3204        -172.388         -50.3248        -172.393       -0.0212562         143.502
0.609                   -3.41838         174.939         -50.2187        -175.248         -50.2226        -175.252       -0.0214835         143.423
0.61                    -3.52225         174.581         -50.1218          -178.1         -50.1252        -178.104       -0.0217137         143.344
0.611                   -3.62362         174.263         -50.0296         179.058         -50.0325         179.055       -0.0219468         143.264
0.612                   -3.72166         173.983         -49.9418         176.231         -49.9443         176.228       -0.0221828         143.185
0.613                   -3.81553         173.738         -49.8583         173.419         -49.8604         173.417       -0.0224217         143.105
0.614                   -3.90443         173.527         -49.7788         170.627         -49.7805         170.626       -0.0226636         143.025
0.615                   -3.98761         173.344          -49.703         167.856         -49.7044         167.855       -0.0229085         142.945
0.616                    -4.0644         173.185         -49.6306         165.108         -49.6317         165.107       -0.0231565         142.864
0.617                   -4.13424         173.044         -49.5614         162.384         -49.5622         162.383       -0.0234076         142.784
0.618                   -4.19667         172.916          -49.495         159.686         -49.4956         159.686       -0.0236619         142.703
0.619                   -4.25141         172.794         -49.4311         157.015         -49.4315         157.014       -0.0239194         142.621
0.62                    -4.29831         172.672         -49.3693         154.371         -49.3696         154.371       -0.0241801          142.54
0.621                   -4.33736         172.541         -49.3095         151.755         -49.3097         151.754       -0.0244442         142.458
0.622                   -4.36873         172.396         -49.2512         149.166         -49.2513         149.166       -0.0247117         142.376
0.623                    -4.3927         172.231         -49.1943         146.606         -49.1942         146.606       -0.0249826         142.294
0.624                   -4.40972         172.039         -49.1382         144.073         -49.1381         144.073       -0.0252571         142.212
0.625                   -4.42031         171.814          -49.083         141.567         -49.0828         141.567       -0.0255352         142.129
0.626                   -4.42509         171.553         -49.0281         139.088         -49.0279         139.088        -0.025817         142.046
0.627                   -4.42475         171.252         -48.9735         136.635         -48.9733         136.635       -0.0261026         141.963
0.628                   -4.42001         170.906         -48.9188         134.207         -48.9186         134.207       -0.0263921         141.879
0.629                   -4.41163         170.513         -48.8639         131.803         -48.8637         131.803       -0.0266855         141.796
