! TOUCHSTONE file generated by CST MICROWAVE STUDIO
! Date and time: Tue Nov 17 07:09:59 2020
! Project name: Scenario_1_Planar_Body_Tissue_Out_of_Line.cst
! Header version: 2018
! Port assignment regex: !\s*Touchstone port\s*([0-9]+)\s*=\s*(CST MWS port|CST DS port)\s*([0-9]+|Zmin|Zmax)\s*\(\"(.*)\"\)(\s*mode\s*([0-9]+))?.*
! Touchstone port assignment:
! Touchstone port 1 = CST MWS port 1 ("")
! Touchstone port 2 = CST MWS port 2 ("")
# GHz S DB R 50
0.5                     -0.14511        -121.712         -65.8521        -31.1222         -65.8508        -31.1236      -0.00761555         151.151
0.501                  -0.147915        -122.145         -65.7414        -33.0654           -65.74        -33.0672      -0.00767932         151.086
0.502                  -0.150838        -122.581         -65.6283        -35.0216          -65.627        -35.0237      -0.00774375         151.021
0.503                  -0.153888         -123.02          -65.513        -36.9904         -65.5117        -36.9928      -0.00780885         150.956
0.504                  -0.157072        -123.462         -65.3955        -38.9714         -65.3942        -38.9742      -0.00787465          150.89
0.505                  -0.160398        -123.907         -65.2757        -40.9642         -65.2745        -40.9673      -0.00794114         150.825
0.506                  -0.163874        -124.356         -65.1537        -42.9685         -65.1525        -42.9719      -0.00800833         150.759
0.507                  -0.167512        -124.808         -65.0296        -44.9838         -65.0284        -44.9875      -0.00807625         150.693
0.508                   -0.17132        -125.263         -64.9032        -47.0097         -64.9021        -47.0137      -0.00814489         150.628
0.509                  -0.175311        -125.721         -64.7747        -49.0458         -64.7736        -49.0501      -0.00821426         150.562
0.51                   -0.179494        -126.183          -64.644        -51.0916          -64.643        -51.0961      -0.00828439         150.496
0.511                  -0.183884        -126.649         -64.5111        -53.1467         -64.5102        -53.1514      -0.00835528          150.43
0.512                  -0.188493        -127.118         -64.3761        -55.2106         -64.3752        -55.2155      -0.00842694         150.364
0.513                  -0.193337        -127.591          -64.239        -57.2828         -64.2381         -57.288      -0.00849939         150.298
0.514                   -0.19843        -128.067         -64.0996        -59.3631         -64.0988        -59.3683      -0.00857265         150.232
0.515                  -0.203789        -128.547          -63.958        -61.4509         -63.9573        -61.4563      -0.00864672         150.165
0.516                  -0.209432        -129.031         -63.8143        -63.5459         -63.8136        -63.5513      -0.00872162         150.099
0.517                  -0.215378        -129.519         -63.6682        -65.6477         -63.6676        -65.6532      -0.00879736         150.032
0.518                  -0.221649        -130.011         -63.5199        -67.7561         -63.5193        -67.7615      -0.00887398         149.966
0.519                  -0.228266        -130.507         -63.3692        -69.8707         -63.3687        -69.8761      -0.00895147         149.899
0.52                   -0.235252        -131.007         -63.2161        -71.9914         -63.2157        -71.9967      -0.00902987         149.833
0.521                  -0.242634         -131.51         -63.0605        -74.1181         -63.0602        -74.1232      -0.00910918         149.766
0.522                   -0.25044        -132.019         -62.9023        -76.2507         -62.9021        -76.2555      -0.00918944         149.699
0.523                  -0.258697        -132.531         -62.7415        -78.3893         -62.7414        -78.3938      -0.00927067         149.632
0.524                  -0.267439        -133.047          -62.578        -80.5341         -62.5779        -80.5383      -0.00935288         149.565
0.525                  -0.276698        -133.568         -62.4116        -82.6854         -62.4116        -82.6892      -0.00943611         149.498
0.526                  -0.286511        -134.093         -62.2423        -84.8437         -62.2423        -84.8471      -0.00952038          149.43
0.527                  -0.296917        -134.622         -62.0699        -87.0096         -62.0699        -87.0126      -0.00960572         149.363
0.528                  -0.307956        -135.155         -61.8943         -89.184         -61.8944        -89.1864      -0.00969216         149.296
0.529                  -0.319672        -135.692         -61.7154        -91.3678         -61.7156        -91.3696      -0.00977974         149.228
0.53                   -0.332111        -136.234         -61.5332        -93.5623         -61.5333        -93.5635      -0.00986848          149.16
0.531                  -0.345322        -136.779         -61.3474        -95.7687         -61.3476        -95.7693      -0.00995843         149.093
0.532                  -0.359357        -137.329         -61.1581        -97.9889         -61.1582        -97.9889       -0.0100496         149.025
0.533                  -0.374268        -137.882         -60.9651        -100.225         -60.9652        -100.224       -0.0101421         148.957
0.534                  -0.390113        -138.438         -60.7684        -102.478         -60.7685        -102.477       -0.0102359         148.889
0.535                  -0.406948        -138.998          -60.568        -104.751         -60.5681        -104.749       -0.0103311         148.821
0.536                  -0.424833        -139.561         -60.3639        -107.047         -60.3639        -107.045       -0.0104277         148.752
0.537                  -0.443826        -140.126         -60.1561        -109.368         -60.1561        -109.365       -0.0105257         148.684
0.538                  -0.463988        -140.694         -59.9448        -111.717         -59.9447        -111.714       -0.0106253         148.616
0.539                  -0.485375        -141.263         -59.7301        -114.098           -59.73        -114.094       -0.0107264         148.547
0.54                   -0.508043        -141.834         -59.5123        -116.512          -59.512        -116.508       -0.0108291         148.479
0.541                  -0.532042        -142.405         -59.2915        -118.965         -59.2911         -118.96       -0.0109335          148.41
0.542                  -0.557415        -142.975         -59.0682        -121.458         -59.0677        -121.453       -0.0110395         148.341
0.543                  -0.584198        -143.545         -58.8428        -123.995         -58.8422         -123.99       -0.0111472         148.272
0.544                  -0.612413        -144.113         -58.6157        -126.579          -58.615        -126.574       -0.0112567         148.203
0.545                  -0.642067        -144.678         -58.3877        -129.213         -58.3869        -129.208       -0.0113679         148.134
0.546                  -0.673149        -145.239         -58.1592          -131.9         -58.1583        -131.895       -0.0114808         148.065
0.547                  -0.705624        -145.794         -57.9311        -134.642         -57.9301        -134.637       -0.0115955         147.995
0.548                  -0.739432        -146.344         -57.7042        -137.439         -57.7031        -137.435       -0.0117118         147.926
0.549                  -0.774481        -146.885         -57.4793        -140.294         -57.4781        -140.291       -0.0118298         147.856
0.55                   -0.810647        -147.418         -57.2574        -143.207         -57.2562        -143.204       -0.0119494         147.786
0.551                  -0.847766         -147.94         -57.0395        -146.178         -57.0382        -146.175       -0.0120705         147.717
0.552                  -0.885639        -148.452         -56.8264        -149.204         -56.8251        -149.203       -0.0121929         147.647
0.553                  -0.924026        -148.951         -56.6194        -152.285          -56.618        -152.284       -0.0123167         147.577
0.554                  -0.962649        -149.437         -56.4192        -155.418         -56.4178        -155.417       -0.0124417         147.507
0.555                    -1.0012        -149.909         -56.2268        -158.597         -56.2255        -158.597       -0.0125677         147.436
0.556                   -1.03934        -150.368         -56.0431        -161.819         -56.0418        -161.819       -0.0126946         147.366
0.557                   -1.07671        -150.814         -55.8688        -165.078         -55.8676        -165.079       -0.0128224         147.296
0.558                   -1.11294        -151.246         -55.7046        -168.367         -55.7035        -168.368       -0.0129509         147.225
0.559                    -1.1477        -151.666          -55.551        -171.679         -55.5499        -171.681       -0.0130801         147.154
0.56                    -1.18062        -152.076         -55.4084        -175.008         -55.4074         -175.01       -0.0132099         147.083
0.561                   -1.21142        -152.478         -55.2769        -178.345          -55.276        -178.347       -0.0133402         147.012
0.562                   -1.23984        -152.873         -55.1566         178.318         -55.1558         178.315        -0.013471         146.941
0.563                   -1.26568        -153.264         -55.0473         174.987         -55.0466         174.984       -0.0136024          146.87
0.564                   -1.28881        -153.654         -54.9489         171.671         -54.9482         171.668       -0.0137344         146.799
0.565                   -1.30918        -154.046         -54.8607         168.375         -54.8602         168.373       -0.0138671         146.727
0.566                   -1.32679        -154.442         -54.7824         165.108         -54.7819         165.105       -0.0140004         146.656
0.567                   -1.34173        -154.846         -54.7133         161.873         -54.7128         161.871       -0.0141345         146.584
0.568                   -1.35415        -155.259         -54.6525         158.676         -54.6521         158.674       -0.0142695         146.512
0.569                   -1.36424        -155.685         -54.5994         155.521         -54.5991          155.52       -0.0144054          146.44
0.57                    -1.37224        -156.125         -54.5531         152.412         -54.5528          152.41       -0.0145424         146.368
0.571                   -1.37844         -156.58         -54.5128          149.35         -54.5125         149.349       -0.0146806         146.296
0.572                   -1.38311        -157.053         -54.4775         146.337         -54.4773         146.337         -0.01482         146.223
0.573                   -1.38657        -157.544         -54.4465         143.375         -54.4463         143.375       -0.0149607         146.151
0.574                   -1.38912        -158.054          -54.419         140.464         -54.4187         140.464       -0.0151028         146.078
0.575                   -1.39105        -158.583         -54.3941         137.604         -54.3939         137.604       -0.0152465         146.005
0.576                   -1.39265        -159.132         -54.3712         134.793          -54.371         134.794       -0.0153918         145.932
0.577                   -1.39418        -159.701         -54.3496         132.032         -54.3493         132.033       -0.0155387         145.859
0.578                    -1.3959        -160.289         -54.3286         129.318         -54.3283         129.319       -0.0156873         145.786
0.579                   -1.39804        -160.896         -54.3076         126.651         -54.3073         126.652       -0.0158378         145.712
0.58                    -1.40079        -161.522         -54.2862         124.027         -54.2859         124.028       -0.0159901         145.639
0.581                   -1.40437        -162.166         -54.2638         121.445         -54.2635         121.447       -0.0161443         145.565
0.582                   -1.40892        -162.828         -54.2401         118.904         -54.2398         118.905       -0.0163005         145.491
0.583                   -1.41461        -163.507         -54.2146         116.399         -54.2143         116.401       -0.0164587         145.417
0.584                   -1.42158        -164.203          -54.187          113.93         -54.1867         113.931        -0.016619         145.343
0.585                   -1.42996        -164.915         -54.1571         111.493         -54.1567         111.495       -0.0167814         145.268
0.586                   -1.43986        -165.643         -54.1245         109.087         -54.1242         109.088        -0.016946         145.194
0.587                   -1.45138        -166.385         -54.0891         106.709         -54.0888          106.71       -0.0171127         145.119
0.588                   -1.46463        -167.142         -54.0507         104.356         -54.0503         104.357       -0.0172818         145.044
0.589                   -1.47971        -167.913          -54.009         102.026         -54.0087         102.028       -0.0174531         144.969
0.59                     -1.4967        -168.698         -53.9641         99.7176         -53.9637         99.7188       -0.0176267         144.893
0.591                   -1.51569        -169.496         -53.9157         97.4275         -53.9153         97.4288       -0.0178027         144.818
0.592                   -1.53677        -170.307         -53.8638          95.154         -53.8634         95.1551       -0.0179812         144.742
0.593                   -1.56003         -171.13         -53.8083         92.8947          -53.808         92.8957        -0.018162         144.667
0.594                   -1.58556        -171.964         -53.7492         90.6475         -53.7489         90.6485       -0.0183454         144.591
0.595                   -1.61345        -172.811         -53.6865         88.4105         -53.6862         88.4115       -0.0185313         144.515
0.596                   -1.64379        -173.668         -53.6202         86.1816         -53.6199         86.1825       -0.0187198         144.438
0.597                   -1.67669        -174.536         -53.5502         83.9588         -53.5499         83.9597       -0.0189108         144.362
0.598                   -1.71223        -175.415         -53.4766         81.7403         -53.4763         81.7411       -0.0191046         144.285
0.599                   -1.75054        -176.303         -53.3995         79.5242         -53.3992          79.525        -0.019301         144.208
0.6                     -1.79171          -177.2         -53.3188         77.3087         -53.3186         77.3095       -0.0195001         144.131
0.601                   -1.83587        -178.107         -53.2348         75.0921         -53.2345         75.0928       -0.0197021         144.054
0.602                   -1.88313        -179.021         -53.1473         72.8726         -53.1471         72.8733       -0.0199068         143.976
0.603                   -1.93362        -179.943         -53.0567         70.6486         -53.0565         70.6493       -0.0201144         143.899
0.604                   -1.98747         179.128         -52.9629         68.4186         -52.9627         68.4193       -0.0203249         143.821
0.605                   -2.04481         178.193          -52.866         66.1809         -52.8659         66.1816       -0.0205383         143.743
0.606                   -2.10577         177.252         -52.7663         63.9342         -52.7662         63.9349       -0.0207547         143.665
0.607                   -2.17051         176.307         -52.6639          61.677         -52.6638         61.6778       -0.0209742         143.586
0.608                   -2.23915         175.359         -52.5589          59.408         -52.5588         59.4088       -0.0211967         143.507
0.609                   -2.31184         174.409         -52.4515         57.1259         -52.4514         57.1267       -0.0214223         143.429
0.61                    -2.38873         173.458         -52.3419         54.8295         -52.3418         54.8303       -0.0216511         143.349
0.611                   -2.46995         172.508         -52.2303         52.5178         -52.2303         52.5186       -0.0218831          143.27
0.612                   -2.55563         171.559          -52.117         50.1897         -52.1169         50.1905       -0.0221183         143.191
0.613                    -2.6459         170.615         -52.0021         47.8442         -52.0021         47.8451       -0.0223569         143.111
0.614                   -2.74087         169.677         -51.8859         45.4807         -51.8859         45.4816       -0.0225987         143.031
0.615                   -2.84065         168.747         -51.7686         43.0984         -51.7686         43.0993        -0.022844         142.951
0.616                   -2.94531         167.827         -51.6506         40.6968         -51.6506         40.6978       -0.0230927          142.87
0.617                   -3.05492          166.92          -51.532         38.2755          -51.532         38.2764       -0.0233449          142.79
0.618                    -3.1695         166.029         -51.4131         35.8341         -51.4131         35.8351       -0.0236006         142.709
0.619                   -3.28904         165.156         -51.2943         33.3726         -51.2943         33.3736       -0.0238599         142.628
0.62                    -3.41351         164.306         -51.1758         30.8911         -51.1758         30.8921       -0.0241228         142.546
0.621                   -3.54281          163.48         -51.0579         28.3897         -51.0579         28.3907       -0.0243893         142.465
0.622                   -3.67679         162.682         -50.9409         25.8688         -50.9409         25.8698       -0.0246596         142.383
0.623                   -3.81524         161.917          -50.825          23.329         -50.8251           23.33       -0.0249337         142.301
0.624                   -3.95787         161.187         -50.7106          20.771         -50.7106          20.772       -0.0252115         142.218
0.625                   -4.10434         160.496         -50.5979         18.1957         -50.5979         18.1967       -0.0254933         142.136
0.626                   -4.25418         159.849         -50.4871         15.6043         -50.4872         15.6053       -0.0257789         142.053
0.627                   -4.40688         159.247         -50.3786          12.998         -50.3786         12.9989       -0.0260685          141.97
0.628                   -4.56179         158.696         -50.2724         10.3782         -50.2724         10.3791       -0.0263621         141.886
0.629                    -4.7182         158.197         -50.1688         7.74648         -50.1689         7.74731       -0.0266598         141.803
0.63                    -4.87527         157.754          -50.068         5.10449         -50.0681         5.10528       -0.0269616         141.719
0.631                   -5.03209         157.368         -49.9701         2.45406         -49.9702         2.45479       -0.0272676         141.635
