! TOUCHSTONE file generated by CST MICROWAVE STUDIO
! Date and time: Mon Nov 30 09:13:29 2020
! Project name: Scenario_1_Planar_Body_Tissue_Out_of_Line_v2.cst
! Parameters = {dy1=328.7; L_HA=400; Ltissue=700; MT=2.54; Rad_Dielectric=30; Rad_Lower=7.3; Rad_Upper=30; Wtissue=700; a_HA=580; a_WG=246; b_HA=500; b_WG=121; c_HA=0; c_WG=187; d_feed=85; dx1=346; h_feed=15; h_lower=18; h_upper=40; hfat=3; hgap=25; hmuscle=50; hskin=1.5}
! Header version: 2018
! Port assignment regex: !\s*Touchstone port\s*([0-9]+)\s*=\s*(CST MWS port|CST DS port)\s*([0-9]+|Zmin|Zmax)\s*\(\"(.*)\"\)(\s*mode\s*([0-9]+))?.*
! Touchstone port assignment:
! Touchstone port 1 = CST MWS port 1 ("")
! Touchstone port 2 = CST MWS port 2 ("")
# GHz S DB R 50
0.5                    -0.222457        -121.735         -59.3661        -13.0053         -59.3664        -13.0061      -0.00794118         151.152
0.501                  -0.226048        -122.136         -59.2805        -15.0421         -59.2788         -15.044      -0.00799342         151.087
0.502                  -0.229644         -122.54         -59.1958        -17.0901         -59.1921        -17.0934      -0.00804647         151.022
0.503                  -0.233247        -122.946         -59.1119        -19.1486         -59.1063        -19.1535      -0.00810035         150.957
0.504                  -0.236859        -123.355          -59.029        -21.2168         -59.0216        -21.2235      -0.00815506         150.891
0.505                  -0.240481        -123.766          -58.947         -23.294          -58.938        -23.3027      -0.00821061         150.826
0.506                  -0.244117        -124.179         -58.8661        -25.3793         -58.8555        -25.3902      -0.00826702          150.76
0.507                  -0.247768        -124.596         -58.7864        -27.4719         -58.7742        -27.4851      -0.00832431         150.694
0.508                  -0.251437        -125.014         -58.7077        -29.5709         -58.6942        -29.5866      -0.00838247         150.629
0.509                  -0.255126        -125.436         -58.6303        -31.6755         -58.6155        -31.6938      -0.00844154         150.563
0.51                   -0.258838         -125.86         -58.5541        -33.7847         -58.5382        -33.8057      -0.00850151         150.497
0.511                  -0.262575        -126.287         -58.4792        -35.8976         -58.4622        -35.9214       -0.0085624         150.431
0.512                  -0.266341        -126.717         -58.4057        -38.0133         -58.3877        -38.0399      -0.00862423         150.365
0.513                  -0.270138        -127.149         -58.3334        -40.1308         -58.3146        -40.1602      -0.00868701         150.299
0.514                   -0.27397        -127.585         -58.2625        -42.2492          -58.243        -42.2815      -0.00875075         150.233
0.515                   -0.27784        -128.023          -58.193        -44.3675         -58.1729        -44.4026      -0.00881547         150.166
0.516                   -0.28175        -128.464         -58.1249        -46.4848         -58.1042        -46.5227      -0.00888118           150.1
0.517                  -0.285706        -128.909         -58.0581           -48.6          -58.037        -48.6407       -0.0089479         150.033
0.518                  -0.289711        -129.356         -57.9927        -50.7124         -57.9713        -50.7557      -0.00901563         149.967
0.519                  -0.293767        -129.807         -57.9287        -52.8208          -57.907        -52.8668      -0.00908441           149.9
0.52                   -0.297881        -130.261          -57.866        -54.9245         -57.8442        -54.9729      -0.00915423         149.833
0.521                  -0.302056        -130.718         -57.8047        -57.0225         -57.7828        -57.0732      -0.00922511         149.767
0.522                  -0.306296        -131.179         -57.7446         -59.114         -57.7227        -59.1669      -0.00929708           149.7
0.523                  -0.310606        -131.643         -57.6858        -61.1981          -57.664        -61.2529      -0.00937015         149.633
0.524                  -0.314992         -132.11         -57.6281        -63.2739         -57.6066        -63.3305      -0.00944432         149.566
0.525                  -0.319459        -132.581         -57.5717        -65.3408         -57.5504        -65.3989      -0.00951962         149.498
0.526                  -0.324011        -133.055         -57.5164        -67.3978         -57.4954        -67.4574      -0.00959606         149.431
0.527                  -0.328656        -133.534         -57.4621        -69.4444         -57.4415        -69.5051      -0.00967366         149.364
0.528                  -0.333398        -134.016         -57.4088        -71.4799         -57.3886        -71.5415      -0.00975243         149.296
0.529                  -0.338245        -134.501         -57.3564        -73.5035         -57.3368        -73.5658      -0.00983239         149.229
0.53                   -0.343203        -134.991         -57.3049        -75.5148         -57.2858        -75.5774      -0.00991356         149.161
0.531                   -0.34828        -135.484         -57.2542        -77.5131         -57.2357        -77.5759      -0.00999595         149.093
0.532                  -0.353482        -135.982         -57.2042        -79.4979         -57.1864        -79.5606       -0.0100796         149.026
0.533                  -0.358818        -136.484         -57.1549        -81.4687         -57.1377        -81.5312       -0.0101644         148.958
0.534                  -0.364295        -136.989         -57.1061        -83.4252         -57.0896        -83.4871       -0.0102506          148.89
0.535                  -0.369923          -137.5         -57.0578         -85.367          -57.042        -85.4281        -0.010338         148.822
0.536                  -0.375711        -138.014         -57.0098        -87.2936         -56.9948        -87.3537       -0.0104267         148.753
0.537                  -0.381668        -138.533         -56.9622        -89.2048         -56.9479        -89.2636       -0.0105168         148.685
0.538                  -0.387805        -139.056         -56.9148        -91.1004         -56.9013        -91.1577       -0.0106081         148.617
0.539                  -0.394131        -139.584         -56.8676        -92.9801         -56.8548        -93.0358       -0.0107008         148.548
0.54                    -0.40066        -140.117         -56.8204        -94.8438         -56.8084        -94.8975       -0.0107949         148.479
0.541                  -0.407401        -140.655         -56.7732        -96.6913          -56.762         -96.743       -0.0108903         148.411
0.542                  -0.414369        -141.197         -56.7258        -98.5225         -56.7154        -98.5719       -0.0109872         148.342
0.543                  -0.421576        -141.744         -56.6783        -100.337         -56.6686        -100.384       -0.0110854         148.273
0.544                  -0.429037        -142.297         -56.6305        -102.136         -56.6215         -102.18        -0.011185         148.204
0.545                  -0.436765        -142.854         -56.5823        -103.918         -56.5741         -103.96       -0.0112861         148.135
0.546                  -0.444778        -143.417         -56.5336        -105.684         -56.5261        -105.723       -0.0113886         148.065
0.547                  -0.453091        -143.986         -56.4845        -107.434         -56.4777         -107.47       -0.0114925         147.996
0.548                  -0.461721         -144.56         -56.4347        -109.168         -56.4286        -109.201       -0.0115979         147.927
0.549                  -0.470689        -145.139         -56.3842        -110.886         -56.3787        -110.915       -0.0117048         147.857
0.55                   -0.480012        -145.725         -56.3329        -112.588         -56.3281        -112.614       -0.0118131         147.787
0.551                  -0.489712        -146.316         -56.2808        -114.274         -56.2766        -114.298       -0.0119229         147.717
0.552                  -0.499811        -146.913         -56.2278        -115.946         -56.2241        -115.966       -0.0120343         147.647
0.553                  -0.510331        -147.516         -56.1738        -117.602         -56.1706        -117.618       -0.0121471         147.577
0.554                  -0.521298        -148.126         -56.1186        -119.244         -56.1161        -119.257       -0.0122614         147.507
0.555                  -0.532738        -148.741         -56.0624        -120.871         -56.0603         -120.88       -0.0123773         147.437
0.556                  -0.544678        -149.364         -56.0049        -122.484         -56.0033         -122.49       -0.0124947         147.367
0.557                  -0.557147        -149.993         -55.9462        -124.083         -55.9449        -124.086       -0.0126136         147.296
0.558                  -0.570177        -150.628         -55.8861        -125.669         -55.8852        -125.669        -0.012734         147.225
0.559                    -0.5838        -151.271         -55.8246        -127.242         -55.8241        -127.239        -0.012856         147.155
0.56                   -0.598051         -151.92         -55.7616        -128.803         -55.7614        -128.796       -0.0129795         147.084
0.561                  -0.612967        -152.577         -55.6971        -130.352         -55.6972        -130.342       -0.0131045         147.013
0.562                  -0.628587         -153.24         -55.6309        -131.889         -55.6313        -131.876       -0.0132311         146.942
0.563                  -0.644953        -153.912         -55.5631        -133.415         -55.5637        -133.399       -0.0133592          146.87
0.564                   -0.66211         -154.59         -55.4936        -134.931         -55.4944        -134.912       -0.0134888         146.799
0.565                  -0.680103        -155.277         -55.4224        -136.437         -55.4233        -136.415         -0.01362         146.727
0.566                  -0.698982        -155.971         -55.3493        -137.933         -55.3503        -137.909       -0.0137528         146.656
0.567                  -0.718801        -156.672         -55.2743        -139.421         -55.2754        -139.395        -0.013887         146.584
0.568                  -0.739614        -157.382         -55.1974        -140.901         -55.1986        -140.872       -0.0140229         146.512
0.569                  -0.761482          -158.1         -55.1185        -142.373         -55.1198        -142.342       -0.0141602          146.44
0.57                   -0.784466        -158.826         -55.0376        -143.839         -55.0389        -143.806       -0.0142991         146.368
0.571                  -0.808635         -159.56         -54.9547        -145.298         -54.9559        -145.264       -0.0144395         146.295
0.572                  -0.834057        -160.303         -54.8696        -146.753         -54.8709        -146.716       -0.0145815         146.223
0.573                  -0.860808        -161.054         -54.7824        -148.202         -54.7836        -148.165        -0.014725          146.15
0.574                  -0.888967        -161.814         -54.6931        -149.648         -54.6942         -149.61       -0.0148701         146.078
0.575                  -0.918618        -162.582         -54.6016        -151.092         -54.6026        -151.052       -0.0150167         146.005
0.576                   -0.94985        -163.358         -54.5078        -152.533         -54.5087        -152.492       -0.0151648         145.932
0.577                  -0.982755        -164.143         -54.4118        -153.973         -54.4126        -153.932       -0.0153146         145.859
0.578                   -1.01743        -164.936         -54.3136        -155.413         -54.3142        -155.371       -0.0154658         145.785
0.579                   -1.05399        -165.738         -54.2131        -156.854         -54.2136        -156.812       -0.0156187         145.712
0.58                    -1.09253        -166.548         -54.1104        -158.296         -54.1107        -158.254       -0.0157732         145.638
0.581                   -1.13318        -167.366         -54.0054        -159.741         -54.0055          -159.7       -0.0159292         145.564
0.582                   -1.17605        -168.193         -53.8982         -161.19         -53.8981        -161.149       -0.0160869          145.49
0.583                   -1.22127        -169.026         -53.7888        -162.644         -53.7885        -162.604       -0.0162462         145.416
0.584                   -1.26898        -169.868         -53.6772        -164.105         -53.6768        -164.065       -0.0164072         145.342
0.585                   -1.31931        -170.716         -53.5634        -165.572         -53.5629        -165.533       -0.0165699         145.268
0.586                   -1.37241        -171.572         -53.4476        -167.047         -53.4469         -167.01       -0.0167342         145.193
0.587                   -1.42843        -172.433         -53.3298        -168.532         -53.3289        -168.496       -0.0169004         145.118
0.588                   -1.48753          -173.3           -53.21        -170.028          -53.209        -169.994       -0.0170682         145.043
0.589                   -1.54987        -174.172         -53.0884        -171.536         -53.0872        -171.503       -0.0172379         144.968
0.59                    -1.61561        -175.048          -52.965        -173.056         -52.9638        -173.025       -0.0174095         144.893
0.591                   -1.68492        -175.928         -52.8401        -174.591         -52.8387        -174.562       -0.0175829         144.818
0.592                   -1.75797         -176.81         -52.7136        -176.141         -52.7122        -176.115       -0.0177582         144.742
0.593                   -1.83493        -177.692         -52.5859        -177.708         -52.5844        -177.683       -0.0179356         144.666
0.594                   -1.91598        -178.575          -52.457        -179.292         -52.4555         -179.27       -0.0181149          144.59
0.595                   -2.00129        -179.456         -52.3272         179.105         -52.3257         179.125       -0.0182963         144.514
0.596                   -2.09101         179.666         -52.1967         177.483         -52.1952           177.5       -0.0184799         144.438
0.597                   -2.18531         178.794         -52.0657          175.84         -52.0643         175.855       -0.0186656         144.361
0.598                   -2.28433         177.929         -51.9344         174.176         -51.9331         174.188       -0.0188536         144.285
0.599                   -2.38821         177.073         -51.8032          172.49          -51.802           172.5       -0.0190439         144.208
0.6                     -2.49707         176.229         -51.6724         170.782         -51.6713          170.79       -0.0192365         144.131
0.601                   -2.61099         175.399         -51.5421         169.051         -51.5412         169.057       -0.0194316         144.054
0.602                   -2.73004         174.587         -51.4128         167.297         -51.4121         167.301       -0.0196291         143.976
0.603                   -2.85425         173.795         -51.2847         165.521         -51.2843         165.523       -0.0198293         143.898
0.604                   -2.98362         173.028         -51.1583         163.722          -51.158         163.722        -0.020032         143.821
0.605                   -3.11808         172.288         -51.0338         161.901         -51.0338           161.9       -0.0202375         143.743
0.606                   -3.25753         171.579         -50.9116         160.059         -50.9118         160.056       -0.0204458         143.664
0.607                   -3.40178         170.906         -50.7919         158.197         -50.7925         158.193       -0.0206569         143.586
0.608                   -3.55061         170.272         -50.6753         156.315         -50.6761         156.311       -0.0208709         143.507
0.609                   -3.70367         169.681         -50.5618         154.416         -50.5629         154.411        -0.021088         143.428
0.61                    -3.86057         169.138         -50.4519         152.502         -50.4532         152.496       -0.0213081         143.349
0.611                   -4.02079         168.647         -50.3458         150.573         -50.3474         150.568       -0.0215314          143.27
0.612                   -4.18373         168.211         -50.2437         148.633         -50.2455         148.628       -0.0217579          143.19
0.613                   -4.34868         167.835         -50.1458         146.684         -50.1478         146.678       -0.0219878          143.11
0.614                   -4.51482         167.522         -50.0523         144.728         -50.0545         144.723       -0.0222211          143.03
0.615                   -4.68122         167.275         -49.9632         142.768         -49.9656         142.764       -0.0224578          142.95
0.616                   -4.84686         167.097         -49.8787         140.806         -49.8813         140.803       -0.0226981          142.87
0.617                   -5.01061         166.988         -49.7988         138.847         -49.8014         138.844       -0.0229421         142.789
0.618                   -5.17127         166.949         -49.7234         136.891         -49.7261          136.89       -0.0231898         142.708
0.619                   -5.32759          166.98         -49.6524         134.943         -49.6552         134.942       -0.0234414         142.627
0.62                    -5.47827          167.08         -49.5858         133.005         -49.5886         133.005       -0.0236968         142.546
0.621                     -5.622         167.245         -49.5233         131.078         -49.5261          131.08       -0.0239563         142.464
0.622                   -5.75752         167.471         -49.4648         129.167         -49.4676         129.169       -0.0242198         142.382
0.623                   -5.88362         167.753           -49.41         127.272         -49.4127         127.276       -0.0244875           142.3
0.624                    -5.9992         168.084         -49.3586         125.396         -49.3612         125.401       -0.0247594         142.217
0.625                   -6.10331         168.456         -49.3104         123.541         -49.3128         123.546       -0.0250357         142.135
0.626                   -6.19516          168.86         -49.2649         121.708         -49.2673         121.714       -0.0253164         142.052
0.627                    -6.2742         169.286         -49.2219         119.899         -49.2241         119.905       -0.0256017         141.969
0.628                   -6.34006         169.725          -49.181         118.114         -49.1831          118.12       -0.0258916         141.885
0.629                   -6.39264         170.165         -49.1419         116.354         -49.1438          116.36       -0.0261862         141.801
