! TOUCHSTONE file generated by CST MICROWAVE STUDIO
! Date and time: Mon Nov 30 09:13:37 2020
! Project name: Scenario_1_Planar_Body_Tissue_Out_of_Line_v2.cst
! Parameters = {dy1=346; L_HA=400; Ltissue=700; MT=2.54; Rad_Dielectric=30; Rad_Lower=7.3; Rad_Upper=30; Wtissue=700; a_HA=580; a_WG=246; b_HA=500; b_WG=121; c_HA=0; c_WG=187; d_feed=85; dx1=346; h_feed=15; h_lower=18; h_upper=40; hfat=3; hgap=25; hmuscle=50; hskin=1.5}
! Header version: 2018
! Port assignment regex: !\s*Touchstone port\s*([0-9]+)\s*=\s*(CST MWS port|CST DS port)\s*([0-9]+|Zmin|Zmax)\s*\(\"(.*)\"\)(\s*mode\s*([0-9]+))?.*
! Touchstone port assignment:
! Touchstone port 1 = CST MWS port 1 ("")
! Touchstone port 2 = CST MWS port 2 ("")
# GHz S DB R 50
0.5                    -0.216997        -121.711         -59.8559        -18.3197         -59.8558        -18.3206      -0.00787108         151.153
0.501                  -0.220591        -122.113         -59.7904        -20.4712         -59.7903         -20.472      -0.00792195         151.088
0.502                  -0.224197        -122.517         -59.7248        -22.6284         -59.7245        -22.6291       -0.0079737         151.023
0.503                  -0.227819        -122.924         -59.6589        -24.7905         -59.6586        -24.7911      -0.00802635         150.958
0.504                  -0.231457        -123.333         -59.5929        -26.9567         -59.5925        -26.9571      -0.00807993         150.892
0.505                  -0.235115        -123.745         -59.5268         -29.126         -59.5263        -29.1263      -0.00813444         150.827
0.506                  -0.238794        -124.159         -59.4606        -31.2977         -59.4601         -31.298       -0.0081899         150.761
0.507                  -0.242497        -124.576         -59.3944         -33.471         -59.3939        -33.4711      -0.00824633         150.696
0.508                  -0.246226        -124.996         -59.3283         -35.645         -59.3277         -35.645      -0.00830375          150.63
0.509                  -0.249983        -125.418         -59.2623        -37.8188         -59.2616        -37.8187      -0.00836217         150.564
0.51                   -0.253771        -125.843         -59.1964        -39.9916         -59.1957        -39.9915      -0.00842161         150.498
0.511                  -0.257594        -126.271         -59.1307        -42.1626           -59.13        -42.1624      -0.00848209         150.432
0.512                  -0.261453        -126.702         -59.0652         -44.331         -59.0645        -44.3308      -0.00854362         150.366
0.513                  -0.265352        -127.135              -59        -46.4959         -58.9992        -46.4956      -0.00860623           150.3
0.514                  -0.269295        -127.572         -58.9351        -48.6566         -58.9343        -48.6562      -0.00866993         150.234
0.515                  -0.273284        -128.011         -58.8705        -50.8122         -58.8696        -50.8118      -0.00873473         150.167
0.516                  -0.277323        -128.454         -58.8062        -52.9621         -58.8053        -52.9616      -0.00880067         150.101
0.517                  -0.281416          -128.9         -58.7423        -55.1053         -58.7414        -55.1049      -0.00886774         150.034
0.518                  -0.285567        -129.348         -58.6788        -57.2413         -58.6779        -57.2408      -0.00893597         149.968
0.519                  -0.289779          -129.8         -58.6157        -59.3694         -58.6148        -59.3688      -0.00900538         149.901
0.52                   -0.294058        -130.256          -58.553        -61.4887         -58.5521        -61.4882      -0.00907598         149.835
0.521                  -0.298407        -130.714         -58.4907        -63.5988         -58.4898        -63.5982      -0.00914779         149.768
0.522                  -0.302831        -131.176         -58.4289        -65.6989         -58.4279        -65.6983      -0.00922082         149.701
0.523                  -0.307335        -131.642         -58.3675        -67.7885         -58.3665        -67.7879       -0.0092951         149.634
0.524                  -0.311925        -132.111         -58.3065        -69.8669         -58.3055        -69.8663      -0.00937064         149.567
0.525                  -0.316606        -132.583         -58.2459        -71.9338         -58.2449        -71.9331      -0.00944744         149.499
0.526                  -0.321384        -133.059         -58.1857        -73.9884         -58.1848        -73.9878      -0.00952554         149.432
0.527                  -0.326265        -133.539         -58.1259        -76.0305          -58.125        -76.0299      -0.00960493         149.365
0.528                  -0.331254        -134.023         -58.0665        -78.0595         -58.0656        -78.0589      -0.00968564         149.297
0.529                   -0.33636         -134.51         -58.0074        -80.0751         -58.0065        -80.0745      -0.00976768          149.23
0.53                   -0.341589        -135.001         -57.9487        -82.0768         -57.9478        -82.0762      -0.00985106         149.162
0.531                  -0.346948        -135.497         -57.8903        -84.0644         -57.8894        -84.0637      -0.00993579         149.094
0.532                  -0.352446        -135.996         -57.8321        -86.0375         -57.8312        -86.0368       -0.0100219         149.027
0.533                   -0.35809          -136.5         -57.7742        -87.9958         -57.7733        -87.9952       -0.0101093         148.959
0.534                  -0.363889        -137.007         -57.7165        -89.9392         -57.7156        -89.9386       -0.0101982         148.891
0.535                  -0.369853        -137.519         -57.6589        -91.8675         -57.6581        -91.8669       -0.0102884         148.822
0.536                  -0.375991        -138.036         -57.6015        -93.7804         -57.6007        -93.7798       -0.0103801         148.754
0.537                  -0.382314        -138.557         -57.5442        -95.6778         -57.5434        -95.6772       -0.0104731         148.686
0.538                  -0.388832        -139.082         -57.4869        -97.5597         -57.4861         -97.559       -0.0105676         148.617
0.539                  -0.395556        -139.612         -57.4296        -99.4259         -57.4288        -99.4253       -0.0106635         148.549
0.54                   -0.402498        -140.147         -57.3722        -101.276         -57.3715        -101.276       -0.0107608          148.48
0.541                  -0.409672        -140.687         -57.3148        -103.111         -57.3141        -103.111       -0.0108595         148.412
0.542                   -0.41709        -141.231         -57.2572         -104.93         -57.2566         -104.93       -0.0109596         148.343
0.543                  -0.424767        -141.781         -57.1994        -106.734         -57.1988        -106.733       -0.0110612         148.274
0.544                  -0.432717        -142.335         -57.1414        -108.522         -57.1408        -108.521       -0.0111642         148.205
0.545                  -0.440956        -142.895         -57.0831        -110.295         -57.0825        -110.294       -0.0112686         148.136
0.546                    -0.4495         -143.46         -57.0245        -112.052         -57.0239        -112.051       -0.0113745         148.066
0.547                  -0.458369        -144.031         -56.9654        -113.794         -56.9649        -113.793       -0.0114818         147.997
0.548                  -0.467578        -144.607         -56.9059        -115.521         -56.9054         -115.52       -0.0115905         147.927
0.549                   -0.47715        -145.189         -56.8459        -117.233         -56.8454        -117.232       -0.0117006         147.858
0.55                   -0.487103        -145.776         -56.7853        -118.931         -56.7848         -118.93       -0.0118121         147.788
0.551                  -0.497461         -146.37         -56.7241        -120.614         -56.7237        -120.614       -0.0119251         147.718
0.552                  -0.508246        -146.969         -56.6622        -122.284         -56.6618        -122.283       -0.0120394         147.648
0.553                  -0.519483        -147.574         -56.5996        -123.939         -56.5993        -123.939       -0.0121551         147.578
0.554                  -0.531198        -148.186         -56.5363        -125.582         -56.5359        -125.581       -0.0122723         147.508
0.555                  -0.543418        -148.803         -56.4721        -127.211         -56.4717         -127.21       -0.0123908         147.438
0.556                  -0.556173        -149.428          -56.407        -128.827         -56.4066        -128.826       -0.0125107         147.368
0.557                  -0.569493        -150.058         -56.3409        -130.431         -56.3406         -130.43       -0.0126319         147.297
0.558                  -0.583411        -150.696         -56.2739        -132.023         -56.2736        -132.022       -0.0127545         147.226
0.559                  -0.597961         -151.34         -56.2058        -133.604         -56.2055        -133.603       -0.0128785         147.156
0.56                   -0.613181        -151.991         -56.1366        -135.173         -56.1363        -135.172       -0.0130039         147.085
0.561                  -0.629108        -152.649         -56.0662        -136.732          -56.066        -136.731       -0.0131306         147.014
0.562                  -0.645784        -153.314         -55.9946        -138.281         -55.9944         -138.28       -0.0132586         146.943
0.563                  -0.663253        -153.986         -55.9218         -139.82         -55.9216        -139.819        -0.013388         146.871
0.564                  -0.681559        -154.665         -55.8476         -141.35         -55.8474        -141.349       -0.0135187           146.8
0.565                  -0.700752        -155.352         -55.7721        -142.872         -55.7719        -142.871       -0.0136508         146.729
0.566                  -0.720884        -156.047         -55.6952        -144.385          -55.695        -144.384       -0.0137842         146.657
0.567                  -0.742008        -156.749         -55.6168        -145.891         -55.6167         -145.89       -0.0139189         146.585
0.568                  -0.764183        -157.458          -55.537        -147.391         -55.5368         -147.39        -0.014055         146.513
0.569                  -0.787468        -158.176         -55.4556        -148.884         -55.4554        -148.883       -0.0141925         146.441
0.57                   -0.811929        -158.901         -55.3726        -150.372         -55.3724        -150.371       -0.0143313         146.369
0.571                  -0.837633        -159.634         -55.2879        -151.855         -55.2878        -151.854       -0.0144715         146.297
0.572                  -0.864653        -160.375         -55.2017        -153.334         -55.2015        -153.333       -0.0146131         146.224
0.573                  -0.893063        -161.124         -55.1137         -154.81         -55.1136        -154.809       -0.0147561         146.152
0.574                  -0.922943         -161.88          -55.024        -156.283         -55.0239        -156.283       -0.0149005         146.079
0.575                  -0.954378        -162.645         -54.9326        -157.755         -54.9325        -157.754       -0.0150463         146.006
0.576                  -0.987456        -163.417         -54.8394        -159.226         -54.8393        -159.225       -0.0151936         145.933
0.577                   -1.02227        -164.197         -54.7445        -160.697         -54.7444        -160.696       -0.0153423          145.86
0.578                   -1.05892        -164.984         -54.6477        -162.169         -54.6476        -162.168       -0.0154925         145.787
0.579                    -1.0975        -165.779         -54.5492        -163.643         -54.5491        -163.642       -0.0156443         145.713
0.58                    -1.13812        -166.582         -54.4489         -165.12         -54.4488        -165.119       -0.0157976         145.639
0.581                    -1.1809        -167.391         -54.3468          -166.6         -54.3467          -166.6       -0.0159525         145.566
0.582                   -1.22594        -168.207          -54.243        -168.086         -54.2429        -168.085        -0.016109         145.492
0.583                   -1.27338         -169.03         -54.1374        -169.577         -54.1373        -169.576       -0.0162672         145.418
0.584                   -1.32333        -169.859         -54.0302        -171.075         -54.0301        -171.075       -0.0164271         145.343
0.585                   -1.37593        -170.693         -53.9213        -172.581         -53.9212        -172.581       -0.0165886         145.269
0.586                    -1.4313        -171.533         -53.8108        -174.096         -53.8107        -174.096        -0.016752         145.194
0.587                   -1.48959        -172.376         -53.6989        -175.621         -53.6988        -175.621       -0.0169171          145.12
0.588                   -1.55092        -173.224         -53.5856        -177.157         -53.5855        -177.157       -0.0170842         145.045
0.589                   -1.61546        -174.075         -53.4709        -178.706         -53.4708        -178.706       -0.0172531          144.97
0.59                    -1.68332        -174.927         -53.3551         179.733          -53.355         179.732       -0.0174239         144.894
0.591                   -1.75466        -175.781         -53.2382         178.157         -53.2382         178.156       -0.0175968         144.819
0.592                   -1.82962        -176.634         -53.1205         176.566         -53.1204         176.565       -0.0177717         144.743
0.593                   -1.90832        -177.487          -53.002         174.958         -53.0019         174.958       -0.0179488         144.668
0.594                   -1.99091        -178.336          -52.883         173.334         -52.8829         173.333        -0.018128         144.592
0.595                   -2.07751        -179.181         -52.7636         171.692         -52.7635         171.691       -0.0183094         144.516
0.596                   -2.16823          179.98         -52.6441         170.031          -52.644          170.03        -0.018493         144.439
0.597                   -2.26318         179.149         -52.5247         168.351         -52.5247          168.35        -0.018679         144.363
0.598                   -2.36243         178.329         -52.4057         166.652         -52.4057         166.651       -0.0188675         144.286
0.599                   -2.46606          177.52         -52.2873         164.934         -52.2873         164.932       -0.0190583         144.209
0.6                     -2.57412         176.726         -52.1698         163.195         -52.1698         163.194       -0.0192517         144.132
0.601                   -2.68661         175.949         -52.0535         161.437         -52.0535         161.435       -0.0194476         144.055
0.602                   -2.80351         175.192         -51.9387         159.659         -51.9387         159.657       -0.0196462         143.977
0.603                   -2.92478         174.458         -51.8257         157.862         -51.8257          157.86       -0.0198475           143.9
0.604                   -3.05032         173.749         -51.7147         156.046         -51.7147         156.045       -0.0200516         143.822
0.605                   -3.17998          173.07          -51.606         154.214         -51.6061         154.212       -0.0202585         143.744
0.606                   -3.31355         172.422            -51.5         152.365         -51.5001         152.363       -0.0204683         143.665
0.607                   -3.45079          171.81         -51.3969         150.501          -51.397         150.499       -0.0206811         143.587
0.608                   -3.59137         171.237         -51.2969         148.624          -51.297         148.622        -0.020897         143.508
0.609                   -3.73489         170.705         -51.2003         146.735         -51.2004         146.734       -0.0211159         143.429
0.61                    -3.88089         170.218         -51.1072         144.837         -51.1073         144.835       -0.0213381          143.35
0.611                   -4.02882          169.78         -51.0178         142.931         -51.0179          142.93       -0.0215635         143.271
0.612                   -4.17808         169.391         -50.9322          141.02         -50.9323         141.019       -0.0217922         143.191
0.613                   -4.32796         169.056         -50.8506         139.107         -50.8507         139.105       -0.0220243         143.112
0.614                    -4.4777         168.775         -50.7728         137.193          -50.773         137.192         -0.02226         143.032
0.615                   -4.62646         168.551         -50.6991         135.281         -50.6992          135.28       -0.0224991         142.951
0.616                   -4.77335         168.383         -50.6293         133.374         -50.6294         133.373       -0.0227419         142.871
0.617                   -4.91743         168.272         -50.5632         131.474         -50.5634         131.473       -0.0229884          142.79
0.618                   -5.05774         168.218         -50.5009         129.584         -50.5011         129.583       -0.0232387         142.709
0.619                   -5.19328         168.218         -50.4421         127.705         -50.4423         127.704       -0.0234929         142.628
0.62                    -5.32307          168.27         -50.3867          125.84         -50.3868          125.84        -0.023751         142.547
0.621                   -5.44618         168.371         -50.3344         123.991         -50.3345          123.99       -0.0240131         142.465
0.622                   -5.56171         168.515         -50.2849         122.159          -50.285         122.159       -0.0242794         142.383
0.623                   -5.66885         168.699         -50.2379         120.346          -50.238         120.346       -0.0245498         142.301
0.624                   -5.76689         168.916         -50.1933         118.553         -50.1934         118.553       -0.0248245         142.219
0.625                   -5.85524         169.159         -50.1506         116.782         -50.1506         116.782       -0.0251035         142.136
0.626                   -5.93347         169.421         -50.1095         115.032         -50.1096         115.032        -0.025387         142.053
0.627                   -6.00127         169.696         -50.0697         113.306         -50.0698         113.305        -0.025675          141.97
0.628                   -6.05852         169.974          -50.031         111.602          -50.031         111.602       -0.0259677         141.886
0.629                   -6.10525         170.249         -49.9929         109.921          -49.993         109.921        -0.026265         141.803
