! TOUCHSTONE file generated by CST MICROWAVE STUDIO
! Date and time: Sat Nov 14 20:03:56 2020
! Project name: Scenario_1_Planar_Body_Tissue_Out_of_Line.cst
! Parameters = {dy1=-346; L_HA=400; Ltissue=700; MT=2.54; Rad_Dielectric=30; Rad_Lower=7.3; Rad_Upper=30; Wtissue=700; a_HA=580; a_WG=246; b_HA=500; b_WG=121; c_HA=0; c_WG=187; d_feed=85; dx1=693; h_feed=15; h_lower=18; h_upper=40; hfat=3; hgap=25; hmuscle=50; hskin=1.5}
! Header version: 2018
! Port assignment regex: !\s*Touchstone port\s*([0-9]+)\s*=\s*(CST MWS port|CST DS port)\s*([0-9]+|Zmin|Zmax)\s*\(\"(.*)\"\)(\s*mode\s*([0-9]+))?.*
! Touchstone port assignment:
! Touchstone port 1 = CST MWS port 1 ("")
! Touchstone port 2 = CST MWS port 2 ("")
# GHz S DB R 50
0.5                     -0.16989         -121.69         -63.7351         163.266         -63.7348         163.266      -0.00773362         151.157
0.501                  -0.172926        -122.111         -63.6332         161.321         -63.6317         161.324      -0.00779466         151.092
0.502                   -0.17603        -122.535         -63.5305         159.367         -63.5279         159.374      -0.00785619         151.027
0.503                  -0.179206        -122.961         -63.4271         157.405         -63.4234         157.415      -0.00791823         150.962
0.504                  -0.182456         -123.39         -63.3231         155.435         -63.3183         155.448      -0.00798079         150.896
0.505                  -0.185787        -123.822         -63.2184         153.459         -63.2127         153.474      -0.00804387         150.831
0.506                  -0.189202        -124.257         -63.1132         151.476         -63.1066         151.493      -0.00810749         150.765
0.507                  -0.192706        -124.695         -63.0075         149.487              -63         149.506      -0.00817166           150.7
0.508                  -0.196303        -125.135         -62.9012         147.493         -62.8931         147.513       -0.0082364         150.634
0.509                       -0.2        -125.579         -62.7946         145.494         -62.7858         145.515      -0.00830171         150.568
0.51                   -0.203802        -126.026         -62.6876         143.491         -62.6781         143.512      -0.00836761         150.502
0.511                  -0.207715        -126.475         -62.5802         141.484         -62.5702         141.506      -0.00843411         150.436
0.512                  -0.211745        -126.929         -62.4725         139.475          -62.462         139.496      -0.00850124          150.37
0.513                  -0.215899        -127.385         -62.3645         137.463         -62.3537         137.484      -0.00856901         150.304
0.514                  -0.220184        -127.844         -62.2563          135.45         -62.2452          135.47      -0.00863743         150.238
0.515                  -0.224607        -128.307         -62.1479         133.436         -62.1365         133.455      -0.00870652         150.172
0.516                  -0.229176        -128.774         -62.0393         131.421         -62.0277          131.44      -0.00877631         150.105
0.517                  -0.233901        -129.244         -61.9304         129.407         -61.9187         129.425       -0.0088468         150.039
0.518                  -0.238789        -129.717         -61.8214         127.395         -61.8097          127.41      -0.00891803         149.972
0.519                   -0.24385        -130.194         -61.7123         125.384         -61.7006         125.398      -0.00899001         149.906
0.52                   -0.249095        -130.675         -61.6029         123.375         -61.5913         123.388      -0.00906277         149.839
0.521                  -0.254534        -131.159         -61.4934          121.37          -61.482         121.381      -0.00913633         149.772
0.522                  -0.260179        -131.647         -61.3837         119.368         -61.3725         119.377      -0.00921071         149.705
0.523                  -0.266041         -132.14         -61.2737         117.371         -61.2628         117.378      -0.00928595         149.638
0.524                  -0.272134        -132.636         -61.1635         115.379         -61.1529         115.384      -0.00936205         149.571
0.525                  -0.278471        -133.136          -61.053         113.392         -61.0428         113.396      -0.00943907         149.504
0.526                  -0.285067         -133.64         -60.9422         111.412         -60.9325         111.414      -0.00951701         149.437
0.527                  -0.291938        -134.148         -60.8309         109.439         -60.8218         109.439      -0.00959592          149.37
0.528                    -0.2991        -134.661         -60.7193         107.472         -60.7106         107.472      -0.00967582         149.302
0.529                  -0.306571        -135.178         -60.6071         105.514         -60.5991         105.512      -0.00975675         149.235
0.53                   -0.314369          -135.7         -60.4943         103.564         -60.4869         103.561      -0.00983874         149.167
0.531                  -0.322514        -136.225         -60.3808         101.623         -60.3741         101.619      -0.00992181         149.099
0.532                  -0.331029        -136.756         -60.2666         99.6903         -60.2605         99.6855        -0.010006         149.031
0.533                  -0.339935        -137.291         -60.1515         97.7672         -60.1461         97.7619       -0.0100914         148.964
0.534                  -0.349256        -137.831         -60.0354         95.8535         -60.0307          95.848       -0.0101779         148.895
0.535                   -0.35902        -138.375         -59.9182         93.9496         -59.9143          93.944       -0.0102657         148.827
0.536                  -0.369252        -138.925         -59.7998         92.0553         -59.7966         92.0501       -0.0103548         148.759
0.537                  -0.379982        -139.479           -59.68         90.1709         -59.6775         90.1662       -0.0104452         148.691
0.538                  -0.391242        -140.038         -59.5588         88.2961          -59.557         88.2922       -0.0105369         148.622
0.539                  -0.403065        -140.602         -59.4359         86.4309         -59.4348          86.428       -0.0106301         148.554
0.54                   -0.415485        -141.171         -59.3113          84.575         -59.3109         84.5734       -0.0107246         148.485
0.541                  -0.428541        -141.746         -59.1848          82.728          -59.185         82.7279       -0.0108206         148.416
0.542                  -0.442273        -142.325         -59.0562         80.8894          -59.057         80.8911       -0.0109181         148.348
0.543                  -0.456723         -142.91         -58.9254         79.0587         -58.9268         79.0624       -0.0110172         148.279
0.544                  -0.471936          -143.5         -58.7922         77.2353         -58.7941         77.2411       -0.0111178          148.21
0.545                   -0.48796        -144.095         -58.6565         75.4182         -58.6589         75.4264       -0.0112201          148.14
0.546                  -0.504845        -144.695         -58.5182         73.6067          -58.521         73.6173        -0.011324         148.071
0.547                  -0.522646          -145.3          -58.377         71.7995         -58.3802         71.8128       -0.0114296         148.002
0.548                  -0.541419         -145.91         -58.2329         69.9957         -58.2365         70.0116       -0.0115369         147.932
0.549                  -0.561224        -146.525         -58.0858         68.1937         -58.0896         68.2124       -0.0116459         147.863
0.55                   -0.582122        -147.145         -57.9354         66.3922         -57.9394         66.4137       -0.0117567         147.793
0.551                  -0.604181         -147.77         -57.7818         64.5897         -57.7859         64.6138       -0.0118693         147.723
0.552                  -0.627468        -148.399         -57.6247         62.7843          -57.629         62.8111       -0.0119838         147.653
0.553                  -0.652055        -149.032         -57.4642         60.9743         -57.4685         61.0037          -0.0121         147.583
0.554                  -0.678016        -149.669         -57.3002         59.1576         -57.3044         59.1895       -0.0122181         147.513
0.555                  -0.705427        -150.311         -57.1326         57.3323         -57.1368         57.3664       -0.0123381         147.442
0.556                  -0.734365        -150.955         -56.9615         55.4961         -56.9655         55.5322         -0.01246         147.372
0.557                  -0.764911        -151.602         -56.7868         53.6467         -56.7906         53.6847       -0.0125837         147.301
0.558                  -0.797143        -152.252         -56.6087         51.7818         -56.6122         51.8213       -0.0127093         147.231
0.559                   -0.83114        -152.903         -56.4271          49.899         -56.4304         49.9397       -0.0128368          147.16
0.56                   -0.866979        -153.556         -56.2423         47.9958         -56.2452         48.0373       -0.0129662         147.089
0.561                  -0.904734        -154.209         -56.0543         46.0697          -56.057         46.1118       -0.0130975         147.018
0.562                  -0.944474        -154.861         -55.8634         44.1182         -55.8657         44.1605       -0.0132306         146.947
0.563                   -0.98626        -155.511         -55.6699         42.1389         -55.6718          42.181       -0.0133655         146.875
0.564                   -1.03015        -156.159          -55.474         40.1295         -55.4755          40.171       -0.0135023         146.804
0.565                   -1.07617        -156.804          -55.276         38.0876         -55.2772         38.1283       -0.0136409         146.732
0.566                   -1.12436        -157.443         -55.0764         36.0113         -55.0771         36.0508       -0.0137813         146.661
0.567                   -1.17471        -158.075         -54.8755         33.8987         -54.8759         33.9365       -0.0139234         146.589
0.568                   -1.22722          -158.7         -54.6738          31.748         -54.6739          31.784       -0.0140673         146.517
0.569                   -1.28184        -159.315         -54.4718         29.5579         -54.4716         29.5918       -0.0142129         146.445
0.57                    -1.33849        -159.918         -54.2701         27.3273         -54.2696         27.3589       -0.0143601         146.373
0.571                   -1.39707        -160.509         -54.0692         25.0557         -54.0685         25.0848        -0.014509           146.3
0.572                   -1.45741        -161.084         -53.8696         22.7426         -53.8688         22.7691       -0.0146596         146.228
0.573                   -1.51934        -161.643         -53.6721         20.3884         -53.6711         20.4121       -0.0148118         146.155
0.574                    -1.5826        -162.184         -53.4772         17.9936         -53.4761         18.0145       -0.0149655         146.083
0.575                   -1.64691        -162.705         -53.2855         15.5593         -53.2843         15.5775       -0.0151208          146.01
0.576                   -1.71194        -163.204         -53.0976         13.0871         -53.0964         13.1027       -0.0152777         145.937
0.577                    -1.7773        -163.681         -52.9141         10.5791         -52.9129         10.5921       -0.0154361         145.863
0.578                   -1.84255        -164.134         -52.7354         8.03786         -52.7343         8.04846        -0.015596          145.79
0.579                   -1.90723        -164.563         -52.5621         5.46629         -52.5611         5.47466       -0.0157575         145.717
0.58                    -1.97083        -164.968         -52.3946         2.86775         -52.3937          2.8741       -0.0159204         145.643
0.581                   -2.03284         -165.35         -52.2333        0.245918         -52.2325        0.250475       -0.0160849         145.569
0.582                   -2.09273        -165.709         -52.0785        -2.39527         -52.0778        -2.39226       -0.0162508         145.495
0.583                   -2.14998        -166.046         -51.9302        -5.05167         -51.9298        -5.04997       -0.0164183         145.421
0.584                   -2.20408        -166.365         -51.7888        -7.71906         -51.7885        -7.71841       -0.0165873         145.347
0.585                   -2.25458        -166.667         -51.6543        -10.3931         -51.6541        -10.3933       -0.0167579         145.273
0.586                   -2.30107        -166.955         -51.5265        -13.0697         -51.5265        -13.0705         -0.01693         145.198
0.587                   -2.34323        -167.234         -51.4055        -15.7446         -51.4056        -15.7458       -0.0171038         145.123
0.588                   -2.38081        -167.506          -51.291         -18.414         -51.2912        -18.4154       -0.0172791         145.048
0.589                   -2.41364        -167.776         -51.1828        -21.0741         -51.1831        -21.0757       -0.0174562         144.973
0.59                    -2.44165        -168.048         -51.0806        -23.7217          -51.081        -23.7232       -0.0176349         144.898
0.591                   -2.46488        -168.327          -50.984        -26.3537         -50.9845        -26.3551       -0.0178154         144.823
0.592                   -2.48344        -168.616         -50.8927        -28.9674         -50.8933        -28.9686       -0.0179978         144.747
0.593                   -2.49754        -168.919         -50.8063        -31.5605         -50.8068        -31.5616       -0.0181819         144.671
0.594                   -2.50745         -169.24         -50.7243        -34.1313         -50.7248        -34.1321        -0.018368         144.595
0.595                   -2.51352        -169.582         -50.6462        -36.6781         -50.6468        -36.6786        -0.018556         144.519
0.596                   -2.51612        -169.948         -50.5717        -39.1998         -50.5722        -39.2001       -0.0187461         144.443
0.597                   -2.51568        -170.339         -50.5002        -41.6957         -50.5007        -41.6958       -0.0189383         144.367
0.598                   -2.51263        -170.758         -50.4314        -44.1653         -50.4318        -44.1652       -0.0191326          144.29
0.599                   -2.50744        -171.206         -50.3648        -46.6083         -50.3652        -46.6081       -0.0193292         144.213
0.6                     -2.50054        -171.685            -50.3         -49.025         -50.3003        -49.0247       -0.0195281         144.136
0.601                   -2.49237        -172.194         -50.2366        -51.4157         -50.2368        -51.4153       -0.0197294         144.059
0.602                   -2.48337        -172.734         -50.1743        -53.7808         -50.1744        -53.7805       -0.0199331         143.981
0.603                   -2.47392        -173.305         -50.1126        -56.1212         -50.1127        -56.1209       -0.0201394         143.904
0.604                    -2.4644        -173.908         -50.0514        -58.4377         -50.0515        -58.4375       -0.0203483         143.826
0.605                   -2.45516        -174.541         -49.9903        -60.7314         -49.9903        -60.7312         -0.02056         143.748
0.606                   -2.44652        -175.204         -49.9291        -63.0033          -49.929        -63.0033       -0.0207744         143.669
0.607                   -2.43877        -175.896         -49.8675        -65.2546         -49.8674        -65.2548       -0.0209917         143.591
0.608                   -2.43217        -176.617         -49.8053        -67.4866         -49.8051        -67.4869       -0.0212119         143.512
0.609                   -2.42697        -177.365         -49.7424        -69.7006         -49.7422        -69.7011       -0.0214353         143.433
0.61                    -2.42338        -178.141         -49.6785        -71.8978         -49.6782        -71.8986       -0.0216617         143.354
0.611                    -2.4216        -178.943         -49.6136        -74.0797         -49.6133        -74.0807       -0.0218914         143.275
0.612                   -2.42182        -179.771         -49.5475        -76.2476         -49.5471        -76.2488       -0.0221243         143.195
0.613                   -2.42419         179.377         -49.4801        -78.4028         -49.4797        -78.4042       -0.0223607         143.116
0.614                   -2.42887         178.501         -49.4113        -80.5467         -49.4109        -80.5483       -0.0226005         143.036
0.615                     -2.436         177.602         -49.3411        -82.6805         -49.3407        -82.6823       -0.0228439         142.955
0.616                   -2.44571          176.68         -49.2694        -84.8056         -49.2689        -84.8075        -0.023091         142.875
0.617                   -2.45812         175.736         -49.1961        -86.9233         -49.1957        -86.9253       -0.0233418         142.794
0.618                   -2.47337         174.771         -49.1214        -89.0347          -49.121        -89.0368       -0.0235964         142.713
0.619                   -2.49157         173.785         -49.0451         -91.141         -49.0446        -91.1433       -0.0238549         142.632
0.62                    -2.51283         172.779         -48.9672        -93.2435         -48.9668        -93.2459       -0.0241174         142.551
0.621                   -2.53727         171.753         -48.8878        -95.3433         -48.8874        -95.3457        -0.024384         142.469
0.622                   -2.56501         170.708         -48.8069        -97.4414         -48.8065        -97.4438       -0.0246547         142.387
0.623                   -2.59618         169.644         -48.7245        -99.5389         -48.7241        -99.5413       -0.0249296         142.305
0.624                    -2.6309         168.562         -48.6407        -101.637         -48.6403        -101.639       -0.0252088         142.223
0.625                    -2.6693         167.462         -48.5555        -103.736         -48.5552        -103.738       -0.0254923          142.14
0.626                   -2.71151         166.344          -48.469        -105.838         -48.4687         -105.84       -0.0257803         142.057
0.627                   -2.75768         165.209         -48.3812        -107.942         -48.3809        -107.945       -0.0260728         141.974
0.628                   -2.80795         164.057         -48.2922        -110.051          -48.292        -110.053       -0.0263699         141.891
0.629                   -2.86248         162.889         -48.2022        -112.165          -48.202        -112.167       -0.0266716         141.807
