! TOUCHSTONE file generated by CST MICROWAVE STUDIO
! Date and time: Fri Dec 11 13:53:00 2020
! Project name: Scenario_1_Planar_Body_Tissue_Out_of_Line_v2.cst
! Parameters = {dy1=-294.1; L_HA=400; Ltissue=700; MT=2.54; Rad_Dielectric=30; Rad_Lower=7.3; Rad_Upper=30; Wtissue=700; a_HA=580; a_WG=246; b_HA=500; b_WG=121; c_HA=0; c_WG=187; d_feed=85; dx1=520; h_feed=15; h_lower=18; h_upper=40; hfat=3; hgap=25; hmuscle=50; hskin=1.5}
! Header version: 2018
! Port assignment regex: !\s*Touchstone port\s*([0-9]+)\s*=\s*(CST MWS port|CST DS port)\s*([0-9]+|Zmin|Zmax)\s*\(\"(.*)\"\)(\s*mode\s*([0-9]+))?.*
! Touchstone port assignment:
! Touchstone port 1 = CST MWS port 1 ("")
! Touchstone port 2 = CST MWS port 2 ("")
# GHz S DB R 50
0.5                   -0.0984271        -121.971         -64.4775        -75.5122         -64.4771        -75.5084      -0.00734595          151.15
0.501                  -0.122489        -122.447         -64.2485        -75.9045         -64.2547        -75.9261      -0.00742222         151.085
0.502                   -0.14652        -122.922         -64.0142        -76.3347          -64.027        -76.3795      -0.00749938          151.02
0.503                  -0.170511        -123.395         -63.7745        -76.8044          -63.794        -76.8701      -0.00757744         150.954
0.504                  -0.194453        -123.866         -63.5295        -77.3149         -63.5556        -77.3992       -0.0076564         150.889
0.505                  -0.218337        -124.336         -63.2794        -77.8678          -63.312        -77.9686      -0.00773626         150.823
0.506                  -0.242154        -124.804          -63.024        -78.4646         -63.0631        -78.5796      -0.00781704         150.757
0.507                  -0.265896         -125.27         -62.7634         -79.107         -62.8089        -79.2339      -0.00789873         150.692
0.508                  -0.289555        -125.735         -62.4977        -79.7965         -62.5495        -79.9332      -0.00798134         150.626
0.509                  -0.313123        -126.199          -62.227        -80.5349         -62.2849        -80.6791      -0.00806488          150.56
0.51                   -0.336593        -126.661         -61.9512        -81.3239         -62.0152        -81.4734      -0.00814936         150.494
0.511                  -0.359956        -127.122         -61.6706        -82.1653         -61.7403         -82.318      -0.00823476         150.428
0.512                  -0.383206        -127.582          -61.385        -83.0611         -61.4605        -83.2148      -0.00832112         150.362
0.513                  -0.406335        -128.041         -61.0948        -84.0132         -61.1757        -84.1658      -0.00840842         150.296
0.514                  -0.429337        -128.499         -60.7998        -85.0237          -60.886         -85.173      -0.00849667         150.229
0.515                  -0.452205        -128.956         -60.5003        -86.0947         -60.5916        -86.2388      -0.00858588         150.163
0.516                  -0.474933        -129.412         -60.1964        -87.2285         -60.2925        -87.3653      -0.00867606         150.097
0.517                  -0.497514        -129.867         -59.8883        -88.4275         -59.9889        -88.5549      -0.00876721          150.03
0.518                  -0.519942        -130.322         -59.5761         -89.694          -59.681        -89.8101      -0.00885933         149.964
0.519                  -0.542212        -130.776         -59.2601        -91.0308         -59.3689        -91.1336      -0.00895244         149.897
0.52                   -0.564318        -131.229         -58.9404        -92.4403         -59.0529         -92.528      -0.00904653          149.83
0.521                  -0.586254        -131.682         -58.6175        -93.9254         -58.7333        -93.9961      -0.00914161         149.763
0.522                  -0.608015        -132.134         -58.2915        -95.4888         -58.4103        -95.5409      -0.00923769         149.696
0.523                  -0.629596        -132.587         -57.9629        -97.1336         -58.0842        -97.1652      -0.00933477         149.629
0.524                  -0.650993        -133.039         -57.6321        -98.8625         -57.7555        -98.8722      -0.00943285         149.562
0.525                    -0.6722        -133.491         -57.2996        -100.679         -57.4247        -100.665      -0.00953195         149.495
0.526                  -0.693213        -133.942          -56.966        -102.585         -57.0923        -102.546      -0.00963206         149.428
0.527                  -0.714027        -134.394         -56.6318        -104.584         -56.7588        -104.519      -0.00973319          149.36
0.528                   -0.73464        -134.846         -56.2978        -106.678          -56.425        -106.587      -0.00983534         149.293
0.529                  -0.755046        -135.298         -55.9648        -108.871         -56.0917        -108.752      -0.00993852         149.225
0.53                   -0.775241        -135.751         -55.6336        -111.164         -55.7596        -111.017       -0.0100427         149.158
0.531                  -0.795224        -136.204         -55.3052        -113.558         -55.4297        -113.383        -0.010148          149.09
0.532                  -0.814989        -136.657         -54.9808        -116.056         -55.1031        -115.854       -0.0102542         149.022
0.533                  -0.834534        -137.111         -54.6614        -118.658         -54.7809        -118.428       -0.0103615         148.954
0.534                  -0.853856        -137.566         -54.3482        -121.364         -54.4644        -121.107       -0.0104698         148.886
0.535                  -0.872951        -138.021         -54.0427        -124.171         -54.1548        -123.891       -0.0105792         148.818
0.536                  -0.891819        -138.478          -53.746        -127.079         -53.8534        -126.776       -0.0106896          148.75
0.537                  -0.910455        -138.935         -53.4597        -130.084         -53.5618        -129.761        -0.010801         148.682
0.538                  -0.928858        -139.394         -53.1849        -133.181         -53.2814        -132.841       -0.0109134         148.613
0.539                  -0.947025        -139.853         -52.9232        -136.364         -53.0134        -136.011       -0.0110268         148.545
0.54                   -0.964956        -140.314         -52.6758        -139.626         -52.7593        -139.264       -0.0111413         148.476
0.541                  -0.982648        -140.777         -52.4437        -142.957         -52.5202         -142.59       -0.0112567         148.408
0.542                    -1.0001        -141.241          -52.228        -146.348         -52.2974        -145.982       -0.0113731         148.339
0.543                   -1.01731        -141.706         -52.0295        -149.788         -52.0916        -149.427       -0.0114905          148.27
0.544                   -1.03428        -142.174         -51.8487        -153.265         -51.9036        -152.913       -0.0116089         148.201
0.545                   -1.05101        -142.643          -51.686        -156.766         -51.7338        -156.429       -0.0117281         148.132
0.546                   -1.06749        -143.114         -51.5413         -160.28         -51.5823        -159.962       -0.0118483         148.063
0.547                   -1.08373        -143.587         -51.4146        -163.792          -51.449        -163.497       -0.0119694         147.993
0.548                   -1.09973        -144.063         -51.3052        -167.291         -51.3336        -167.023       -0.0120913         147.924
0.549                   -1.11548        -144.541         -51.2126        -170.767         -51.2354        -170.529       -0.0122141         147.855
0.55                    -1.13099        -145.021         -51.1357        -174.208         -51.1536        -174.001       -0.0123376         147.785
0.551                   -1.14626        -145.504         -51.0735        -177.605          -51.087        -177.432       -0.0124619         147.715
0.552                   -1.16129         -145.99         -51.0248          179.05         -51.0345         179.188       -0.0125869         147.645
0.553                   -1.17608        -146.478         -50.9883         175.763         -50.9947         175.866       -0.0127126         147.575
0.554                   -1.19064         -146.97         -50.9625         172.539         -50.9664         172.607       -0.0128389         147.505
0.555                   -1.20496        -147.465         -50.9463         169.382          -50.948         169.416       -0.0129658         147.435
0.556                   -1.21905        -147.963         -50.9381         166.295         -50.9383         166.296       -0.0130932         147.365
0.557                   -1.23291        -148.465         -50.9368          163.28         -50.9358         163.248        -0.013221         147.295
0.558                   -1.24655         -148.97          -50.941         160.335         -50.9393         160.274       -0.0133492         147.224
0.559                   -1.25996        -149.479         -50.9496         157.462         -50.9475         157.374       -0.0134778         147.153
0.56                    -1.27316        -149.992         -50.9616          154.66         -50.9594         154.545       -0.0136066         147.083
0.561                   -1.28615        -150.509         -50.9759         151.926         -50.9739         151.787       -0.0137357         147.012
0.562                   -1.29894        -151.031         -50.9918         149.259         -50.9901         149.098       -0.0138649         146.941
0.563                   -1.31152        -151.557         -51.0083         146.655         -51.0071         146.476       -0.0139942          146.87
0.564                   -1.32391        -152.087         -51.0248         144.114         -51.0243         143.916       -0.0141236         146.798
0.565                   -1.33612        -152.623         -51.0407         141.631         -51.0409         141.418        -0.014253         146.727
0.566                   -1.34815        -153.163         -51.0554         139.204         -51.0564         138.977       -0.0143824         146.655
0.567                   -1.36001        -153.709         -51.0684         136.829         -51.0704         136.591       -0.0145119         146.584
0.568                   -1.37171         -154.26         -51.0794         134.505         -51.0823         134.257       -0.0146413         146.512
0.569                   -1.38327        -154.816          -51.088         132.227         -51.0918         131.972       -0.0147708          146.44
0.57                    -1.39468        -155.379          -51.094         129.994         -51.0986         129.732       -0.0149004         146.368
0.571                   -1.40598        -155.948          -51.097         127.802         -51.1025         127.534       -0.0150301         146.296
0.572                   -1.41716        -156.522         -51.0969         125.649         -51.1032         125.377       -0.0151602         146.223
0.573                   -1.42825        -157.104         -51.0935         123.531         -51.1006         123.258       -0.0152906         146.151
0.574                   -1.43927        -157.692         -51.0867         121.448         -51.0946         121.173       -0.0154215         146.078
0.575                   -1.45021        -158.287         -51.0764         119.395          -51.085          119.12       -0.0155532         146.005
0.576                   -1.46112        -158.889         -51.0625         117.372         -51.0718         117.097       -0.0156857         145.932
0.577                     -1.472        -159.499         -51.0449         115.376         -51.0549         115.103       -0.0158194         145.859
0.578                   -1.48289        -160.117         -51.0237         113.404         -51.0342         113.134       -0.0159544         145.786
0.579                   -1.49379        -160.743         -50.9989         111.456         -51.0099         111.188       -0.0160909         145.713
0.58                    -1.50475        -161.377         -50.9703         109.529         -50.9817         109.265       -0.0162291         145.639
0.581                   -1.51578        -162.019          -50.938         107.621         -50.9499         107.361       -0.0163694         145.565
0.582                   -1.52691        -162.671         -50.9022         105.731         -50.9143         105.476       -0.0165119         145.491
0.583                   -1.53819        -163.332         -50.8626         103.857         -50.8751         103.608       -0.0166568         145.417
0.584                   -1.54964        -164.002         -50.8195         101.998         -50.8322         101.755       -0.0168043         145.343
0.585                   -1.56129        -164.682         -50.7729         100.153         -50.7858         99.9155       -0.0169546         145.268
0.586                    -1.5732        -165.372         -50.7228         98.3192         -50.7358         98.0886       -0.0171078         145.194
0.587                   -1.58541        -166.073         -50.6693         96.4965         -50.6824         96.2728       -0.0172641         145.119
0.588                   -1.59796        -166.785         -50.6125         94.6833         -50.6256         94.4668       -0.0174236         145.044
0.589                    -1.6109        -167.508         -50.5523         92.8786         -50.5655         92.6694       -0.0175863         144.969
0.59                    -1.62429        -168.243          -50.489         91.0811         -50.5021         90.8795       -0.0177524         144.894
0.591                   -1.63819        -168.989         -50.4225           89.29         -50.4355          89.096       -0.0179219         144.818
0.592                   -1.65265        -169.748         -50.3529          87.504         -50.3658         87.3179       -0.0180948         144.742
0.593                   -1.66776        -170.519         -50.2804         85.7224         -50.2932         85.5441       -0.0182711         144.667
0.594                   -1.68358        -171.304          -50.205         83.9441         -50.2176         83.7738       -0.0184509         144.591
0.595                   -1.70019        -172.102         -50.1268         82.1682         -50.1392         82.0059       -0.0186341         144.514
0.596                   -1.71768        -172.914         -50.0459         80.3939          -50.058         80.2396       -0.0188207         144.438
0.597                   -1.73614         -173.74         -49.9624         78.6203         -49.9742          78.474       -0.0190107         144.361
0.598                   -1.75567         -174.58         -49.8763         76.8467         -49.8878         76.7083       -0.0192041         144.285
0.599                   -1.77638        -175.436         -49.7878         75.0722          -49.799         74.9417       -0.0194008         144.208
0.6                     -1.79837        -176.307          -49.697         73.2961         -49.7078         73.1734       -0.0196009         144.131
0.601                   -1.82178        -177.194         -49.6039         71.5177         -49.6143         71.4027       -0.0198043         144.053
0.602                   -1.84673        -178.096         -49.5087         69.7363         -49.5187         69.6289       -0.0200109         143.976
0.603                   -1.87336        -179.015         -49.4114         67.9512          -49.421         67.8512       -0.0202208         143.898
0.604                   -1.90183        -179.951         -49.3123         66.1617         -49.3214          66.069       -0.0204339          143.82
0.605                    -1.9323         179.096         -49.2113         64.3672           -49.22         64.2817       -0.0206502         143.742
0.606                   -1.96493         178.126         -49.1085         62.5672         -49.1168         62.4886       -0.0208697         143.664
0.607                   -1.99992         177.138         -49.0042          60.761          -49.012         60.6892       -0.0210923         143.585
0.608                   -2.03746         176.133         -48.8984          58.948         -48.9057         58.8828       -0.0213182         143.507
0.609                   -2.07775          175.11         -48.7912         57.1278          -48.798         57.0689       -0.0215472         143.428
0.61                    -2.12102         174.069         -48.6828         55.2998          -48.689          55.247       -0.0217794         143.349
0.611                    -2.1675          173.01         -48.5732         53.4635         -48.5789         53.4167       -0.0220148         143.269
0.612                   -2.21745         171.934         -48.4626         51.6185         -48.4678         51.5773       -0.0222534          143.19
0.613                   -2.27111          170.84         -48.3511         49.7644         -48.3558         49.7286       -0.0224952          143.11
0.614                   -2.32877         169.729         -48.2389         47.9008          -48.243         47.8701       -0.0227402          143.03
0.615                   -2.39072         168.601          -48.126         46.0272         -48.1297         46.0014       -0.0229885          142.95
0.616                   -2.45726         167.457         -48.0126         44.1434         -48.0158         44.1223       -0.0232401          142.87
0.617                   -2.52869         166.298         -47.8989         42.2492         -47.9015         42.2323        -0.023495         142.789
0.618                   -2.60535         165.124         -47.7849         40.3441         -47.7871         40.3313       -0.0237533         142.708
0.619                   -2.68757         163.936         -47.6709          38.428         -47.6725          38.419        -0.024015         142.627
0.62                     -2.7757         162.736         -47.5569         36.5008          -47.558         36.4952       -0.0242801         142.546
0.621                   -2.87008         161.526         -47.4431         34.5622         -47.4438         34.5599       -0.0245487         142.464
0.622                   -2.97108         160.307         -47.3296         32.6123         -47.3298         32.6129       -0.0248208         142.382
0.623                   -3.07905         159.081         -47.2167          30.651         -47.2164         30.6542       -0.0250965           142.3
0.624                   -3.19434          157.85         -47.1043         28.6783         -47.1036         28.6838       -0.0253758         142.218
0.625                   -3.31731         156.617         -46.9927         26.6942         -46.9916         26.7018       -0.0256588         142.135
0.626                   -3.44831         155.385         -46.8821          24.699         -46.8806         24.7083       -0.0259456         142.052
0.627                   -3.58765         154.158         -46.7725         22.6926         -46.7706         22.7036       -0.0262363         141.969
0.628                   -3.73564         152.938         -46.6641         20.6755         -46.6618         20.6877       -0.0265308         141.886
0.629                   -3.89258          151.73          -46.557         18.6479         -46.5544         18.6611       -0.0268292         141.802
