! TOUCHSTONE file generated by CST MICROWAVE STUDIO
! Date and time: Sat Nov 14 19:58:25 2020
! Project name: Scenario_1_Planar_Body_Tissue_Out_of_Line.cst
! Parameters = {dy1=294.1; L_HA=400; Ltissue=700; MT=2.54; Rad_Dielectric=30; Rad_Lower=7.3; Rad_Upper=30; Wtissue=700; a_HA=580; a_WG=246; b_HA=500; b_WG=121; c_HA=0; c_WG=187; d_feed=85; dx1=693; h_feed=15; h_lower=18; h_upper=40; hfat=3; hgap=25; hmuscle=50; hskin=1.5}
! Header version: 2018
! Port assignment regex: !\s*Touchstone port\s*([0-9]+)\s*=\s*(CST MWS port|CST DS port)\s*([0-9]+|Zmin|Zmax)\s*\(\"(.*)\"\)(\s*mode\s*([0-9]+))?.*
! Touchstone port assignment:
! Touchstone port 1 = CST MWS port 1 ("")
! Touchstone port 2 = CST MWS port 2 ("")
# GHz S DB R 50
0.5                    -0.176149        -121.665         -63.1727         168.355         -63.1718         168.356      -0.00773358         151.162
0.501                  -0.179218        -122.085         -63.1249         166.269          -63.124          166.27      -0.00779186         151.097
0.502                  -0.182363        -122.507         -63.0711         164.174         -63.0702         164.175      -0.00785085         151.032
0.503                  -0.185588        -122.932         -63.0113         162.071         -63.0104         162.072      -0.00791057         150.967
0.504                  -0.188893        -123.359         -62.9455         159.962         -62.9447         159.962      -0.00797103         150.901
0.505                  -0.192283        -123.789         -62.8738         157.848          -62.873         157.849      -0.00803222         150.836
0.506                  -0.195759        -124.221         -62.7963         155.733         -62.7954         155.733      -0.00809417          150.77
0.507                  -0.199324        -124.656         -62.7129         153.616         -62.7121         153.616      -0.00815688         150.705
0.508                  -0.202982        -125.094         -62.6238         151.499          -62.623           151.5      -0.00822036         150.639
0.509                  -0.206736        -125.534         -62.5291         149.385         -62.5283         149.386      -0.00828462         150.573
0.51                   -0.210589        -125.977         -62.4289         147.275         -62.4281         147.275      -0.00834967         150.508
0.511                  -0.214545        -126.423         -62.3234         145.169         -62.3226         145.169      -0.00841552         150.442
0.512                  -0.218607        -126.871         -62.2127         143.069          -62.212         143.069      -0.00848219         150.376
0.513                  -0.222781        -127.323         -62.0971         140.976         -62.0963         140.976      -0.00854967          150.31
0.514                   -0.22707        -127.777         -61.9766         138.892         -61.9759         138.892      -0.00861799         150.243
0.515                  -0.231479        -128.234         -61.8516         136.816         -61.8508         136.816      -0.00868716         150.177
0.516                  -0.236012        -128.695         -61.7221          134.75         -61.7214          134.75      -0.00875718         150.111
0.517                  -0.240677        -129.159         -61.5884         132.695         -61.5877         132.695      -0.00882806         150.045
0.518                  -0.245477        -129.625         -61.4507         130.651           -61.45          130.65      -0.00889983         149.978
0.519                  -0.250419        -130.095         -61.3092         128.618         -61.3085         128.617      -0.00897248         149.912
0.52                    -0.25551        -130.569         -61.1641         126.596         -61.1634         126.596      -0.00904604         149.845
0.521                  -0.260757        -131.046         -61.0157         124.587          -61.015         124.586      -0.00912051         149.778
0.522                  -0.266166        -131.526         -60.8641          122.59         -60.8634         122.589       -0.0091959         149.711
0.523                  -0.271746         -132.01         -60.7095         120.604         -60.7088         120.603      -0.00927224         149.644
0.524                  -0.277505        -132.497         -60.5522         118.631         -60.5515          118.63      -0.00934952         149.577
0.525                  -0.283453        -132.989         -60.3923         116.669         -60.3916         116.668      -0.00942777          149.51
0.526                  -0.289599        -133.483           -60.23         114.719         -60.2293         114.718        -0.009507         149.443
0.527                  -0.295953        -133.982         -60.0656          112.78         -60.0649         112.779      -0.00958722         149.376
0.528                  -0.302527        -134.485         -59.8991         110.852         -59.8984         110.851      -0.00966845         149.308
0.529                  -0.309333        -134.992         -59.7308         108.934         -59.7301         108.933      -0.00975069         149.241
0.53                   -0.316383        -135.503         -59.5609         107.026         -59.5602         107.025      -0.00983397         149.173
0.531                  -0.323692        -136.018         -59.3894         105.128         -59.3887         105.126      -0.00991829         149.106
0.532                  -0.331275        -136.538         -59.2166         103.238         -59.2159         103.237       -0.0100037         149.038
0.533                  -0.339148        -137.062         -59.0426         101.356         -59.0419         101.355       -0.0100901          148.97
0.534                  -0.347329         -137.59         -58.8675          99.482         -58.8669         99.4803       -0.0101777         148.902
0.535                  -0.355836        -138.123         -58.6915         97.6144         -58.6909         97.6127       -0.0102664         148.834
0.536                  -0.364689        -138.661         -58.5148         95.7528         -58.5141         95.7511       -0.0103562         148.766
0.537                  -0.373912        -139.204         -58.3373         93.8966         -58.3366         93.8948       -0.0104471         148.698
0.538                  -0.383527        -139.752         -58.1593         92.0448         -58.1586          92.043       -0.0105392         148.629
0.539                   -0.39356        -140.305         -57.9808         90.1969         -57.9801          90.195       -0.0106324         148.561
0.54                    -0.40404        -140.863          -57.802         88.3519         -57.8013           88.35       -0.0107269         148.492
0.541                  -0.414996        -141.426         -57.6229         86.5091         -57.6222         86.5071       -0.0108226         148.423
0.542                  -0.426462        -141.995         -57.4437         84.6678         -57.4431         84.6658       -0.0109195         148.355
0.543                  -0.438473        -142.569         -57.2644          82.827         -57.2638          82.825       -0.0110176         148.286
0.544                  -0.451067         -143.15         -57.0852         80.9862         -57.0846         80.9841        -0.011117         148.217
0.545                  -0.464287        -143.735         -56.9062         79.1443         -56.9055         79.1423       -0.0112177         148.148
0.546                  -0.478178        -144.327         -56.7273         77.3008         -56.7267         77.2987       -0.0113198         148.078
0.547                   -0.49279        -144.925         -56.5487         75.4547         -56.5481         75.4526       -0.0114231         148.009
0.548                  -0.508177        -145.529         -56.3706         73.6054         -56.3699         73.6033       -0.0115278          147.94
0.549                  -0.524396        -146.139         -56.1928         71.7521         -56.1922           71.75       -0.0116339          147.87
0.55                   -0.541512        -146.756         -56.0156         69.8939          -56.015         69.8918       -0.0117413           147.8
0.551                  -0.559593        -147.378          -55.839         68.0303         -55.8384         68.0282       -0.0118502         147.731
0.552                  -0.578714        -148.008         -55.6631         66.1604         -55.6625         66.1583       -0.0119605         147.661
0.553                  -0.598956        -148.643         -55.4879         64.2836         -55.4873         64.2815       -0.0120723         147.591
0.554                  -0.620407        -149.285         -55.3135         62.3992          -55.313         62.3971       -0.0121856         147.521
0.555                  -0.643161        -149.934         -55.1401         60.5065         -55.1395         60.5044       -0.0123005          147.45
0.556                  -0.667323        -150.588         -54.9676         58.6048          -54.967         58.6027       -0.0124168          147.38
0.557                  -0.693002        -151.249         -54.7961         56.6936         -54.7956         56.6916       -0.0125348          147.31
0.558                  -0.720317        -151.916         -54.6258         54.7722         -54.6252         54.7702       -0.0126544         147.239
0.559                  -0.749395        -152.588         -54.4566         52.8401         -54.4561         52.8382       -0.0127756         147.168
0.56                   -0.780373        -153.266         -54.2887         50.8967         -54.2882         50.8948       -0.0128985         147.097
0.561                  -0.813393        -153.948         -54.1221         48.9416         -54.1216         48.9397       -0.0130231         147.026
0.562                  -0.848609        -154.635         -53.9569         46.9741         -53.9564         46.9723       -0.0131495         146.955
0.563                  -0.886178        -155.326         -53.7932         44.9939         -53.7927         44.9921       -0.0132777         146.884
0.564                  -0.926265        -156.019          -53.631         43.0005         -53.6305         42.9988       -0.0134078         146.813
0.565                  -0.969036        -156.713         -53.4704         40.9936           -53.47         40.9919       -0.0135398         146.741
0.566                   -1.01466        -157.408         -53.3115         38.9727         -53.3111         38.9711       -0.0136737         146.669
0.567                    -1.0633        -158.102         -53.1544         36.9377          -53.154         36.9362       -0.0138097         146.598
0.568                   -1.11511        -158.792         -52.9992         34.8882         -52.9988         34.8867       -0.0139477         146.526
0.569                   -1.17023        -159.478         -52.8458         32.8239         -52.8454         32.8225       -0.0140879         146.454
0.57                    -1.22877        -160.156         -52.6945         30.7448         -52.6941         30.7435       -0.0142303         146.382
0.571                   -1.29082        -160.824         -52.5452         28.6506         -52.5448         28.6494       -0.0143751         146.309
0.572                   -1.35642        -161.478         -52.3981         26.5413         -52.3977         26.5402       -0.0145222         146.237
0.573                   -1.42553        -162.116         -52.2531         24.4169         -52.2528         24.4159        -0.014672         146.164
0.574                   -1.49807        -162.733         -52.1105         22.2773         -52.1102         22.2764       -0.0148244         146.091
0.575                   -1.57382        -163.326         -51.9702         20.1226         -51.9699         20.1218       -0.0149796         146.018
0.576                    -1.6525         -163.89         -51.8323         17.9529          -51.832         17.9522       -0.0151379         145.945
0.577                   -1.73367        -164.422         -51.6968         15.7684         -51.6966         15.7678       -0.0152993         145.872
0.578                   -1.81676        -164.917         -51.5639         13.5693         -51.5637         13.5688       -0.0154641         145.799
0.579                   -1.90104        -165.372         -51.4336         11.3558         -51.4334         11.3554       -0.0156326         145.725
0.58                    -1.98566        -165.784          -51.306         9.12823         -51.3057         9.12798        -0.015805         145.652
0.581                   -2.06961         -166.15         -51.1809         6.88697         -51.1807         6.88684       -0.0159816         145.578
0.582                   -2.15175         -166.47         -51.0587         4.63241         -51.0584          4.6324       -0.0161626         145.504
0.583                   -2.23087        -166.745         -50.9391         2.36499         -50.9389         2.36511       -0.0163484          145.43
0.584                   -2.30574        -166.975         -50.8224       0.0852105         -50.8222       0.0854517       -0.0165389         145.356
0.585                   -2.37514        -167.165         -50.7084        -2.20641         -50.7082        -2.20604       -0.0167339         145.282
0.586                   -2.43794        -167.321         -50.5972        -4.50929         -50.5971         -4.5088       -0.0169329         145.207
0.587                   -2.49318        -167.448         -50.4889        -6.82284         -50.4888        -6.82223       -0.0171343         145.133
0.588                   -2.54011        -167.557         -50.3834        -9.14643         -50.3833        -9.14568       -0.0173358         145.058
0.589                   -2.57827        -167.655         -50.2807        -11.4794         -50.2806        -11.4785       -0.0175337         144.983
0.59                    -2.60745        -167.753         -50.1808         -13.821         -50.1807          -13.82       -0.0177238         144.908
0.591                   -2.62778         -167.86         -50.0836        -16.1706         -50.0835        -16.1695        -0.017902         144.833
0.592                   -2.63962        -167.986         -49.9892        -18.5274         -49.9891        -18.5262       -0.0180663         144.758
0.593                   -2.64359        -168.137         -49.8975        -20.8907         -49.8974        -20.8894       -0.0182181         144.683
0.594                    -2.6405        -168.321         -49.8084        -23.2597         -49.8083        -23.2583       -0.0183617         144.607
0.595                   -2.63128        -168.544         -49.7219        -25.6337         -49.7218        -25.6322       -0.0185028         144.531
0.596                   -2.61691         -168.81         -49.6379        -28.0119         -49.6378        -28.0103       -0.0186469         144.455
0.597                   -2.59843        -169.121         -49.5563        -30.3935         -49.5563        -30.3918       -0.0187976         144.378
0.598                   -2.57683        -169.478         -49.4771        -32.7779         -49.4771         -32.776       -0.0189567         144.302
0.599                   -2.55304        -169.883         -49.4002        -35.1641         -49.4002        -35.1622       -0.0191247         144.225
0.6                     -2.52791        -170.335         -49.3254        -37.5516         -49.3254        -37.5496       -0.0193013         144.148
0.601                   -2.50222        -170.832         -49.2528        -39.9395         -49.2527        -39.9374       -0.0194858          144.07
0.602                   -2.47663        -171.372          -49.182        -42.3272          -49.182        -42.3251       -0.0196774         143.993
0.603                   -2.45171        -171.955         -49.1131        -44.7141         -49.1131        -44.7119       -0.0198754         143.915
0.604                   -2.42794        -172.578          -49.046        -47.0994          -49.046        -47.0972       -0.0200791         143.837
0.605                   -2.40571        -173.238         -48.9804        -49.4826         -48.9804        -49.4803       -0.0202881         143.759
0.606                   -2.38535        -173.933         -48.9163         -51.863         -48.9163        -51.8607       -0.0205019         143.681
0.607                   -2.36711        -174.661         -48.8535        -54.2402         -48.8535        -54.2379       -0.0207202         143.602
0.608                   -2.35121         -175.42          -48.792        -56.6136          -48.792        -56.6113       -0.0209428         143.524
0.609                   -2.33779        -176.209         -48.7315        -58.9827         -48.7315        -58.9804       -0.0211695         143.445
0.61                    -2.32699        -177.024         -48.6719        -61.3471         -48.6719        -61.3447       -0.0214001         143.366
0.611                   -2.31891        -177.866         -48.6131        -63.7064         -48.6131         -63.704       -0.0216346         143.286
0.612                   -2.31361        -178.732          -48.555        -66.0601          -48.555        -66.0578       -0.0218729         143.207
0.613                   -2.31115        -179.622         -48.4974        -68.4081         -48.4974        -68.4058       -0.0221149         143.127
0.614                   -2.31158         179.467         -48.4401        -70.7499         -48.4401        -70.7477       -0.0223607         143.047
0.615                   -2.31495         178.534         -48.3831        -73.0854         -48.3831        -73.0832       -0.0226102         142.967
0.616                   -2.32128         177.581         -48.3263        -75.4143         -48.3263        -75.4122       -0.0228634         142.887
0.617                   -2.33061         176.609         -48.2694        -77.7365         -48.2694        -77.7344       -0.0231204         142.806
0.618                   -2.34298         175.617         -48.2123        -80.0518         -48.2123        -80.0497       -0.0233812         142.725
0.619                   -2.35843         174.607          -48.155          -82.36          -48.155        -82.3581       -0.0236457         142.644
0.62                      -2.377         173.578         -48.0973        -84.6612         -48.0973        -84.6594       -0.0239141         142.563
0.621                   -2.39875         172.532         -48.0391        -86.9554         -48.0391        -86.9536       -0.0241864         142.481
0.622                   -2.42373         171.468         -47.9803        -89.2424         -47.9803        -89.2407       -0.0244627         142.399
0.623                     -2.452         170.387         -47.9208        -91.5224         -47.9208        -91.5208       -0.0247429         142.317
0.624                   -2.48365         169.288         -47.8604        -93.7954         -47.8604        -93.7939       -0.0250271         142.235
0.625                   -2.51876         168.172         -47.7992        -96.0616         -47.7992        -96.0601       -0.0253154         142.153
0.626                   -2.55742         167.039         -47.7369         -98.321         -47.7369        -98.3197       -0.0256079          142.07
0.627                   -2.59974          165.89         -47.6736        -100.574         -47.6736        -100.573       -0.0259045         141.987
0.628                   -2.64585         164.723         -47.6091         -102.82         -47.6091        -102.819       -0.0262055         141.903
0.629                   -2.69587         163.539         -47.5434        -105.061         -47.5434         -105.06       -0.0265107          141.82
