! TOUCHSTONE file generated by CST MICROWAVE STUDIO
! Date and time: Tue Nov 17 07:10:09 2020
! Project name: Scenario_1_Planar_Body_Tissue_Out_of_Line.cst
! Header version: 2018
! Port assignment regex: !\s*Touchstone port\s*([0-9]+)\s*=\s*(CST MWS port|CST DS port)\s*([0-9]+|Zmin|Zmax)\s*\(\"(.*)\"\)(\s*mode\s*([0-9]+))?.*
! Touchstone port assignment:
! Touchstone port 1 = CST MWS port 1 ("")
! Touchstone port 2 = CST MWS port 2 ("")
# GHz S DB R 50
0.5                    -0.145756        -121.705         -65.7217        -29.4331          -65.721        -29.4284      -0.00760888         151.159
0.501                  -0.148508        -122.139         -65.6722        -31.3394         -65.6716        -31.3351      -0.00767306         151.094
0.502                  -0.151378        -122.576         -65.6162        -33.2627         -65.6158        -33.2589      -0.00773788         151.028
0.503                  -0.154373        -123.016         -65.5536        -35.2018         -65.5533        -35.1985      -0.00780333         150.963
0.504                    -0.1575        -123.459         -65.4844        -37.1555         -65.4842        -37.1526      -0.00786943         150.898
0.505                  -0.160767        -123.905         -65.4086        -39.1225         -65.4085        -39.1201      -0.00793619         150.832
0.506                  -0.164182        -124.354         -65.3262        -41.1018         -65.3262        -41.0998      -0.00800362         150.767
0.507                  -0.167753        -124.806         -65.2372        -43.0922         -65.2372        -43.0905      -0.00807171         150.701
0.508                  -0.171491        -125.262         -65.1416        -45.0927         -65.1417        -45.0913      -0.00814049         150.635
0.509                  -0.175405        -125.721         -65.0394        -47.1022         -65.0396        -47.1012      -0.00820997          150.57
0.51                   -0.179507        -126.183         -64.9308          -49.12          -64.931        -49.1192      -0.00828015         150.504
0.511                  -0.183808        -126.649         -64.8158        -51.1452         -64.8161        -51.1446      -0.00835105         150.438
0.512                  -0.188321        -127.119         -64.6945        -53.1771         -64.6948        -53.1767      -0.00842267         150.372
0.513                   -0.19306        -127.591          -64.567        -55.2153         -64.5673        -55.2151      -0.00849504         150.306
0.514                   -0.19804        -128.068         -64.4334        -57.2592         -64.4337        -57.2591      -0.00856816         150.239
0.515                  -0.203275        -128.548         -64.2938        -59.3086         -64.2942        -59.3085      -0.00864205         150.173
0.516                  -0.208785        -129.032         -64.1484        -61.3632         -64.1488        -61.3632      -0.00871672         150.107
0.517                  -0.214587         -129.52         -63.9973        -63.4231         -63.9977        -63.4231      -0.00879219          150.04
0.518                  -0.220701        -130.012         -63.8407        -65.4882         -63.8411        -65.4882      -0.00886848         149.974
0.519                  -0.227149        -130.508         -63.6786        -67.5589          -63.679        -67.5588      -0.00894561         149.907
0.52                   -0.233954        -131.008         -63.5113        -69.6353         -63.5117        -69.6352      -0.00902359         149.841
0.521                  -0.241141        -131.512         -63.3389        -71.7182         -63.3393        -71.7179      -0.00910245         149.774
0.522                  -0.248738         -132.02         -63.1616         -73.808         -63.1619        -73.8076      -0.00918221         149.707
0.523                  -0.256773        -132.532         -62.9794        -75.9054         -62.9798         -75.905       -0.0092629          149.64
0.524                  -0.265278        -133.049         -62.7927        -78.0115         -62.7931        -78.0109      -0.00934454         149.573
0.525                  -0.274287         -133.57         -62.6015        -80.1271         -62.6019        -80.1263      -0.00942716         149.506
0.526                  -0.283837        -134.095          -62.406        -82.2534         -62.4064        -82.2525      -0.00951079         149.438
0.527                  -0.293968        -134.625         -62.2065        -84.3916         -62.2068        -84.3905      -0.00959547         149.371
0.528                   -0.30472        -135.159          -62.003         -86.543         -62.0033        -86.5417      -0.00968124         149.304
0.529                  -0.316139        -135.697         -61.7957        -88.7091         -61.7961        -88.7077      -0.00976812         149.236
0.53                   -0.328275         -136.24         -61.5849        -90.8915         -61.5853        -90.8898      -0.00985618         149.169
0.531                  -0.341177        -136.786         -61.3707        -93.0917         -61.3711        -93.0899      -0.00994544         149.101
0.532                  -0.354901        -137.337         -61.1534        -95.3114         -61.1537        -95.3095        -0.010036         149.033
0.533                  -0.369505        -137.892         -60.9331        -97.5526         -60.9334        -97.5505       -0.0101278         148.965
0.534                   -0.38505        -138.451           -60.71         -99.817         -60.7103        -99.8148        -0.010221         148.897
0.535                  -0.401598        -139.013         -60.4844        -102.107         -60.4847        -102.104       -0.0103156         148.829
0.536                  -0.419217        -139.578         -60.2566        -104.423         -60.2569        -104.421       -0.0104116         148.761
0.537                  -0.437974        -140.147         -60.0268        -106.769          -60.027        -106.767       -0.0105092         148.693
0.538                  -0.457938        -140.718         -59.7953        -109.146         -59.7955        -109.144       -0.0106084         148.624
0.539                  -0.479177        -141.291         -59.5623        -111.557         -59.5625        -111.554       -0.0107092         148.556
0.54                   -0.501759        -141.866         -59.3284        -114.002         -59.3285            -114       -0.0108116         148.487
0.541                  -0.525748        -142.442         -59.0937        -116.485         -59.0938        -116.483       -0.0109158         148.418
0.542                  -0.551203        -143.018         -58.8587        -119.008         -58.8588        -119.005       -0.0110218          148.35
0.543                  -0.578174        -143.593         -58.6238        -121.571         -58.6239        -121.568       -0.0111296         148.281
0.544                    -0.6067        -144.167         -58.3895        -124.176         -58.3896        -124.174       -0.0112391         148.212
0.545                  -0.636805        -144.738         -58.1562        -126.827         -58.1563        -126.824       -0.0113505         148.143
0.546                  -0.668494        -145.304         -57.9245        -129.522         -57.9245         -129.52       -0.0114636         148.073
0.547                  -0.701746        -145.866         -57.6948        -132.264         -57.6949        -132.262       -0.0115785         148.004
0.548                  -0.736514        -146.421         -57.4679        -135.054         -57.4679        -135.052        -0.011695         147.935
0.549                  -0.772712        -146.967         -57.2443        -137.892         -57.2443         -137.89       -0.0118132         147.865
0.55                   -0.810217        -147.504         -57.0247        -140.777         -57.0246        -140.775       -0.0119329         147.795
0.551                  -0.848863         -148.03         -56.8096         -143.71         -56.8095        -143.709        -0.012054         147.726
0.552                  -0.888435        -148.543         -56.5998         -146.69         -56.5997        -146.689       -0.0121765         147.656
0.553                  -0.928669        -149.043         -56.3959        -149.715         -56.3958        -149.714       -0.0123001         147.586
0.554                  -0.969254        -149.528         -56.1987        -152.783         -56.1986        -152.783       -0.0124249         147.516
0.555                   -1.00983        -149.997         -56.0086        -155.893         -56.0085        -155.892       -0.0125506         147.445
0.556                   -1.05001         -150.45         -55.8265         -159.04         -55.8264         -159.04       -0.0126771         147.375
0.557                   -1.08938        -150.887         -55.6528        -162.221         -55.6527        -162.222       -0.0128044         147.305
0.558                   -1.12749        -151.309          -55.488        -165.433          -55.488        -165.433       -0.0129324         147.234
0.559                   -1.16393        -151.717         -55.3327        -168.669         -55.3326         -168.67       -0.0130611         147.163
0.56                    -1.19828        -152.113         -55.1871        -171.926         -55.1871        -171.927       -0.0131903         147.093
0.561                   -1.23018        -152.498         -55.0516        -175.198         -55.0516        -175.199       -0.0133202         147.022
0.562                   -1.25934        -152.876         -54.9263        -178.478         -54.9263         -178.48       -0.0134506         146.951
0.563                   -1.28551        -153.249         -54.8112         178.238         -54.8113         178.236       -0.0135816          146.88
0.564                   -1.30856         -153.62         -54.7064         174.958         -54.7064         174.955       -0.0137133         146.808
0.565                   -1.32843        -153.994         -54.6117         171.686         -54.6117         171.684       -0.0138457         146.737
0.566                   -1.34515        -154.373         -54.5267         168.429         -54.5267         168.427       -0.0139789         146.665
0.567                   -1.35884         -154.76         -54.4511         165.192         -54.4512          165.19       -0.0141129         146.594
0.568                    -1.3697        -155.159         -54.3845         161.981         -54.3846         161.979       -0.0142478         146.522
0.569                   -1.37797        -155.571         -54.3262           158.8         -54.3264         158.798       -0.0143838          146.45
0.57                    -1.38397            -156         -54.2758         155.653          -54.276         155.651       -0.0145208         146.378
0.571                   -1.38803        -156.447         -54.2324         152.545         -54.2326         152.542       -0.0146589         146.306
0.572                   -1.39049        -156.913         -54.1955         149.477         -54.1957         149.475       -0.0147983         146.233
0.573                   -1.39172        -157.399         -54.1642         146.453         -54.1644         146.451       -0.0149389         146.161
0.574                   -1.39206        -157.906         -54.1378         143.474          -54.138         143.472        -0.015081         146.088
0.575                   -1.39184        -158.435         -54.1155         140.543         -54.1158         140.541       -0.0152245         146.015
0.576                   -1.39138        -158.984         -54.0967         137.659         -54.0969         137.657       -0.0153695         145.942
0.577                   -1.39097        -159.554         -54.0804         134.823         -54.0807         134.822       -0.0155161         145.869
0.578                   -1.39088        -160.145         -54.0662         132.035         -54.0665         132.034       -0.0156644         145.796
0.579                   -1.39134        -160.756         -54.0532         129.295         -54.0535         129.294       -0.0158144         145.722
0.58                    -1.39255        -161.387         -54.0409         126.601         -54.0412           126.6       -0.0159661         145.649
0.581                   -1.39472        -162.036         -54.0286         123.953         -54.0289         123.952       -0.0161197         145.575
0.582                   -1.39801        -162.704         -54.0158         121.349         -54.0161         121.348       -0.0162751         145.501
0.583                   -1.40256        -163.389          -54.002         118.787         -54.0022         118.786       -0.0164325         145.427
0.584                    -1.4085        -164.091         -53.9867         116.265         -53.9869         116.265       -0.0165918         145.353
0.585                   -1.41596        -164.809         -53.9694         113.782         -53.9696         113.782       -0.0167532         145.279
0.586                   -1.42504        -165.543         -53.9499         111.335           -53.95         111.335       -0.0169167         145.204
0.587                   -1.43583        -166.292         -53.9276         108.923         -53.9278         108.923       -0.0170823         145.129
0.588                   -1.44842        -167.055         -53.9024         106.542         -53.9026         106.542       -0.0172501         145.055
0.589                   -1.46291        -167.832          -53.874          104.19         -53.8742         104.191         -0.01742         144.979
0.59                    -1.47937        -168.623         -53.8421         101.866         -53.8423         101.866       -0.0175923         144.904
0.591                   -1.49788        -169.427         -53.8066         99.5657         -53.8067         99.5663       -0.0177669         144.829
0.592                   -1.51853        -170.244         -53.7672         97.2881         -53.7673         97.2887       -0.0179438         144.753
0.593                   -1.54139        -171.073         -53.7238         95.0303         -53.7239          95.031       -0.0181231         144.678
0.594                   -1.56655        -171.914         -53.6764           92.79         -53.6765         92.7907       -0.0183049         144.602
0.595                    -1.5941        -172.766         -53.6248         90.5648         -53.6248         90.5656       -0.0184892         144.526
0.596                   -1.62412         -173.63          -53.569         88.3526          -53.569         88.3534        -0.018676         144.449
0.597                   -1.65671        -174.504         -53.5089         86.1508          -53.509         86.1517       -0.0188654         144.373
0.598                   -1.69197        -175.388         -53.4446         83.9574         -53.4446         83.9583       -0.0190575         144.296
0.599                      -1.73        -176.283         -53.3761         81.7702         -53.3761         81.7711       -0.0192522          144.22
0.6                     -1.77091        -177.187         -53.3034          79.587         -53.3033         79.5878       -0.0194497         144.143
0.601                   -1.81483          -178.1         -53.2265         77.4057         -53.2264         77.4065         -0.01965         144.065
0.602                   -1.86186        -179.021         -53.1455         75.2242         -53.1455         75.2251       -0.0198531         143.988
0.603                   -1.91214         -179.95         -53.0606         73.0407         -53.0605         73.0415        -0.020059          143.91
0.604                    -1.9658         179.113         -52.9718         70.8532         -52.9718          70.854       -0.0202679         143.833
0.605                   -2.02297          178.17         -52.8793         68.6599         -52.8793         68.6606       -0.0204798         143.755
0.606                    -2.0838         177.221         -52.7832         66.4589         -52.7832         66.4596       -0.0206947         143.676
0.607                   -2.14844         176.268         -52.6838         64.2486         -52.6837         64.2493       -0.0209126         143.598
0.608                   -2.21703         175.311         -52.5811         62.0274          -52.581         62.0281       -0.0211337         143.519
0.609                   -2.28973         174.351         -52.4753         59.7938         -52.4753         59.7944        -0.021358         143.441
0.61                    -2.36669          173.39         -52.3668         57.5463         -52.3667         57.5469       -0.0215854         143.362
0.611                   -2.44805         172.429         -52.2557         55.2836         -52.2556         55.2841       -0.0218162         143.282
0.612                   -2.53396         171.469         -52.1422         53.0044         -52.1422         53.0049       -0.0220502         143.203
0.613                   -2.62457         170.513         -52.0267         50.7077         -52.0267         50.7082       -0.0222876         143.123
0.614                      -2.72         169.563         -51.9093         48.3925         -51.9093          48.393       -0.0225285         143.043
0.615                   -2.82037          168.62         -51.7905         46.0579         -51.7905         46.0584       -0.0227727         142.963
0.616                   -2.92578         167.686         -51.6704         43.7032         -51.6704         43.7037       -0.0230205         142.883
0.617                   -3.03631         166.766         -51.5493         41.3278         -51.5493         41.3283       -0.0232718         142.802
0.618                   -3.15201          165.86         -51.4276         38.9314         -51.4277         38.9319       -0.0235268         142.721
0.619                    -3.2729         164.973         -51.3056         36.5138         -51.3057         36.5143       -0.0237853          142.64
0.62                    -3.39896         164.107         -51.1836         34.0747         -51.1837         34.0752       -0.0240475         142.559
0.621                    -3.5301         163.266         -51.0619         31.6144          -51.062          31.615       -0.0243135         142.478
0.622                   -3.66622         162.454         -50.9408         29.1332         -50.9409         29.1337       -0.0245832         142.396
0.623                   -3.80711         161.674         -50.8207         26.6314         -50.8207          26.632       -0.0248567         142.314
0.624                   -3.95252          160.93         -50.7018         24.1098         -50.7018         24.1104       -0.0251341         142.232
0.625                   -4.10211         160.226         -50.5843         21.5692         -50.5844         21.5698       -0.0254153         142.149
0.626                   -4.25543         159.566         -50.4687         19.0107         -50.4688         19.0113       -0.0257005         142.066
0.627                   -4.41196         158.954         -50.3552         16.4353         -50.3552         16.4359       -0.0259896         141.983
0.628                   -4.57107         158.394         -50.2439         13.8444          -50.244         13.8451       -0.0262828           141.9
0.629                   -4.73202         157.888         -50.1352         11.2396         -50.1352         11.2403         -0.02658         141.816
0.63                    -4.89396         157.441         -50.0292         8.62242         -50.0292          8.6231       -0.0268813         141.733
0.631                   -5.05595         157.054          -49.926         5.99466         -49.9261         5.99535       -0.0271868         141.649
