! TOUCHSTONE file generated by CST MICROWAVE STUDIO
! Date and time: Sat Nov 14 20:32:51 2020
! Project name: Scenario_1_Planar_Body_Tissue_Out_of_Line_v2.cst
! Parameters = {dy1=276.8; L_HA=400; Ltissue=700; MT=2.54; Rad_Dielectric=30; Rad_Lower=7.3; Rad_Upper=30; Wtissue=700; a_HA=580; a_WG=246; b_HA=500; b_WG=121; c_HA=0; c_WG=187; d_feed=85; dx1=173; h_feed=15; h_lower=18; h_upper=40; hfat=3; hgap=25; hmuscle=50; hskin=1.5}
! Header version: 2018
! Port assignment regex: !\s*Touchstone port\s*([0-9]+)\s*=\s*(CST MWS port|CST DS port)\s*([0-9]+|Zmin|Zmax)\s*\(\"(.*)\"\)(\s*mode\s*([0-9]+))?.*
! Touchstone port assignment:
! Touchstone port 1 = CST MWS port 1 ("")
! Touchstone port 2 = CST MWS port 2 ("")
# GHz S DB R 50
0.5                    -0.062253         -121.79          -66.079         116.888         -66.0769         116.894      -0.00700742         151.145
0.501                 -0.0634996        -122.253         -66.0744          118.48         -66.0675         118.441      -0.00706061         151.079
0.502                 -0.0649004         -122.72         -66.0448         120.087         -66.0339         120.003      -0.00711499         151.014
0.503                 -0.0664621         -123.19         -65.9894         121.694         -65.9753         121.563      -0.00717057         150.948
0.504                 -0.0681918        -123.664          -65.908         123.283         -65.8914         123.104      -0.00722736         150.883
0.505                 -0.0700973        -124.141         -65.8006         124.838         -65.7823          124.61      -0.00728535         150.817
0.506                 -0.0721868        -124.621         -65.6676         126.341         -65.6483         126.066      -0.00734457         150.751
0.507                  -0.074469        -125.106         -65.5097         127.776         -65.4903         127.455      -0.00740501         150.686
0.508                 -0.0769533        -125.594         -65.3283         129.128         -65.3094         128.765      -0.00746669          150.62
0.509                 -0.0796497        -126.086         -65.1246         130.386         -65.1068         129.982      -0.00752961         150.554
0.51                  -0.0825687        -126.582         -64.9003         131.537         -64.8842         131.097      -0.00759378         150.488
0.511                 -0.0857219        -127.082          -64.657         132.574          -64.643         132.101      -0.00765921         150.421
0.512                 -0.0891214        -127.586         -64.3967          133.49         -64.3851         132.988      -0.00772591         150.355
0.513                 -0.0927803        -128.095          -64.121         134.279         -64.1121         133.752      -0.00779388         150.289
0.514                 -0.0967126        -128.608         -63.8319         134.939         -63.8257         134.391      -0.00786313         150.222
0.515                  -0.100933        -129.125         -63.5308         135.469         -63.5275         134.903      -0.00793367         150.156
0.516                  -0.105459        -129.647         -63.2194         135.868          -63.219         135.288      -0.00800552         150.089
0.517                  -0.110306        -130.174         -62.8991         136.138         -62.9016         135.548      -0.00807867         150.023
0.518                  -0.115494        -130.705         -62.5712          136.28         -62.5765         135.682      -0.00815313         149.956
0.519                  -0.121043        -131.242         -62.2369         136.298         -62.2449         135.695      -0.00822893         149.889
0.52                   -0.126975        -131.783         -61.8971         136.194         -61.9077         135.589      -0.00830606         149.822
0.521                  -0.133311         -132.33         -61.5528         135.972         -61.5658         135.367      -0.00838453         149.755
0.522                  -0.140079        -132.882         -61.2048         135.635         -61.2199         135.033      -0.00846436         149.688
0.523                  -0.147305         -133.44         -60.8536         135.187         -60.8708         134.589      -0.00854555         149.621
0.524                  -0.155018        -134.003         -60.4998         134.631         -60.5189          134.04      -0.00862811         149.554
0.525                   -0.16325        -134.572         -60.1439         133.972         -60.1647         133.388      -0.00871205         149.486
0.526                  -0.172035        -135.147         -59.7862         133.213         -59.8085         132.638      -0.00879739         149.419
0.527                  -0.181411        -135.728         -59.4272         132.358         -59.4508         131.792      -0.00888412         149.351
0.528                  -0.191417        -136.315         -59.0669         131.408         -59.0918         130.853      -0.00897227         149.284
0.529                  -0.202098        -136.909         -58.7058         130.368         -58.7317         129.825      -0.00906184         149.216
0.53                   -0.213501        -137.509         -58.3438          129.24         -58.3706         128.709      -0.00915285         149.148
0.531                  -0.225677        -138.117         -57.9812         128.027         -58.0087         127.509      -0.00924529          149.08
0.532                  -0.238682        -138.731         -57.6181          126.73         -57.6462         126.227      -0.00933919         149.012
0.533                  -0.252577        -139.352         -57.2545         125.353         -57.2831         124.864      -0.00943455         148.944
0.534                  -0.267428        -139.981         -56.8906         123.896         -56.9196         123.422      -0.00953139         148.876
0.535                  -0.283308        -140.617         -56.5264         122.362         -56.5557         121.903      -0.00962972         148.808
0.536                  -0.300296        -141.261          -56.162         120.753         -56.1914         120.309      -0.00972954         148.739
0.537                  -0.318476        -141.912         -55.7975         119.069          -55.827         118.641      -0.00983086         148.671
0.538                  -0.337943        -142.572         -55.4329         117.311         -55.4623           116.9      -0.00993371         148.602
0.539                  -0.358799         -143.24         -55.0684         115.481         -55.0977         115.086       -0.0100381         148.534
0.54                   -0.381155        -143.916         -54.7039         113.579         -54.7331         113.201        -0.010144         148.465
0.541                  -0.405133          -144.6         -54.3398         111.606         -54.3686         111.245       -0.0102515         148.396
0.542                  -0.430866        -145.293          -53.976         109.563         -54.0045         109.218       -0.0103605         148.327
0.543                    -0.4585        -145.994         -53.6127          107.45         -53.6408         107.122       -0.0104711         148.258
0.544                  -0.488192        -146.703         -53.2503         105.268         -53.2779         104.956       -0.0105833         148.189
0.545                  -0.520115        -147.421         -52.8887         103.016         -52.9158         102.721       -0.0106972         148.119
0.546                  -0.554459        -148.147         -52.5284         100.694         -52.5549         100.417       -0.0108126          148.05
0.547                  -0.591428        -148.882         -52.1695         98.3044         -52.1954         98.0433       -0.0109296          147.98
0.548                  -0.631244        -149.623         -51.8125         95.8457         -51.8376         95.6012       -0.0110483         147.911
0.549                  -0.674151        -150.373         -51.4576         93.3184         -51.4819         93.0903       -0.0111686         147.841
0.55                   -0.720409        -151.129         -51.1053          90.723         -51.1288         90.5109       -0.0112906         147.771
0.551                  -0.770301         -151.89         -50.7559         88.0596         -50.7786         87.8635       -0.0114143         147.701
0.552                   -0.82413        -152.657           -50.41         85.3289         -50.4318         85.1484       -0.0115397         147.631
0.553                  -0.882218        -153.427         -50.0681         82.5315         -50.0889         82.3663       -0.0116667         147.561
0.554                   -0.94491          -154.2         -49.7308         79.6684         -49.7505         79.5179       -0.0117955          147.49
0.555                   -1.01256        -154.973         -49.3985         76.7407         -49.4172         76.6046        -0.011926          147.42
0.556                   -1.08556        -155.743          -49.072         73.7498         -49.0895         73.6276       -0.0120582         147.349
0.557                   -1.16427        -156.509         -48.7518         70.6977         -48.7682         70.5887       -0.0121922         147.279
0.558                   -1.24909        -157.267         -48.4387         67.5864         -48.4539         67.4902       -0.0123279         147.208
0.559                   -1.34039        -158.012         -48.1332         64.4188         -48.1472         64.3346       -0.0124654         147.137
0.56                    -1.43853        -158.741         -47.8361         61.1979         -47.8489         61.1251       -0.0126046         147.066
0.561                    -1.5438        -159.447          -47.548         57.9273         -47.5595          57.865       -0.0127457         146.995
0.562                   -1.65646        -160.123         -47.2695          54.611         -47.2798         54.5586       -0.0128885         146.924
0.563                   -1.77664        -160.764         -47.0013         51.2537         -47.0103         51.2103       -0.0130332         146.852
0.564                   -1.90435         -161.36         -46.7439         47.8604         -46.7516         47.8252       -0.0131796         146.781
0.565                   -2.03942        -161.902         -46.4977         44.4365         -46.5042         44.4086       -0.0133279         146.709
0.566                   -2.18143        -162.379         -46.2632         40.9878         -46.2685         40.9665        -0.013478         146.637
0.567                   -2.32967        -162.782         -46.0407         37.5205         -46.0448         37.5049       -0.0136299         146.565
0.568                   -2.48311        -163.099         -45.8304         34.0409         -45.8334         34.0302       -0.0137837         146.493
0.569                   -2.64027        -163.318         -45.6325         30.5554         -45.6344         30.5489       -0.0139393         146.421
0.57                    -2.79924         -163.43          -45.447         27.0707         -45.4479         27.0676       -0.0140967         146.349
0.571                   -2.95763        -163.426         -45.2738         23.5932         -45.2738         23.5928        -0.014256         146.276
0.572                   -3.11259          -163.3         -45.1128          20.129          -45.112         20.1307       -0.0144171         146.203
0.573                   -3.26087        -163.049         -44.9637         16.6843         -44.9621         16.6875         -0.01458         146.131
0.574                   -3.39894        -162.676         -44.8261         13.2646         -44.8238         13.2689       -0.0147447         146.058
0.575                   -3.52315        -162.187         -44.6997         9.87529         -44.6967         9.88021       -0.0149112         145.985
0.576                   -3.63003        -161.596         -44.5838         6.52104         -44.5804         6.52621       -0.0150795         145.912
0.577                   -3.71649        -160.923          -44.478          3.2061         -44.4741         3.21122       -0.0152495         145.838
0.578                   -3.78013        -160.191         -44.3817      -0.0658383         -44.3774      -0.0610114       -0.0154212         145.765
0.579                   -3.81947        -159.428         -44.2941        -3.29164         -44.2896         -3.2873       -0.0155945         145.691
0.58                    -3.83401        -158.664         -44.2148        -6.46874           -44.21        -6.46502       -0.0157693         145.617
0.581                   -3.82438        -157.927          -44.143        -9.59509          -44.138        -9.59208       -0.0159456         145.543
0.582                   -3.79211        -157.243          -44.078        -12.6692          -44.073        -12.6669       -0.0161232         145.469
0.583                   -3.73954        -156.636         -44.0193        -15.6899         -44.0142        -15.6885       -0.0163019         145.395
0.584                   -3.66956        -156.121         -43.9662        -18.6567         -43.9611        -18.6561       -0.0164817          145.32
0.585                   -3.58532        -155.712         -43.9181        -21.5694          -43.913        -21.5695       -0.0166622         145.246
0.586                   -3.49003        -155.416         -43.8744         -24.428         -43.8694        -24.4288       -0.0168432         145.171
0.587                   -3.38675        -155.233         -43.8346         -27.233         -43.8298        -27.2344       -0.0170243         145.096
0.588                   -3.27828        -155.164         -43.7982        -29.9851         -43.7936        -29.9872       -0.0172051         145.021
0.589                   -3.16706        -155.203         -43.7648        -32.6853         -43.7603        -32.6878       -0.0173851         144.946
0.59                    -3.05514        -155.344         -43.7338        -35.3345         -43.7295        -35.3375       -0.0175636          144.87
0.591                    -2.9442         -155.58         -43.7049        -37.9342         -43.7008        -37.9375       -0.0177399         144.795
0.592                   -2.83555        -155.903         -43.6777        -40.4856         -43.6738        -40.4892       -0.0179136         144.719
0.593                    -2.7302        -156.304         -43.6519        -42.9902         -43.6482         -42.994        -0.018084         144.643
0.594                   -2.62887        -156.775         -43.6272        -45.4495         -43.6237        -45.4535       -0.0182512         144.567
0.595                   -2.53207        -157.309         -43.6033        -47.8652         -43.6001        -47.8693       -0.0184159         144.491
0.596                   -2.44012        -157.899           -43.58        -50.2387         -43.5769        -50.2429       -0.0185805         144.415
0.597                   -2.35319        -158.539          -43.557        -52.5718         -43.5541        -52.5759       -0.0187492         144.339
0.598                   -2.27134        -159.221         -43.5341         -54.866         -43.5315        -54.8701       -0.0189278         144.262
0.599                   -2.19455        -159.943         -43.5112        -57.1229         -43.5088        -57.1269       -0.0191232         144.186
0.6                     -2.12274        -160.698          -43.488        -59.3442         -43.4858         -59.348       -0.0193403         144.109
0.601                   -2.05578        -161.484         -43.4646        -61.5313         -43.4626         -61.535       -0.0195804         144.032
0.602                   -1.99349        -162.296         -43.4407        -63.6857         -43.4389        -63.6892       -0.0198408         143.955
0.603                   -1.93572        -163.133         -43.4162         -65.809         -43.4146        -65.8123       -0.0201157         143.878
0.604                   -1.88225        -163.991         -43.3911        -67.9026         -43.3896        -67.9057       -0.0203991           143.8
0.605                   -1.83291        -164.868         -43.3652        -69.9679         -43.3639        -69.9708       -0.0206858         143.723
0.606                    -1.7875        -165.763         -43.3385        -72.0062         -43.3374        -72.0088       -0.0209728         143.644
0.607                   -1.74583        -166.674          -43.311        -74.0189           -43.31        -74.0213       -0.0212585         143.566
0.608                   -1.70772          -167.6         -43.2825        -76.0072         -43.2816        -76.0093       -0.0215421         143.487
0.609                     -1.673         -168.54         -43.2531        -77.9723         -43.2523        -77.9742       -0.0218238         143.408
0.61                     -1.6415        -169.492         -43.2226        -79.9154         -43.2219        -79.9171       -0.0221041         143.329
0.611                   -1.61308        -170.457         -43.1911        -81.8377         -43.1906        -81.8392       -0.0223834          143.25
0.612                   -1.58759        -171.434         -43.1585        -83.7403         -43.1581        -83.7415       -0.0226622          143.17
0.613                    -1.5649        -172.422         -43.1249        -85.6242         -43.1245        -85.6252       -0.0229411         143.091
0.614                   -1.54489        -173.421         -43.0902        -87.4904         -43.0899        -87.4912       -0.0232205         143.011
0.615                   -1.52745         -174.43         -43.0543        -89.3399         -43.0541        -89.3406       -0.0235009          142.93
0.616                   -1.51249        -175.451         -43.0173        -91.1737         -43.0172        -91.1742       -0.0237824          142.85
0.617                   -1.49991        -176.482         -42.9792        -92.9927         -42.9791         -92.993       -0.0240655         142.769
0.618                   -1.48963        -177.523         -42.9399        -94.7977         -42.9399        -94.7979       -0.0243504         142.688
0.619                   -1.48158        -178.575         -42.8995        -96.5897         -42.8995        -96.5897       -0.0246371         142.607
0.62                     -1.4757        -179.638          -42.858        -98.3693          -42.858        -98.3692       -0.0249261         142.526
0.621                   -1.47194         179.289         -42.8153        -100.137         -42.8154        -100.137       -0.0252173         142.444
0.622                   -1.47024         178.204         -42.7715        -101.895         -42.7716        -101.895       -0.0255109         142.363
0.623                   -1.47056         177.108         -42.7266        -103.642         -42.7267        -103.642        -0.025807          142.28
0.624                   -1.47288         176.001         -42.6805        -105.381         -42.6807         -105.38       -0.0261058         142.198
0.625                   -1.47717         174.882         -42.6334         -107.11         -42.6335         -107.11       -0.0264073         142.116
0.626                   -1.48341         173.752         -42.5851        -108.832         -42.5852        -108.832       -0.0267116         142.033
0.627                   -1.49159         172.609         -42.5357        -110.547         -42.5359        -110.546       -0.0270188          141.95
0.628                   -1.50169         171.453         -42.4853        -112.255         -42.4854        -112.254        -0.027329         141.866
0.629                   -1.51372         170.284         -42.4338        -113.957         -42.4339        -113.956       -0.0276422         141.783
