! TOUCHSTONE file generated by CST MICROWAVE STUDIO
! Date and time: Mon Nov 30 09:06:09 2020
! Project name: Scenario_1_Planar_Body_Tissue_Out_of_Line_v2.cst
! Parameters = {dy1=-276.8; L_HA=400; Ltissue=700; MT=2.54; Rad_Dielectric=30; Rad_Lower=7.3; Rad_Upper=30; Wtissue=700; a_HA=580; a_WG=246; b_HA=500; b_WG=121; c_HA=0; c_WG=187; d_feed=85; dx1=346; h_feed=15; h_lower=18; h_upper=40; hfat=3; hgap=25; hmuscle=50; hskin=1.5}
! Header version: 2018
! Port assignment regex: !\s*Touchstone port\s*([0-9]+)\s*=\s*(CST MWS port|CST DS port)\s*([0-9]+|Zmin|Zmax)\s*\(\"(.*)\"\)(\s*mode\s*([0-9]+))?.*
! Touchstone port assignment:
! Touchstone port 1 = CST MWS port 1 ("")
! Touchstone port 2 = CST MWS port 2 ("")
# GHz S DB R 50
0.5                    -0.236685        -121.781         -58.0988         6.42644         -58.0989         6.42547      -0.00821682          151.15
0.501                  -0.239937         -122.17         -57.9781         3.88886         -57.9782         3.88852      -0.00826326         151.085
0.502                   -0.24317        -122.561         -57.8629         1.36294          -57.863         1.36318      -0.00831045          151.02
0.503                  -0.246387        -122.954         -57.7534        -1.14918         -57.7535        -1.14838       -0.0083584         150.955
0.504                  -0.249589        -123.351         -57.6493        -3.64539         -57.6494        -3.64409      -0.00840711         150.889
0.505                  -0.252781         -123.75         -57.5506        -6.12371         -57.5506        -6.12195      -0.00845661         150.824
0.506                  -0.255965        -124.153         -57.4571        -8.58223         -57.4571        -8.58004      -0.00850691         150.758
0.507                  -0.259144        -124.558         -57.3687        -11.0192         -57.3686        -11.0166      -0.00855803         150.693
0.508                   -0.26232        -124.966         -57.2851        -13.4329          -57.285        -13.4299      -0.00860998         150.627
0.509                  -0.265497        -125.378         -57.2062        -15.8218         -57.2061        -15.8185      -0.00866277         150.561
0.51                   -0.268679        -125.792         -57.1317        -18.1845         -57.1316         -18.181      -0.00871643         150.496
0.511                  -0.271867        -126.209         -57.0614        -20.5199         -57.0613        -20.5161      -0.00877096          150.43
0.512                  -0.275067         -126.63         -56.9952        -22.8268          -56.995        -22.8228      -0.00882638         150.364
0.513                  -0.278281        -127.054         -56.9326        -25.1042         -56.9324        -25.1001      -0.00888271         150.298
0.514                  -0.281513        -127.481         -56.8735        -27.3515         -56.8732        -27.3473      -0.00893996         150.232
0.515                  -0.284766        -127.911         -56.8176        -29.5679         -56.8173        -29.5636      -0.00899814         150.165
0.516                  -0.288046        -128.345         -56.7647         -31.753         -56.7644        -31.7486      -0.00905728         150.099
0.517                  -0.291355        -128.782         -56.7144        -33.9064         -56.7141        -33.9019      -0.00911739         150.033
0.518                  -0.294697        -129.223         -56.6666        -36.0278         -56.6662        -36.0234      -0.00917848         149.966
0.519                  -0.298078        -129.667         -56.6209        -38.1172         -56.6205        -38.1128      -0.00924058           149.9
0.52                   -0.301502        -130.115         -56.5772        -40.1745         -56.5768        -40.1701      -0.00930369         149.833
0.521                  -0.304973        -130.566         -56.5351        -42.1999         -56.5347        -42.1955      -0.00936783         149.766
0.522                  -0.308497        -131.021         -56.4946        -44.1935         -56.4942        -44.1892      -0.00943302         149.699
0.523                  -0.312077        -131.479         -56.4552        -46.1556         -56.4548        -46.1513      -0.00949928         149.632
0.524                   -0.31572        -131.941         -56.4169        -48.0865         -56.4165        -48.0824      -0.00956661         149.565
0.525                  -0.319432        -132.407         -56.3794        -49.9868         -56.3789        -49.9827      -0.00963505         149.498
0.526                  -0.323216        -132.877         -56.3425        -51.8568          -56.342        -51.8528      -0.00970459         149.431
0.527                  -0.327081        -133.351          -56.306         -53.697         -56.3055        -53.6932      -0.00977527         149.364
0.528                  -0.331031        -133.829         -56.2698        -55.5082         -56.2693        -55.5045       -0.0098471         149.296
0.529                  -0.335073        -134.311         -56.2336        -57.2909         -56.2331        -57.2873      -0.00992009         149.229
0.53                   -0.339214        -134.798         -56.1973        -59.0457         -56.1969        -59.0423      -0.00999426         149.161
0.531                  -0.343462        -135.288         -56.1608        -60.7733         -56.1604          -60.77       -0.0100696         149.093
0.532                  -0.347822        -135.783         -56.1239        -62.4744         -56.1235        -62.4713       -0.0101462         149.026
0.533                  -0.352304        -136.282         -56.0865        -64.1498         -56.0861        -64.1469        -0.010224         148.958
0.534                  -0.356914        -136.785         -56.0485        -65.8002          -56.048        -65.7974       -0.0103031          148.89
0.535                  -0.361662        -137.293         -56.0097        -67.4262         -56.0092        -67.4235       -0.0103834         148.822
0.536                  -0.366556        -137.806           -55.97        -69.0287         -55.9695        -69.0262        -0.010465         148.753
0.537                  -0.371606        -138.323         -55.9293        -70.6083         -55.9288         -70.606        -0.010548         148.685
0.538                   -0.37682        -138.845         -55.8875        -72.1659          -55.887        -72.1637       -0.0106322         148.617
0.539                   -0.38221        -139.372         -55.8445        -73.7022         -55.8441        -73.7002       -0.0107178         148.548
0.54                   -0.387786        -139.904         -55.8003        -75.2179         -55.7999         -75.216       -0.0108047          148.48
0.541                  -0.393559         -140.44         -55.7547        -76.7138         -55.7543         -76.712        -0.010893         148.411
0.542                  -0.399541        -140.982         -55.7077        -78.1906         -55.7073         -78.189       -0.0109827         148.342
0.543                  -0.405745        -141.529         -55.6591         -79.649         -55.6588        -79.6475       -0.0110738         148.273
0.544                  -0.412182        -142.082         -55.6091        -81.0897         -55.6087        -81.0884       -0.0111663         148.204
0.545                  -0.418868         -142.64         -55.5573        -82.5135          -55.557        -82.5124       -0.0112603         148.135
0.546                  -0.425816        -143.203         -55.5039        -83.9211         -55.5036        -83.9201       -0.0113557         148.066
0.547                  -0.433042        -143.772         -55.4487        -85.3132         -55.4484        -85.3123       -0.0114526         147.996
0.548                  -0.440562        -144.347         -55.3917        -86.6905         -55.3914        -86.6897        -0.011551         147.927
0.549                  -0.448393        -144.928         -55.3328        -88.0536         -55.3325        -88.0529        -0.011651         147.857
0.55                   -0.456553        -145.514          -55.272        -89.4032         -55.2717        -89.4026       -0.0117524         147.788
0.551                   -0.46506        -146.107         -55.2092          -90.74          -55.209        -90.7396       -0.0118555         147.718
0.552                  -0.473934        -146.706         -55.1445        -92.0648         -55.1442        -92.0644         -0.01196         147.648
0.553                  -0.483198        -147.311         -55.0776         -93.378         -55.0774        -93.3777       -0.0120662         147.578
0.554                  -0.492872        -147.923         -55.0087        -94.6805         -55.0085        -94.6803        -0.012174         147.508
0.555                  -0.502982        -148.541         -54.9377        -95.9728         -54.9375        -95.9727       -0.0122834         147.437
0.556                  -0.513551        -149.166         -54.8644        -97.2556         -54.8643        -97.2555       -0.0123945         147.367
0.557                  -0.524607        -149.798          -54.789        -98.5295         -54.7889        -98.5296       -0.0125072         147.296
0.558                  -0.536177        -150.437         -54.7113        -99.7953         -54.7112        -99.7954       -0.0126216         147.226
0.559                  -0.548291        -151.083         -54.6313        -101.053         -54.6312        -101.054       -0.0127377         147.155
0.56                   -0.560982        -151.736          -54.549        -102.305          -54.549        -102.305       -0.0128556         147.084
0.561                  -0.574283        -152.397         -54.4644         -103.55         -54.4644         -103.55       -0.0129751         147.013
0.562                  -0.588228        -153.065         -54.3774        -104.789         -54.3774         -104.79       -0.0130965         146.942
0.563                  -0.602858        -153.741          -54.288        -106.024          -54.288        -106.024       -0.0132196         146.871
0.564                  -0.618211        -154.425         -54.1962        -107.254         -54.1961        -107.254       -0.0133445         146.799
0.565                   -0.63433        -155.117         -54.1018        -108.481         -54.1018        -108.481       -0.0134712         146.728
0.566                  -0.651262        -155.817          -54.005        -109.704         -54.0051        -109.705       -0.0135998         146.656
0.567                  -0.669055        -156.526         -53.9057        -110.926         -53.9058        -110.926       -0.0137302         146.584
0.568                   -0.68776        -157.243         -53.8039        -112.146         -53.8039        -112.146       -0.0138624         146.512
0.569                  -0.707432        -157.969         -53.6995        -113.365         -53.6996        -113.365       -0.0139966          146.44
0.57                   -0.728131        -158.704         -53.5925        -114.584         -53.5926        -114.584       -0.0141327         146.368
0.571                  -0.749918        -159.447          -53.483        -115.803         -53.4831        -115.804       -0.0142707         146.296
0.572                  -0.772859          -160.2         -53.3708        -117.024         -53.3709        -117.025       -0.0144106         146.223
0.573                  -0.797027        -160.962          -53.256        -118.247         -53.2561        -118.248       -0.0145525         146.151
0.574                  -0.822496        -161.734         -53.1386        -119.473         -53.1387        -119.474       -0.0146964         146.078
0.575                  -0.849346        -162.515         -53.0185        -120.703         -53.0186        -120.703       -0.0148423         146.005
0.576                  -0.877665        -163.306         -52.8958        -121.937         -52.8959        -121.938       -0.0149902         145.932
0.577                  -0.907542        -164.107         -52.7704        -123.177         -52.7706        -123.177       -0.0151401         145.859
0.578                  -0.939076        -164.917         -52.6424        -124.423         -52.6425        -124.423       -0.0152921         145.785
0.579                  -0.972371        -165.738         -52.5117        -125.676         -52.5119        -125.677       -0.0154462         145.712
0.58                    -1.00754        -166.568         -52.3784        -126.937         -52.3786        -126.938       -0.0156023         145.638
0.581                   -1.04469        -167.409         -52.2425        -128.208         -52.2427        -128.208       -0.0157606         145.564
0.582                   -1.08396         -168.26          -52.104        -129.488         -52.1042        -129.488        -0.015921          145.49
0.583                   -1.12548         -169.12         -51.9629        -130.779         -51.9631        -130.779       -0.0160835         145.416
0.584                   -1.16939        -169.991         -51.8193        -132.082         -51.8195        -132.083       -0.0162482         145.342
0.585                   -1.21584        -170.872         -51.6732        -133.399         -51.6734        -133.399       -0.0164151         145.267
0.586                   -1.26499        -171.762         -51.5247        -134.729         -51.5249        -134.729       -0.0165841         145.193
0.587                   -1.31701        -172.662         -51.3737        -136.074         -51.3739        -136.074       -0.0167554         145.118
0.588                   -1.37208        -173.571         -51.2205        -137.436         -51.2207        -137.436       -0.0169289         145.043
0.589                   -1.43039        -174.489          -51.065        -138.815         -51.0652        -138.815       -0.0171046         144.968
0.59                    -1.49215        -175.415         -50.9074        -140.212         -50.9076        -140.213       -0.0172826         144.893
0.591                   -1.55756        -176.349         -50.7477         -141.63         -50.7479         -141.63       -0.0174629         144.817
0.592                   -1.62684         -177.29         -50.5861        -143.068         -50.5863        -143.068       -0.0176455         144.742
0.593                   -1.70022        -178.238         -50.4227        -144.527         -50.4229        -144.527       -0.0178304         144.666
0.594                   -1.77796        -179.191         -50.2576         -146.01         -50.2578         -146.01       -0.0180176          144.59
0.595                   -1.86029         179.852         -50.0911        -147.517         -50.0913        -147.517       -0.0182071         144.514
0.596                   -1.94748         178.891         -49.9232         -149.05         -49.9234        -149.049       -0.0183991         144.438
0.597                    -2.0398         177.929         -49.7542        -150.608         -49.7544        -150.608       -0.0185934         144.361
0.598                   -2.13751         176.967         -49.5843        -152.194         -49.5845        -152.194       -0.0187901         144.285
0.599                   -2.24089         176.008         -49.4137        -153.808         -49.4139        -153.808       -0.0189892         144.208
0.6                     -2.35023         175.053         -49.2427        -155.452         -49.2429        -155.452       -0.0191907         144.131
0.601                   -2.46578         174.105         -49.0716        -157.125         -49.0717        -157.125       -0.0193947         144.053
0.602                   -2.58781         173.166         -48.9006        -158.829         -48.9007        -158.829       -0.0196012         143.976
0.603                   -2.71658         172.242           -48.73        -160.565         -48.7301        -160.564       -0.0198101         143.898
0.604                   -2.85231         171.333         -48.5602        -162.331         -48.5603        -162.331       -0.0200216         143.821
0.605                    -2.9952         170.446         -48.3915         -164.13         -48.3915         -164.13       -0.0202356         143.743
0.606                   -3.14542         169.585         -48.2242        -165.961         -48.2243        -165.961       -0.0204521         143.664
0.607                   -3.30308         168.754         -48.0588        -167.823         -48.0588        -167.823       -0.0206712         143.586
0.608                   -3.46823         167.959         -47.8956        -169.717         -47.8956        -169.717       -0.0208929         143.507
0.609                   -3.64085         167.206         -47.7349        -171.642          -47.735        -171.642       -0.0211172         143.429
0.61                    -3.82081         166.502         -47.5773        -173.597         -47.5773        -173.597       -0.0213441          143.35
0.611                   -4.00789         165.853          -47.423        -175.581          -47.423        -175.581       -0.0215738          143.27
0.612                    -4.2017         165.267         -47.2724        -177.593         -47.2724        -177.593       -0.0218061         143.191
0.613                   -4.40173         164.752          -47.126        -179.631          -47.126        -179.631       -0.0220411         143.111
0.614                   -4.60728         164.314          -46.984         178.307          -46.984         178.307       -0.0222789         143.031
0.615                   -4.81743         163.962         -46.8467         176.223         -46.8467         176.223       -0.0225195         142.951
0.616                   -5.03106         163.704         -46.7146         174.119         -46.7146         174.119        -0.022763         142.871
0.617                   -5.24679         163.547         -46.5878         171.999         -46.5878         171.999       -0.0230093          142.79
0.618                   -5.46299         163.497         -46.4666         169.864         -46.4666         169.864       -0.0232585         142.709
0.619                   -5.67777         163.559         -46.3511         167.719         -46.3511         167.718       -0.0235107         142.628
0.62                    -5.88902         163.738         -46.2415         165.565         -46.2415         165.564       -0.0237659         142.547
0.621                   -6.09436         164.035         -46.1379         163.407         -46.1379         163.406       -0.0240242         142.466
0.622                   -6.29128          164.45         -46.0403         161.247         -46.0403         161.246       -0.0242856         142.384
0.623                   -6.47715         164.979         -45.9487         159.089         -45.9487         159.088       -0.0245502         142.302
0.624                   -6.64931         165.614          -45.863         156.937          -45.863         156.936        -0.024818         142.219
0.625                   -6.80522         166.347         -45.7831         154.793         -45.7831         154.792       -0.0250892         142.137
0.626                   -6.94255         167.164         -45.7088          152.66         -45.7088          152.66       -0.0253637         142.054
0.627                    -7.0593         168.047         -45.6399         150.542         -45.6399         150.542       -0.0256418         141.971
0.628                   -7.15393         168.979         -45.5762         148.442         -45.5762         148.441       -0.0259234         141.888
0.629                   -7.22547         169.938         -45.5173         146.361         -45.5174          146.36       -0.0262087         141.804
