! TOUCHSTONE file generated by CST MICROWAVE STUDIO
! Date and time: Tue Nov 17 07:10:17 2020
! Project name: Scenario_1_Planar_Body_Tissue_Out_of_Line.cst
! Header version: 2018
! Port assignment regex: !\s*Touchstone port\s*([0-9]+)\s*=\s*(CST MWS port|CST DS port)\s*([0-9]+|Zmin|Zmax)\s*\(\"(.*)\"\)(\s*mode\s*([0-9]+))?.*
! Touchstone port assignment:
! Touchstone port 1 = CST MWS port 1 ("")
! Touchstone port 2 = CST MWS port 2 ("")
# GHz S DB R 50
0.5                    -0.146481        -121.687         -65.5536        -27.9152         -65.5528         -27.912       -0.0076335          151.15
0.501                  -0.149059        -122.122         -65.4952        -29.6603         -65.4945        -29.6571      -0.00769828         151.085
0.502                  -0.151761         -122.56         -65.4321         -31.427         -65.4314        -31.4237      -0.00776369          151.02
0.503                  -0.154591        -123.001         -65.3641        -33.2149         -65.3634        -33.2116      -0.00782976         150.954
0.504                  -0.157559        -123.444         -65.2911        -35.0235         -65.2905        -35.0201      -0.00789648         150.889
0.505                  -0.160669        -123.891         -65.2131        -36.8523         -65.2125        -36.8488      -0.00796386         150.823
0.506                  -0.163931        -124.341         -65.1299        -38.7008         -65.1293        -38.6973      -0.00803191         150.758
0.507                  -0.167353        -124.794         -65.0414        -40.5685         -65.0408        -40.5649      -0.00810063         150.692
0.508                  -0.170944         -125.25         -64.9476        -42.4548          -64.947        -42.4513      -0.00817004         150.626
0.509                  -0.174715         -125.71         -64.8484        -44.3593         -64.8478        -44.3557      -0.00824015          150.56
0.51                   -0.178674        -126.173         -64.7437        -46.2814         -64.7432        -46.2779      -0.00831095         150.494
0.511                  -0.182834        -126.639         -64.6335        -48.2207          -64.633        -48.2171      -0.00838247         150.428
0.512                  -0.187208        -127.109         -64.5177        -50.1766         -64.5173         -50.173       -0.0084547         150.362
0.513                  -0.191808        -127.582         -64.3964        -52.1487         -64.3959        -52.1451      -0.00852767         150.296
0.514                  -0.196648        -128.059         -64.2694        -54.1366          -64.269         -54.133      -0.00860138          150.23
0.515                  -0.201744         -128.54         -64.1369        -56.1399         -64.1365        -56.1364      -0.00867585         150.164
0.516                  -0.207112        -129.025         -63.9987        -58.1582         -63.9984        -58.1548      -0.00875108         150.097
0.517                  -0.212771        -129.513          -63.855        -60.1915         -63.8547        -60.1881      -0.00882709         150.031
0.518                   -0.21874        -130.005         -63.7058        -62.2393         -63.7055         -62.236      -0.00890389         149.964
0.519                  -0.225039        -130.502         -63.5511        -64.3017         -63.5508        -64.2985       -0.0089815         149.897
0.52                   -0.231692        -131.002         -63.3909        -66.3786         -63.3907        -66.3754      -0.00905994         149.831
0.521                  -0.238722        -131.506         -63.2254        -68.4699         -63.2252        -68.4669      -0.00913922         149.764
0.522                  -0.246157        -132.015         -63.0545         -70.576         -63.0544         -70.573      -0.00921937         149.697
0.523                  -0.254024        -132.528         -62.8785        -72.6969         -62.8784         -72.694       -0.0093004          149.63
0.524                  -0.262355        -133.045         -62.6974         -74.833         -62.6973        -74.8302      -0.00938233         149.563
0.525                  -0.271183        -133.567         -62.5113        -76.9848         -62.5112        -76.9821      -0.00946521         149.496
0.526                  -0.280544        -134.093         -62.3203        -79.1527         -62.3202        -79.1502      -0.00954904         149.428
0.527                  -0.290478        -134.623         -62.1246        -81.3375         -62.1246        -81.3351      -0.00963387         149.361
0.528                  -0.301025        -135.158         -61.9243        -83.5399         -61.9243        -83.5376      -0.00971973         149.293
0.529                  -0.312232        -135.697         -61.7195        -85.7607         -61.7196        -85.7586      -0.00980665         149.226
0.53                   -0.324146         -136.24         -61.5106         -88.001         -61.5106         -87.999      -0.00989468         149.158
0.531                   -0.33682        -136.788         -61.2975        -90.2618         -61.2976        -90.2599      -0.00998386          149.09
0.532                  -0.350309         -137.34         -61.0806        -92.5443         -61.0807        -92.5426       -0.0100742         149.023
0.533                  -0.364672        -137.897         -60.8601        -94.8498         -60.8602        -94.8482       -0.0101659         148.955
0.534                  -0.379972        -138.457         -60.6361        -97.1797         -60.6363        -97.1782       -0.0102588         148.887
0.535                  -0.396275        -139.021          -60.409        -99.5354         -60.4091        -99.5341       -0.0103532         148.818
0.536                  -0.413651        -139.589          -60.179        -101.919         -60.1791        -101.917        -0.010449          148.75
0.537                  -0.432172         -140.16         -59.9464        -104.331         -59.9465         -104.33       -0.0105463         148.682
0.538                  -0.451912        -140.734         -59.7115        -106.774         -59.7116        -106.773       -0.0106452         148.613
0.539                  -0.472947        -141.311         -59.4746        -109.249         -59.4748        -109.248       -0.0107458         148.545
0.54                   -0.495352        -141.889         -59.2362        -111.759         -59.2364        -111.758       -0.0108482         148.476
0.541                  -0.519202        -142.469         -58.9966        -114.304         -58.9968        -114.303       -0.0109523         148.407
0.542                  -0.544567         -143.05         -58.7563        -116.887         -58.7565        -116.887       -0.0110585         148.338
0.543                  -0.571511         -143.63         -58.5157        -119.509         -58.5159        -119.509       -0.0111665         148.269
0.544                   -0.60009        -144.209         -58.2753        -122.172         -58.2755        -122.172       -0.0112766           148.2
0.545                  -0.630343        -144.786         -58.0356        -124.878         -58.0358        -124.877       -0.0113888         148.131
0.546                  -0.662296        -145.359         -57.7972        -127.626         -57.7974        -127.626       -0.0115031         148.062
0.547                  -0.695948        -145.927         -57.5608        -130.419          -57.561        -130.419       -0.0116194         147.992
0.548                  -0.731271        -146.488         -57.3268        -133.258          -57.327        -133.258       -0.0117378         147.923
0.549                  -0.768202        -147.042         -57.0961        -136.142         -57.0963        -136.142       -0.0118581         147.853
0.55                   -0.806635        -147.586         -56.8692        -139.072         -56.8694        -139.072       -0.0119803         147.783
0.551                  -0.846418        -148.118          -56.647        -142.047         -56.6471        -142.047       -0.0121041         147.713
0.552                  -0.887345        -148.637           -56.43        -145.068         -56.4302        -145.068       -0.0122296         147.644
0.553                  -0.929155        -149.142         -56.2191        -148.131         -56.2192        -148.131       -0.0123563         147.573
0.554                  -0.971529         -149.63         -56.0149        -151.236          -56.015        -151.236       -0.0124843         147.503
0.555                   -1.01409        -150.102         -55.8182         -154.38         -55.8183         -154.38       -0.0126132         147.433
0.556                   -1.05641        -150.555         -55.6296         -157.56         -55.6297         -157.56       -0.0127429         147.363
0.557                   -1.09803        -150.991         -55.4498        -160.773         -55.4499        -160.773       -0.0128732         147.292
0.558                   -1.13846        -151.409         -55.2793        -164.014         -55.2794        -164.014        -0.013004         147.222
0.559                   -1.17719         -151.81         -55.1187        -167.279         -55.1187        -167.279       -0.0131352         147.151
0.56                    -1.21375        -152.196         -54.9683        -170.563         -54.9683        -170.563       -0.0132667          147.08
0.561                   -1.24769         -152.57         -54.8285         -173.86         -54.8285        -173.859       -0.0133985         147.009
0.562                   -1.27863        -152.933         -54.6995        -177.164         -54.6995        -177.163       -0.0135306         146.938
0.563                   -1.30628         -153.29         -54.5814         179.531         -54.5814         179.531        -0.013663         146.867
0.564                   -1.33042        -153.644         -54.4742         176.231         -54.4742         176.231       -0.0137959         146.795
0.565                   -1.35097        -153.999         -54.3777         172.941         -54.3777         172.941       -0.0139292         146.724
0.566                   -1.36794        -154.358         -54.2917         169.668         -54.2917         169.668        -0.014063         146.652
0.567                   -1.38144        -154.726         -54.2159         166.417         -54.2158         166.418       -0.0141976          146.58
0.568                    -1.3917        -155.106         -54.1496         163.195         -54.1495         163.195       -0.0143329         146.508
0.569                   -1.39899        -155.501         -54.0925         160.004         -54.0924         160.005       -0.0144691         146.436
0.57                    -1.40366        -155.914         -54.0439         156.851         -54.0438         156.851       -0.0146063         146.364
0.571                    -1.4061        -156.346          -54.003         153.737         -54.0029         153.738       -0.0147447         146.292
0.572                   -1.40672        -156.799         -53.9692         150.668         -53.9691         150.669       -0.0148842         146.219
0.573                   -1.40593        -157.274         -53.9417         147.645         -53.9415         147.646        -0.015025         146.147
0.574                   -1.40413        -157.772         -53.9197          144.67         -53.9195         144.671       -0.0151672         146.074
0.575                    -1.4017        -158.294         -53.9023         141.745         -53.9021         141.746       -0.0153109         146.001
0.576                   -1.39901        -158.838         -53.8889         138.871         -53.8887         138.871       -0.0154561         145.928
0.577                   -1.39638        -159.405         -53.8785         136.047         -53.8783         136.048       -0.0156029         145.855
0.578                    -1.3941        -159.994         -53.8706         133.274         -53.8704         133.274       -0.0157515         145.781
0.579                   -1.39244        -160.605         -53.8643         130.551          -53.864         130.551       -0.0159017         145.708
0.58                    -1.39163        -161.236         -53.8589         127.877         -53.8587         127.878       -0.0160538         145.634
0.581                   -1.39186        -161.888         -53.8539         125.251         -53.8537         125.252       -0.0162078          145.56
0.582                   -1.39331        -162.558         -53.8486         122.672         -53.8483         122.672       -0.0163637         145.486
0.583                   -1.39613        -163.247         -53.8424         120.136         -53.8422         120.137       -0.0165215         145.412
0.584                   -1.40046        -163.954         -53.8348         117.644         -53.8346         117.644       -0.0166814         145.338
0.585                   -1.40641        -164.677         -53.8254         115.192         -53.8253         115.192       -0.0168434         145.263
0.586                   -1.41408        -165.417         -53.8138         112.778         -53.8136         112.778       -0.0170074         145.189
0.587                   -1.42357        -166.172         -53.7994           110.4         -53.7993           110.4       -0.0171737         145.114
0.588                   -1.43496        -166.942         -53.7821         108.055         -53.7819         108.055       -0.0173421         145.039
0.589                   -1.44834        -167.726         -53.7614         105.741         -53.7613         105.742       -0.0175129         144.964
0.59                    -1.46377        -168.524         -53.7371         103.456          -53.737         103.456       -0.0176859         144.888
0.591                   -1.48134        -169.336          -53.709         101.197         -53.7089         101.197       -0.0178613         144.813
0.592                   -1.50111         -170.16         -53.6768         98.9607         -53.6767         98.9607        -0.018039         144.737
0.593                   -1.52318        -170.997         -53.6404         96.7455         -53.6403         96.7455       -0.0182193         144.661
0.594                   -1.54761        -171.846         -53.5997         94.5487         -53.5996         94.5487        -0.018402         144.585
0.595                   -1.57449        -172.706         -53.5545         92.3678         -53.5544         92.3677       -0.0185872         144.509
0.596                    -1.6039        -173.578         -53.5047         90.2004         -53.5046         90.2002       -0.0187751         144.433
0.597                   -1.63594        -174.461         -53.4503          88.044         -53.4503         88.0438       -0.0189655         144.356
0.598                   -1.67071        -175.354         -53.3913         85.8964         -53.3913         85.8961       -0.0191587         144.279
0.599                    -1.7083        -176.257         -53.3276         83.7551         -53.3276         83.7548       -0.0193546         144.202
0.6                     -1.74884         -177.17         -53.2593          81.618         -53.2593         81.6177       -0.0195532         144.125
0.601                   -1.79242        -178.092         -53.1864         79.4828         -53.1865         79.4824       -0.0197547         144.048
0.602                   -1.83918        -179.023          -53.109         77.3474         -53.1091          77.347       -0.0199591          143.97
0.603                   -1.88925        -179.962         -53.0272         75.2097         -53.0272         75.2092       -0.0201664         143.893
0.604                   -1.94276         179.091          -52.941         73.0677         -52.9411         73.0671       -0.0203766         143.815
0.605                   -1.99985         178.138         -52.8507         70.9194         -52.8508         70.9188       -0.0205899         143.737
0.606                   -2.06066         177.179         -52.7563         68.7629         -52.7564         68.7623       -0.0208063         143.658
0.607                   -2.12536         176.215          -52.658         66.5965         -52.6581         66.5958       -0.0210258          143.58
0.608                   -2.19409         175.246         -52.5561         64.4184         -52.5562         64.4177       -0.0212485         143.501
0.609                   -2.26702         174.275         -52.4507         62.2271         -52.4508         62.2264       -0.0214745         143.422
0.61                     -2.3443         173.302          -52.342          60.021         -52.3422         60.0203       -0.0217037         143.343
0.611                   -2.42609         172.329         -52.2304         57.7988         -52.2306          57.798       -0.0219363         143.263
0.612                   -2.51256         171.357          -52.116         55.5591         -52.1162         55.5583       -0.0221723         143.184
0.613                   -2.60385         170.388         -51.9992         53.3008         -51.9994         53.3001       -0.0224117         143.104
0.614                    -2.7001         169.424         -51.8802         51.0229         -51.8804         51.0222       -0.0226547         143.024
0.615                   -2.80145         168.468         -51.7594         48.7246         -51.7596         48.7238       -0.0229012         142.943
0.616                     -2.908         167.521          -51.637          46.405         -51.6372         46.4043       -0.0231512         142.863
0.617                   -3.01987         166.586         -51.5134         44.0637         -51.5136          44.063        -0.023405         142.782
0.618                    -3.1371         165.667          -51.389         41.7003         -51.3891         41.6996       -0.0236624         142.701
0.619                   -3.25973         164.766          -51.264         39.3145         -51.2641         39.3138       -0.0239236          142.62
0.62                    -3.38777         163.887         -51.1388         36.9064         -51.1389         36.9058       -0.0241886         142.538
0.621                   -3.52114         163.032         -51.0137         34.4761         -51.0138         34.4755       -0.0244575         142.457
0.622                   -3.65975         162.207         -50.8891         32.0239         -50.8892         32.0233       -0.0247302         142.375
0.623                    -3.8034         161.415         -50.7653         29.5505         -50.7654         29.5499       -0.0250069         142.292
0.624                   -3.95186         160.659         -50.6426         27.0565         -50.6427          27.056       -0.0252875          142.21
0.625                   -4.10478         159.945         -50.5214         24.5429         -50.5215         24.5424       -0.0255722         142.127
0.626                   -4.26174         159.276         -50.4019         22.0107          -50.402         22.0102        -0.025861         142.044
0.627                    -4.4222         158.657         -50.2845         19.4613         -50.2845         19.4609       -0.0261538         141.961
0.628                   -4.58553         158.092         -50.1692         16.8961         -50.1693         16.8957       -0.0264508         141.878
0.629                   -4.75096         157.584         -50.0565         14.3166         -50.0565         14.3162       -0.0267521         141.794
0.63                    -4.91763         157.136         -49.9465         11.7246         -49.9465         11.7242       -0.0270576          141.71
0.631                   -5.08454         156.752         -49.8393         9.12178         -49.8393         9.12144       -0.0273673         141.625
