! TOUCHSTONE file generated by CST MICROWAVE STUDIO
! Date and time: Sat Nov 14 20:32:59 2020
! Project name: Scenario_1_Planar_Body_Tissue_Out_of_Line_v2.cst
! Parameters = {dy1=259.5; L_HA=400; Ltissue=700; MT=2.54; Rad_Dielectric=30; Rad_Lower=7.3; Rad_Upper=30; Wtissue=700; a_HA=580; a_WG=246; b_HA=500; b_WG=121; c_HA=0; c_WG=187; d_feed=85; dx1=173; h_feed=15; h_lower=18; h_upper=40; hfat=3; hgap=25; hmuscle=50; hskin=1.5}
! Header version: 2018
! Port assignment regex: !\s*Touchstone port\s*([0-9]+)\s*=\s*(CST MWS port|CST DS port)\s*([0-9]+|Zmin|Zmax)\s*\(\"(.*)\"\)(\s*mode\s*([0-9]+))?.*
! Touchstone port assignment:
! Touchstone port 1 = CST MWS port 1 ("")
! Touchstone port 2 = CST MWS port 2 ("")
# GHz S DB R 50
0.5                   -0.0589751        -121.787         -65.0544         119.293         -65.0544         119.295      -0.00696067         151.151
0.501                 -0.0590146        -122.248         -64.9099         118.287         -64.9097         118.293      -0.00701611         151.085
0.502                  -0.059211        -122.712         -64.7618         117.306         -64.7613         117.316      -0.00707248          151.02
0.503                 -0.0595704         -123.18           -64.61         116.349         -64.6093         116.363      -0.00712979         150.955
0.504                 -0.0600995        -123.652         -64.4545         115.416         -64.4536         115.433      -0.00718804         150.889
0.505                 -0.0608054        -124.126         -64.2953         114.506         -64.2941         114.527      -0.00724723         150.823
0.506                 -0.0616955        -124.605         -64.1322          113.62         -64.1308         113.643      -0.00730738         150.758
0.507                 -0.0627779        -125.087         -63.9653         112.756         -63.9636         112.782      -0.00736848         150.692
0.508                  -0.064061        -125.573         -63.7943         111.914         -63.7925         111.942      -0.00743054         150.626
0.509                 -0.0655541        -126.062         -63.6194         111.093         -63.6173         111.123      -0.00749357          150.56
0.51                  -0.0672669        -126.556         -63.4403         110.292         -63.4379         110.325      -0.00755757         150.494
0.511                 -0.0692097        -127.054         -63.2569         109.511         -63.2544         109.545      -0.00762255         150.428
0.512                 -0.0713939        -127.555         -63.0692         108.749         -63.0665         108.785      -0.00768851         150.362
0.513                 -0.0738312        -128.061         -62.8771         108.005         -62.8741         108.042      -0.00775546         150.296
0.514                 -0.0765345        -128.572         -62.6805         107.278         -62.6772         107.315      -0.00782341         150.229
0.515                 -0.0795176        -129.086         -62.4791         106.566         -62.4757         106.604      -0.00789235         150.163
0.516                 -0.0827953        -129.606          -62.273         105.868         -62.2694         105.907      -0.00796229         150.097
0.517                 -0.0863834         -130.13          -62.062         105.184         -62.0582         105.222      -0.00803325          150.03
0.518                 -0.0902991        -130.659          -61.846         104.511          -61.842          104.55      -0.00810521         149.963
0.519                 -0.0945608        -131.192         -61.6249         103.849         -61.6207         103.887       -0.0081782         149.897
0.52                  -0.0991882        -131.731         -61.3985         103.195         -61.3942         103.233      -0.00825221          149.83
0.521                  -0.104203        -132.275         -61.1668         102.549         -61.1624         102.586      -0.00832725         149.763
0.522                  -0.109628        -132.824         -60.9297         101.907         -60.9251         101.943      -0.00840332         149.696
0.523                  -0.115489        -133.379         -60.6869          101.27         -60.6822         101.305      -0.00848043         149.629
0.524                  -0.121812         -133.94         -60.4385         100.634         -60.4337         100.668      -0.00855859         149.562
0.525                  -0.128627        -134.506         -60.1844         99.9977         -60.1795          100.03      -0.00863779         149.494
0.526                  -0.135967        -135.079         -59.9244         99.3592         -59.9195         99.3904      -0.00871804         149.427
0.527                  -0.143864        -135.657         -59.6585         98.7164         -59.6536         98.7461      -0.00879935          149.36
0.528                  -0.152358        -136.242         -59.3867         98.0671         -59.3817         98.0952      -0.00888172         149.292
0.529                  -0.161489        -136.834         -59.1088          97.409         -59.1038         97.4355      -0.00896515         149.224
0.53                   -0.171302        -137.432         -58.8248         96.7399         -58.8199         96.7646      -0.00904964         149.157
0.531                  -0.181845        -138.037         -58.5348         96.0574         -58.5299         96.0804      -0.00913521         149.089
0.532                  -0.193171        -138.649         -58.2385          95.359         -58.2337         95.3802      -0.00922185         149.021
0.533                  -0.205339        -139.269         -57.9362         94.6424         -57.9314         94.6618      -0.00930956         148.953
0.534                  -0.218413        -139.896         -57.6277         93.9049          -57.623         93.9226      -0.00939836         148.885
0.535                   -0.23246        -140.531          -57.313         93.1441         -57.3085         93.1599      -0.00948824         148.817
0.536                  -0.247558        -141.175         -56.9923         92.3572         -56.9879         92.3713       -0.0095792         148.748
0.537                  -0.263791        -141.826         -56.6655         91.5416         -56.6613         91.5541      -0.00967125          148.68
0.538                   -0.28125        -142.486         -56.3327         90.6946         -56.3287         90.7054       -0.0097644         148.611
0.539                  -0.300036        -143.155          -55.994         89.8134         -55.9902         89.8227      -0.00985864         148.543
0.54                    -0.32026        -143.832         -55.6495         88.8952         -55.6459          88.903      -0.00995399         148.474
0.541                  -0.342044        -144.519         -55.2993          87.937         -55.2958         87.9434       -0.0100504         148.405
0.542                  -0.365523        -145.215         -54.9434          86.936         -54.9402         86.9411        -0.010148         148.336
0.543                  -0.390846         -145.92         -54.5821         85.8891         -54.5791         85.8931       -0.0102467         148.267
0.544                  -0.418175        -146.636         -54.2156         84.7934         -54.2128         84.7962       -0.0103465         148.198
0.545                  -0.447692        -147.361         -53.8439         83.6455         -53.8414         83.6474       -0.0104475         148.129
0.546                  -0.479596        -148.095         -53.4674         82.4425         -53.4651         82.4435       -0.0105497         148.059
0.547                  -0.514107         -148.84         -53.0863          81.181         -53.0842         81.1812       -0.0106531          147.99
0.548                  -0.551467        -149.594         -52.7008         79.8576          -52.699         79.8572       -0.0107578          147.92
0.549                  -0.591943        -150.358         -52.3113          78.469         -52.3097         78.4681       -0.0108638          147.85
0.55                    -0.63583        -151.131         -51.9181         77.0117         -51.9167         77.0105       -0.0109712          147.78
0.551                   -0.68345        -151.913         -51.5216         75.4822         -51.5204         75.4807         -0.01108          147.71
0.552                  -0.735159        -152.702         -51.1223         73.8769         -51.1213         73.8752       -0.0111905          147.64
0.553                  -0.791343        -153.499         -50.7206         72.1923         -50.7198         72.1905       -0.0113028          147.57
0.554                  -0.852424        -154.302         -50.3171         70.4247         -50.3165         70.4229       -0.0114171           147.5
0.555                  -0.918859        -155.109         -49.9124         68.5706          -49.912         68.5688       -0.0115337         147.429
0.556                   -0.99114        -155.918         -49.5073         66.6264         -49.5071         66.6249        -0.011653         147.358
0.557                   -1.06979        -156.726         -49.1025          64.589         -49.1024         64.5876       -0.0117754         147.288
0.558                   -1.15536        -157.531          -48.699          62.455          -48.699         62.4539       -0.0119014         147.217
0.559                   -1.24842        -158.328         -48.2975         60.2217         -48.2976          60.221       -0.0120318         147.146
0.56                    -1.34954        -159.113         -47.8993         57.8867         -47.8995         57.8863       -0.0121674         147.074
0.561                    -1.4593        -159.878         -47.5054         55.4479         -47.5057         55.4479       -0.0123092         147.003
0.562                   -1.57821        -160.618         -47.1171         52.9042         -47.1175         52.9045       -0.0124581         146.932
0.563                   -1.70674        -161.323         -46.7358          50.255         -46.7362         50.2556       -0.0126153          146.86
0.564                   -1.84519        -161.982         -46.3629         47.5007         -46.3632         47.5017       -0.0127818         146.788
0.565                   -1.99372        -162.585         -45.9998          44.643         -46.0002         44.6443       -0.0129584         146.716
0.566                   -2.15217        -163.117          -45.648         41.6847         -45.6484         41.6861       -0.0131454         146.644
0.567                   -2.32006        -163.563         -45.3092         38.6298         -45.3096         38.6314       -0.0133426         146.572
0.568                   -2.49638        -163.906         -44.9848         35.4841         -44.9851         35.4858        -0.013549           146.5
0.569                   -2.67956         -164.13         -44.6762         32.2547         -44.6765         32.2564       -0.0137627         146.428
0.57                    -2.86729        -164.216         -44.3849         28.9502         -44.3851         28.9518       -0.0139812         146.355
0.571                   -3.05642        -164.149         -44.1119         25.5807         -44.1121         25.5822       -0.0142018         146.283
0.572                   -3.24297        -163.917         -43.8582         22.1575         -43.8584         22.1587       -0.0144216         146.211
0.573                   -3.42213        -163.511         -43.6247         18.6929         -43.6249         18.6937       -0.0146382         146.138
0.574                   -3.58845        -162.933         -43.4117         15.1998         -43.4119         15.2002         -0.01485         146.065
0.575                   -3.73617        -162.191         -43.2195         11.6917         -43.2197         11.6917       -0.0150561         145.993
0.576                   -3.85964        -161.305          -43.048         8.18208         -43.0481         8.18154       -0.0152563          145.92
0.577                   -3.95397        -160.307         -42.8967         4.68383         -42.8968         4.68278        -0.015451         145.847
0.578                   -4.01551        -159.236         -42.7651         1.20932         -42.7652         1.20775       -0.0156409         145.774
0.579                   -4.04237        -158.139         -42.6521        -2.23015         -42.6522        -2.23222       -0.0158269           145.7
0.58                    -4.03462        -157.062         -42.5567        -5.62449         -42.5569        -5.62704       -0.0160099         145.627
0.581                   -3.99425         -156.05         -42.4777        -8.96503         -42.4779        -8.96803       -0.0161911         145.553
0.582                   -3.92484        -155.141         -42.4137        -12.2446         -42.4139         -12.248       -0.0163711          145.48
0.583                   -3.83105        -154.364         -42.3633        -15.4574         -42.3635        -15.4612       -0.0165508         145.406
0.584                   -3.71811        -153.738          -42.325        -18.5993         -42.3253        -18.6034       -0.0167308         145.331
0.585                   -3.59124        -153.271         -42.2974        -21.6674         -42.2978        -21.6716       -0.0169117         145.257
0.586                   -3.45533        -152.965         -42.2792        -24.6599         -42.2796        -24.6643       -0.0170938         145.183
0.587                   -3.31468        -152.814          -42.269        -27.5763         -42.2694        -27.5808       -0.0172775         145.108
0.588                   -3.17285        -152.807         -42.2655        -30.4168         -42.2661        -30.4214       -0.0174631         145.033
0.589                   -3.03267        -152.933         -42.2677        -33.1827         -42.2683        -33.1872       -0.0176509         144.958
0.59                    -2.89628        -153.178         -42.2745        -35.8755         -42.2751          -35.88        -0.017841         144.883
0.591                   -2.76525        -153.528         -42.2849        -38.4975         -42.2856         -38.502       -0.0180336         144.807
0.592                   -2.64063         -153.97         -42.2981        -41.0513         -42.2988        -41.0556       -0.0182287         144.732
0.593                   -2.52306        -154.492         -42.3134        -43.5396         -42.3141        -43.5438       -0.0184266         144.656
0.594                   -2.41291        -155.082           -42.33        -45.9655         -42.3307        -45.9695       -0.0186272          144.58
0.595                   -2.31027        -155.731         -42.3474         -48.332         -42.3481        -48.3357       -0.0188307         144.504
0.596                    -2.2151         -156.43          -42.365        -50.6422         -42.3658        -50.6457       -0.0190371         144.428
0.597                   -2.12722        -157.172         -42.3825        -52.8992         -42.3833        -52.9026       -0.0192464         144.351
0.598                   -2.04638        -157.952         -42.3995        -55.1062         -42.4002        -55.1093       -0.0194588         144.275
0.599                   -1.97226        -158.762         -42.4155         -57.266         -42.4163        -57.2688       -0.0196742         144.198
0.6                     -1.90454          -159.6         -42.4305        -59.3815         -42.4313        -59.3841       -0.0198926         144.121
0.601                   -1.84285        -160.462         -42.4441        -61.4556         -42.4448         -61.458       -0.0201142         144.044
0.602                   -1.78686        -161.344         -42.4561        -63.4908         -42.4568         -63.493       -0.0203389         143.966
0.603                   -1.73621        -162.245         -42.4664        -65.4897         -42.4671        -65.4916       -0.0205668         143.889
0.604                   -1.69057        -163.162         -42.4749        -67.4547         -42.4755        -67.4564       -0.0207978         143.811
0.605                   -1.64961        -164.094         -42.4814         -69.388          -42.482        -69.3895       -0.0210321         143.733
0.606                   -1.61301         -165.04         -42.4858        -71.2918         -42.4864        -71.2931       -0.0212696         143.655
0.607                    -1.5805        -165.998         -42.4882        -73.1681         -42.4888        -73.1692       -0.0215104         143.576
0.608                   -1.55177        -166.969         -42.4884        -75.0188          -42.489        -75.0197       -0.0217544         143.498
0.609                   -1.52659         -167.95         -42.4865        -76.8456          -42.487        -76.8464       -0.0220018         143.419
0.61                    -1.50468        -168.943         -42.4823        -78.6504         -42.4828         -78.651       -0.0222525          143.34
0.611                   -1.48583        -169.946         -42.4759        -80.4346         -42.4764        -80.4351       -0.0225065         143.261
0.612                   -1.46982         -170.96         -42.4673        -82.1997         -42.4677        -82.2001        -0.022764         143.181
0.613                   -1.45646        -171.984         -42.4565        -83.9472         -42.4569        -83.9475       -0.0230248         143.101
0.614                   -1.44554        -173.018         -42.4435        -85.6783         -42.4438        -85.6785        -0.023289         143.022
0.615                   -1.43693        -174.062         -42.4282        -87.3943         -42.4285        -87.3945       -0.0235566         142.941
0.616                   -1.43045        -175.115         -42.4108        -89.0963         -42.4111        -89.0965       -0.0238277         142.861
0.617                   -1.42599        -176.178         -42.3913        -90.7856         -42.3915        -90.7857       -0.0241022         142.781
0.618                   -1.42343        -177.251         -42.3696         -92.463         -42.3698         -92.463       -0.0243802           142.7
0.619                   -1.42267        -178.334         -42.3458        -94.1295         -42.3459        -94.1296       -0.0246617         142.619
0.62                    -1.42362        -179.426         -42.3199        -95.7862           -42.32        -95.7863       -0.0249467         142.538
0.621                   -1.42623         179.472          -42.292        -97.4338         -42.2921        -97.4339       -0.0252352         142.456
0.622                   -1.43043          178.36         -42.2621        -99.0732         -42.2621        -99.0733       -0.0255273         142.374
0.623                   -1.43618         177.239         -42.2302        -100.705         -42.2302        -100.705       -0.0258229         142.292
0.624                   -1.44347         176.108         -42.1964        -102.331         -42.1963        -102.331        -0.026122          142.21
0.625                   -1.45227         174.966         -42.1606         -103.95         -42.1605         -103.95       -0.0264247         142.128
0.626                   -1.46257         173.815          -42.123        -105.564         -42.1229        -105.564        -0.026731         142.045
0.627                   -1.47438         172.653         -42.0835        -107.173         -42.0834        -107.174       -0.0270409         141.962
0.628                    -1.4877          171.48         -42.0423        -108.779         -42.0421        -108.779       -0.0273544         141.879
0.629                   -1.50256         170.296         -41.9993        -110.381          -41.999        -110.381       -0.0276715         141.795
