! TOUCHSTONE file generated by CST MICROWAVE STUDIO
! Date and time: Mon Nov 30 09:06:18 2020
! Project name: Scenario_1_Planar_Body_Tissue_Out_of_Line_v2.cst
! Parameters = {dy1=-259.5; L_HA=400; Ltissue=700; MT=2.54; Rad_Dielectric=30; Rad_Lower=7.3; Rad_Upper=30; Wtissue=700; a_HA=580; a_WG=246; b_HA=500; b_WG=121; c_HA=0; c_WG=187; d_feed=85; dx1=346; h_feed=15; h_lower=18; h_upper=40; hfat=3; hgap=25; hmuscle=50; hskin=1.5}
! Header version: 2018
! Port assignment regex: !\s*Touchstone port\s*([0-9]+)\s*=\s*(CST MWS port|CST DS port)\s*([0-9]+|Zmin|Zmax)\s*\(\"(.*)\"\)(\s*mode\s*([0-9]+))?.*
! Touchstone port assignment:
! Touchstone port 1 = CST MWS port 1 ("")
! Touchstone port 2 = CST MWS port 2 ("")
# GHz S DB R 50
0.5                    -0.241384        -121.783         -57.7653         10.2609         -57.7651          10.261      -0.00823695          151.13
0.501                  -0.244107        -122.173         -57.7097         7.54899         -57.7096         7.54992        -0.008287         151.065
0.502                  -0.246846        -122.566         -57.6547         4.87515         -57.6546         4.87683      -0.00833763             151
0.503                  -0.249603        -122.961         -57.6003         2.23998         -57.6001         2.24235      -0.00838886         150.934
0.504                  -0.252378        -123.359         -57.5464       -0.356059         -57.5462       -0.353062       -0.0084407         150.869
0.505                  -0.255174         -123.76          -57.493        -2.91263         -57.4929        -2.90907      -0.00849316         150.804
0.506                  -0.257992        -124.163         -57.4401        -5.42952           -57.44        -5.42547      -0.00854625         150.738
0.507                  -0.260834        -124.569         -57.3877        -7.90666         -57.3876        -7.90216      -0.00859998         150.672
0.508                  -0.263702        -124.978         -57.3357        -10.3441         -57.3356        -10.3392      -0.00865435         150.607
0.509                  -0.266598         -125.39         -57.2842        -12.7418         -57.2841        -12.7366      -0.00870939         150.541
0.51                   -0.269524        -125.805          -57.233        -15.1002         -57.2329        -15.0947      -0.00876511         150.475
0.511                  -0.272482        -126.222         -57.1821        -17.4195          -57.182        -17.4137       -0.0088215         150.409
0.512                  -0.275474        -126.642         -57.1314           -19.7         -57.1313        -19.6941       -0.0088786         150.343
0.513                  -0.278504        -127.066          -57.081        -21.9423         -57.0809        -21.9362       -0.0089364         150.277
0.514                  -0.281573        -127.492         -57.0308        -24.1467         -57.0307        -24.1406      -0.00899492         150.211
0.515                  -0.284683        -127.922         -56.9807         -26.314         -56.9806        -26.3077      -0.00905418         150.145
0.516                  -0.287839        -128.355         -56.9306        -28.4446         -56.9305        -28.4383      -0.00911418         150.078
0.517                  -0.291042        -128.791         -56.8806        -30.5393         -56.8805         -30.533      -0.00917495         150.012
0.518                  -0.294295         -129.23         -56.8306        -32.5987         -56.8304        -32.5924      -0.00923649         149.945
0.519                  -0.297602        -129.673         -56.7804        -34.6235         -56.7803        -34.6172      -0.00929882         149.879
0.52                   -0.300966        -130.119         -56.7301        -36.6144           -56.73        -36.6082      -0.00936195         149.812
0.521                  -0.304391        -130.568         -56.6796        -38.5723         -56.6795        -38.5662       -0.0094259         149.745
0.522                   -0.30788        -131.021         -56.6289        -40.4978         -56.6288        -40.4918      -0.00949069         149.679
0.523                  -0.311437        -131.477         -56.5779        -42.3919         -56.5778         -42.386      -0.00955632         149.612
0.524                  -0.315066        -131.937         -56.5266        -44.2552         -56.5265        -44.2494      -0.00962283         149.544
0.525                  -0.318771          -132.4         -56.4748        -46.0885         -56.4747        -46.0829      -0.00969021         149.477
0.526                  -0.322557        -132.868         -56.4227        -47.8928         -56.4225        -47.8873       -0.0097585          149.41
0.527                  -0.326428        -133.339           -56.37        -49.6686         -56.3699        -49.6633       -0.0098277         149.343
0.528                  -0.330389        -133.814         -56.3168         -51.417         -56.3167        -51.4119      -0.00989784         149.275
0.529                  -0.334446        -134.293          -56.263        -53.1386         -56.2629        -53.1336      -0.00996893         149.208
0.53                   -0.338603        -134.775         -56.2087        -54.8342         -56.2085        -54.8295        -0.010041          149.14
0.531                  -0.342868        -135.262         -56.1536        -56.5047         -56.1535        -56.5001       -0.0101141         149.072
0.532                  -0.347244        -135.753         -56.0978        -58.1508         -56.0977        -58.1464       -0.0101881         149.005
0.533                   -0.35174        -136.249         -56.0413        -59.7732         -56.0411         -59.769       -0.0102632         148.937
0.534                  -0.356361        -136.748         -55.9839        -61.3727         -55.9838        -61.3688       -0.0103394         148.869
0.535                  -0.361115        -137.252         -55.9257        -62.9502         -55.9256        -62.9464       -0.0104166         148.801
0.536                  -0.366009         -137.76         -55.8667        -64.5062         -55.8666        -64.5026        -0.010495         148.732
0.537                  -0.371051        -138.273         -55.8067        -66.0415         -55.8066        -66.0381       -0.0105744         148.664
0.538                   -0.37625        -138.791         -55.7457        -67.5568         -55.7456        -67.5537        -0.010655         148.596
0.539                  -0.381613        -139.313         -55.6838        -69.0529         -55.6836          -69.05       -0.0107368         148.527
0.54                    -0.38715         -139.84         -55.6208        -70.5304         -55.6206        -70.5276       -0.0108198         148.459
0.541                  -0.392871        -140.373         -55.5567        -71.9899         -55.5565        -71.9874       -0.0109039          148.39
0.542                  -0.398787         -140.91         -55.4914        -73.4322         -55.4913        -73.4299       -0.0109894         148.321
0.543                  -0.404907        -141.452         -55.4251        -74.8579         -55.4249        -74.8558        -0.011076         148.252
0.544                  -0.411244        -141.999         -55.3575        -76.2677         -55.3574        -76.2658        -0.011164         148.183
0.545                   -0.41781        -142.552         -55.2886        -77.6621         -55.2885        -77.6604       -0.0112533         148.114
0.546                  -0.424618         -143.11         -55.2185        -79.0419         -55.2184        -79.0403        -0.011344         148.044
0.547                   -0.43168        -143.674         -55.1471        -80.4075          -55.147        -80.4061       -0.0114361         147.975
0.548                  -0.439013        -144.244         -55.0743        -81.7597         -55.0742        -81.7585       -0.0115295         147.906
0.549                  -0.446631        -144.819         -55.0001        -83.0989         -55.0001        -83.0979       -0.0116244         147.836
0.55                    -0.45455          -145.4         -54.9245        -84.4259         -54.9244        -84.4251       -0.0117208         147.766
0.551                  -0.462788        -145.988         -54.8474        -85.7412         -54.8474        -85.7405       -0.0118187         147.696
0.552                  -0.471363        -146.581         -54.7689        -87.0454         -54.7688        -87.0448       -0.0119181         147.626
0.553                  -0.480295        -147.181         -54.6887        -88.3389         -54.6886        -88.3385        -0.012019         147.556
0.554                  -0.489603        -147.787          -54.607        -89.6225         -54.6069        -89.6223       -0.0121216         147.486
0.555                  -0.499311          -148.4         -54.5236        -90.8967         -54.5236        -90.8966       -0.0122258         147.416
0.556                  -0.509441         -149.02         -54.4386         -92.162         -54.4385         -92.162       -0.0123317         147.345
0.557                  -0.520018        -149.646         -54.3519         -93.419         -54.3518        -93.4191       -0.0124393         147.275
0.558                  -0.531069         -150.28         -54.2634        -94.6682         -54.2634        -94.6685       -0.0125486         147.204
0.559                  -0.542622        -150.921         -54.1732        -95.9103         -54.1731        -95.9107       -0.0126596         147.133
0.56                   -0.554706        -151.569         -54.0811        -97.1458         -54.0811        -97.1463       -0.0127725         147.062
0.561                  -0.567354        -152.225         -53.9872        -98.3752         -53.9871        -98.3758       -0.0128872         146.991
0.562                  -0.580599        -152.889         -53.8914        -99.5992         -53.8913        -99.5998       -0.0130038          146.92
0.563                  -0.594479         -153.56         -53.7936        -100.818         -53.7936        -100.819       -0.0131224         146.848
0.564                   -0.60903         -154.24         -53.6939        -102.033         -53.6938        -102.034       -0.0132428         146.777
0.565                  -0.624296        -154.928         -53.5921        -103.244         -53.5921        -103.245       -0.0133653         146.705
0.566                  -0.640319        -155.624         -53.4883        -104.452         -53.4883        -104.453       -0.0134897         146.633
0.567                  -0.657147        -156.329         -53.3824        -105.657         -53.3824        -105.658       -0.0136162         146.562
0.568                  -0.674829        -157.043         -53.2744        -106.861         -53.2744        -106.862       -0.0137448          146.49
0.569                  -0.693421        -157.766         -53.1642        -108.063         -53.1642        -108.064       -0.0138756         146.417
0.57                   -0.712978        -158.498         -53.0518        -109.264         -53.0519        -109.266       -0.0140084         146.345
0.571                  -0.733563        -159.239         -52.9372        -110.466         -52.9373        -110.467       -0.0141435         146.273
0.572                  -0.755241         -159.99         -52.8204        -111.668         -52.8204         -111.67       -0.0142808           146.2
0.573                  -0.778083        -160.751         -52.7012        -112.872         -52.7012        -112.873       -0.0144204         146.127
0.574                  -0.802162        -161.522         -52.5797        -114.078         -52.5797        -114.079       -0.0145622         146.055
0.575                   -0.82756        -162.303         -52.4558        -115.287         -52.4558        -115.288       -0.0147063         145.982
0.576                  -0.854363        -163.094         -52.3296        -116.499         -52.3296          -116.5       -0.0148528         145.908
0.577                  -0.882663        -163.896         -52.2009        -117.716         -52.2009        -117.717       -0.0150017         145.835
0.578                  -0.912558        -164.708         -52.0698        -118.938         -52.0698        -118.939        -0.015153         145.762
0.579                  -0.944153        -165.532         -51.9362        -120.166         -51.9363        -120.167       -0.0153066         145.688
0.58                   -0.977563        -166.366         -51.8002          -121.4         -51.8003        -121.402       -0.0154628         145.614
0.581                   -1.01291        -167.211         -51.6617        -122.643         -51.6618        -122.645       -0.0156213          145.54
0.582                   -1.05032        -168.067         -51.5207        -123.895         -51.5208        -123.896       -0.0157824         145.466
0.583                   -1.08993        -168.935         -51.3773        -125.156         -51.3773        -125.157        -0.015946         145.392
0.584                   -1.13189        -169.813         -51.2313        -126.428         -51.2314        -126.429        -0.016112         145.318
0.585                   -1.17635        -170.703         -51.0829        -127.711          -51.083        -127.713       -0.0162806         145.243
0.586                    -1.2235        -171.604          -50.932        -129.007         -50.9321        -129.009       -0.0164517         145.168
0.587                    -1.2735        -172.516         -50.7787        -130.318         -50.7788        -130.319       -0.0166254         145.094
0.588                   -1.32655        -173.439          -50.623        -131.643         -50.6231        -131.644       -0.0168016         145.019
0.589                   -1.38285        -174.372          -50.465        -132.984         -50.4651        -132.985       -0.0169803         144.943
0.59                    -1.44261        -175.315         -50.3046        -134.342         -50.3047        -134.343       -0.0171616         144.868
0.591                   -1.50608        -176.269         -50.1421        -135.719         -50.1421         -135.72       -0.0173454         144.793
0.592                   -1.57349        -177.231         -49.9773        -137.115         -49.9774        -137.116       -0.0175318         144.717
0.593                   -1.64509        -178.202         -49.8105        -138.532         -49.8106        -138.534       -0.0177207         144.641
0.594                   -1.72116        -179.181         -49.6418        -139.972         -49.6419        -139.973       -0.0179121         144.565
0.595                   -1.80199         179.833         -49.4712        -141.435         -49.4713        -141.436       -0.0181061         144.489
0.596                   -1.88786         178.842         -49.2989        -142.922          -49.299        -142.923       -0.0183026         144.412
0.597                   -1.97909         177.847         -49.1251        -144.436         -49.1252        -144.437       -0.0185016         144.336
0.598                     -2.076         176.849         -48.9499        -145.977           -48.95        -145.978       -0.0187031         144.259
0.599                   -2.17891         175.851         -48.7735        -147.546         -48.7736        -147.547       -0.0189071         144.182
0.6                     -2.28816         174.854         -48.5963        -149.144         -48.5963        -149.145       -0.0191135         144.105
0.601                   -2.40408         173.862         -48.4183        -150.774         -48.4183        -150.774       -0.0193225         144.028
0.602                   -2.52702         172.876         -48.2398        -152.435         -48.2399        -152.435       -0.0195339          143.95
0.603                   -2.65729         171.902         -48.0612        -154.128         -48.0613        -154.129       -0.0197477         143.873
0.604                   -2.79522         170.941         -47.8828        -155.856         -47.8829        -155.856        -0.019964         143.795
0.605                    -2.9411         169.999         -47.7049        -157.617         -47.7049        -157.618       -0.0201828         143.717
0.606                   -3.09518         169.081         -47.5278        -159.413         -47.5278        -159.414        -0.020404         143.638
0.607                   -3.25769         168.192         -47.3519        -161.245         -47.3519        -161.245       -0.0206276          143.56
0.608                   -3.42878         167.338         -47.1776        -163.111         -47.1777        -163.112       -0.0208537         143.481
0.609                   -3.60853         166.525         -47.0053        -165.013         -47.0054        -165.013       -0.0210823         143.402
0.61                    -3.79693         165.761         -46.8355         -166.95         -46.8356         -166.95       -0.0213133         143.323
0.611                   -3.99386         165.054         -46.6686         -168.92         -46.6686        -168.921       -0.0215469         143.244
0.612                   -4.19902         164.413         -46.5049        -170.925          -46.505        -170.925       -0.0217829         143.164
0.613                   -4.41196         163.846          -46.345        -172.962         -46.3451        -172.962       -0.0220215         143.085
0.614                   -4.63204         163.362         -46.1893        -175.029         -46.1894        -175.029       -0.0222626         143.005
0.615                   -4.85836         162.973         -46.0382        -177.125         -46.0382        -177.125       -0.0225063         142.925
0.616                   -5.08974         162.686         -45.8921        -179.248         -45.8921        -179.248       -0.0227527         142.844
0.617                   -5.32474         162.513         -45.7513         178.605         -45.7513         178.605       -0.0230017         142.764
0.618                   -5.56154         162.461         -45.6163         176.436         -45.6163         176.436       -0.0232535         142.683
0.619                   -5.79803         162.538         -45.4872         174.249         -45.4872         174.249        -0.023508         142.602
0.62                    -6.03173         162.751         -45.3644         172.047         -45.3644         172.047       -0.0237654          142.52
0.621                   -6.25984         163.103          -45.248         169.833          -45.248         169.833       -0.0240257         142.439
0.622                   -6.47929         163.595         -45.1382         167.611         -45.1382         167.611        -0.024289         142.357
0.623                   -6.68682         164.225         -45.0351         165.385         -45.0351         165.385       -0.0245553         142.275
0.624                    -6.8791         164.985         -44.9386         163.158         -44.9386         163.158       -0.0248247         142.192
0.625                   -7.05284         165.864         -44.8488         160.935         -44.8488         160.935       -0.0250974          142.11
0.626                   -7.20503         166.846         -44.7656         158.719         -44.7656         158.719       -0.0253733         142.027
0.627                   -7.33305         167.911         -44.6887         156.514         -44.6887         156.514       -0.0256527         141.944
0.628                    -7.4349         169.036          -44.618         154.323          -44.618         154.323       -0.0259355          141.86
0.629                    -7.5093         170.194         -44.5532          152.15         -44.5532          152.15        -0.026222         141.777
