! TOUCHSTONE file generated by CST MICROWAVE STUDIO
! Date and time: Fri Dec 11 13:53:59 2020
! Project name: Scenario_1_Planar_Body_Tissue_Out_of_Line_v2.cst
! Parameters = {dy1=-259.5; L_HA=400; Ltissue=700; MT=2.54; Rad_Dielectric=30; Rad_Lower=7.3; Rad_Upper=30; Wtissue=700; a_HA=580; a_WG=246; b_HA=500; b_WG=121; c_HA=0; c_WG=187; d_feed=85; dx1=520; h_feed=15; h_lower=18; h_upper=40; hfat=3; hgap=25; hmuscle=50; hskin=1.5}
! Header version: 2018
! Port assignment regex: !\s*Touchstone port\s*([0-9]+)\s*=\s*(CST MWS port|CST DS port)\s*([0-9]+|Zmin|Zmax)\s*\(\"(.*)\"\)(\s*mode\s*([0-9]+))?.*
! Touchstone port assignment:
! Touchstone port 1 = CST MWS port 1 ("")
! Touchstone port 2 = CST MWS port 2 ("")
# GHz S DB R 50
0.5                   -0.0939131        -121.945         -63.8081        -69.2107         -63.8077        -69.2099      -0.00733498         151.144
0.501                 -0.0974053        -122.399          -63.603        -70.3181         -63.6026        -70.3175      -0.00740036         151.078
0.502                  -0.101119        -122.857          -63.394        -71.4373         -63.3937        -71.4368      -0.00746656         151.013
0.503                  -0.105072        -123.319         -63.1812        -72.5688         -63.1809        -72.5685      -0.00753358         150.948
0.504                  -0.109281        -123.784         -62.9646        -73.7136         -62.9642        -73.7133      -0.00760147         150.882
0.505                  -0.113766        -124.253         -62.7439        -74.8724         -62.7436        -74.8722      -0.00767023         150.816
0.506                  -0.118549        -124.726         -62.5193        -76.0463          -62.519        -76.0461       -0.0077399         150.751
0.507                  -0.123652        -125.203         -62.2905        -77.2361         -62.2902        -77.2361      -0.00781049         150.685
0.508                  -0.129102        -125.683         -62.0576        -78.4431         -62.0574        -78.4431      -0.00788205         150.619
0.509                  -0.134925        -126.168         -61.8206        -79.6683         -61.8203        -79.6683       -0.0079546         150.553
0.51                   -0.141152        -126.657         -61.5793         -80.913          -61.579        -80.9131      -0.00802818         150.487
0.511                  -0.147815        -127.151         -61.3337        -82.1785         -61.3334        -82.1787      -0.00810281         150.421
0.512                  -0.154949        -127.648         -61.0837        -83.4664         -61.0835        -83.4665      -0.00817855         150.355
0.513                  -0.162593         -128.15         -60.8294        -84.7781         -60.8292        -84.7783      -0.00825543         150.289
0.514                  -0.170787        -128.657         -60.5708        -86.1153         -60.5705        -86.1155       -0.0083335         150.223
0.515                  -0.179579        -129.168         -60.3077        -87.4798         -60.3075          -87.48      -0.00841281         150.156
0.516                  -0.189015        -129.683         -60.0402        -88.8734           -60.04        -88.8736       -0.0084934          150.09
0.517                   -0.19915        -130.202         -59.7684        -90.2982         -59.7682        -90.2984      -0.00857534         150.023
0.518                   -0.21004        -130.726         -59.4922        -91.7563          -59.492        -91.7565      -0.00865869         149.957
0.519                  -0.221746        -131.255         -59.2117        -93.2499         -59.2115        -93.2501       -0.0087435          149.89
0.52                   -0.234335        -131.787          -58.927        -94.7814         -58.9268        -94.7817      -0.00882984         149.823
0.521                  -0.247877        -132.324         -58.6381        -96.3534         -58.6379        -96.3537       -0.0089178         149.756
0.522                  -0.262447        -132.865         -58.3452        -97.9685          -58.345        -97.9688      -0.00900744         149.689
0.523                  -0.278124        -133.409         -58.0485        -99.6295         -58.0483        -99.6297      -0.00909884         149.622
0.524                  -0.294992        -133.957         -57.7481        -101.339         -57.7479        -101.339       -0.0091921         149.555
0.525                  -0.313137        -134.508         -57.4443        -103.101         -57.4442        -103.101      -0.00928728         149.488
0.526                  -0.332649        -135.061         -57.1374        -104.917         -57.1372        -104.917       -0.0093845          149.42
0.527                   -0.35362        -135.616         -56.8277        -106.791         -56.8275        -106.791      -0.00948382         149.353
0.528                  -0.376139        -136.173         -56.5156        -108.726         -56.5154        -108.727      -0.00958535         149.285
0.529                  -0.400296         -136.73         -56.2015        -110.726         -56.2013        -110.726      -0.00968917         149.217
0.53                   -0.426174        -137.287          -55.886        -112.793         -55.8858        -112.794      -0.00979537          149.15
0.531                  -0.453847        -137.842         -55.5697        -114.931         -55.5695        -114.931      -0.00990402         149.082
0.532                  -0.483379        -138.395         -55.2532        -117.142          -55.253        -117.143       -0.0100152         149.014
0.533                  -0.514813        -138.944         -54.9374        -119.429         -54.9371         -119.43       -0.0101289         148.946
0.534                   -0.54817        -139.487          -54.623        -121.795         -54.6228        -121.795       -0.0102452         148.878
0.535                   -0.58344        -140.022          -54.311         -124.24         -54.3108        -124.241       -0.0103642          148.81
0.536                  -0.620577        -140.549         -54.0024        -126.768         -54.0022        -126.769       -0.0104857         148.741
0.537                  -0.659487        -141.064         -53.6982        -129.378          -53.698        -129.378       -0.0106097         148.673
0.538                  -0.700026        -141.566         -53.3998         -132.07         -53.3996        -132.071       -0.0107362         148.605
0.539                  -0.741988        -142.053         -53.1081        -134.843          -53.108        -134.844       -0.0108649         148.536
0.54                   -0.785104        -142.522         -52.8246        -137.696         -52.8244        -137.697       -0.0109958         148.467
0.541                  -0.829036        -142.973         -52.5504        -140.626         -52.5502        -140.627       -0.0111286         148.399
0.542                   -0.87338        -143.403         -52.2868        -143.627         -52.2866        -143.628        -0.011263          148.33
0.543                  -0.917671        -143.811         -52.0349        -146.695         -52.0348        -146.696       -0.0113986         148.261
0.544                  -0.961389        -144.198          -51.796        -149.824         -51.7958        -149.825       -0.0115353         148.192
0.545                   -1.00398        -144.562         -51.5709        -153.005         -51.5708        -153.006       -0.0116725         148.123
0.546                   -1.04487        -144.904         -51.3606         -156.23         -51.3605        -156.231       -0.0118099         148.054
0.547                    -1.0835        -145.227         -51.1657        -159.488         -51.1656        -159.489       -0.0119471         147.984
0.548                   -1.11933        -145.532         -50.9867        -162.771         -50.9866        -162.772       -0.0120837         147.915
0.549                   -1.15189        -145.822         -50.8238        -166.067         -50.8237        -166.068       -0.0122195         147.846
0.55                     -1.1808          -146.1         -50.6771        -169.366          -50.677        -169.367       -0.0123541         147.776
0.551                   -1.20577         -146.37         -50.5464        -172.657         -50.5463        -172.658       -0.0124873         147.706
0.552                   -1.22662        -146.637         -50.4311        -175.929         -50.4311         -175.93       -0.0126189         147.637
0.553                   -1.24332        -146.905         -50.3308        -179.174         -50.3308        -179.175       -0.0127488         147.567
0.554                   -1.25591        -147.177         -50.2447         177.617         -50.2446         177.616       -0.0128771         147.497
0.555                   -1.26457        -147.457         -50.1717         174.452         -50.1717         174.452       -0.0130037         147.427
0.556                   -1.26957         -147.75         -50.1109         171.337         -50.1109         171.337       -0.0131288         147.357
0.557                   -1.27121        -148.057         -50.0611         168.278         -50.0611         168.278       -0.0132525         147.286
0.558                    -1.2699        -148.382         -50.0213         165.279         -50.0212         165.279        -0.013375         147.216
0.559                   -1.26602        -148.726         -49.9902         162.343         -49.9901         162.343       -0.0134965         147.145
0.56                       -1.26        -149.091         -49.9666         159.471         -49.9666         159.471       -0.0136173         147.074
0.561                   -1.25224        -149.477         -49.9496         156.666         -49.9496         156.666       -0.0137376         147.004
0.562                   -1.24315        -149.885          -49.938         153.926          -49.938         153.926       -0.0138577         146.933
0.563                   -1.23309        -150.315         -49.9309         151.253         -49.9309         151.253       -0.0139779         146.861
0.564                   -1.22239        -150.767         -49.9273         148.644         -49.9272         148.644       -0.0140983          146.79
0.565                   -1.21136         -151.24         -49.9263         146.098         -49.9263         146.098       -0.0142192         146.719
0.566                   -1.20026        -151.734         -49.9273         143.613         -49.9273         143.613       -0.0143408         146.647
0.567                   -1.18932        -152.247         -49.9295         141.187         -49.9295         141.187       -0.0144634         146.576
0.568                   -1.17874         -152.78         -49.9324         138.817         -49.9324         138.817       -0.0145871         146.504
0.569                   -1.16868        -153.332         -49.9353         136.502         -49.9353         136.502        -0.014712         146.432
0.57                     -1.1593        -153.901         -49.9379         134.237         -49.9379         134.237       -0.0148384          146.36
0.571                   -1.15069        -154.487         -49.9396         132.021         -49.9396         132.021       -0.0149663         146.287
0.572                   -1.14297        -155.089         -49.9402         129.851         -49.9402         129.851       -0.0150959         146.215
0.573                    -1.1362        -155.706         -49.9394         127.724         -49.9394         127.724       -0.0152273         146.142
0.574                   -1.13045        -156.338         -49.9368         125.638         -49.9368         125.638       -0.0153605          146.07
0.575                   -1.12578        -156.983         -49.9323         123.589         -49.9323         123.589       -0.0154957         145.997
0.576                   -1.12222        -157.643         -49.9256         121.577         -49.9256         121.577       -0.0156329         145.924
0.577                   -1.11981        -158.315         -49.9167         119.597         -49.9167         119.597       -0.0157722          145.85
0.578                   -1.11858            -159         -49.9054         117.649         -49.9054         117.649       -0.0159136         145.777
0.579                   -1.11855        -159.697         -49.8916         115.729         -49.8915          115.73       -0.0160573         145.704
0.58                    -1.11974        -160.405         -49.8751         113.837         -49.8751         113.837       -0.0162031          145.63
0.581                   -1.12218        -161.126         -49.8561          111.97         -49.8561          111.97       -0.0163513         145.556
0.582                   -1.12588        -161.857         -49.8343         110.125         -49.8343         110.125       -0.0165018         145.482
0.583                   -1.13085          -162.6         -49.8098         108.302         -49.8098         108.302       -0.0166547         145.408
0.584                   -1.13712        -163.353         -49.7825         106.499         -49.7825         106.499       -0.0168099         145.334
0.585                   -1.14471        -164.118         -49.7525         104.714         -49.7525         104.715       -0.0169676         145.259
0.586                   -1.15363        -164.893         -49.7197         102.946         -49.7197         102.947       -0.0171278         145.185
0.587                   -1.16392        -165.679         -49.6841         101.194         -49.6841         101.194       -0.0172905          145.11
0.588                   -1.17559        -166.475         -49.6457         99.4552         -49.6457         99.4554       -0.0174557         145.035
0.589                   -1.18868        -167.282         -49.6045         97.7294         -49.6046         97.7297       -0.0176235          144.96
0.59                    -1.20321          -168.1         -49.5606         96.0152         -49.5607         96.0155       -0.0177938         144.884
0.591                   -1.21922        -168.928          -49.514         94.3114          -49.514         94.3118       -0.0179668         144.809
0.592                   -1.23676        -169.767         -49.4647          92.617         -49.4647         92.6174       -0.0181424         144.733
0.593                   -1.25585        -170.616         -49.4127         90.9309         -49.4127         90.9313       -0.0183207         144.657
0.594                   -1.27655        -171.476          -49.358         89.2521          -49.358         89.2525       -0.0185018         144.581
0.595                   -1.29891        -172.348         -49.3007         87.5796         -49.3008         87.5799       -0.0186855         144.505
0.596                   -1.32298         -173.23         -49.2408         85.9124         -49.2409         85.9128        -0.018872         144.429
0.597                   -1.34882        -174.123         -49.1784         84.2497         -49.1784         84.2501       -0.0190614         144.352
0.598                   -1.37649        -175.027         -49.1134         82.5905         -49.1134         82.5909       -0.0192536         144.276
0.599                   -1.40607        -175.942         -49.0459          80.934         -49.0459         80.9344       -0.0194486         144.199
0.6                     -1.43764        -176.869          -48.976         79.2794          -48.976         79.2798       -0.0196466         144.122
0.601                   -1.47126        -177.807         -48.9036         77.6258         -48.9036         77.6262       -0.0198475         144.044
0.602                   -1.50703        -178.756         -48.8288         75.9725         -48.8288         75.9729       -0.0200513         143.967
0.603                   -1.54504        -179.717         -48.7517         74.3185         -48.7517         74.3189       -0.0202582         143.889
0.604                   -1.58539          179.31         -48.6724         72.6633         -48.6723         72.6637       -0.0204681         143.811
0.605                   -1.62819         178.326         -48.5907         71.0059         -48.5907         71.0063       -0.0206812         143.733
0.606                   -1.67354         177.331         -48.5069         69.3457         -48.5069          69.346       -0.0208973         143.655
0.607                   -1.72158         176.324         -48.4209         67.6818         -48.4209         67.6822       -0.0211166         143.576
0.608                   -1.77242         175.305         -48.3329         66.0136         -48.3328          66.014       -0.0213391         143.497
0.609                    -1.8262         174.274         -48.2428         64.3404         -48.2427         64.3407       -0.0215648         143.419
0.61                    -1.88306         173.232         -48.1507         62.6614         -48.1507         62.6616       -0.0217939         143.339
0.611                   -1.94317         172.179         -48.0567         60.9758         -48.0567         60.9761       -0.0220262          143.26
0.612                   -2.00667         171.115         -47.9609         59.2831         -47.9609         59.2833        -0.022262          143.18
0.613                   -2.07374         170.039         -47.8634         57.5825         -47.8634         57.5827       -0.0225011         143.101
0.614                   -2.14456         168.953         -47.7641         55.8733         -47.7641         55.8735       -0.0227437         143.021
0.615                   -2.21932         167.857         -47.6633          54.155         -47.6633         54.1551       -0.0229898          142.94
0.616                   -2.29821         166.751          -47.561         52.4267         -47.5609         52.4268       -0.0232395          142.86
0.617                   -2.38145         165.635         -47.4572         50.6879         -47.4572          50.688       -0.0234927         142.779
0.618                   -2.46925          164.51         -47.3521          48.938         -47.3521          48.938       -0.0237496         142.698
0.619                   -2.56184         163.377         -47.2458         47.1763         -47.2458         47.1764       -0.0240102         142.617
0.62                    -2.65946         162.237         -47.1384         45.4023         -47.1384         45.4024       -0.0242745         142.536
0.621                   -2.76236          161.09           -47.03         43.6155           -47.03         43.6155       -0.0245426         142.454
0.622                   -2.87078         159.938         -46.9207         41.8153         -46.9207         41.8152       -0.0248146         142.372
0.623                   -2.98501         158.781         -46.8108         40.0012         -46.8107         40.0011       -0.0250905          142.29
0.624                   -3.10531         157.622         -46.7002         38.1728         -46.7001         38.1727       -0.0253703         142.208
0.625                   -3.23197         156.461         -46.5891         36.3297         -46.5891         36.3295       -0.0256541         142.125
0.626                   -3.36527           155.3         -46.4778         34.4714         -46.4778         34.4713        -0.025942         142.042
0.627                   -3.50551         154.142         -46.3663         32.5978         -46.3663         32.5976       -0.0262341         141.959
0.628                   -3.65297         152.989         -46.2548         30.7085         -46.2548         30.7083       -0.0265303         141.875
0.629                   -3.80797         151.842         -46.1435         28.8034         -46.1435         28.8032       -0.0268307         141.792
