! TOUCHSTONE file generated by CST MICROWAVE STUDIO
! Date and time: Sat Nov 14 19:59:08 2020
! Project name: Scenario_1_Planar_Body_Tissue_Out_of_Line.cst
! Parameters = {dy1=259.5; L_HA=400; Ltissue=700; MT=2.54; Rad_Dielectric=30; Rad_Lower=7.3; Rad_Upper=30; Wtissue=700; a_HA=580; a_WG=246; b_HA=500; b_WG=121; c_HA=0; c_WG=187; d_feed=85; dx1=693; h_feed=15; h_lower=18; h_upper=40; hfat=3; hgap=25; hmuscle=50; hskin=1.5}
! Header version: 2018
! Port assignment regex: !\s*Touchstone port\s*([0-9]+)\s*=\s*(CST MWS port|CST DS port)\s*([0-9]+|Zmin|Zmax)\s*\(\"(.*)\"\)(\s*mode\s*([0-9]+))?.*
! Touchstone port assignment:
! Touchstone port 1 = CST MWS port 1 ("")
! Touchstone port 2 = CST MWS port 2 ("")
# GHz S DB R 50
0.5                    -0.180119        -121.672         -62.8354         173.474         -62.8346         173.479      -0.00772185         151.162
0.501                  -0.183091        -122.093         -62.7364          171.72         -62.7356         171.725      -0.00778317         151.097
0.502                  -0.186111        -122.516         -62.6368         169.955          -62.636          169.96      -0.00784501         151.032
0.503                  -0.189182        -122.942         -62.5367         168.178         -62.5359         168.185      -0.00790738         150.967
0.504                  -0.192308        -123.371         -62.4361         166.392         -62.4352         166.399       -0.0079703         150.901
0.505                  -0.195491        -123.802         -62.3349         164.595          -62.334         164.602      -0.00803377         150.836
0.506                  -0.198734        -124.236         -62.2333          162.79         -62.2324         162.797      -0.00809781          150.77
0.507                   -0.20204        -124.672         -62.1312         160.975         -62.1303         160.983      -0.00816243         150.705
0.508                  -0.205414        -125.112         -62.0288         159.152         -62.0278          159.16      -0.00822765         150.639
0.509                  -0.208859        -125.554         -61.9259         157.321         -61.9249         157.329      -0.00829347         150.573
0.51                   -0.212379        -125.999         -61.8227         155.483         -61.8217         155.492      -0.00835991         150.507
0.511                  -0.215979        -126.448         -61.7191         153.639         -61.7181         153.647      -0.00842699         150.442
0.512                  -0.219664        -126.899         -61.6152         151.789         -61.6142         151.797      -0.00849471         150.376
0.513                  -0.223439        -127.353          -61.511         149.933         -61.5099         149.942       -0.0085631         150.309
0.514                  -0.227309        -127.811         -61.4065         148.073         -61.4054         148.082      -0.00863217         150.243
0.515                  -0.231281        -128.272         -61.3017          146.21         -61.3005         146.219      -0.00870192         150.177
0.516                  -0.235361        -128.737         -61.1966         144.343         -61.1954         144.352      -0.00877239         150.111
0.517                  -0.239556        -129.204         -61.0911         142.474         -61.0899         142.483      -0.00884358         150.044
0.518                  -0.243872        -129.676         -60.9854         140.604         -60.9841         140.613      -0.00891551         149.978
0.519                  -0.248319        -130.151         -60.8793         138.732          -60.878         138.741      -0.00898819         149.911
0.52                   -0.252904        -130.629         -60.7728         136.861         -60.7715          136.87      -0.00906165         149.845
0.521                  -0.257637        -131.111          -60.666          134.99         -60.6647         134.998       -0.0091359         149.778
0.522                  -0.262527        -131.598         -60.5587          133.12         -60.5574         133.129      -0.00921096         149.711
0.523                  -0.267585        -132.088         -60.4509         131.253         -60.4496         131.261      -0.00928685         149.644
0.524                  -0.272822        -132.582         -60.3426         129.388         -60.3413         129.396      -0.00936358         149.577
0.525                   -0.27825         -133.08         -60.2338         127.527         -60.2324         127.534      -0.00944117          149.51
0.526                  -0.283882        -133.582         -60.1242         125.669         -60.1229         125.676      -0.00951965         149.443
0.527                  -0.289732        -134.089          -60.014         123.816         -60.0126         123.824      -0.00959904         149.375
0.528                  -0.295815          -134.6         -59.9029         121.969         -59.9015         121.976      -0.00967935         149.308
0.529                  -0.302147        -135.116         -59.7909         120.127         -59.7896         120.134      -0.00976061          149.24
0.53                   -0.308745        -135.636          -59.678         118.292         -59.6766         118.298      -0.00984284         149.173
0.531                  -0.315627        -136.161         -59.5639         116.464         -59.5625         116.469      -0.00992606         149.105
0.532                  -0.322815         -136.69         -59.4486         114.642         -59.4472         114.647       -0.0100103         149.037
0.533                  -0.330328        -137.225         -59.3319         112.828         -59.3306         112.833       -0.0100956         148.969
0.534                   -0.33819        -137.765         -59.2138         111.022         -59.2125         111.026       -0.0101819         148.901
0.535                  -0.346426         -138.31         -59.0941         109.223         -59.0928         109.227       -0.0102693         148.833
0.536                  -0.355062         -138.86         -58.9726         107.433         -58.9714         107.437       -0.0103579         148.765
0.537                  -0.364128        -139.415         -58.8493         105.651         -58.8481         105.654       -0.0104476         148.697
0.538                  -0.373653        -139.976         -58.7239         103.876         -58.7228         103.879       -0.0105384         148.629
0.539                  -0.383672        -140.542         -58.5963          102.11         -58.5952         102.112       -0.0106305          148.56
0.54                   -0.394219        -141.115         -58.4664         100.351         -58.4654         100.353       -0.0107237         148.491
0.541                  -0.405334        -141.693          -58.334         98.5988          -58.333         98.6006       -0.0108183         148.423
0.542                  -0.417057        -142.276          -58.199         96.8537          -58.198         96.8552       -0.0109141         148.354
0.543                  -0.429433        -142.866         -58.0611         95.1147         -58.0602         95.1159       -0.0110112         148.285
0.544                  -0.442511        -143.462         -57.9202         93.3812         -57.9194         93.3821       -0.0111097         148.216
0.545                  -0.456341        -144.065         -57.7762         91.6523         -57.7754          91.653       -0.0112096         148.147
0.546                  -0.470979        -144.673         -57.6289          89.927         -57.6282         89.9275       -0.0113109         148.078
0.547                  -0.486485        -145.288         -57.4781         88.2044         -57.4775         88.2047       -0.0114136         148.008
0.548                  -0.502922        -145.909         -57.3238         86.4832         -57.3232         86.4833       -0.0115178         147.939
0.549                   -0.52036        -146.536         -57.1657         84.7621         -57.1652          84.762       -0.0116236         147.869
0.55                   -0.538872         -147.17         -57.0038         83.0396         -57.0033         83.0394       -0.0117309         147.799
0.551                  -0.558536         -147.81         -56.8378         81.3141         -56.8374         81.3138       -0.0118399          147.73
0.552                  -0.579436        -148.457         -56.6678         79.5839         -56.6675         79.5835       -0.0119504          147.66
0.553                  -0.601664        -149.109         -56.4937          77.847         -56.4934         77.8467       -0.0120627          147.59
0.554                  -0.625313        -149.768         -56.3153         76.1016          -56.315         76.1012       -0.0121767          147.52
0.555                  -0.650487        -150.433         -56.1326         74.3454         -56.1324          74.345       -0.0122924         147.449
0.556                  -0.677292        -151.103         -55.9455         72.5762         -55.9454         72.5758       -0.0124099         147.379
0.557                  -0.705842        -151.779         -55.7542         70.7916         -55.7541         70.7913       -0.0125293         147.308
0.558                  -0.736257         -152.46         -55.5585          68.989         -55.5584         68.9888       -0.0126506         147.238
0.559                  -0.768659        -153.145         -55.3586          67.166         -55.3586         67.1658       -0.0127738         147.167
0.56                   -0.803179        -153.834         -55.1545         65.3197         -55.1545         65.3197        -0.012899         147.096
0.561                  -0.839948        -154.527         -54.9463         63.4474         -54.9464         63.4475       -0.0130262         147.025
0.562                  -0.879102        -155.222         -54.7343         61.5464         -54.7344         61.5466       -0.0131554         146.954
0.563                  -0.920777        -155.918         -54.5186         59.6136         -54.5187          59.614       -0.0132867         146.882
0.564                  -0.965106        -156.615         -54.2995         57.6463         -54.2996         57.6468       -0.0134201         146.811
0.565                   -1.01222        -157.311         -54.0772         55.6415         -54.0773         55.6421       -0.0135557          146.74
0.566                   -1.06224        -158.005         -53.8521         53.5965         -53.8523         53.5972       -0.0136934         146.668
0.567                   -1.11528        -158.695         -53.6247         51.5085         -53.6249         51.5093       -0.0138333         146.596
0.568                   -1.17142        -159.378         -53.3953         49.3749         -53.3955         49.3758       -0.0139754         146.524
0.569                   -1.23074        -160.054         -53.1646         47.1934         -53.1647         47.1944       -0.0141198         146.452
0.57                    -1.29328        -160.719          -52.933         44.9616         -52.9331         44.9627       -0.0142664          146.38
0.571                   -1.35903        -161.371         -52.7011         42.6778         -52.7013         42.6789       -0.0144152         146.308
0.572                   -1.42794        -162.007         -52.4697         40.3403         -52.4699         40.3414       -0.0145662         146.235
0.573                   -1.49992        -162.625         -52.2395          37.948         -52.2397         37.9492       -0.0147195         146.162
0.574                   -1.57478         -163.22         -52.0112         35.5004         -52.0114         35.5015       -0.0148749          146.09
0.575                   -1.65228         -163.79         -51.7857         32.9971         -51.7858         32.9983       -0.0150324         146.017
0.576                   -1.73207        -164.332         -51.5637         30.4387         -51.5638         30.4398       -0.0151921         145.944
0.577                   -1.81373        -164.843         -51.3461         27.8263         -51.3462         27.8274       -0.0153538         145.871
0.578                   -1.89671        -165.319         -51.1338         25.1616         -51.1339         25.1626       -0.0155175         145.797
0.579                   -1.98038        -165.759         -50.9275         22.4471         -50.9276          22.448       -0.0156831         145.724
0.58                    -2.06401        -166.159          -50.728          19.686         -50.7281         19.6868       -0.0158505          145.65
0.581                   -2.14677        -166.519         -50.5362         16.8821         -50.5363         16.8829       -0.0160197         145.577
0.582                   -2.22777        -166.838         -50.3526           14.04         -50.3527         14.0406       -0.0161905         145.503
0.583                   -2.30606        -167.118         -50.1779         11.1647          -50.178         11.1653        -0.016363         145.429
0.584                   -2.38066        -167.358         -50.0126         8.26198         -50.0127         8.26249       -0.0165369         145.354
0.585                   -2.45063        -167.563          -49.857          5.3378         -49.8571         5.33825       -0.0167122          145.28
0.586                   -2.51506        -167.735         -49.7114         2.39855         -49.7116         2.39893       -0.0168888         145.206
0.587                   -2.57315        -167.881          -49.576       -0.549287         -49.5762       -0.548953       -0.0170667         145.131
0.588                   -2.62422        -168.006         -49.4508        -3.49915         -49.4509        -3.49885       -0.0172457         145.056
0.589                   -2.66775        -168.117         -49.3355        -6.44462         -49.3357        -6.44434       -0.0174259         144.981
0.59                    -2.70342         -168.22         -49.2301        -9.37948         -49.2303        -9.37921       -0.0176072         144.906
0.591                    -2.7311        -168.325         -49.1342        -12.2979         -49.1344        -12.2976       -0.0177895         144.831
0.592                   -2.75087        -168.438         -49.0473        -15.1945         -49.0475        -15.1942        -0.017973         144.755
0.593                   -2.76296        -168.566         -48.9688        -18.0644          -48.969        -18.0641       -0.0181576         144.679
0.594                   -2.76783        -168.717         -48.8982        -20.9034         -48.8985         -20.903       -0.0183433         144.604
0.595                   -2.76602        -168.896         -48.8349        -23.7079         -48.8351        -23.7074       -0.0185302         144.528
0.596                   -2.75823        -169.107          -48.778        -26.4748         -48.7782        -26.4742       -0.0187184         144.451
0.597                   -2.74519        -169.356         -48.7269        -29.2018         -48.7272        -29.2012        -0.018908         144.375
0.598                   -2.72769        -169.645          -48.681        -31.8872         -48.6812        -31.8865       -0.0190992         144.298
0.599                   -2.70655        -169.976         -48.6394        -34.5298         -48.6396         -34.529       -0.0192919         144.222
0.6                     -2.68255        -170.351         -48.6015         -37.129         -48.6017        -37.1282       -0.0194864         144.145
0.601                   -2.65645        -170.771         -48.5666        -39.6848         -48.5668        -39.6839       -0.0196828         144.068
0.602                   -2.62894        -171.235         -48.5341        -42.1973         -48.5343        -42.1963       -0.0198812          143.99
0.603                   -2.60069        -171.743         -48.5034        -44.6673         -48.5036        -44.6663       -0.0200818         143.913
0.604                   -2.57227        -172.293         -48.4738        -47.0958         -48.4741        -47.0947       -0.0202848         143.835
0.605                   -2.54422        -172.885          -48.445         -49.484         -48.4452        -49.4829       -0.0204903         143.757
0.606                     -2.517        -173.518         -48.4164        -51.8335         -48.4166        -51.8323       -0.0206984         143.679
0.607                   -2.49099        -174.189         -48.3877        -54.1458         -48.3878        -54.1447       -0.0209092           143.6
0.608                   -2.46656        -174.896         -48.3583        -56.4229         -48.3585        -56.4217        -0.021123         143.522
0.609                   -2.44399         -175.64          -48.328        -58.6665         -48.3281        -58.6653       -0.0213399         143.443
0.61                    -2.42354        -176.416         -48.2965        -60.8788         -48.2966        -60.8776         -0.02156         143.364
0.611                   -2.40543        -177.225         -48.2634        -63.0615         -48.2635        -63.0603       -0.0217833         143.285
0.612                   -2.38983        -178.065         -48.2286        -65.2169         -48.2288        -65.2157       -0.0220101         143.205
0.613                    -2.3769        -178.934         -48.1919        -67.3469          -48.192        -67.3457       -0.0222405         143.125
0.614                   -2.36678        -179.831         -48.1531        -69.4535         -48.1532        -69.4524       -0.0224745         143.045
0.615                   -2.35958         179.246          -48.112        -71.5388         -48.1121        -71.5377       -0.0227122         142.965
0.616                    -2.3554         178.296         -48.0686        -73.6047         -48.0686        -73.6036       -0.0229538         142.885
0.617                   -2.35434         177.322         -48.0226        -75.6531         -48.0227        -75.6521       -0.0231994         142.804
0.618                   -2.35649         176.324         -47.9742        -77.6859         -47.9742         -77.685        -0.023449         142.723
0.619                   -2.36192         175.303         -47.9231         -79.705         -47.9232        -79.7041       -0.0237027         142.642
0.62                    -2.37071         174.259         -47.8694         -81.712         -47.8695        -81.7111       -0.0239606         142.561
0.621                   -2.38295         173.194         -47.8131        -83.7087         -47.8131        -83.7079       -0.0242228         142.479
0.622                   -2.39872         172.107         -47.7541        -85.6968         -47.7541        -85.6961       -0.0244893         142.397
0.623                    -2.4181         170.999         -47.6924        -87.6779         -47.6924        -87.6772       -0.0247603         142.315
0.624                    -2.4412         169.871         -47.6281        -89.6535         -47.6281        -89.6529       -0.0250357         142.233
0.625                   -2.46809         168.723         -47.5613        -91.6251         -47.5613        -91.6245       -0.0253158          142.15
0.626                    -2.4989         167.555         -47.4918        -93.5941         -47.4919        -93.5936       -0.0256004         142.068
0.627                   -2.53374         166.368         -47.4199        -95.5619         -47.4199        -95.5615       -0.0258898         141.985
0.628                   -2.57272         165.161         -47.3456        -97.5299         -47.3456        -97.5295       -0.0261839         141.901
0.629                   -2.61598         163.935         -47.2689        -99.4992         -47.2689        -99.4989       -0.0264828         141.817
