! TOUCHSTONE file generated by CST MICROWAVE STUDIO
! Date and time: Mon Nov 30 08:39:54 2020
! Project name: Scenario_1_Planar_Body_Tissue_Out_of_Line.cst
! Parameters = {dy1=-259.5; L_HA=400; Ltissue=700; MT=2.54; Rad_Dielectric=30; Rad_Lower=7.3; Rad_Upper=30; Wtissue=700; a_HA=580; a_WG=246; b_HA=500; b_WG=121; c_HA=0; c_WG=187; d_feed=85; dx1=866; h_feed=15; h_lower=18; h_upper=40; hfat=3; hgap=25; hmuscle=50; hskin=1.5}
! Header version: 2018
! Port assignment regex: !\s*Touchstone port\s*([0-9]+)\s*=\s*(CST MWS port|CST DS port)\s*([0-9]+|Zmin|Zmax)\s*\(\"(.*)\"\)(\s*mode\s*([0-9]+))?.*
! Touchstone port assignment:
! Touchstone port 1 = CST MWS port 1 ("")
! Touchstone port 2 = CST MWS port 2 ("")
# GHz S DB R 50
0.5                    -0.120709        -122.091         -64.7427         91.1473         -64.7426         91.1487      -0.00752011         151.155
0.501                  -0.125815          -122.5           -64.85         89.5589         -64.8496         89.5554      -0.00758527          151.09
0.502                   -0.13098        -122.911          -64.957          87.928         -64.9564         87.9195      -0.00765111         151.025
0.503                  -0.136203        -123.324         -65.0634          86.253         -65.0626         86.2396      -0.00771765         150.959
0.504                  -0.141488        -123.739         -65.1691         84.5324          -65.168         84.5142       -0.0077849         150.894
0.505                  -0.146836        -124.156         -65.2738         82.7648         -65.2723         82.7417      -0.00785286         150.828
0.506                  -0.152248        -124.575         -65.3772         80.9487         -65.3754         80.9208      -0.00792154         150.763
0.507                  -0.157727        -124.997          -65.479         79.0825         -65.4768         79.0499      -0.00799096         150.697
0.508                  -0.163274        -125.421         -65.5788         77.1651         -65.5762         77.1278      -0.00806111         150.632
0.509                  -0.168892        -125.848         -65.6763         75.1949         -65.6732         75.1531      -0.00813202         150.566
0.51                   -0.174583        -126.276         -65.7711          73.171         -65.7675         73.1247      -0.00820369           150.5
0.511                  -0.180349        -126.707         -65.8626         71.0922         -65.8586         71.0416      -0.00827612         150.434
0.512                  -0.186193        -127.141         -65.9506         68.9576          -65.946         68.9029      -0.00834933         150.368
0.513                  -0.192116        -127.577         -66.0344         66.7666         -66.0292          66.708      -0.00842333         150.302
0.514                  -0.198121        -128.016         -66.1135         64.5187         -66.1077         64.4564      -0.00849813         150.236
0.515                  -0.204212        -128.457         -66.1874         62.2137          -66.181          62.148      -0.00857374         150.169
0.516                  -0.210391        -128.901         -66.2555         59.8519         -66.2484          59.783      -0.00865016         150.103
0.517                  -0.216661        -129.347         -66.3171         57.4337         -66.3093          57.362      -0.00872741         150.037
0.518                  -0.223025        -129.796         -66.3717         54.9599         -66.3632         54.8857      -0.00880551          149.97
0.519                  -0.229486        -130.248         -66.4186          52.432         -66.4093         52.3556      -0.00888445         149.904
0.52                   -0.236048        -130.702         -66.4572         49.8516         -66.4471         49.7735      -0.00896425         149.837
0.521                  -0.242714        -131.159         -66.4868         47.2209          -66.476         47.1415      -0.00904492          149.77
0.522                  -0.249487         -131.62         -66.5069         44.5428         -66.4953         44.4625      -0.00912647         149.703
0.523                  -0.256373        -132.083         -66.5169         41.8202         -66.5045         41.7395      -0.00920892         149.636
0.524                  -0.263374        -132.549         -66.5162         39.0569         -66.5031         38.9762      -0.00929227         149.569
0.525                  -0.270495        -133.018         -66.5044         36.2569         -66.4905         36.1767      -0.00937653         149.502
0.526                   -0.27774         -133.49          -66.481         33.4247         -66.4664         33.3454      -0.00946173         149.435
0.527                  -0.285115        -133.965         -66.4457         30.5652         -66.4304         30.4872      -0.00954786         149.367
0.528                  -0.292624        -134.443         -66.3982         27.6833         -66.3822         27.6071      -0.00963494           149.3
0.529                  -0.300272        -134.925         -66.3383         24.7843         -66.3218         24.7103      -0.00972299         149.233
0.53                   -0.308065        -135.409          -66.266         21.8738         -66.2489         21.8023      -0.00981202         149.165
0.531                  -0.316008        -135.898         -66.1813         18.9571         -66.1636         18.8885      -0.00990203         149.097
0.532                  -0.324107        -136.389         -66.0841         16.0396         -66.0661         15.9741      -0.00999305         149.029
0.533                  -0.332369        -136.884         -65.9748         13.1265         -65.9564         13.0644       -0.0100851         148.962
0.534                    -0.3408        -137.382         -65.8536         10.2228         -65.8349         10.1643       -0.0101781         148.894
0.535                  -0.349406        -137.884         -65.7209         7.33322         -65.7019         7.27842       -0.0102722         148.825
0.536                  -0.358197         -138.39          -65.577         4.46204         -65.5579         4.41103       -0.0103674         148.757
0.537                  -0.367178        -138.899         -65.4225         1.61316         -65.4032         1.56598       -0.0104636         148.689
0.538                  -0.376358        -139.412         -65.2579        -1.20998         -65.2386        -1.25333       -0.0105609         148.621
0.539                  -0.385747        -139.929         -65.0837        -4.00443         -65.0644          -4.044       -0.0106593         148.552
0.54                   -0.395351         -140.45         -64.9005        -6.76772         -64.8813        -6.80359       -0.0107588         148.483
0.541                  -0.405182        -140.975          -64.709        -9.49787           -64.69        -9.53014       -0.0108595         148.415
0.542                  -0.415249        -141.503         -64.5098        -12.1934          -64.491        -12.2222       -0.0109613         148.346
0.543                  -0.425562        -142.036         -64.3035        -14.8532         -64.2849        -14.8787       -0.0110642         148.277
0.544                  -0.436133        -142.573         -64.0906        -17.4766         -64.0723         -17.499       -0.0111683         148.208
0.545                  -0.446974        -143.115         -63.8718        -20.0635         -63.8539         -20.083       -0.0112736         148.139
0.546                  -0.458096        -143.661         -63.6477        -22.6139         -63.6301        -22.6306       -0.0113801          148.07
0.547                  -0.469514        -144.211         -63.4188        -25.1282         -63.4016        -25.1425       -0.0114879             148
0.548                   -0.48124        -144.765         -63.1856        -27.6073         -63.1688        -27.6192       -0.0115968         147.931
0.549                  -0.493289        -145.325         -62.9486        -30.0519         -62.9322        -30.0617        -0.011707         147.861
0.55                   -0.505678        -145.889         -62.7082        -32.4633         -62.6923        -32.4712       -0.0118185         147.791
0.551                  -0.518422        -146.458         -62.4649        -34.8428         -62.4494        -34.8489       -0.0119313         147.722
0.552                  -0.531538        -147.031         -62.2191        -37.1918         -62.2041        -37.1964       -0.0120454         147.652
0.553                  -0.545046         -147.61         -61.9711         -39.512         -61.9566        -39.5152       -0.0121608         147.582
0.554                  -0.558964        -148.194         -61.7212        -41.8049         -61.7072         -41.807       -0.0122775         147.511
0.555                  -0.573313        -148.782         -61.4698        -44.0724         -61.4563        -44.0735       -0.0123956         147.441
0.556                  -0.588116        -149.376         -61.2172        -46.3163         -61.2042        -46.3164       -0.0125151         147.371
0.557                  -0.603394        -149.976         -60.9636        -48.5382          -60.951        -48.5377        -0.012636           147.3
0.558                  -0.619174        -150.581         -60.7092        -50.7402         -60.6971         -50.739       -0.0127583          147.23
0.559                  -0.635481        -151.191         -60.4542         -52.924         -60.4426        -52.9223        -0.012882         147.159
0.56                   -0.652343        -151.807         -60.1989        -55.0914         -60.1878        -55.0893       -0.0130072         147.088
0.561                   -0.66979        -152.429         -59.9433        -57.2443         -59.9328        -57.2419       -0.0131339         147.017
0.562                  -0.687852        -153.056         -59.6878        -59.3845         -59.6777        -59.3819        -0.013262         146.946
0.563                  -0.706564         -153.69         -59.4324        -61.5137         -59.4227         -61.511       -0.0133917         146.874
0.564                   -0.72596        -154.329         -59.1772        -63.6337          -59.168         -63.631       -0.0135229         146.803
0.565                  -0.746078        -154.975         -58.9224        -65.7462         -58.9137        -65.7435       -0.0136557         146.731
0.566                  -0.766959        -155.626         -58.6681         -67.853         -58.6598        -67.8503       -0.0137901          146.66
0.567                  -0.788645        -156.284         -58.4144        -69.9555         -58.4066         -69.953       -0.0139261         146.588
0.568                   -0.81118        -156.949         -58.1614        -72.0555          -58.154        -72.0531       -0.0140637         146.516
0.569                  -0.834614         -157.62         -57.9092        -74.1545         -57.9023        -74.1523       -0.0142029         146.444
0.57                   -0.858997        -158.297          -57.658         -76.254         -57.6514        -76.2519       -0.0143439         146.372
0.571                  -0.884385        -158.981         -57.4077        -78.3554         -57.4016        -78.3536       -0.0144865         146.299
0.572                  -0.910833        -159.671         -57.1585        -80.4603         -57.1528        -80.4587       -0.0146309         146.227
0.573                  -0.938405        -160.368         -56.9105        -82.5699         -56.9052        -82.5685        -0.014777         146.154
0.574                  -0.967165        -161.071         -56.6638        -84.6856         -56.6589        -84.6844       -0.0149249         146.081
0.575                  -0.997183        -161.781         -56.4185        -86.8087         -56.4139        -86.8077       -0.0150745         146.009
0.576                   -1.02853        -162.498         -56.1746        -88.9403         -56.1704        -88.9396        -0.015226         145.935
0.577                   -1.06129        -163.222         -55.9323        -91.0818         -55.9284        -91.0812       -0.0153794         145.862
0.578                   -1.09554        -163.951         -55.6916        -93.2341         -55.6881        -93.2337       -0.0155346         145.789
0.579                   -1.13137        -164.688         -55.4528        -95.3984         -55.4496        -95.3982       -0.0156918         145.715
0.58                    -1.16887         -165.43         -55.2158        -97.5756         -55.2129        -97.5755       -0.0158509         145.642
0.581                   -1.20814        -166.179         -54.9808        -99.7666         -54.9782        -99.7667       -0.0160119         145.568
0.582                   -1.24928        -166.933         -54.7479        -101.972         -54.7456        -101.973       -0.0161749         145.494
0.583                   -1.29239        -167.693         -54.5172        -104.194         -54.5153        -104.194         -0.01634          145.42
0.584                    -1.3376        -168.458          -54.289        -106.431         -54.2873        -106.432       -0.0165071         145.345
0.585                   -1.38502        -169.228         -54.0632        -108.686         -54.0617        -108.686       -0.0166763         145.271
0.586                   -1.43476        -170.002           -53.84        -110.958         -53.8388        -110.958       -0.0168475         145.196
0.587                   -1.48696         -170.78         -53.6196        -113.247         -53.6187        -113.247        -0.017021         145.121
0.588                   -1.54174        -171.562         -53.4022        -115.555         -53.4014        -115.555       -0.0171966         145.046
0.589                   -1.59924        -172.345         -53.1878        -117.882         -53.1873        -117.882       -0.0173744         144.971
0.59                    -1.65959         -173.13         -52.9766        -120.227         -52.9763        -120.227       -0.0175544         144.896
0.591                   -1.72293        -173.916         -52.7688        -122.592         -52.7686        -122.591       -0.0177367         144.821
0.592                   -1.78938        -174.701         -52.5645        -124.974         -52.5645        -124.974       -0.0179213         144.745
0.593                   -1.85907        -175.484         -52.3639        -127.376         -52.3641        -127.375       -0.0181083         144.669
0.594                   -1.93213        -176.263         -52.1671        -129.796         -52.1674        -129.795       -0.0182976         144.593
0.595                   -2.00867        -177.037         -51.9743        -132.234         -51.9747        -132.232       -0.0184893         144.517
0.596                   -2.08878        -177.804         -51.7856        -134.689         -51.7862        -134.687       -0.0186835         144.441
0.597                   -2.17255        -178.561         -51.6011        -137.161         -51.6018        -137.159       -0.0188801         144.364
0.598                   -2.26002        -179.307         -51.4211         -139.65         -51.4219        -139.648       -0.0190792         144.287
0.599                   -2.35123         179.961         -51.2456        -142.154         -51.2465        -142.151       -0.0192809          144.21
0.6                     -2.44616         179.245         -51.0747        -144.672         -51.0756        -144.669       -0.0194852         144.133
0.601                   -2.54475          178.55         -50.9086        -147.203         -50.9095          -147.2       -0.0196921         144.056
0.602                    -2.6469         177.877         -50.7472        -149.747         -50.7482        -149.744       -0.0199016         143.978
0.603                   -2.75241         177.231         -50.5908        -152.302         -50.5918        -152.298       -0.0201139         143.901
0.604                   -2.86106         176.614         -50.4393        -154.866         -50.4403        -154.862       -0.0203289         143.823
0.605                   -2.97249          176.03         -50.2928        -157.439         -50.2938        -157.435       -0.0205466         143.745
0.606                    -3.0863         175.483         -50.1513        -160.018         -50.1523        -160.014       -0.0207672         143.666
0.607                   -3.20195         174.976         -50.0149        -162.603         -50.0159        -162.599       -0.0209906         143.588
0.608                   -3.31882         174.511         -49.8834        -165.192         -49.8844        -165.187       -0.0212169         143.509
0.609                   -3.43618         174.093         -49.7569        -167.783         -49.7578        -167.778       -0.0214461          143.43
0.61                    -3.55318         173.722         -49.6353        -170.375         -49.6361         -170.37       -0.0216783         143.351
0.611                   -3.66889           173.4         -49.5185        -172.966         -49.5193        -172.961       -0.0219135         143.272
0.612                   -3.78227         173.129         -49.4064        -175.555         -49.4072         -175.55       -0.0221518         143.192
0.613                   -3.89223         172.907          -49.299         -178.14         -49.2997        -178.136       -0.0223932         143.112
0.614                   -3.99765         172.733          -49.196         179.279         -49.1967         179.284       -0.0226377         143.032
0.615                   -4.09737         172.604         -49.0974         176.706          -49.098          176.71       -0.0228854         142.952
0.616                    -4.1903         172.516         -49.0029          174.14         -49.0035         174.144       -0.0231363         142.872
0.617                   -4.27541         172.464         -48.9124         171.583         -48.9129         171.587       -0.0233904         142.791
0.618                   -4.35177          172.44         -48.8257         169.036         -48.8261          169.04       -0.0236479          142.71
0.619                   -4.41865         172.438         -48.7426           166.5          -48.743         166.503       -0.0239087         142.629
0.62                    -4.47549         172.447         -48.6629         163.976         -48.6632         163.979       -0.0241729         142.548
0.621                   -4.52196         172.459         -48.5863         161.465         -48.5865         161.468       -0.0244405         142.466
0.622                   -4.55797         172.464         -48.5126         158.967         -48.5128          158.97       -0.0247116         142.384
0.623                   -4.58366         172.452         -48.4416         156.484         -48.4417         156.486       -0.0249863         142.302
0.624                   -4.59943         172.415         -48.3731         154.015         -48.3731         154.017       -0.0252645         142.219
0.625                   -4.60585         172.344         -48.3067         151.562         -48.3067         151.564       -0.0255463         142.137
0.626                    -4.6037         172.231         -48.2424         149.124         -48.2423         149.125       -0.0258318         142.054
0.627                   -4.59389         172.069         -48.1798         146.701         -48.1797         146.702       -0.0261211         141.971
0.628                   -4.57741         171.853         -48.1186         144.295         -48.1185         144.295       -0.0264141         141.887
0.629                   -4.55533          171.58         -48.0588         141.904         -48.0586         141.904       -0.0267109         141.804
