! TOUCHSTONE file generated by CST MICROWAVE STUDIO
! Date and time: Tue Nov 17 07:10:33 2020
! Project name: Scenario_1_Planar_Body_Tissue_Out_of_Line.cst
! Header version: 2018
! Port assignment regex: !\s*Touchstone port\s*([0-9]+)\s*=\s*(CST MWS port|CST DS port)\s*([0-9]+|Zmin|Zmax)\s*\(\"(.*)\"\)(\s*mode\s*([0-9]+))?.*
! Touchstone port assignment:
! Touchstone port 1 = CST MWS port 1 ("")
! Touchstone port 2 = CST MWS port 2 ("")
# GHz S DB R 50
0.5                     -0.14725        -121.679         -65.4058        -26.4658         -65.4059        -26.4635       -0.0076252         151.156
0.501                  -0.157873        -122.069         -65.4322        -27.7864         -65.4334        -27.7899      -0.00769466          151.09
0.502                  -0.168477        -122.462         -65.4582        -29.1322         -65.4605        -29.1416      -0.00776489         151.025
0.503                  -0.179062        -122.856         -65.4837        -30.5037         -65.4872        -30.5193       -0.0078359          150.96
0.504                   -0.18963        -123.251         -65.5088        -31.9018         -65.5133        -31.9237      -0.00790769         150.894
0.505                   -0.20018        -123.648         -65.5333         -33.327          -65.539        -33.3557      -0.00798026         150.829
0.506                  -0.210712        -124.048         -65.5571        -34.7803         -65.5639        -34.8159      -0.00805361         150.763
0.507                  -0.221229        -124.448         -65.5801        -36.2622         -65.5881         -36.305      -0.00812776         150.697
0.508                  -0.231729        -124.851         -65.6023        -37.7736         -65.6115         -37.824      -0.00820269         150.632
0.509                  -0.242214        -125.255         -65.6236        -39.3152         -65.6339        -39.3734      -0.00827841         150.566
0.51                   -0.252684        -125.662         -65.6437        -40.8878         -65.6552        -40.9541      -0.00835493           150.5
0.511                  -0.263141         -126.07         -65.6627        -42.4921         -65.6754        -42.5668      -0.00843225         150.434
0.512                  -0.273584         -126.48         -65.6803        -44.1288         -65.6942        -44.2123      -0.00851036         150.368
0.513                  -0.284015        -126.892         -65.6965        -45.7988         -65.7115        -45.8913      -0.00858928         150.302
0.514                  -0.294435        -127.306          -65.711        -47.5026         -65.7273        -47.6046      -0.00866901         150.235
0.515                  -0.304844        -127.722         -65.7238        -49.2411         -65.7412        -49.3528      -0.00874955         150.169
0.516                  -0.315244        -128.141         -65.7347        -51.0148         -65.7532        -51.1367       -0.0088309         150.103
0.517                  -0.325634        -128.561         -65.7434        -52.8245          -65.763        -52.9569      -0.00891307         150.036
0.518                  -0.336018        -128.983         -65.7498        -54.6708         -65.7706         -54.814      -0.00899606         149.969
0.519                  -0.346395        -129.408         -65.7537        -56.5541         -65.7756        -56.7086      -0.00907987         149.903
0.52                   -0.356766        -129.835          -65.755        -58.4751         -65.7778        -58.6411      -0.00916452         149.836
0.521                  -0.367134        -130.264         -65.7533        -60.4341         -65.7772        -60.6121      -0.00924999         149.769
0.522                  -0.377499        -130.695         -65.7484        -62.4316         -65.7733        -62.6218       -0.0093363         149.702
0.523                  -0.387863        -131.129         -65.7401        -64.4679          -65.766        -64.6706      -0.00942346         149.635
0.524                  -0.398227        -131.565         -65.7283        -66.5432          -65.755        -66.7588      -0.00951146         149.568
0.525                  -0.408593        -132.003         -65.7125        -68.6575         -65.7401        -68.8863      -0.00960031         149.501
0.526                  -0.418962        -132.444         -65.6926         -70.811          -65.721        -71.0533      -0.00969002         149.434
0.527                  -0.429337        -132.887         -65.6684        -73.0036         -65.6975        -73.2595      -0.00978058         149.366
0.528                  -0.439718        -133.333         -65.6394         -75.235         -65.6692        -75.5048      -0.00987201         149.299
0.529                  -0.450108        -133.782         -65.6056        -77.5049          -65.636        -77.7888      -0.00996432         149.231
0.53                   -0.460509        -134.233         -65.5666        -79.8129         -65.5975         -80.111       -0.0100575         149.164
0.531                  -0.470924        -134.687         -65.5222        -82.1583         -65.5535        -82.4708       -0.0101516         149.096
0.532                  -0.481353        -135.144          -65.472        -84.5405         -65.5037        -84.8673       -0.0102465         149.028
0.533                    -0.4918        -135.603         -65.4159        -86.9586          -65.448        -87.2997       -0.0103424          148.96
0.534                  -0.502268        -136.066         -65.3537        -89.4115         -65.3859        -89.7669       -0.0104391         148.892
0.535                  -0.512758        -136.531         -65.2851        -91.8981         -65.3174        -92.2676       -0.0105368         148.824
0.536                  -0.523274        -136.999         -65.2099        -94.4171         -65.2422        -94.8006       -0.0106353         148.756
0.537                  -0.533818        -137.471         -65.1279        -96.9672         -65.1602        -97.3644       -0.0107348         148.688
0.538                  -0.544394        -137.945         -65.0389        -99.5468         -65.0711        -99.9574       -0.0108352         148.619
0.539                  -0.555005        -138.423         -64.9428        -102.154         -64.9748        -102.578       -0.0109366         148.551
0.54                   -0.565655        -138.903         -64.8396        -104.788         -64.8713        -105.224       -0.0110389         148.482
0.541                  -0.576346        -139.387          -64.729        -107.446         -64.7604        -107.894       -0.0111421         148.414
0.542                  -0.587084        -139.875         -64.6111        -110.127         -64.6421        -110.587       -0.0112464         148.345
0.543                  -0.597872        -140.366         -64.4858        -112.829         -64.5163        -113.299       -0.0113515         148.276
0.544                  -0.608714         -140.86         -64.3532        -115.549         -64.3831         -116.03       -0.0114577         148.207
0.545                  -0.619615        -141.358         -64.2132        -118.287         -64.2425        -118.777       -0.0115649         148.138
0.546                  -0.630579        -141.859         -64.0659         -121.04         -64.0946        -121.539        -0.011673         148.068
0.547                  -0.641613        -142.364         -63.9114        -123.806         -63.9395        -124.313       -0.0117822         147.999
0.548                  -0.652721        -142.873           -63.75        -126.584         -63.7774        -127.098       -0.0118924          147.93
0.549                  -0.663908        -143.386         -63.5816        -129.373         -63.6084        -129.893       -0.0120036          147.86
0.55                   -0.675182        -143.903         -63.4066         -132.17         -63.4327        -132.695       -0.0121158          147.79
0.551                  -0.686548        -144.424         -63.2251        -134.974         -63.2505        -135.503       -0.0122291         147.721
0.552                  -0.698013        -144.949         -63.0374        -137.784         -63.0621        -138.317       -0.0123435         147.651
0.553                  -0.709584        -145.478         -62.8437        -140.599         -62.8679        -141.135        -0.012459         147.581
0.554                  -0.721269        -146.011         -62.6444        -143.418          -62.668        -143.955       -0.0125755         147.511
0.555                  -0.733075        -146.549         -62.4398         -146.24         -62.4627        -146.778       -0.0126932          147.44
0.556                  -0.745012        -147.092         -62.2301        -149.064         -62.2525        -149.602        -0.012812          147.37
0.557                  -0.757087        -147.639         -62.0157        -151.891         -62.0377        -152.427       -0.0129319         147.299
0.558                  -0.769312         -148.19          -61.797        -154.718         -61.8186        -155.252        -0.013053         147.229
0.559                  -0.781695        -148.747         -61.5743        -157.547         -61.5956        -158.078       -0.0131752         147.158
0.56                   -0.794247        -149.308          -61.348        -160.376          -61.369        -160.904       -0.0132987         147.087
0.561                   -0.80698        -149.874         -61.1185        -163.206         -61.1392         -163.73       -0.0134233         147.016
0.562                  -0.819906        -150.446         -60.8861        -166.038         -60.9067        -166.556       -0.0135491         146.945
0.563                  -0.833038        -151.023         -60.6513         -168.87         -60.6717        -169.382       -0.0136763         146.874
0.564                  -0.846389        -151.605         -60.4144        -171.704         -60.4348        -172.209       -0.0138046         146.802
0.565                  -0.859973        -152.193         -60.1758         -174.54         -60.1962        -175.037       -0.0139343         146.731
0.566                  -0.873806        -152.786          -59.936        -177.378         -59.9564        -177.866       -0.0140652         146.659
0.567                  -0.887905        -153.385         -59.6952         179.782         -59.7157         179.303       -0.0141975         146.587
0.568                  -0.902286         -153.99         -59.4539         176.939         -59.4746          176.47       -0.0143311         146.516
0.569                  -0.916968        -154.601         -59.2125         174.093         -59.2334         173.634       -0.0144662         146.444
0.57                    -0.93197        -155.218         -58.9714         171.243         -58.9924         170.795       -0.0146026         146.371
0.571                  -0.947314        -155.841         -58.7309         168.389         -58.7522         167.953       -0.0147404         146.299
0.572                  -0.963022        -156.471         -58.4915         165.531          -58.513         165.108       -0.0148797         146.227
0.573                  -0.979117        -157.108         -58.2534         162.668         -58.2752         162.258       -0.0150205         146.154
0.574                  -0.995624        -157.751         -58.0171         159.801         -58.0391         159.404       -0.0151629         146.081
0.575                   -1.01257        -158.402          -57.783         156.929         -57.8052         156.547       -0.0153067         146.008
0.576                   -1.02999        -159.059         -57.5513         154.052         -57.5738         153.685       -0.0154522         145.935
0.577                    -1.0479        -159.724         -57.3225         151.171         -57.3451         150.818       -0.0155992         145.862
0.578                   -1.06635        -160.396         -57.0968         148.285         -57.1196         147.948        -0.015748         145.789
0.579                   -1.08536        -161.075         -56.8746         145.396         -56.8975         145.075       -0.0158984         145.715
0.58                    -1.10497        -161.763         -56.6561         142.503         -56.6791         142.198       -0.0160505         145.641
0.581                   -1.12523        -162.458         -56.4417         139.608         -56.4647         139.319       -0.0162044         145.568
0.582                   -1.14617        -163.162         -56.2317         136.711         -56.2546         136.439       -0.0163601         145.494
0.583                   -1.16784        -163.874         -56.0263         133.813          -56.049         133.558       -0.0165177          145.42
0.584                    -1.1903        -164.594         -55.8256         130.915         -55.8481         130.677       -0.0166772         145.345
0.585                   -1.21358        -165.323           -55.63         128.019         -55.6521         127.797       -0.0168386         145.271
0.586                   -1.23775        -166.061         -55.4395         125.125         -55.4612          124.92        -0.017002         145.196
0.587                   -1.26286        -166.808         -55.2543         122.236         -55.2756         122.048       -0.0171674         145.121
0.588                   -1.28898        -167.564         -55.0746         119.352         -55.0952          119.18       -0.0173349         145.046
0.589                   -1.31618        -168.329         -54.9003         116.476         -54.9202          116.32       -0.0175046         144.971
0.59                    -1.34452        -169.104         -54.7316         113.609         -54.7507         113.469       -0.0176764         144.896
0.591                   -1.37409        -169.888         -54.5685         110.753         -54.5867         110.628       -0.0178505         144.821
0.592                   -1.40496        -170.683         -54.4108          107.91         -54.4281         107.799       -0.0180269         144.745
0.593                   -1.43723        -171.487         -54.2587         105.081         -54.2748         104.984       -0.0182057         144.669
0.594                   -1.47099        -172.301         -54.1119         102.268         -54.1269         102.184       -0.0183869         144.593
0.595                   -1.50633        -173.125         -53.9704         99.4725         -53.9841         99.4007       -0.0185706         144.517
0.596                   -1.54337         -173.96         -53.8339         96.6966         -53.8464         96.6362       -0.0187568         144.441
0.597                   -1.58221        -174.805         -53.7024         93.9417         -53.7135         93.8918       -0.0189455         144.364
0.598                   -1.62298         -175.66         -53.5755         91.2091         -53.5852         91.1688        -0.019137         144.287
0.599                   -1.66582        -176.526          -53.453         88.5002         -53.4614         88.4686       -0.0193312          144.21
0.6                     -1.71084        -177.401         -53.3347         85.8162         -53.3416         85.7922       -0.0195281         144.133
0.601                   -1.75821        -178.287         -53.2202         83.1582         -53.2257         83.1408       -0.0197279         144.056
0.602                   -1.80806        -179.182         -53.1092         80.5269         -53.1133         80.5152       -0.0199306         143.978
0.603                   -1.86058         179.913         -53.0014         77.9232         -53.0041         77.9161       -0.0201363         143.901
0.604                   -1.91591         178.998         -52.8964         75.3475         -52.8977          75.344        -0.020345         143.823
0.605                   -1.97426         178.075         -52.7938         72.8001         -52.7938         72.7993       -0.0205567         143.745
0.606                    -2.0358         177.143         -52.6933         70.2812          -52.692         70.2821       -0.0207717         143.666
0.607                   -2.10073         176.203         -52.5943         67.7906         -52.5919         67.7924       -0.0209898         143.588
0.608                   -2.16926         175.256         -52.4967          65.328         -52.4931         65.3298       -0.0212112         143.509
0.609                   -2.24159         174.303         -52.3998         62.8928         -52.3952         62.8939       -0.0214359          143.43
0.61                    -2.31795         173.345         -52.3033         60.4843         -52.2979         60.4839       -0.0216641         143.351
0.611                   -2.39856         172.383         -52.2069         58.1013         -52.2007         58.0988       -0.0218956         143.272
0.612                   -2.48365         171.418           -52.11         55.7425         -52.1031         55.7375       -0.0221306         143.192
0.613                   -2.57343         170.452         -52.0123         53.4063          -52.005         53.3983       -0.0223692         143.112
0.614                   -2.66813         169.488         -51.9135         51.0909         -51.9057         51.0795       -0.0226113         143.032
0.615                   -2.76797         168.526          -51.813          48.794         -51.8051         48.7791       -0.0228571         142.952
0.616                   -2.87314          167.57         -51.7107         46.5133         -51.7026         46.4948       -0.0231066         142.871
0.617                   -2.98384         166.622         -51.6062         44.2458         -51.5982         44.2238       -0.0233598         142.791
0.618                   -3.10023         165.685         -51.4992         41.9887         -51.4913         41.9633       -0.0236167          142.71
0.619                   -3.22245         164.762         -51.3895         39.7386         -51.3819         39.7101       -0.0238775         142.628
0.62                    -3.35057         163.858         -51.2769         37.4919         -51.2698         37.4607       -0.0241421         142.547
0.621                   -3.48466         162.976         -51.1613         35.2448         -51.1547         35.2114       -0.0244106         142.465
0.622                   -3.62468         162.121         -51.0427         32.9933         -51.0367         32.9583        -0.024683         142.383
0.623                   -3.77055         161.297         -50.9211         30.7332         -50.9157         30.6974       -0.0249594         142.301
0.624                    -3.9221         160.509         -50.7966         28.4604         -50.7919         28.4246       -0.0252398         142.219
0.625                   -4.07905         159.762         -50.6694         26.1707         -50.6655         26.1356       -0.0255243         142.136
0.626                   -4.24101         159.061         -50.5399           23.86         -50.5367         23.8265       -0.0258128         142.053
0.627                   -4.40746         158.413         -50.4085         21.5246         -50.4061         21.4935       -0.0261054          141.97
0.628                   -4.57774         157.821         -50.2758          19.161          -50.274          19.133       -0.0264022         141.886
0.629                   -4.75107         157.292         -50.1423         16.7665          -50.141         16.7423       -0.0267033         141.803
0.63                    -4.92647          156.83         -50.0087         14.3388         -50.0079         14.3189       -0.0270085         141.719
0.631                   -5.10282         156.438         -49.8759         11.8766         -49.8755         11.8613       -0.0273181         141.634
