! TOUCHSTONE file generated by CST MICROWAVE STUDIO
! Date and time: Mon Nov 30 08:39:41 2020
! Project name: Scenario_1_Planar_Body_Tissue_Out_of_Line.cst
! Parameters = {dy1=-242.2; L_HA=400; Ltissue=700; MT=2.54; Rad_Dielectric=30; Rad_Lower=7.3; Rad_Upper=30; Wtissue=700; a_HA=580; a_WG=246; b_HA=500; b_WG=121; c_HA=0; c_WG=187; d_feed=85; dx1=866; h_feed=15; h_lower=18; h_upper=40; hfat=3; hgap=25; hmuscle=50; hskin=1.5}
! Header version: 2018
! Port assignment regex: !\s*Touchstone port\s*([0-9]+)\s*=\s*(CST MWS port|CST DS port)\s*([0-9]+|Zmin|Zmax)\s*\(\"(.*)\"\)(\s*mode\s*([0-9]+))?.*
! Touchstone port assignment:
! Touchstone port 1 = CST MWS port 1 ("")
! Touchstone port 2 = CST MWS port 2 ("")
# GHz S DB R 50
0.5                    -0.118686         -122.11         -64.6286         93.3861         -64.6275         93.3894      -0.00750601         151.159
0.501                  -0.124868        -122.567         -64.3807         91.5804         -64.3797         91.5835      -0.00757773         151.093
0.502                   -0.13144        -123.026         -64.1302         89.7333         -64.1292         89.7361      -0.00764997         151.028
0.503                  -0.138435        -123.488          -63.877          87.843         -63.8761         87.8457      -0.00772276         150.963
0.504                  -0.145885        -123.953         -63.6214         85.9079         -63.6206         85.9105      -0.00779615         150.897
0.505                  -0.153824         -124.42         -63.3636         83.9263         -63.3629         83.9286      -0.00787019         150.832
0.506                  -0.162289        -124.891         -63.1039         81.8962         -63.1033         81.8985      -0.00794495         150.766
0.507                  -0.171318        -125.364         -62.8425         79.8161          -62.842         79.8182      -0.00802053         150.701
0.508                   -0.18095        -125.839         -62.5798          77.684         -62.5794          77.686      -0.00809703         150.635
0.509                  -0.191224        -126.316         -62.3162         75.4984         -62.3158         75.5003       -0.0081746         150.569
0.51                   -0.202181        -126.796          -62.052         73.2576         -62.0517         73.2593      -0.00825341         150.503
0.511                  -0.213858        -127.277         -61.7877           70.96         -61.7875         70.9617      -0.00833366         150.437
0.512                  -0.226292        -127.759         -61.5237         68.6044         -61.5236          68.606      -0.00841562         150.371
0.513                  -0.239515        -128.242         -61.2607         66.1895         -61.2607          66.191      -0.00849955         150.305
0.514                  -0.253554        -128.725         -60.9993         63.7143         -60.9993         63.7158      -0.00858578         150.239
0.515                  -0.268428        -129.208         -60.7399         61.1783           -60.74         61.1798      -0.00867459         150.172
0.516                  -0.284144         -129.69         -60.4834         58.5811         -60.4836         58.5826      -0.00876627         150.106
0.517                  -0.300699         -130.17         -60.2305         55.9227         -60.2306         55.9242      -0.00886097          150.04
0.518                  -0.318072        -130.649         -59.9818         53.2039          -59.982         53.2054      -0.00895866         149.973
0.519                  -0.336224        -131.124         -59.7382         50.4256         -59.7385         50.4271      -0.00905907         149.906
0.52                   -0.355094        -131.595         -59.5004         47.5894         -59.5008         47.5911      -0.00916166          149.84
0.521                  -0.374596        -132.062         -59.2693         44.6978         -59.2697         44.6995      -0.00926558         149.773
0.522                   -0.39462        -132.523         -59.0456         41.7535         -59.0461         41.7553      -0.00936983         149.706
0.523                   -0.41503        -132.979         -58.8302         38.7602         -58.8306         38.7621      -0.00947341         149.639
0.524                  -0.435665        -133.428         -58.6237         35.7222         -58.6242         35.7242      -0.00957546         149.572
0.525                  -0.456342         -133.87         -58.4268         32.6444         -58.4273         32.6465      -0.00967541         149.505
0.526                  -0.476861        -134.305         -58.2401         29.5324         -58.2406         29.5346      -0.00977304         149.438
0.527                  -0.497011        -134.734         -58.0641         26.3922         -58.0646         26.3945      -0.00986841         149.371
0.528                   -0.51658        -135.155         -57.8992         23.2305         -57.8997         23.2328      -0.00996179         149.304
0.529                   -0.53536        -135.571         -57.7456         20.0541         -57.7462         20.0565       -0.0100536         149.236
0.53                   -0.553163        -135.982         -57.6037         16.8703         -57.6042         16.8727       -0.0101443         149.169
0.531                  -0.569822         -136.39         -57.4732         13.6862         -57.4737         13.6887       -0.0102342         149.101
0.532                  -0.585207        -136.794         -57.3543         10.5092         -57.3548         10.5117       -0.0103238         149.034
0.533                  -0.599224        -137.198         -57.2465         7.34615          -57.247         7.34867       -0.0104134         148.966
0.534                  -0.611822        -137.603         -57.1496         4.20389           -57.15          4.2064       -0.0105032         148.898
0.535                  -0.622991        -138.009          -57.063          1.0887         -57.0635         1.09118       -0.0105935          148.83
0.536                  -0.632763        -138.419         -56.9862        -1.99365         -56.9867        -1.99122       -0.0106843         148.762
0.537                  -0.641204        -138.834         -56.9186          -5.038          -56.919        -5.03564       -0.0107758         148.694
0.538                  -0.648411        -139.255         -56.8594        -8.03983         -56.8598        -8.03755       -0.0108682         148.625
0.539                  -0.654505        -139.684         -56.8078        -10.9953         -56.8081        -10.9931       -0.0109614         148.557
0.54                   -0.659621        -140.121          -56.763        -13.9013         -56.7633        -13.8993       -0.0110555         148.488
0.541                  -0.663907        -140.567         -56.7242        -16.7554         -56.7245        -16.7535       -0.0111506          148.42
0.542                  -0.667513        -141.022         -56.6906        -19.5558         -56.6909         -19.554       -0.0112467         148.351
0.543                  -0.670588        -141.487         -56.6613        -22.3013         -56.6616        -22.2997       -0.0113438         148.282
0.544                  -0.673276        -141.963         -56.6356        -24.9914         -56.6359        -24.9899        -0.011442         148.213
0.545                  -0.675714        -142.449         -56.6127        -27.6259         -56.6129        -27.6246       -0.0115412         148.144
0.546                  -0.678029        -142.945         -56.5919        -30.2052         -56.5921         -30.204       -0.0116414         148.075
0.547                  -0.680337        -143.452         -56.5724        -32.7301         -56.5726        -32.7291       -0.0117428         148.006
0.548                  -0.682744        -143.969         -56.5537        -35.2018         -56.5539        -35.2009       -0.0118452         147.936
0.549                  -0.685345        -144.495         -56.5352        -37.6215         -56.5353        -37.6208       -0.0119488         147.867
0.55                   -0.688225        -145.032         -56.5162        -39.9909         -56.5164        -39.9904       -0.0120535         147.797
0.551                  -0.691459        -145.578         -56.4963        -42.3119         -56.4965        -42.3115       -0.0121593         147.728
0.552                  -0.695114        -146.134         -56.4751        -44.5863         -56.4752        -44.5861       -0.0122663         147.658
0.553                   -0.69925        -146.699          -56.452        -46.8164         -56.4521        -46.8163       -0.0123745         147.588
0.554                  -0.703921        -147.273         -56.4268        -49.0042         -56.4269        -49.0042       -0.0124839         147.518
0.555                  -0.709176        -147.856         -56.3991        -51.1519         -56.3992        -51.1521       -0.0125945         147.447
0.556                   -0.71506        -148.448         -56.3686        -53.2618         -56.3687        -53.2621       -0.0127064         147.377
0.557                  -0.721613        -149.049          -56.335        -55.3363         -56.3351        -55.3367       -0.0128195         147.307
0.558                  -0.728875        -149.658         -56.2981        -57.3774         -56.2982        -57.3779       -0.0129339         147.236
0.559                  -0.736884        -150.275         -56.2576        -59.3876         -56.2577        -59.3882       -0.0130497         147.165
0.56                   -0.745675        -150.901         -56.2135        -61.3689         -56.2136        -61.3696       -0.0131667         147.094
0.561                  -0.755286        -151.534         -56.1655        -63.3237         -56.1656        -63.3245       -0.0132852         147.023
0.562                  -0.765754        -152.176         -56.1135        -65.2542         -56.1136         -65.255        -0.013405         146.952
0.563                  -0.777115        -152.826         -56.0574        -67.1624         -56.0575        -67.1633       -0.0135263         146.881
0.564                  -0.789409        -153.485         -55.9971        -69.0504         -55.9971        -69.0514        -0.013649          146.81
0.565                  -0.802677        -154.151         -55.9324        -70.9205         -55.9325        -70.9215       -0.0137732         146.738
0.566                   -0.81696        -154.825         -55.8634        -72.7745         -55.8635        -72.7755       -0.0138989         146.667
0.567                  -0.832306        -155.507           -55.79        -74.6145           -55.79        -74.6155       -0.0140263         146.595
0.568                  -0.848762        -156.197         -55.7121        -76.4424         -55.7121        -76.4435       -0.0141552         146.523
0.569                  -0.866379        -156.895         -55.6297        -78.2603         -55.6297        -78.2614       -0.0142857         146.451
0.57                   -0.885213        -157.601         -55.5428        -80.0699         -55.5428        -80.0711       -0.0144179         146.379
0.571                  -0.905322        -158.315         -55.4513        -81.8733         -55.4514        -81.8744       -0.0145519         146.307
0.572                   -0.92677        -159.037         -55.3554        -83.6722         -55.3554        -83.6733       -0.0146876         146.234
0.573                  -0.949623        -159.767         -55.2549        -85.4684          -55.255        -85.4695       -0.0148251         146.161
0.574                  -0.973954        -160.505           -55.15        -87.2638         -55.1501        -87.2649       -0.0149645         146.089
0.575                  -0.999839        -161.251         -55.0406        -89.0602         -55.0407        -89.0613       -0.0151058         146.016
0.576                   -1.02736        -162.004         -54.9269        -90.8593         -54.9269        -90.8604        -0.015249         145.943
0.577                   -1.05661        -162.765         -54.8087         -92.663         -54.8088         -92.664       -0.0153942          145.87
0.578                   -1.08767        -163.533         -54.6863        -94.4728         -54.6864        -94.4738       -0.0155415         145.796
0.579                   -1.12065        -164.309         -54.5597        -96.2907         -54.5598        -96.2917       -0.0156909         145.723
0.58                    -1.15566        -165.092          -54.429        -98.1183          -54.429        -98.1192       -0.0158424         145.649
0.581                   -1.19279        -165.882         -54.2942        -99.9573         -54.2942        -99.9582       -0.0159961         145.575
0.582                   -1.23218        -166.678         -54.1555        -101.809         -54.1555         -101.81       -0.0161521         145.501
0.583                   -1.27394        -167.481          -54.013        -103.676          -54.013        -103.677       -0.0163103         145.427
0.584                    -1.3182        -168.289         -53.8668         -105.56         -53.8669         -105.56        -0.016471         145.353
0.585                   -1.36509        -169.102         -53.7171        -107.461         -53.7172        -107.462        -0.016634         145.279
0.586                   -1.41476         -169.92         -53.5641        -109.382         -53.5641        -109.383       -0.0167995         145.204
0.587                   -1.46735        -170.742         -53.4078        -111.325         -53.4078        -111.326       -0.0169676         145.129
0.588                     -1.523        -171.567         -53.2486         -113.29         -53.2486        -113.291       -0.0171381         145.054
0.589                   -1.58186        -172.393         -53.0865         -115.28         -53.0865        -115.281       -0.0173113         144.979
0.59                    -1.64408        -173.221          -52.922        -117.296         -52.9219        -117.297       -0.0174872         144.904
0.591                   -1.70981        -174.048          -52.755        -119.339          -52.755         -119.34       -0.0176657         144.829
0.592                   -1.77919        -174.873         -52.5861        -121.411          -52.586        -121.411        -0.017847         144.753
0.593                   -1.85235        -175.695         -52.4153        -123.513         -52.4153        -123.513       -0.0180311         144.677
0.594                   -1.92943        -176.511         -52.2431        -125.645         -52.2431        -125.646        -0.018218         144.601
0.595                   -2.01052        -177.319         -52.0698         -127.81         -52.0697         -127.81       -0.0184077         144.525
0.596                   -2.09573        -178.118         -51.8956        -130.008         -51.8955        -130.008       -0.0186003         144.449
0.597                    -2.1851        -178.904          -51.721         -132.24         -51.7209         -132.24       -0.0187958         144.372
0.598                   -2.27867        -179.675         -51.5462        -134.506         -51.5462        -134.506       -0.0189943         144.296
0.599                   -2.37643         179.572         -51.3718        -136.807         -51.3718        -136.807       -0.0191957         144.219
0.6                     -2.47831          178.84         -51.1982        -139.143         -51.1981        -139.143          -0.0194         144.142
0.601                    -2.5842         178.134         -51.0256        -141.514         -51.0256        -141.514       -0.0196073         144.064
0.602                    -2.6939         177.456         -50.8546        -143.919         -50.8546        -143.919       -0.0198176         143.987
0.603                   -2.80714          176.81         -50.6856        -146.359         -50.6855        -146.359       -0.0200309         143.909
0.604                   -2.92357           176.2          -50.519        -148.833         -50.5189        -148.833       -0.0202471         143.831
0.605                   -3.04274          175.63         -50.3552        -151.339         -50.3552        -151.339       -0.0204663         143.753
0.606                   -3.16407         175.103         -50.1947        -153.876         -50.1947        -153.876       -0.0206885         143.675
0.607                   -3.28692         174.622         -50.0379        -156.443         -50.0378        -156.443       -0.0209136         143.597
0.608                   -3.41048         174.192         -49.8851        -159.037          -49.885        -159.037       -0.0211417         143.518
0.609                   -3.53387         173.813         -49.7367        -161.657         -49.7366        -161.657       -0.0213727         143.439
0.61                    -3.65609         173.488          -49.593          -164.3         -49.5929          -164.3       -0.0216067          143.36
0.611                   -3.77606         173.217         -49.4543        -166.963         -49.4542        -166.963       -0.0218436         143.281
0.612                   -3.89263             173         -49.3209        -169.643         -49.3208        -169.643       -0.0220833         143.202
0.613                   -4.00461         172.835         -49.1929        -172.338         -49.1928        -172.338        -0.022326         143.122
0.614                    -4.1108          172.72         -49.0706        -175.043         -49.0705        -175.043       -0.0225716         143.042
0.615                   -4.21004          172.65         -48.9539        -177.757         -48.9538        -177.757       -0.0228202         142.962
0.616                   -4.30126          172.62          -48.843         179.525          -48.843         179.526       -0.0230716         142.882
0.617                   -4.38347         172.622         -48.7379         176.807         -48.7378         176.807        -0.023326         142.801
0.618                    -4.4559         172.649         -48.6384          174.09         -48.6383          174.09       -0.0235833          142.72
0.619                   -4.51794         172.693         -48.5444         171.379         -48.5444         171.379       -0.0238436         142.639
0.62                    -4.56921         172.742         -48.4558         168.677         -48.4558         168.677        -0.024107         142.558
0.621                   -4.60958         172.788         -48.3724         165.986         -48.3724         165.986       -0.0243733         142.476
0.622                   -4.63916         172.821         -48.2939         163.309         -48.2938         163.309       -0.0246428         142.395
0.623                   -4.65829         172.831           -48.22         160.649         -48.2199         160.649       -0.0249154         142.313
0.624                   -4.66751          172.81         -48.1503         158.008         -48.1503         158.008       -0.0251913          142.23
0.625                   -4.66756         172.749         -48.0845         155.388         -48.0845         155.388       -0.0254704         142.148
0.626                   -4.65931         172.641         -48.0223          152.79         -48.0223          152.79       -0.0257528         142.065
0.627                   -4.64375         172.482         -47.9632         150.216         -47.9632         150.216       -0.0260387         141.982
0.628                   -4.62191         172.266         -47.9069         147.667         -47.9069         147.667       -0.0263282         141.899
0.629                   -4.59489          171.99         -47.8529         145.144         -47.8529         145.144       -0.0266213         141.815
