! TOUCHSTONE file generated by CST MICROWAVE STUDIO
! Date and time: Sat Nov 14 20:33:18 2020
! Project name: Scenario_1_Planar_Body_Tissue_Out_of_Line_v2.cst
! Parameters = {dy1=224.9; L_HA=400; Ltissue=700; MT=2.54; Rad_Dielectric=30; Rad_Lower=7.3; Rad_Upper=30; Wtissue=700; a_HA=580; a_WG=246; b_HA=500; b_WG=121; c_HA=0; c_WG=187; d_feed=85; dx1=173; h_feed=15; h_lower=18; h_upper=40; hfat=3; hgap=25; hmuscle=50; hskin=1.5}
! Header version: 2018
! Port assignment regex: !\s*Touchstone port\s*([0-9]+)\s*=\s*(CST MWS port|CST DS port)\s*([0-9]+|Zmin|Zmax)\s*\(\"(.*)\"\)(\s*mode\s*([0-9]+))?.*
! Touchstone port assignment:
! Touchstone port 1 = CST MWS port 1 ("")
! Touchstone port 2 = CST MWS port 2 ("")
# GHz S DB R 50
0.5                    -0.053604        -121.771          -63.087          123.01         -63.0856         123.015      -0.00691404         151.146
0.501                 -0.0515594        -122.232         -62.8975          122.38         -62.8961         122.386      -0.00696463         151.081
0.502                 -0.0496757        -122.696         -62.7059          121.75         -62.7045         121.755      -0.00701618         151.016
0.503                 -0.0479597        -123.163         -62.5122         121.117         -62.5108         121.123      -0.00706868          150.95
0.504                 -0.0464184        -123.634         -62.3164         120.483          -62.315         120.488      -0.00712216         150.885
0.505                 -0.0450592        -124.108         -62.1184         119.847          -62.117         119.852       -0.0071766         150.819
0.506                 -0.0438903        -124.586         -61.9182         119.208         -61.9168         119.213      -0.00723203         150.753
0.507                 -0.0429201        -125.067         -61.7157         118.567         -61.7144         118.572      -0.00728845         150.687
0.508                 -0.0421576        -125.552         -61.5109         117.923         -61.5096         117.928      -0.00734587         150.622
0.509                 -0.0416125         -126.04         -61.3037         117.276         -61.3024         117.281      -0.00740429         150.556
0.51                   -0.041295        -126.533         -61.0941         116.626         -61.0928          116.63      -0.00746374          150.49
0.511                 -0.0412161        -127.029          -60.882         115.972         -60.8808         115.976      -0.00752421         150.423
0.512                 -0.0413875        -127.529         -60.6674         115.315         -60.6662         115.319      -0.00758571         150.357
0.513                 -0.0418216        -128.034         -60.4502         114.653          -60.449         114.657      -0.00764826         150.291
0.514                  -0.042532        -128.543         -60.2303         113.987         -60.2291          113.99      -0.00771186         150.225
0.515                 -0.0435328        -129.057         -60.0078         113.315         -60.0065         113.319      -0.00777652         150.158
0.516                 -0.0448395        -129.575         -59.7824         112.639         -59.7812         112.642      -0.00784226         150.092
0.517                 -0.0464684        -130.098         -59.5542         111.957          -59.553          111.96      -0.00790908         150.025
0.518                 -0.0484375        -130.626         -59.3231         111.268         -59.3219         111.271      -0.00797699         149.958
0.519                 -0.0507656        -131.159          -59.089         110.574         -59.0878         110.576        -0.008046         149.891
0.52                  -0.0534732        -131.697         -58.8518         109.872         -58.8507         109.874      -0.00811612         149.825
0.521                 -0.0565826         -132.24         -58.6115         109.162         -58.6104         109.165      -0.00818737         149.758
0.522                 -0.0601175        -132.789         -58.3681         108.445         -58.3669         108.447      -0.00825975         149.691
0.523                 -0.0641038        -133.344         -58.1213         107.718         -58.1202          107.72      -0.00833328         149.623
0.524                 -0.0685693        -133.905         -57.8711         106.983         -57.8701         106.985      -0.00840797         149.556
0.525                 -0.0735445        -134.472         -57.6175         106.237         -57.6165         106.239      -0.00848382         149.489
0.526                  -0.079062        -135.046         -57.3604         105.481         -57.3594         105.483      -0.00856086         149.421
0.527                 -0.0851576        -135.626         -57.0997         104.714         -57.0987         104.715      -0.00863908         149.354
0.528                 -0.0918703        -136.213         -56.8352         103.934         -56.8342         103.935      -0.00871852         149.286
0.529                 -0.0992424        -136.808          -56.567         103.141          -56.566         103.142      -0.00879917         149.219
0.53                    -0.10732        -137.409         -56.2948         102.334         -56.2939         102.335      -0.00888106         149.151
0.531                  -0.116154        -138.019         -56.0187         101.512         -56.0178         101.513      -0.00896419         149.083
0.532                    -0.1258        -138.636         -55.7385         100.674         -55.7376         100.675      -0.00904858         149.015
0.533                  -0.136318        -139.262         -55.4541         99.8191         -55.4532         99.8198      -0.00913425         148.947
0.534                  -0.147775        -139.896         -55.1654         98.9457         -55.1645         98.9462      -0.00922122         148.879
0.535                  -0.160245        -140.539         -54.8723         98.0527         -54.8715          98.053      -0.00930949          148.81
0.536                  -0.173808        -141.191         -54.5748         97.1386          -54.574         97.1388      -0.00939909         148.742
0.537                  -0.188554        -141.853         -54.2727         96.2019         -54.2719         96.2021      -0.00949005         148.673
0.538                  -0.204581        -142.525         -53.9659         95.2411         -53.9651         95.2411      -0.00958236         148.605
0.539                  -0.221998        -143.208         -53.6543         94.2545         -53.6536         94.2543      -0.00967608         148.536
0.54                   -0.240926        -143.901         -53.3379           93.24         -53.3372         93.2398       -0.0097712         148.467
0.541                  -0.261499        -144.604         -53.0165         92.1958         -53.0159         92.1955      -0.00986777         148.398
0.542                  -0.283865         -145.32         -52.6901         91.1197         -52.6895         91.1193      -0.00996581         148.329
0.543                  -0.308191        -146.047         -52.3586         90.0093          -52.358         90.0088       -0.0100654          148.26
0.544                  -0.334659        -146.786         -52.0219         88.8622         -52.0213         88.8616       -0.0101664         148.191
0.545                  -0.363476        -147.538         -51.6799         87.6755         -51.6794         87.6749       -0.0102691         148.121
0.546                   -0.39487        -148.302         -51.3327         86.4465         -51.3322         86.4457       -0.0103734         148.052
0.547                  -0.429094        -149.079         -50.9802         85.1718         -50.9797         85.1711       -0.0104794         147.982
0.548                  -0.466435         -149.87         -50.6224         83.8482         -50.6219         83.8474       -0.0105871         147.912
0.549                  -0.507208        -150.673         -50.2593          82.472         -50.2589         82.4712       -0.0106967         147.843
0.55                   -0.551768         -151.49          -49.891         81.0392         -49.8906         81.0383       -0.0108081         147.773
0.551                  -0.600508        -152.319         -49.5176         79.5457         -49.5172         79.5448       -0.0109216         147.702
0.552                  -0.653867        -153.161         -49.1392         77.9868         -49.1389         77.9859       -0.0110372         147.632
0.553                  -0.712331        -154.014          -48.756         76.3579         -48.7557          76.357        -0.011155         147.562
0.554                  -0.776438        -154.878         -48.3684         74.6537         -48.3682         74.6528       -0.0112754         147.491
0.555                  -0.846784        -155.751         -47.9766         72.8689         -47.9764          72.868       -0.0113983         147.421
0.556                  -0.924019        -156.631         -47.5812         70.9977          -47.581         70.9969       -0.0115242          147.35
0.557                   -1.00885        -157.515         -47.1826         69.0343         -47.1824         69.0335       -0.0116534         147.279
0.558                   -1.10205        -158.401         -46.7816         66.9725         -46.7814         66.9717       -0.0117861         147.208
0.559                   -1.20441        -159.283         -46.3789          64.806         -46.3788         64.8054       -0.0119229         147.137
0.56                     -1.3168        -160.155         -45.9756         62.5288         -45.9755         62.5282       -0.0120644         147.066
0.561                   -1.44007        -161.011         -45.5728         60.1346         -45.5727         60.1341       -0.0122111         146.994
0.562                   -1.57507        -161.842         -45.1719         57.6179         -45.1718         57.6175       -0.0123641         146.923
0.563                   -1.72256        -162.635         -44.7745         54.9734         -44.7744         54.9731       -0.0125241         146.851
0.564                   -1.88318        -163.379         -44.3823         52.1969         -44.3823         52.1967       -0.0126924         146.779
0.565                   -2.05734        -164.056         -43.9975         49.2855         -43.9975         49.2854       -0.0128703         146.707
0.566                   -2.24509        -164.648         -43.6222         46.2378         -43.6222         46.2378       -0.0130591         146.635
0.567                   -2.44594        -165.134         -43.2589         43.0543         -43.2589         43.0544       -0.0132604         146.562
0.568                   -2.65874        -165.489         -42.9101         39.7382         -42.9101         39.7384       -0.0134754          146.49
0.569                   -2.88139        -165.688         -42.5784         36.2954         -42.5784         36.2957       -0.0137049         146.417
0.57                    -3.11066        -165.706         -42.2664         32.7349         -42.2664         32.7353       -0.0139493         146.345
0.571                   -3.34202        -165.519         -41.9766         29.0689         -41.9766         29.0694       -0.0142073         146.272
0.572                   -3.56954        -165.109         -41.7113          25.313         -41.7113         25.3135       -0.0144763           146.2
0.573                   -3.78599        -164.466         -41.4723         21.4855         -41.4723          21.486       -0.0147521         146.127
0.574                   -3.98321        -163.593          -41.261         17.6072          -41.261         17.6078       -0.0150288         146.054
0.575                   -4.15271        -162.509         -41.0782         13.7007         -41.0782         13.7012       -0.0152998         145.981
0.576                   -4.28662        -161.252         -40.9242         9.78914         -40.9242         9.78969       -0.0155591         145.909
0.577                   -4.37869        -159.874         -40.7985         5.89575         -40.7985         5.89625       -0.0158021         145.836
0.578                   -4.42524         -158.44         -40.7001         2.04242         -40.7001         2.04287       -0.0160264         145.763
0.579                   -4.42571        -157.018         -40.6275         -1.7509         -40.6275         -1.7505       -0.0162322          145.69
0.58                    -4.38264        -155.674         -40.5787        -5.46689         -40.5787        -5.46656       -0.0164213         145.617
0.581                   -4.30115        -154.465         -40.5514        -9.09133         -40.5513        -9.09106        -0.016597         145.544
0.582                   -4.18808        -153.429          -40.543        -12.6132          -40.543         -12.613       -0.0167629          145.47
0.583                   -4.05098        -152.592          -40.551        -16.0248          -40.551        -16.0247       -0.0169224         145.396
0.584                   -3.89728        -151.963         -40.5729        -19.3213         -40.5729        -19.3212       -0.0170787         145.322
0.585                   -3.73368        -151.538         -40.6062        -22.5007         -40.6062        -22.5006        -0.017234         145.248
0.586                    -3.5658        -151.308         -40.6485         -25.563         -40.6485         -25.563       -0.0173905         145.174
0.587                   -3.39811        -151.254         -40.6978        -28.5105         -40.6979        -28.5105       -0.0175493         145.099
0.588                   -3.23399         -151.36         -40.7522        -31.3466         -40.7523        -31.3466       -0.0177115         145.024
0.589                   -3.07582        -151.603         -40.8101        -34.0759         -40.8101        -34.0759       -0.0178779         144.949
0.59                    -2.92517        -151.967         -40.8699        -36.7037         -40.8699        -36.7038       -0.0180487         144.874
0.591                   -2.78301        -152.433         -40.9304         -39.236         -40.9305        -39.2361       -0.0182242         144.798
0.592                   -2.64981        -152.985         -40.9907        -41.6789         -40.9907        -41.6789       -0.0184047         144.722
0.593                   -2.52569         -153.61         -41.0497        -44.0384         -41.0498        -44.0384       -0.0185901         144.647
0.594                   -2.41055        -154.296         -41.1069        -46.3207          -41.107        -46.3207       -0.0187805          144.57
0.595                   -2.30409        -155.034         -41.1617        -48.5319         -41.1618        -48.5318       -0.0189759         144.494
0.596                   -2.20594        -155.814         -41.2136        -50.6775         -41.2137        -50.6775       -0.0191762         144.418
0.597                   -2.11564        -156.629         -41.2622        -52.7633         -41.2623        -52.7631       -0.0193814         144.341
0.598                   -2.03273        -157.475         -41.3073        -54.7942         -41.3074         -54.794       -0.0195913         144.264
0.599                   -1.95671        -158.345         -41.3488        -56.7751         -41.3489        -56.7749        -0.019806         144.187
0.6                     -1.88713        -159.237         -41.3865        -58.7106         -41.3866        -58.7103       -0.0200255          144.11
0.601                   -1.82351        -160.146         -41.4203        -60.6048         -41.4204        -60.6045       -0.0202495         144.033
0.602                   -1.76545        -161.071         -41.4502        -62.4617         -41.4504        -62.4614       -0.0204782         143.955
0.603                   -1.71253        -162.009         -41.4763        -64.2847         -41.4765        -64.2844       -0.0207114         143.877
0.604                   -1.66437        -162.958         -41.4986        -66.0772         -41.4988        -66.0768       -0.0209491         143.799
0.605                   -1.62065        -163.918         -41.5172        -67.8422         -41.5173        -67.8418       -0.0211913         143.721
0.606                   -1.58104        -164.887         -41.5322        -69.5823         -41.5323        -69.5819        -0.021438         143.643
0.607                   -1.54525        -165.864         -41.5436        -71.3002         -41.5437        -71.2997       -0.0216891         143.564
0.608                   -1.51303        -166.849         -41.5516        -72.9979         -41.5517        -72.9974       -0.0219446         143.485
0.609                   -1.48414        -167.841         -41.5563        -74.6776         -41.5564        -74.6771       -0.0222044         143.406
0.61                    -1.45835        -168.841         -41.5579         -76.341          -41.558        -76.3405       -0.0224686         143.327
0.611                   -1.43549        -169.847         -41.5565        -77.9898         -41.5566        -77.9893       -0.0227371         143.248
0.612                   -1.41537         -170.86         -41.5522        -79.6255         -41.5523         -79.625       -0.0230099         143.168
0.613                   -1.39784        -171.881         -41.5452        -81.2493         -41.5452        -81.2488        -0.023287         143.088
0.614                   -1.38276        -172.908         -41.5355        -82.8624         -41.5356        -82.8619       -0.0235683         143.008
0.615                      -1.37        -173.942         -41.5234        -84.4658         -41.5235        -84.4653       -0.0238539         142.928
0.616                   -1.35945        -174.983          -41.509        -86.0604         -41.5091        -86.0599       -0.0241436         142.848
0.617                   -1.35101        -176.032         -41.4924        -87.6469         -41.4925        -87.6464       -0.0244374         142.767
0.618                   -1.34459        -177.088         -41.4737        -89.2261         -41.4737        -89.2256       -0.0247354         142.686
0.619                   -1.34012        -178.153         -41.4529        -90.7984          -41.453        -90.7979       -0.0250374         142.605
0.62                    -1.33753        -179.226         -41.4303        -92.3643         -41.4304        -92.3639       -0.0253435         142.523
0.621                   -1.33675         179.693          -41.406        -93.9244          -41.406         -93.924       -0.0256535         142.442
0.622                   -1.33775         178.603         -41.3799        -95.4788         -41.3799        -95.4785       -0.0259675          142.36
0.623                   -1.34047         177.503         -41.3522         -97.028         -41.3522        -97.0277       -0.0262853         142.278
0.624                   -1.34488         176.394          -41.323        -98.5721          -41.323        -98.5718        -0.026607         142.196
0.625                   -1.35095         175.274         -41.2923        -100.111         -41.2923        -100.111       -0.0269325         142.113
0.626                   -1.35867         174.144         -41.2601        -101.646         -41.2602        -101.646       -0.0272616          142.03
0.627                   -1.36801         173.004         -41.2266        -103.176         -41.2266        -103.176       -0.0275944         141.947
0.628                   -1.37897         171.851         -41.1918        -104.702         -41.1918        -104.701       -0.0279307         141.864
0.629                   -1.39154         170.688         -41.1556        -106.223         -41.1557        -106.223       -0.0282706          141.78
