! TOUCHSTONE file generated by CST MICROWAVE STUDIO
! Date and time: Mon Nov 30 09:06:38 2020
! Project name: Scenario_1_Planar_Body_Tissue_Out_of_Line_v2.cst
! Parameters = {dy1=-224.9; L_HA=400; Ltissue=700; MT=2.54; Rad_Dielectric=30; Rad_Lower=7.3; Rad_Upper=30; Wtissue=700; a_HA=580; a_WG=246; b_HA=500; b_WG=121; c_HA=0; c_WG=187; d_feed=85; dx1=346; h_feed=15; h_lower=18; h_upper=40; hfat=3; hgap=25; hmuscle=50; hskin=1.5}
! Header version: 2018
! Port assignment regex: !\s*Touchstone port\s*([0-9]+)\s*=\s*(CST MWS port|CST DS port)\s*([0-9]+|Zmin|Zmax)\s*\(\"(.*)\"\)(\s*mode\s*([0-9]+))?.*
! Touchstone port assignment:
! Touchstone port 1 = CST MWS port 1 ("")
! Touchstone port 2 = CST MWS port 2 ("")
# GHz S DB R 50
0.5                    -0.250589        -121.823         -57.1904         17.1494         -57.1903         17.1504      -0.00830733         151.146
0.501                  -0.253294        -122.228         -57.0961         15.5162         -57.0929         15.5005      -0.00835974         151.081
0.502                  -0.256019        -122.636         -57.0023         13.8676         -56.9961         13.8348      -0.00841263         151.016
0.503                  -0.258767        -123.046         -56.9091          12.204            -56.9         12.1538      -0.00846602         150.951
0.504                  -0.261537        -123.458         -56.8166         10.5258         -56.8048         10.4578      -0.00851993         150.885
0.505                  -0.264332        -123.873         -56.7249         8.83347         -56.7104         8.74747      -0.00857438          150.82
0.506                  -0.267153         -124.29          -56.634         7.12748          -56.617         7.02319      -0.00862936         150.755
0.507                      -0.27        -124.709         -56.5441         5.40837         -56.5247         5.28557      -0.00868491         150.689
0.508                  -0.272876        -125.131         -56.4552         3.67671         -56.4335         3.53523      -0.00874103         150.623
0.509                  -0.275782        -125.555         -56.3673         1.93311         -56.3435         1.77283      -0.00879774         150.558
0.51                    -0.27872        -125.982         -56.2805        0.178242         -56.2547    -0.000906829      -0.00885506         150.492
0.511                  -0.281691        -126.411          -56.195        -1.58719         -56.1674        -1.78523      -0.00891299         150.426
0.512                  -0.284698        -126.843         -56.1107        -3.36245         -56.0815        -3.57935      -0.00897156          150.36
0.513                  -0.287741        -127.278         -56.0277        -5.14675          -55.997        -5.38241      -0.00903079         150.294
0.514                  -0.290824        -127.715         -55.9461        -6.93926         -55.9141        -7.19353      -0.00909067         150.228
0.515                  -0.293948        -128.155         -55.8659        -8.73914         -55.8327         -9.0118      -0.00915124         150.162
0.516                  -0.297115        -128.598         -55.7871        -10.5455          -55.753        -10.8363      -0.00921251         150.096
0.517                  -0.300328        -129.044         -55.7099        -12.3574          -55.675        -12.6659       -0.0092745         150.029
0.518                   -0.30359        -129.492         -55.6342        -14.1739         -55.5986        -14.4998      -0.00933721         149.963
0.519                  -0.306902        -129.944           -55.56        -15.9941          -55.524        -16.3368      -0.00940068         149.896
0.52                   -0.310269        -130.399         -55.4873        -17.8169         -55.4511        -18.1759      -0.00946491         149.829
0.521                  -0.313691        -130.857         -55.4162        -19.6413         -55.3799        -20.0161      -0.00952992         149.763
0.522                  -0.317174        -131.318         -55.3467        -21.4664         -55.3104        -21.8562      -0.00959573         149.696
0.523                  -0.320719        -131.782         -55.2787        -23.2911         -55.2427        -23.6952      -0.00966236         149.629
0.524                   -0.32433        -132.249         -55.2123        -25.1144         -55.1766        -25.5319      -0.00972983         149.562
0.525                  -0.328011         -132.72         -55.1473        -26.9353         -55.1122        -27.3655      -0.00979815         149.495
0.526                  -0.331766        -133.194         -55.0839        -28.7527         -55.0494        -29.1946      -0.00986734         149.428
0.527                  -0.335598        -133.672         -55.0218        -30.5656         -54.9882        -31.0184      -0.00993742          149.36
0.528                  -0.339512        -134.153         -54.9612        -32.3732         -54.9284        -32.8358       -0.0100084         149.293
0.529                  -0.343512        -134.638         -54.9018        -34.1743         -54.8701        -34.6457       -0.0100803         149.226
0.53                   -0.347603        -135.126         -54.8437        -35.9681         -54.8132        -36.4473       -0.0101532         149.158
0.531                   -0.35179        -135.618         -54.7868        -37.7536         -54.7575        -38.2395        -0.010227          149.09
0.532                  -0.356077        -136.114         -54.7309          -39.53          -54.703        -40.0215       -0.0103018         149.022
0.533                  -0.360471        -136.614         -54.6761        -41.2965         -54.6496        -41.7925       -0.0103777         148.955
0.534                  -0.364978        -137.118         -54.6222        -43.0521         -54.5972        -43.5515       -0.0104545         148.887
0.535                  -0.369603        -137.626         -54.5691        -44.7962         -54.5457        -45.2978       -0.0105324         148.819
0.536                  -0.374352        -138.138         -54.5168         -46.528         -54.4949        -47.0308       -0.0106114          148.75
0.537                  -0.379234        -138.655          -54.465        -48.2469         -54.4447        -48.7498       -0.0106914         148.682
0.538                  -0.384255        -139.176         -54.4137        -49.9522         -54.3951        -50.4541       -0.0107726         148.614
0.539                  -0.389422        -139.701         -54.3628        -51.6434         -54.3459        -52.1432       -0.0108549         148.545
0.54                   -0.394745        -140.231         -54.3121        -53.3199         -54.2969        -53.8165       -0.0109384         148.477
0.541                  -0.400231        -140.765         -54.2616        -54.9813          -54.248        -55.4737        -0.011023         148.408
0.542                   -0.40589        -141.304          -54.211         -56.627         -54.1992        -57.1144       -0.0111088         148.339
0.543                  -0.411731        -141.848         -54.1603        -58.2569         -54.1501        -58.7382       -0.0111959          148.27
0.544                  -0.417765        -142.398         -54.1094        -59.8705         -54.1008        -60.3448       -0.0112842         148.201
0.545                  -0.424003        -142.952         -54.0581        -61.4676         -54.0511        -61.9341       -0.0113737         148.132
0.546                  -0.430456        -143.511         -54.0062         -63.048         -54.0008        -63.5058       -0.0114646         148.063
0.547                  -0.437136        -144.076         -53.9537        -64.6115         -53.9498        -65.0599       -0.0115567         147.993
0.548                  -0.444057        -144.646         -53.9004        -66.1579         -53.8979        -66.5962       -0.0116503         147.924
0.549                  -0.451233        -145.222         -53.8462        -67.6874         -53.8451        -68.1148       -0.0117451         147.854
0.55                   -0.458678        -145.803         -53.7909        -69.1997         -53.7911        -69.6157       -0.0118414         147.785
0.551                  -0.466408        -146.391         -53.7344        -70.6951         -53.7359         -71.099       -0.0119391         147.715
0.552                   -0.47444        -146.984         -53.6767        -72.1735         -53.6793        -72.5649       -0.0120382         147.645
0.553                  -0.482791        -147.583         -53.6174        -73.6351         -53.6211        -74.0135       -0.0121388         147.575
0.554                  -0.491481        -148.189         -53.5566          -75.08         -53.5614        -75.4451       -0.0122409         147.504
0.555                  -0.500529        -148.801         -53.4941        -76.5086         -53.4998        -76.8598       -0.0123445         147.434
0.556                  -0.509957         -149.42         -53.4298         -77.921         -53.4364        -78.2582       -0.0124497         147.364
0.557                  -0.519789        -150.046         -53.3636        -79.3176         -53.3709        -79.6405       -0.0125564         147.293
0.558                  -0.530048        -150.679         -53.2952        -80.6987         -53.3032        -81.0071       -0.0126647         147.222
0.559                   -0.54076        -151.318         -53.2247        -82.0648         -53.2333        -82.3584       -0.0127747         147.152
0.56                   -0.551954        -151.966         -53.1519        -83.4162          -53.161        -83.6951       -0.0128863         147.081
0.561                   -0.56366         -152.62         -53.0767        -84.7534         -53.0862        -85.0175       -0.0129996          147.01
0.562                  -0.575909        -153.283          -52.999         -86.077         -53.0088        -86.3263       -0.0131147         146.938
0.563                  -0.588735        -153.953         -52.9186        -87.3875         -52.9287         -87.622       -0.0132315         146.867
0.564                  -0.602174        -154.631         -52.8355        -88.6855         -52.8458        -88.9053         -0.01335         146.796
0.565                  -0.616267        -155.318         -52.7496        -89.9717         -52.7599         -90.177       -0.0134704         146.724
0.566                  -0.631055        -156.013         -52.6607        -91.2468         -52.6711        -91.4376       -0.0135926         146.652
0.567                  -0.646581        -156.717         -52.5688        -92.5114         -52.5791         -92.688       -0.0137167         146.581
0.568                  -0.662896         -157.43         -52.4738        -93.7663         -52.4839         -93.929       -0.0138427         146.509
0.569                  -0.680049        -158.152         -52.3755        -95.0123         -52.3854        -95.1614       -0.0139706         146.436
0.57                   -0.698097        -158.883          -52.274        -96.2503         -52.2835        -96.3861       -0.0141005         146.364
0.571                  -0.717099        -159.625          -52.169        -97.4811         -52.1782         -97.604       -0.0142324         146.292
0.572                  -0.737119        -160.376         -52.0606        -98.7058         -52.0694        -98.8161       -0.0143663         146.219
0.573                  -0.758224        -161.137         -51.9487        -99.9252         -51.9569        -100.023       -0.0145023         146.146
0.574                  -0.780489        -161.909         -51.8331         -101.14         -51.8408        -101.227       -0.0146404         146.074
0.575                  -0.803993        -162.691         -51.7139        -102.352         -51.7209        -102.428       -0.0147806         146.001
0.576                  -0.828821        -163.484         -51.5909        -103.562         -51.5973        -103.627        -0.014923         145.928
0.577                  -0.855064        -164.289         -51.4641        -104.771         -51.4698        -104.826       -0.0150675         145.854
0.578                  -0.882822        -165.104         -51.3335        -105.981         -51.3385        -106.026       -0.0152143         145.781
0.579                    -0.9122        -165.932          -51.199        -107.192         -51.2032        -107.227       -0.0153634         145.707
0.58                   -0.943312        -166.771         -51.0605        -108.405         -51.0639        -108.433       -0.0155147         145.633
0.581                  -0.976282        -167.622         -50.9181        -109.623         -50.9207        -109.643       -0.0156684          145.56
0.582                   -1.01124        -168.485         -50.7718        -110.847         -50.7735        -110.859       -0.0158244         145.486
0.583                   -1.04833        -169.361         -50.6214        -112.077         -50.6223        -112.083       -0.0159829         145.411
0.584                   -1.08771        -170.249         -50.4671        -113.316         -50.4671        -113.316       -0.0161437         145.337
0.585                   -1.12954         -171.15         -50.3088        -114.565         -50.3079         -114.56       -0.0163071         145.262
0.586                     -1.174        -172.064         -50.1465        -115.826         -50.1447        -115.816       -0.0164729         145.188
0.587                   -1.22128        -172.991         -49.9803          -117.1         -49.9777        -117.086       -0.0166413         145.113
0.588                   -1.27158         -173.93         -49.8102        -118.389         -49.8067        -118.371       -0.0168123         145.038
0.589                   -1.32513        -174.882         -49.6363        -119.695          -49.632        -119.674       -0.0169858         144.963
0.59                    -1.38216        -175.847         -49.4587        -121.019         -49.4535        -120.996        -0.017162         144.887
0.591                   -1.44293        -176.823         -49.2774        -122.364         -49.2715        -122.339       -0.0173408         144.812
0.592                   -1.50771        -177.812         -49.0925        -123.731         -49.0859        -123.704       -0.0175223         144.736
0.593                   -1.57678        -178.813         -48.9043        -125.121         -48.8969        -125.094       -0.0177066          144.66
0.594                   -1.65047        -179.824         -48.7127        -126.538         -48.7048        -126.511       -0.0178936         144.584
0.595                   -1.72909         179.155         -48.5181        -127.982         -48.5096        -127.955       -0.0180834         144.508
0.596                   -1.81301         178.125         -48.3207        -129.456         -48.3116         -129.43        -0.018276         144.431
0.597                   -1.90258         177.086         -48.1205        -130.961          -48.111        -130.936       -0.0184715         144.355
0.598                   -1.99821         176.042          -47.918          -132.5          -47.908        -132.477       -0.0186698         144.278
0.599                   -2.10029         174.992         -47.7133        -134.074          -47.703        -134.053       -0.0188711         144.201
0.6                     -2.20926          173.94         -47.5068        -135.684         -47.4963        -135.666       -0.0190752         144.124
0.601                   -2.32556         172.888         -47.2988        -137.334         -47.2882        -137.317       -0.0192823         144.047
0.602                   -2.44964         171.838         -47.0898        -139.023          -47.079         -139.01       -0.0194924         143.969
0.603                   -2.58196         170.795           -46.88        -140.754         -46.8692        -140.743       -0.0197054         143.891
0.604                   -2.72298         169.761           -46.67        -142.528         -46.6592         -142.52       -0.0199215         143.813
0.605                   -2.87316         168.742         -46.4601        -144.345         -46.4496        -144.341       -0.0201406         143.735
0.606                   -3.03294         167.743          -46.251        -146.208         -46.2407        -146.206       -0.0203628         143.657
0.607                   -3.20272          166.77         -46.0431        -148.115         -46.0331        -148.117        -0.020588         143.578
0.608                   -3.38286          165.83          -45.837        -150.068         -45.8274        -150.072       -0.0208163           143.5
0.609                   -3.57365          164.93         -45.6332        -152.067         -45.6241        -152.074       -0.0210477         143.421
0.61                     -3.7753         164.079         -45.4324        -154.111         -45.4237         -154.12       -0.0212823         143.342
0.611                   -3.98787         163.286         -45.2351        -156.199          -45.227         -156.21       -0.0215199         143.262
0.612                   -4.21131         162.563         -45.0419         -158.33         -45.0345        -158.343       -0.0217607         143.183
0.613                   -4.44533         161.921         -44.8535        -160.503         -44.8467        -160.517       -0.0220046         143.103
0.614                    -4.6894         161.373         -44.6704        -162.716         -44.6643         -162.73       -0.0222517         143.023
0.615                   -4.94272         160.931         -44.4931        -164.965         -44.4878        -164.979        -0.022502         142.943
0.616                    -5.2041          160.61         -44.3223        -167.248         -44.3177        -167.262       -0.0227554         142.862
0.617                   -5.47195         160.423         -44.1584        -169.562         -44.1545        -169.575       -0.0230121         142.782
0.618                   -5.74419         160.385         -44.0017        -171.902         -43.9986        -171.915       -0.0232719         142.701
0.619                   -6.01824         160.509         -43.8528        -174.266         -43.8504        -174.276       -0.0235349          142.62
0.62                    -6.29094         160.805         -43.7119        -176.647         -43.7101        -176.656       -0.0238011         142.538
0.621                   -6.55856         161.282         -43.5792        -179.042          -43.578        -179.049       -0.0240706         142.457
0.622                   -6.81687         161.944         -43.4548         178.554         -43.4543          178.55       -0.0243432         142.375
0.623                   -7.06122          162.79         -43.3389         176.146         -43.3389         176.145       -0.0246192         142.293
0.624                   -7.28672         163.812         -43.2314         173.738         -43.2318         173.741       -0.0248983          142.21
0.625                   -7.48845         164.998         -43.1322         171.337          -43.133         171.343       -0.0251808         142.128
0.626                   -7.66185         166.323         -43.0411         168.946         -43.0422         168.955       -0.0254666         142.045
0.627                   -7.80298         167.759         -42.9579         166.569         -42.9593         166.582       -0.0257556         141.962
0.628                   -7.90889         169.271         -42.8822         164.211         -42.8838         164.228       -0.0260481         141.878
0.629                    -7.9779         170.818         -42.8137         161.876         -42.8153         161.896       -0.0263438         141.795
