! TOUCHSTONE file generated by CST MICROWAVE STUDIO
! Date and time: Fri Dec 11 13:54:20 2020
! Project name: Scenario_1_Planar_Body_Tissue_Out_of_Line_v2.cst
! Parameters = {dy1=-224.9; L_HA=400; Ltissue=700; MT=2.54; Rad_Dielectric=30; Rad_Lower=7.3; Rad_Upper=30; Wtissue=700; a_HA=580; a_WG=246; b_HA=500; b_WG=121; c_HA=0; c_WG=187; d_feed=85; dx1=520; h_feed=15; h_lower=18; h_upper=40; hfat=3; hgap=25; hmuscle=50; hskin=1.5}
! Header version: 2018
! Port assignment regex: !\s*Touchstone port\s*([0-9]+)\s*=\s*(CST MWS port|CST DS port)\s*([0-9]+|Zmin|Zmax)\s*\(\"(.*)\"\)(\s*mode\s*([0-9]+))?.*
! Touchstone port assignment:
! Touchstone port 1 = CST MWS port 1 ("")
! Touchstone port 2 = CST MWS port 2 ("")
# GHz S DB R 50
0.5                   -0.0896907        -121.947         -63.1854        -63.6261         -63.1875        -63.6218      -0.00733859         151.155
0.501                 -0.0930381        -122.404         -62.9843        -64.6734         -62.9862        -64.6691      -0.00740607         151.089
0.502                 -0.0966075        -122.865         -62.7785        -65.7375         -62.7804        -65.7332       -0.0074736         151.024
0.503                  -0.100414         -123.33         -62.5683        -66.8191           -62.57        -66.8149       -0.0075412         150.959
0.504                  -0.104473        -123.798         -62.3534        -67.9191         -62.3549        -67.9149      -0.00760895         150.893
0.505                  -0.108803        -124.269         -62.1339        -69.0383         -62.1353        -69.0342      -0.00767691         150.828
0.506                  -0.113424        -124.744         -61.9097        -70.1777          -61.911        -70.1736      -0.00774513         150.762
0.507                  -0.118356        -125.224         -61.6808         -71.338          -61.682         -71.334      -0.00781371         150.696
0.508                  -0.123623        -125.707         -61.4473        -72.5205         -61.4484        -72.5166      -0.00788271         150.631
0.509                   -0.12925        -126.194          -61.209        -73.7262           -61.21        -73.7223      -0.00795224         150.565
0.51                   -0.135265        -126.685          -60.966        -74.9562         -60.9669        -74.9524       -0.0080224         150.499
0.511                  -0.141698        -127.181         -60.7183        -76.2118         -60.7191        -76.2082      -0.00809328         150.433
0.512                  -0.148583         -127.68         -60.4659        -77.4944         -60.4666        -77.4909      -0.00816502         150.367
0.513                  -0.155956        -128.184         -60.2087        -78.8054         -60.2093         -78.802      -0.00823774           150.3
0.514                  -0.163857        -128.693         -59.9469        -80.1462         -59.9474         -80.143      -0.00831158         150.234
0.515                  -0.172331        -129.206         -59.6804        -81.5185         -59.6808        -81.5155      -0.00838669         150.168
0.516                  -0.181425        -129.724         -59.4092        -82.9241         -59.4096        -82.9211      -0.00846321         150.101
0.517                  -0.191191        -130.246         -59.1335        -84.3646         -59.1338        -84.3619      -0.00854132         150.035
0.518                  -0.201687        -130.773         -58.8533        -85.8421         -58.8535        -85.8395      -0.00862119         149.968
0.519                  -0.212976        -131.304         -58.5687        -87.3585         -58.5688        -87.3562      -0.00870298         149.901
0.52                   -0.225126         -131.84         -58.2798        -88.9161         -58.2799         -88.914      -0.00878689         149.834
0.521                   -0.23821         -132.38         -57.9868        -90.5171         -57.9867        -90.5151       -0.0088731         149.767
0.522                  -0.252308        -132.925         -57.6897        -92.1639         -57.6896        -92.1621      -0.00896177           149.7
0.523                  -0.267508        -133.474         -57.3888        -93.8589         -57.3886        -93.8574       -0.0090531         149.633
0.524                  -0.283902        -134.028         -57.0842        -95.6049         -57.0841        -95.6036      -0.00914724         149.566
0.525                   -0.30159        -134.585         -56.7764        -97.4044         -56.7762        -97.4034      -0.00924435         149.499
0.526                  -0.320676        -135.145         -56.4655        -99.2604         -56.4652        -99.2595      -0.00934456         149.431
0.527                  -0.341272        -135.708         -56.1518        -101.176         -56.1516        -101.175      -0.00944798         149.364
0.528                  -0.363491        -136.274         -55.8359        -103.153         -55.8356        -103.153      -0.00955469         149.296
0.529                  -0.387452        -136.841         -55.5181        -105.196         -55.5178        -105.195      -0.00966473         149.228
0.53                   -0.413271        -137.409          -55.199        -107.306         -55.1987        -107.306      -0.00977811         149.161
0.531                  -0.441064        -137.977         -54.8792        -109.488         -54.8788        -109.488      -0.00989479         149.093
0.532                  -0.470937        -138.543         -54.5593        -111.743         -54.5589        -111.744       -0.0100147         149.025
0.533                  -0.502986        -139.106           -54.24        -114.074         -54.2396        -114.075       -0.0101377         148.957
0.534                  -0.537285        -139.665         -53.9222        -116.484         -53.9219        -116.485       -0.0102635         148.889
0.535                  -0.573882        -140.216         -53.6069        -118.975         -53.6065        -118.976       -0.0103921         148.821
0.536                  -0.612788        -140.759         -53.2949        -121.547         -53.2945        -121.549        -0.010523         148.752
0.537                  -0.653961         -141.29         -52.9873        -124.203          -52.987        -124.204        -0.010656         148.684
0.538                  -0.697305        -141.807         -52.6854        -126.941         -52.6851        -126.943       -0.0107907         148.616
0.539                  -0.742644        -142.308         -52.3903        -129.762           -52.39        -129.764       -0.0109268         148.547
0.54                    -0.78972        -142.789         -52.1032        -132.664         -52.1029        -132.666       -0.0110639         148.479
0.541                  -0.838181        -143.248         -51.8255        -135.644         -51.8253        -135.646       -0.0112016          148.41
0.542                  -0.887572        -143.683         -51.5584        -138.698         -51.5582        -138.701       -0.0113396         148.341
0.543                  -0.937338        -144.091         -51.3033        -141.822         -51.3031        -141.825       -0.0114774         148.272
0.544                  -0.986829        -144.471         -51.0612         -145.01         -51.0611        -145.012       -0.0116149         148.203
0.545                   -1.03532        -144.822         -50.8333        -148.253         -50.8332        -148.255       -0.0117517         148.134
0.546                   -1.08203        -145.145         -50.6206        -151.543         -50.6206        -151.546       -0.0118875         148.065
0.547                   -1.12617        -145.441          -50.424        -154.872          -50.424        -154.874       -0.0120223         147.996
0.548                   -1.16698        -145.712         -50.2439        -158.227         -50.2439        -158.229       -0.0121558         147.927
0.549                   -1.20375        -145.962         -50.0809        -161.599         -50.0809        -161.601       -0.0122879         147.857
0.55                     -1.2359        -146.195          -49.935        -164.976         -49.9351        -164.978       -0.0124185         147.788
0.551                     -1.263        -146.417         -49.8062        -168.346         -49.8063        -168.348       -0.0125478         147.718
0.552                    -1.2848        -146.634         -49.6942          -171.7         -49.6943        -171.701       -0.0126756         147.649
0.553                   -1.30122         -146.85         -49.5984        -175.025         -49.5985        -175.026       -0.0128021         147.579
0.554                   -1.31237        -147.073          -49.518        -178.313         -49.5182        -178.314       -0.0129274         147.509
0.555                   -1.31852        -147.307         -49.4523         178.445         -49.4524         178.445       -0.0130515         147.439
0.556                   -1.32006        -147.557            -49.4         175.258         -49.4002         175.257       -0.0131746         147.368
0.557                    -1.3175        -147.827         -49.3601          172.13         -49.3603          172.13       -0.0132968         147.298
0.558                   -1.31141         -148.12         -49.3313         169.068         -49.3315         169.068       -0.0134184         147.228
0.559                   -1.30236        -148.437         -49.3124         166.075         -49.3126         166.075       -0.0135394         147.157
0.56                    -1.29095        -148.781         -49.3022         163.155         -49.3024         163.155       -0.0136601         147.086
0.561                   -1.27774        -149.151         -49.2994         160.308         -49.2996         160.308       -0.0137805         147.016
0.562                   -1.26325        -149.549         -49.3028         157.535          -49.303         157.536        -0.013901         146.945
0.563                   -1.24796        -149.972         -49.3113         154.837         -49.3115         154.838       -0.0140216         146.873
0.564                   -1.23227        -150.422         -49.3239         152.212         -49.3241         152.213       -0.0141426         146.802
0.565                   -1.21655        -150.896         -49.3396          149.66         -49.3398          149.66        -0.014264         146.731
0.566                   -1.20109        -151.393         -49.3575         147.177         -49.3577         147.178        -0.014386         146.659
0.567                   -1.18614        -151.913         -49.3768         144.763          -49.377         144.763       -0.0145089         146.588
0.568                    -1.1719        -152.453         -49.3968         142.413          -49.397         142.414       -0.0146326         146.516
0.569                   -1.15853        -153.013         -49.4169         140.126         -49.4171         140.127       -0.0147574         146.444
0.57                    -1.14615        -153.592         -49.4365         137.898         -49.4366         137.899       -0.0148834         146.372
0.571                   -1.13487        -154.188          -49.455         135.727         -49.4552         135.728       -0.0150107           146.3
0.572                   -1.12476        -154.801         -49.4721         133.609         -49.4723          133.61       -0.0151394         146.227
0.573                   -1.11586        -155.429         -49.4874         131.541         -49.4876         131.542       -0.0152695         146.155
0.574                   -1.10822        -156.071         -49.5006         129.521         -49.5008         129.522       -0.0154013         146.082
0.575                   -1.10186        -156.727         -49.5113         127.545         -49.5115         127.546       -0.0155348         146.009
0.576                    -1.0968        -157.397         -49.5194         125.611         -49.5196         125.612       -0.0156701         145.936
0.577                   -1.09305        -158.079         -49.5247         123.716         -49.5248         123.716       -0.0158073         145.863
0.578                   -1.09061        -158.773         -49.5269         121.856         -49.5271         121.857       -0.0159464          145.79
0.579                   -1.08949        -159.479          -49.526         120.031         -49.5262         120.031       -0.0160875         145.716
0.58                    -1.08969        -160.196         -49.5218         118.236          -49.522         118.237       -0.0162308         145.643
0.581                    -1.0912        -160.924         -49.5143         116.471         -49.5145         116.471       -0.0163762         145.569
0.582                   -1.09403        -161.663         -49.5035         114.732         -49.5037         114.732       -0.0165238         145.495
0.583                   -1.09818        -162.413         -49.4891         113.017         -49.4893         113.018       -0.0166736         145.421
0.584                   -1.10365        -163.173         -49.4713         111.325         -49.4715         111.325       -0.0168259         145.346
0.585                   -1.11046        -163.943           -49.45         109.653         -49.4502         109.654       -0.0169805         145.272
0.586                    -1.1186        -164.724         -49.4252         108.001         -49.4254         108.001       -0.0171375         145.197
0.587                    -1.1281        -165.516         -49.3969         106.365         -49.3971         106.365        -0.017297         145.123
0.588                   -1.13897        -166.317         -49.3651         104.744         -49.3653         104.744       -0.0174591         145.048
0.589                   -1.15123        -167.129         -49.3298         103.137         -49.3301         103.137       -0.0176237         144.973
0.59                    -1.16491        -167.952         -49.2911         101.542         -49.2913         101.542        -0.017791         144.897
0.591                   -1.18002        -168.785          -49.249          99.958         -49.2492         99.9582       -0.0179609         144.822
0.592                   -1.19661        -169.629         -49.2034         98.3832         -49.2036         98.3834       -0.0181335         144.746
0.593                    -1.2147        -170.483         -49.1545         96.8165         -49.1547         96.8166       -0.0183089          144.67
0.594                   -1.23435        -171.348         -49.1023         95.2564         -49.1025         95.2566        -0.018487         144.594
0.595                   -1.25559        -172.225         -49.0468         93.7019         -49.0471         93.7021        -0.018668         144.518
0.596                   -1.27848        -173.112         -48.9882         92.1518         -48.9884         92.1519       -0.0188518         144.442
0.597                   -1.30308        -174.011         -48.9263         90.6049         -48.9265          90.605       -0.0190385         144.365
0.598                   -1.32944        -174.921         -48.8614         89.0601         -48.8616         89.0602       -0.0192282         144.289
0.599                   -1.35764        -175.843         -48.7934         87.5164         -48.7936         87.5165       -0.0194208         144.212
0.6                     -1.38775        -176.776         -48.7224         85.9729         -48.7226          85.973       -0.0196164         144.135
0.601                   -1.41985        -177.722         -48.6484         84.4284         -48.6486         84.4285       -0.0198151         144.057
0.602                   -1.45402        -178.679         -48.5716         82.8821         -48.5718         82.8822       -0.0200168          143.98
0.603                   -1.49036        -179.649          -48.492          81.333         -48.4922         81.3331       -0.0202217         143.902
0.604                   -1.52898         179.369         -48.4097         79.7804         -48.4099         79.7805       -0.0204297         143.824
0.605                   -1.56998         178.374         -48.3247         78.2232         -48.3249         78.2233       -0.0206409         143.746
0.606                   -1.61347         177.367         -48.2371         76.6606         -48.2373         76.6607       -0.0208553         143.668
0.607                   -1.65958         176.347          -48.147         75.0919         -48.1472          75.092       -0.0210729         143.589
0.608                   -1.70846         175.314         -48.0544         73.5162         -48.0546         73.5163       -0.0212939         143.511
0.609                   -1.76023         174.268         -47.9595         71.9327         -47.9597         71.9329       -0.0215182         143.432
0.61                    -1.81505         173.209         -47.8623         70.3408         -47.8625         70.3409       -0.0217459         143.353
0.611                   -1.87308         172.137          -47.763         68.7396         -47.7631         68.7397        -0.021977         143.273
0.612                   -1.93451         171.053         -47.6615         67.1284         -47.6617         67.1285       -0.0222116         143.194
0.613                    -1.9995         169.955         -47.5581         65.5065         -47.5582         65.5067       -0.0224496         143.114
0.614                   -2.06827         168.845         -47.4527         63.8734         -47.4529         63.8735       -0.0226912         143.034
0.615                     -2.141         167.723         -47.3456         62.2282         -47.3457         62.2283       -0.0229364         142.954
0.616                   -2.21793         166.588         -47.2367         60.5704         -47.2369         60.5705       -0.0231852         142.873
0.617                   -2.29928         165.441         -47.1263         58.8993         -47.1265         58.8994       -0.0234377         142.793
0.618                   -2.38531         164.284         -47.0145         57.2145         -47.0146         57.2145       -0.0236939         142.712
0.619                   -2.47626         163.115         -46.9013         55.5152         -46.9014         55.5153       -0.0239539         142.631
0.62                    -2.57241         161.936         -46.7869         53.8011         -46.7869         53.8011       -0.0242177         142.549
0.621                   -2.67404         160.748         -46.6714         52.0715         -46.6714         52.0716       -0.0244854         142.468
0.622                   -2.78145         159.551         -46.5549         50.3261          -46.555         50.3262        -0.024757         142.386
0.623                   -2.89495         158.348         -46.4377         48.5645         -46.4378         48.5645       -0.0250325         142.304
0.624                   -3.01487         157.138         -46.3198         46.7862         -46.3199         46.7862       -0.0253121         142.221
0.625                   -3.14155         155.923         -46.2014         44.9909         -46.2015         44.9909       -0.0255958         142.139
0.626                   -3.27532         154.705         -46.0827         43.1784         -46.0827         43.1783       -0.0258836         142.056
0.627                   -3.41656         153.487         -45.9638         41.3484         -45.9638         41.3483       -0.0261757         141.973
0.628                   -3.56563          152.27         -45.8449         39.5008         -45.8449         39.5006        -0.026472         141.889
0.629                    -3.7229         151.056         -45.7261         37.6354         -45.7261         37.6352       -0.0267726         141.805
