! TOUCHSTONE file generated by CST MICROWAVE STUDIO
! Date and time: Sat Nov 14 19:59:23 2020
! Project name: Scenario_1_Planar_Body_Tissue_Out_of_Line.cst
! Parameters = {dy1=224.9; L_HA=400; Ltissue=700; MT=2.54; Rad_Dielectric=30; Rad_Lower=7.3; Rad_Upper=30; Wtissue=700; a_HA=580; a_WG=246; b_HA=500; b_WG=121; c_HA=0; c_WG=187; d_feed=85; dx1=693; h_feed=15; h_lower=18; h_upper=40; hfat=3; hgap=25; hmuscle=50; hskin=1.5}
! Header version: 2018
! Port assignment regex: !\s*Touchstone port\s*([0-9]+)\s*=\s*(CST MWS port|CST DS port)\s*([0-9]+|Zmin|Zmax)\s*\(\"(.*)\"\)(\s*mode\s*([0-9]+))?.*
! Touchstone port assignment:
! Touchstone port 1 = CST MWS port 1 ("")
! Touchstone port 2 = CST MWS port 2 ("")
# GHz S DB R 50
0.5                    -0.184237        -121.648         -62.4944         177.601         -62.4933         177.601      -0.00776588         151.152
0.501                  -0.185773        -122.063         -62.3577         176.626         -62.3553         176.705      -0.00783034         151.087
0.502                  -0.187381        -122.481         -62.2176          175.63         -62.2134         175.791      -0.00789504         151.021
0.503                  -0.189065        -122.901         -62.0739         174.614         -62.0675         174.858         -0.00796         150.956
0.504                  -0.190828        -123.325         -61.9267         173.575         -61.9175         173.904      -0.00802524         150.891
0.505                  -0.192675        -123.752         -61.7758         172.513         -61.7632         172.928      -0.00809079         150.825
0.506                  -0.194608        -124.182         -61.6211         171.426         -61.6046          171.93      -0.00815668          150.76
0.507                  -0.196633        -124.615         -61.4626         170.313         -61.4414         170.906      -0.00822291         150.694
0.508                  -0.198754        -125.051         -61.3002         169.172         -61.2734         169.857      -0.00828952         150.629
0.509                  -0.200975        -125.491         -61.1337         168.002         -61.1007         168.779      -0.00835654         150.563
0.51                   -0.203302        -125.933         -60.9632         166.801         -60.9229         167.671      -0.00842398         150.497
0.511                   -0.20574         -126.38         -60.7887         165.566         -60.7399         166.531      -0.00849187         150.431
0.512                  -0.208294        -126.829           -60.61         164.297         -60.5517         165.355      -0.00856024         150.365
0.513                  -0.210971        -127.282         -60.4271         162.989         -60.3581         164.142       -0.0086291         150.299
0.514                  -0.213776        -127.739         -60.2402         161.641          -60.159         162.887      -0.00869848         150.233
0.515                  -0.216717        -128.199         -60.0492          160.25         -59.9543         161.587      -0.00876841         150.167
0.516                    -0.2198        -128.663         -59.8543         158.813         -59.7441         160.238      -0.00883891           150.1
0.517                  -0.223034         -129.13         -59.6555         157.327         -59.5283         158.835         -0.00891         150.034
0.518                  -0.226425        -129.602         -59.4531         155.787          -59.307         157.374      -0.00898171         149.967
0.519                  -0.229983        -130.077         -59.2474         154.192         -59.0803         155.849      -0.00905407         149.901
0.52                   -0.233716        -130.557         -59.0386         152.536         -58.8486         154.255      -0.00912709         149.834
0.521                  -0.237634         -131.04         -58.8273         150.815         -58.6122         152.584      -0.00920081         149.767
0.522                  -0.241748        -131.527          -58.614         149.026         -58.3716          150.83      -0.00927524           149.7
0.523                  -0.246068        -132.019         -58.3993         147.165         -58.1277         148.986      -0.00935042         149.633
0.524                  -0.250605        -132.515         -58.1842         145.228         -57.8813         147.044      -0.00942637         149.566
0.525                  -0.255373        -133.015         -57.9695         143.211         -57.6338         144.997      -0.00950311         149.499
0.526                  -0.260385         -133.52         -57.7565         141.112         -57.3866         142.838      -0.00958068         149.432
0.527                  -0.265654        -134.029         -57.5464         138.927         -57.1417          140.56       -0.0096591         149.364
0.528                  -0.271196        -134.543         -57.3408         136.657         -56.9013         138.159      -0.00973839         149.297
0.529                  -0.277026        -135.062         -57.1414         134.301         -56.6681         135.631      -0.00981859          149.23
0.53                   -0.283163        -135.585         -56.9498         131.862         -56.4451         132.978      -0.00989971         149.162
0.531                  -0.289624        -136.113         -56.7681         129.343         -56.2355         130.202       -0.0099818         149.094
0.532                   -0.29643        -136.647         -56.5982         126.753         -56.0429         127.314       -0.0100649         149.026
0.533                  -0.303602        -137.185         -56.4418         124.101         -55.8706         124.327        -0.010149         148.958
0.534                  -0.311162        -137.729         -56.3007         121.399         -55.7218         121.263       -0.0102341          148.89
0.535                  -0.319135        -138.278         -56.1762         118.663         -55.5992         118.147       -0.0103203         148.822
0.536                  -0.327547        -138.832         -56.0694         115.911         -55.5044         115.011       -0.0104076         148.754
0.537                  -0.336426        -139.392         -55.9808         113.163         -55.4383         111.891       -0.0104961         148.686
0.538                  -0.345803        -139.958         -55.9101          110.44         -55.4002         108.823       -0.0105857         148.617
0.539                   -0.35571        -140.529         -55.8567         107.764         -55.3881         105.844       -0.0106765         148.549
0.54                   -0.366182        -141.107          -55.819         105.153         -55.3991         102.984       -0.0107685          148.48
0.541                  -0.377257         -141.69         -55.7951         102.627         -55.4289         100.272       -0.0108618         148.411
0.542                  -0.388975        -142.279         -55.7823         100.201         -55.4725         97.7252       -0.0109565         148.342
0.543                   -0.40138        -142.874         -55.7777         97.8856         -55.5248         95.3561       -0.0110524         148.273
0.544                  -0.414519        -143.476         -55.7781         95.6885         -55.5804         93.1677       -0.0111497         148.204
0.545                  -0.428442        -144.084         -55.7803         93.6126         -55.6342         91.1561       -0.0112484         148.135
0.546                  -0.443205        -144.698         -55.7809         91.6569         -55.6817          89.311       -0.0113486         148.066
0.547                  -0.458865        -145.319         -55.7769         89.8167         -55.7188         87.6176       -0.0114502         147.996
0.548                  -0.475486        -145.946         -55.7657         88.0838         -55.7424         86.0575       -0.0115534         147.927
0.549                  -0.493135         -146.58         -55.7447         86.4476         -55.7499         84.6104       -0.0116581         147.857
0.55                   -0.511887        -147.221         -55.7121         84.8957         -55.7397         83.2549       -0.0117644         147.788
0.551                  -0.531819        -147.868         -55.6662         83.4141         -55.7105         81.9698       -0.0118723         147.718
0.552                  -0.553017        -148.522         -55.6059         81.9885         -55.6619         80.7347        -0.011982         147.648
0.553                   -0.57557        -149.182         -55.5305         80.6041         -55.5937         79.5304       -0.0120933         147.578
0.554                  -0.599575        -149.848         -55.4395         79.2465         -55.5062         78.3393       -0.0122064         147.507
0.555                  -0.625138        -150.521         -55.3329         77.9021         -55.4002         77.1458       -0.0123214         147.437
0.556                  -0.652367          -151.2         -55.2108         76.5578         -55.2764         75.9359       -0.0124382         147.367
0.557                  -0.681382        -151.885         -55.0738         75.2016         -55.1358         74.6975       -0.0125569         147.296
0.558                  -0.712307        -152.575         -54.9224         73.8227         -54.9796         73.4202       -0.0126775         147.225
0.559                  -0.745275         -153.27         -54.7573         72.4114         -54.8091          72.095       -0.0128002         147.154
0.56                   -0.780423         -153.97         -54.5794         70.9588         -54.6253         70.7146       -0.0129248         147.083
0.561                  -0.817898        -154.674         -54.3897         69.4574         -54.4296         69.2725       -0.0130516         147.012
0.562                  -0.857849        -155.381         -54.1891         67.9005         -54.2231         67.7637       -0.0131805         146.941
0.563                   -0.90043         -156.09         -53.9787         66.2823         -54.0071         66.1837       -0.0133117          146.87
0.564                  -0.945798        -156.801         -53.7597         64.5979         -53.7829         64.5291        -0.013445         146.798
0.565                   -0.99411        -157.511          -53.533         62.8431         -53.5515         62.7969       -0.0135806         146.727
0.566                   -1.04552         -158.22         -53.2998         61.0145         -53.3142          60.985       -0.0137185         146.655
0.567                   -1.10017        -158.926         -53.0612         59.1094          -53.072         59.0917       -0.0138588         146.583
0.568                    -1.1582        -159.627         -52.8183         57.1254         -52.8261         57.1158       -0.0140015         146.511
0.569                   -1.21972        -160.321         -52.5724         55.0609         -52.5776         55.0565       -0.0141466         146.439
0.57                    -1.28482        -161.004         -52.3244         52.9151         -52.3276         52.9135       -0.0142942         146.367
0.571                   -1.35355        -161.676         -52.0756         50.6873         -52.0773         50.6871       -0.0144442         146.294
0.572                   -1.42593        -162.331         -51.8271         48.3779         -51.8277         48.3779       -0.0145968         146.222
0.573                   -1.50191        -162.968           -51.58         45.9874         -51.5799         45.9872       -0.0147518         146.149
0.574                   -1.58135        -163.581         -51.3354         43.5174          -51.335         43.5168       -0.0149094         146.076
0.575                   -1.66407        -164.169         -51.0946         40.9698         -51.0941         40.9689       -0.0150694         146.003
0.576                   -1.74975        -164.726         -50.8586         38.3474         -50.8581         38.3466       -0.0152319          145.93
0.577                   -1.83799        -165.248         -50.6284         35.6538         -50.6282         35.6534       -0.0153969         145.857
0.578                   -1.92823        -165.732          -50.405         32.8929         -50.4054         32.8937       -0.0155643         145.783
0.579                   -2.01981        -166.174         -50.1895         30.0697         -50.1904         30.0723        -0.015734          145.71
0.58                     -2.1119        -166.571         -49.9828         27.1898         -49.9842         27.1948       -0.0159059         145.636
0.581                   -2.20358        -166.921         -49.7855         24.2594         -49.7875         24.2673       -0.0160801         145.562
0.582                   -2.29378        -167.221         -49.5984         21.2851         -49.6009         21.2965       -0.0162563         145.488
0.583                   -2.38133        -167.472          -49.422         18.2741          -49.425         18.2896       -0.0164345         145.414
0.584                     -2.465        -167.675         -49.2569         15.2342         -49.2603         15.2539       -0.0166145          145.34
0.585                   -2.54358        -167.832         -49.1031          12.173         -49.1069         12.1972       -0.0167963         145.266
0.586                   -2.61583        -167.947          -48.961          9.0985          -48.965         9.12714       -0.0169796         145.191
0.587                   -2.68067        -168.026         -48.8305          6.0185         -48.8346         6.05156       -0.0171643         145.116
0.588                   -2.73712        -168.076         -48.7115         2.94065         -48.7156         2.97794       -0.0173503         145.041
0.589                   -2.78444        -168.107         -48.6036       -0.127712         -48.6077      -0.0865093       -0.0175375         144.966
0.59                    -2.82213        -168.126         -48.5065        -3.17973         -48.5105        -3.13501       -0.0177257         144.891
0.591                   -2.84996        -168.144         -48.4196         -6.2091         -48.4234        -6.16133       -0.0179148         144.816
0.592                   -2.86797        -168.171         -48.3424        -9.21012          -48.346        -9.15982       -0.0181048          144.74
0.593                    -2.8765        -168.216         -48.2743        -12.1778         -48.2775        -12.1255       -0.0182955         144.665
0.594                   -2.87611        -168.288         -48.2143        -15.1079         -48.2172        -15.0542       -0.0184868         144.589
0.595                   -2.86756        -168.395         -48.1619        -17.9968         -48.1644        -17.9423       -0.0186789         144.513
0.596                   -2.85176        -168.542         -48.1162        -20.8418         -48.1183         -20.787       -0.0188717         144.436
0.597                   -2.82973        -168.735         -48.0764        -23.6406         -48.0781         -23.586       -0.0190653          144.36
0.598                   -2.80253        -168.978         -48.0417        -26.3919         -48.0431        -26.3379       -0.0192597         144.283
0.599                    -2.7712        -169.272         -48.0114        -29.0946         -48.0124        -29.0418        -0.019455         144.207
0.6                      -2.7368         -169.62         -47.9848        -31.7485         -47.9854        -31.6971       -0.0196513          144.13
0.601                   -2.70026         -170.02         -47.9611        -34.3536         -47.9614        -34.3041       -0.0198489         144.052
0.602                   -2.66249        -170.473         -47.9396        -36.9105         -47.9396        -36.8631       -0.0200479         143.975
0.603                   -2.62428        -170.977         -47.9198        -39.4201         -47.9196        -39.3749       -0.0202484         143.897
0.604                   -2.58632         -171.53         -47.9011        -41.8836         -47.9007        -41.8409       -0.0204508          143.82
0.605                   -2.54921         -172.13         -47.8829        -44.3024         -47.8823        -44.2622        -0.020655         143.742
0.606                   -2.51346        -172.775         -47.8649        -46.6781         -47.8641        -46.6405       -0.0208615         143.663
0.607                   -2.47951        -173.462         -47.8464        -49.0125         -47.8456        -48.9776       -0.0210703         143.585
0.608                   -2.44771         -174.19         -47.8273        -51.3075         -47.8263        -51.2754       -0.0212816         143.506
0.609                   -2.41835        -174.955          -47.807        -53.5651          -47.806        -53.5357       -0.0214958         143.427
0.61                    -2.39165        -175.756         -47.7854        -55.7874         -47.7843        -55.7606       -0.0217129         143.348
0.611                   -2.36782         -176.59         -47.7621        -57.9765          -47.761        -57.9521       -0.0219331         143.269
0.612                     -2.347        -177.456         -47.7368        -60.1343         -47.7358        -60.1124       -0.0221566         143.189
0.613                   -2.32929        -178.352         -47.7095        -62.2631         -47.7085        -62.2435       -0.0223836          143.11
0.614                   -2.31481        -179.276         -47.6799        -64.3649         -47.6789        -64.3475       -0.0226142          143.03
0.615                   -2.30362         179.774         -47.6478        -66.4417         -47.6469        -66.4265       -0.0228485         142.949
0.616                   -2.29579         178.797         -47.6132        -68.4956         -47.6123        -68.4823       -0.0230866         142.869
0.617                   -2.29136         177.796         -47.5759        -70.5285         -47.5751        -70.5171       -0.0233288         142.788
0.618                   -2.29038         176.772         -47.5359        -72.5425         -47.5352        -72.5327        -0.023575         142.707
0.619                   -2.29291         175.725          -47.493        -74.5393         -47.4924         -74.531       -0.0238254         142.626
0.62                    -2.29897         174.656         -47.4473        -76.5208         -47.4468         -76.514       -0.0240801         142.545
0.621                   -2.30863         173.566         -47.3987        -78.4889         -47.3982        -78.4833       -0.0243392         142.463
0.622                   -2.32193         172.455         -47.3472        -80.4452         -47.3468        -80.4407       -0.0246028         142.381
0.623                   -2.33893         171.323         -47.2928        -82.3914         -47.2925         -82.388       -0.0248709         142.299
0.624                    -2.3597         170.171         -47.2354        -84.3293         -47.2352        -84.3267       -0.0251436         142.216
0.625                   -2.38431         168.999         -47.1752        -86.2603         -47.1751        -86.2586        -0.025421         142.134
0.626                   -2.41285         167.808         -47.1122        -88.1861         -47.1122         -88.185       -0.0257032         142.051
0.627                   -2.44542         166.597         -47.0464         -90.108         -47.0464        -90.1075       -0.0259902         141.967
0.628                   -2.48211         165.367         -46.9778        -92.0277         -46.9779        -92.0276       -0.0262821         141.884
0.629                   -2.52305         164.118         -46.9066        -93.9464         -46.9067        -93.9467        -0.026579           141.8
