! TOUCHSTONE file generated by CST MICROWAVE STUDIO
! Date and time: Tue Nov 17 07:10:54 2020
! Project name: Scenario_1_Planar_Body_Tissue_Out_of_Line.cst
! Header version: 2018
! Port assignment regex: !\s*Touchstone port\s*([0-9]+)\s*=\s*(CST MWS port|CST DS port)\s*([0-9]+|Zmin|Zmax)\s*\(\"(.*)\"\)(\s*mode\s*([0-9]+))?.*
! Touchstone port assignment:
! Touchstone port 1 = CST MWS port 1 ("")
! Touchstone port 2 = CST MWS port 2 ("")
# GHz S DB R 50
0.5                     -0.14917        -121.653         -65.0705        -24.0709         -65.0703        -24.0698      -0.00763599          151.15
0.501                  -0.151582        -122.084         -65.0049         -25.902         -65.0048        -25.9018      -0.00770036         151.085
0.502                  -0.154073        -122.517         -64.9357        -27.7522         -64.9355        -27.7528      -0.00776533         151.019
0.503                  -0.156651        -122.954         -64.8627        -29.6211         -64.8625        -29.6225      -0.00783092         150.954
0.504                  -0.159322        -123.394         -64.7858        -31.5084         -64.7856        -31.5104      -0.00789713         150.889
0.505                  -0.162094        -123.838         -64.7049        -33.4136         -64.7047        -33.4162      -0.00796396         150.823
0.506                  -0.164976        -124.285           -64.62        -35.3363         -64.6198        -35.3394      -0.00803143         150.757
0.507                  -0.167976        -124.735         -64.5309        -37.2761         -64.5307        -37.2796      -0.00809955         150.692
0.508                  -0.171106        -125.188         -64.4376        -39.2325         -64.4373        -39.2363      -0.00816831         150.626
0.509                  -0.174374        -125.645           -64.34        -41.2051         -64.3397         -41.209      -0.00823772          150.56
0.51                   -0.177792        -126.106          -64.238        -43.1932         -64.2378        -43.1972      -0.00830781         150.494
0.511                  -0.181372        -126.571         -64.1316        -45.1965         -64.1313        -45.2005      -0.00837856         150.428
0.512                  -0.185129        -127.039         -64.0207        -47.2144         -64.0205        -47.2183      -0.00845001         150.362
0.513                  -0.189075        -127.511         -63.9053        -49.2463          -63.905        -49.2501      -0.00852214         150.296
0.514                  -0.193227        -127.988         -63.7853        -51.2919         -63.7851        -51.2954      -0.00859498          150.23
0.515                    -0.1976        -128.468         -63.6607        -53.3506         -63.6605        -53.3537      -0.00866854         150.163
0.516                  -0.202214        -128.952         -63.5315         -55.422         -63.5313        -55.4246      -0.00874283         150.097
0.517                  -0.207088        -129.441         -63.3976        -57.5055         -63.3974        -57.5075      -0.00881786         150.031
0.518                  -0.212242        -129.934         -63.2591        -59.6008         -63.2589        -59.6022      -0.00889366         149.964
0.519                  -0.217702        -130.432         -63.1159        -61.7074         -63.1158        -61.7081      -0.00897023         149.897
0.52                    -0.22349        -130.934          -62.968        -63.8251          -62.968        -63.8249      -0.00904761         149.831
0.521                  -0.229636         -131.44         -62.8155        -65.9533         -62.8155        -65.9523       -0.0091258         149.764
0.522                  -0.236168        -131.952         -62.6584         -68.092         -62.6584          -68.09      -0.00920484         149.697
0.523                  -0.243119        -132.468         -62.4966        -70.2408         -62.4967        -70.2378      -0.00928476          149.63
0.524                  -0.250524        -132.989         -62.3303        -72.3995         -62.3304        -72.3955      -0.00936557         149.563
0.525                  -0.258422        -133.515         -62.1594        -74.5681         -62.1596         -74.563      -0.00944732         149.495
0.526                  -0.266853        -134.046          -61.984        -76.7465         -61.9842        -76.7403      -0.00953005         149.428
0.527                  -0.275864        -134.583         -61.8041        -78.9348         -61.8044        -78.9273      -0.00961379         149.361
0.528                  -0.285503        -135.124         -61.6199        -81.1329         -61.6202        -81.1242      -0.00969859         149.293
0.529                  -0.295823        -135.671         -61.4312        -83.3411         -61.4317        -83.3311       -0.0097845         149.226
0.53                   -0.306883        -136.222         -61.2383        -85.5595         -61.2388        -85.5483      -0.00987159         149.158
0.531                  -0.318745        -136.779         -61.0412        -87.7886         -61.0417        -87.7761      -0.00995991          149.09
0.532                  -0.331477        -137.341         -60.8399        -90.0288         -60.8405         -90.015       -0.0100495         149.022
0.533                  -0.345151        -137.909         -60.6345        -92.2805         -60.6352        -92.2654       -0.0101405         148.954
0.534                  -0.359845        -138.481         -60.4251        -94.5443         -60.4259        -94.5279        -0.010233         148.886
0.535                  -0.375644        -139.058         -60.2119         -96.821         -60.2126        -96.8034        -0.010327         148.818
0.536                  -0.392636        -139.639         -59.9948        -99.1113         -59.9956        -99.0924       -0.0104226          148.75
0.537                  -0.410916        -140.225         -59.7739        -101.416         -59.7748        -101.396         -0.01052         148.681
0.538                  -0.430583        -140.815         -59.5495        -103.736         -59.5504        -103.715       -0.0106192         148.613
0.539                  -0.451739        -141.408         -59.3215        -106.073         -59.3224        -106.051       -0.0107203         148.544
0.54                    -0.47449        -142.004         -59.0901        -108.428         -59.0911        -108.405       -0.0108234         148.475
0.541                  -0.498942        -142.602         -58.8555        -110.802         -58.8564        -110.778       -0.0109286         148.407
0.542                    -0.5252        -143.202         -58.6177        -113.197         -58.6186        -113.172       -0.0110359         148.338
0.543                  -0.553366        -143.802         -58.3769        -115.614         -58.3778        -115.589       -0.0111455         148.269
0.544                  -0.583532        -144.401         -58.1333        -118.055         -58.1342        -118.029       -0.0112573           148.2
0.545                  -0.615776        -144.998          -57.887        -120.522         -57.8879        -120.496       -0.0113714          148.13
0.546                   -0.65016        -145.591         -57.6383        -123.016         -57.6391         -122.99       -0.0114876         148.061
0.547                  -0.686716        -146.178         -57.3873         -125.54          -57.388        -125.514       -0.0116061         147.992
0.548                  -0.725443        -146.758         -57.1343        -128.096         -57.1349        -128.071       -0.0117266         147.922
0.549                  -0.766296        -147.329         -56.8795        -130.687           -56.88        -130.662       -0.0118491         147.852
0.55                   -0.809174        -147.887         -56.6232        -133.313         -56.6237         -133.29       -0.0119733         147.783
0.551                  -0.853915        -148.431         -56.3658        -135.979         -56.3662        -135.957       -0.0120993         147.713
0.552                  -0.900279        -148.958         -56.1076        -138.687         -56.1079        -138.666       -0.0122267         147.643
0.553                  -0.947948        -149.466         -55.8491        -141.439         -55.8493        -141.421       -0.0123553         147.573
0.554                  -0.996517        -149.953         -55.5907        -144.238         -55.5908        -144.222        -0.012485         147.503
0.555                    -1.0455        -150.417         -55.3329        -147.087         -55.3329        -147.074       -0.0126157         147.432
0.556                   -1.09432        -150.857         -55.0762        -149.988         -55.0762        -149.978       -0.0127471         147.362
0.557                   -1.14234        -151.273         -54.8214        -152.944         -54.8214        -152.938       -0.0128791         147.291
0.558                   -1.18889        -151.664         -54.5692        -155.956         -54.5692        -155.956       -0.0130116         147.221
0.559                   -1.23328        -152.031         -54.3204        -159.029         -54.3205        -159.033       -0.0131445          147.15
0.56                    -1.27481        -152.377         -54.0757        -162.162          -54.076        -162.172       -0.0132778         147.079
0.561                   -1.31286        -152.705         -53.8363        -165.358         -53.8369        -165.374       -0.0134114         147.008
0.562                   -1.34691        -153.019         -53.6031        -168.618         -53.6041        -168.641       -0.0135454         146.937
0.563                   -1.37654        -153.323         -53.3773        -171.942         -53.3787        -171.971       -0.0136798         146.866
0.564                   -1.40148        -153.622           -53.16        -175.328         -53.1621        -175.365       -0.0138147         146.794
0.565                   -1.42163        -153.923         -52.9525        -178.777         -52.9554        -178.821         -0.01395         146.723
0.566                   -1.43703        -154.229         -52.7561         177.716           -52.76         177.665       -0.0140859         146.651
0.567                   -1.44788        -154.546         -52.5722         174.153         -52.5772         174.094       -0.0142224          146.58
0.568                   -1.45451        -154.878         -52.4019          170.54         -52.4083         170.474       -0.0143597         146.508
0.569                   -1.45735         -155.23         -52.2466         166.883         -52.2546         166.811       -0.0144978         146.436
0.57                    -1.45689        -155.604         -52.1075          163.19         -52.1172         163.113       -0.0146368         146.363
0.571                   -1.45368        -156.003         -51.9856          159.47         -51.9973         159.389       -0.0147767         146.291
0.572                   -1.44827        -156.429         -51.8818         155.734         -51.8956          155.65       -0.0149178         146.219
0.573                   -1.44121        -156.882         -51.7968         151.994         -51.8128         151.908       -0.0150599         146.146
0.574                   -1.43302        -157.363          -51.731         148.261         -51.7494         148.177       -0.0152033         146.073
0.575                   -1.42418        -157.872         -51.6847          144.55         -51.7055         144.469       -0.0153481             146
0.576                   -1.41512        -158.408         -51.6578         140.875         -51.6809         140.798       -0.0154941         145.927
0.577                   -1.40625        -158.972         -51.6497         137.248         -51.6751         137.179       -0.0156417         145.854
0.578                    -1.3979         -159.56         -51.6598         133.683         -51.6873         133.624       -0.0157907         145.781
0.579                   -1.39037        -160.174         -51.6871         130.193         -51.7166         130.146       -0.0159413         145.707
0.58                     -1.3839        -160.811         -51.7303          126.79         -51.7615         126.757       -0.0160935         145.633
0.581                   -1.37871        -161.471         -51.7879         123.485         -51.8206         123.466       -0.0162475          145.56
0.582                   -1.37498        -162.152         -51.8583         120.285         -51.8919         120.284       -0.0164031         145.486
0.583                   -1.37286        -162.853         -51.9394           117.2         -51.9738         117.216       -0.0165606         145.411
0.584                   -1.37249        -163.574         -52.0294         114.235         -52.0641         114.269       -0.0167199         145.337
0.585                   -1.37397        -164.314         -52.1262         111.393         -52.1607         111.447       -0.0168812         145.263
0.586                   -1.37739         -165.07         -52.2276         108.679         -52.2615          108.75       -0.0170444         145.188
0.587                   -1.38285        -165.844         -52.3315         106.091         -52.3644          106.18       -0.0172096         145.113
0.588                   -1.39042        -166.634         -52.4358          103.63         -52.4672         103.736       -0.0173768         145.038
0.589                   -1.40017        -167.439         -52.5383         101.293          -52.568         101.413       -0.0175462         144.963
0.59                    -1.41218        -168.259         -52.6371         99.0751         -52.6647         99.2082       -0.0177178         144.888
0.591                   -1.42651        -169.093         -52.7303         96.9711         -52.7555         97.1148       -0.0178916         144.812
0.592                   -1.44324        -169.941          -52.816         94.9739         -52.8386         95.1256       -0.0180676         144.736
0.593                   -1.46243        -170.803         -52.8928          93.075         -52.9126         93.2321        -0.018246         144.661
0.594                   -1.48417        -171.677          -52.959         91.2648         -52.9761         91.4245       -0.0184268         144.585
0.595                   -1.50853        -172.564         -53.0135         89.5327         -53.0278         89.6922         -0.01861         144.508
0.596                   -1.53561        -173.464         -53.0553         87.8673         -53.0668          88.024       -0.0187957         144.432
0.597                   -1.56549        -174.375         -53.0836         86.2567         -53.0925         86.4081       -0.0189839         144.355
0.598                   -1.59829        -175.298         -53.0978         84.6884         -53.1044         84.8323       -0.0191748         144.279
0.599                   -1.63411        -176.232         -53.0978         83.1501         -53.1022         83.2846       -0.0193683         144.202
0.6                     -1.67306        -177.177         -53.0834         81.6296          -53.086         81.7531       -0.0195645         144.124
0.601                   -1.71528        -178.132          -53.055          80.115          -53.056         80.2263       -0.0197635         144.047
0.602                    -1.7609        -179.097         -53.0129         78.5951         -53.0126         78.6937       -0.0199654         143.969
0.603                   -1.81005         179.929         -52.9579         77.0599         -52.9567         77.1453       -0.0201702         143.892
0.604                    -1.8629         178.946         -52.8907         75.4999         -52.8888         75.5723        -0.020378         143.814
0.605                    -1.9196         177.956         -52.8123         73.9072           -52.81          73.967       -0.0205888         143.736
0.606                   -1.98032         176.958         -52.7237         72.2749         -52.7214         72.3229       -0.0208027         143.657
0.607                   -2.04524         175.954         -52.6261         70.5976         -52.6239         70.6346       -0.0210198         143.579
0.608                   -2.11453         174.944         -52.5206         68.8708         -52.5186          68.898       -0.0212401           143.5
0.609                   -2.18839         173.931         -52.4084         67.0915         -52.4068         67.1101       -0.0214638         143.421
0.61                    -2.26701         172.914         -52.2906         65.2578         -52.2896          65.269       -0.0216909         143.342
0.611                   -2.35058         171.897         -52.1683         63.3686         -52.1679         63.3737       -0.0219214         143.262
0.612                    -2.4393         170.879         -52.0427         61.4239         -52.0428         61.4242       -0.0221554         143.183
0.613                   -2.53337         169.864         -51.9145         59.4245         -51.9152         59.4211        -0.022393         143.103
0.614                   -2.63296         168.853         -51.7849         57.3717          -51.786         57.3657       -0.0226342         143.023
0.615                   -2.73827         167.849         -51.6544         55.2675         -51.6561         55.2598       -0.0228792         142.942
0.616                   -2.84944         166.854         -51.5239         53.1144          -51.526         53.1058        -0.023128         142.862
0.617                   -2.96664         165.872         -51.3941          50.915         -51.3964         50.9063       -0.0233806         142.781
0.618                   -3.08999         164.905         -51.2653         48.6724         -51.2678         48.6639       -0.0236371           142.7
0.619                   -3.21955         163.957         -51.1381         46.3896         -51.1407         46.3819       -0.0238976         142.618
0.62                     -3.3554         163.031         -51.0128         44.0699         -51.0154         44.0632       -0.0241622         142.537
0.621                   -3.49751         162.133         -50.8898         41.7165         -50.8922         41.7109       -0.0244308         142.455
0.622                   -3.64583         161.266         -50.7692         39.3326         -50.7714         39.3283       -0.0247035         142.373
0.623                   -3.80021         160.435         -50.6513         36.9213         -50.6532         36.9182       -0.0249804         142.291
0.624                   -3.96044         159.645          -50.536         34.4858         -50.5376         34.4837       -0.0252615         142.208
0.625                   -4.12618         158.902         -50.4236         32.0287         -50.4247         32.0276       -0.0255469         142.126
0.626                   -4.29701          158.21         -50.3139          29.553         -50.3145         29.5526       -0.0258367         142.043
0.627                   -4.47236         157.576          -50.207          27.061          -50.207          27.061       -0.0261307         141.959
0.628                   -4.65154         157.003         -50.1027         24.5552         -50.1022         24.5554       -0.0264292         141.876
0.629                   -4.83369         156.499         -50.0011         22.0377              -50         22.0379       -0.0267321         141.792
0.63                    -5.01782         156.066         -49.9019         19.5106         -49.9002         19.5104       -0.0270395         141.708
0.631                   -5.20277         155.709         -49.8051         16.9755         -49.8027         16.9747       -0.0273514         141.623
