! TOUCHSTONE file generated by CST MICROWAVE STUDIO
! Date and time: Sat Nov 14 20:33:29 2020
! Project name: Scenario_1_Planar_Body_Tissue_Out_of_Line_v2.cst
! Parameters = {dy1=207.6; L_HA=400; Ltissue=700; MT=2.54; Rad_Dielectric=30; Rad_Lower=7.3; Rad_Upper=30; Wtissue=700; a_HA=580; a_WG=246; b_HA=500; b_WG=121; c_HA=0; c_WG=187; d_feed=85; dx1=173; h_feed=15; h_lower=18; h_upper=40; hfat=3; hgap=25; hmuscle=50; hskin=1.5}
! Header version: 2018
! Port assignment regex: !\s*Touchstone port\s*([0-9]+)\s*=\s*(CST MWS port|CST DS port)\s*([0-9]+|Zmin|Zmax)\s*\(\"(.*)\"\)(\s*mode\s*([0-9]+))?.*
! Touchstone port assignment:
! Touchstone port 1 = CST MWS port 1 ("")
! Touchstone port 2 = CST MWS port 2 ("")
# GHz S DB R 50
0.5                   -0.0514536        -121.759         -62.1781         124.456          -62.177         124.465      -0.00691014         151.141
0.501                 -0.0538275        -122.228         -61.9985         124.224         -61.9974         124.232      -0.00698049         151.076
0.502                 -0.0563297          -122.7         -61.8154          123.98         -61.8142         123.988      -0.00705175          151.01
0.503                 -0.0589654        -123.175         -61.6288         123.724         -61.6276         123.732      -0.00712394         150.945
0.504                   -0.06174        -123.653         -61.4387         123.456         -61.4375         123.463      -0.00719706         150.879
0.505                 -0.0646594        -124.135         -61.2451         123.175         -61.2439         123.182      -0.00727112         150.813
0.506                 -0.0677299         -124.62         -61.0479         122.882         -61.0467         122.888      -0.00734612         150.747
0.507                 -0.0709581        -125.109         -60.8471         122.574         -60.8459          122.58      -0.00742208         150.681
0.508                 -0.0743512        -125.601         -60.6427         122.253         -60.6415         122.259        -0.007499         150.615
0.509                  -0.077917        -126.097         -60.4347         121.918         -60.4335         121.923      -0.00757689         150.549
0.51                  -0.0816638        -126.596         -60.2231         121.567         -60.2218         121.572      -0.00765576         150.483
0.511                 -0.0856003          -127.1         -60.0078         121.201         -60.0065         121.205      -0.00773561         150.417
0.512                 -0.0897363        -127.608         -59.7887         120.819         -59.7874         120.823      -0.00781645          150.35
0.513                  -0.094082        -128.119          -59.566         120.421         -59.5647         120.424       -0.0078983         150.284
0.514                 -0.0986485        -128.635         -59.3395         120.006         -59.3382         120.009      -0.00798116         150.217
0.515                  -0.103448        -129.155         -59.1093         119.573          -59.108         119.576      -0.00806503         150.151
0.516                  -0.108493         -129.68         -58.8752         119.123         -58.8739         119.125      -0.00814993         150.084
0.517                  -0.113797         -130.21         -58.6374         118.654         -58.6361         118.655      -0.00823586         150.017
0.518                  -0.119377        -130.744         -58.3957         118.166         -58.3944         118.167      -0.00832283         149.951
0.519                  -0.125247        -131.283         -58.1501         117.658         -58.1489         117.659      -0.00841086         149.884
0.52                   -0.131426        -131.827         -57.9007          117.13         -57.8994         117.131      -0.00849994         149.817
0.521                  -0.137933        -132.377         -57.6473         116.581         -57.6461         116.582      -0.00859009          149.75
0.522                  -0.144788        -132.931           -57.39         116.011         -57.3888         116.011      -0.00868131         149.682
0.523                  -0.152015        -133.492         -57.1287         115.419         -57.1275         115.419      -0.00877361         149.615
0.524                  -0.159638        -134.058         -56.8634         114.804         -56.8622         114.803        -0.008867         149.548
0.525                  -0.167683         -134.63         -56.5941         114.165         -56.5929         114.164      -0.00896148          149.48
0.526                   -0.17618        -135.209         -56.3207         113.502         -56.3195         113.501      -0.00905707         149.413
0.527                   -0.18516        -135.794         -56.0432         112.813         -56.0421         112.812      -0.00915377         149.345
0.528                  -0.194659        -136.385         -55.7616         112.099         -55.7605         112.097      -0.00925158         149.277
0.529                  -0.204715        -136.983         -55.4758         111.357         -55.4747         111.355      -0.00935052          149.21
0.53                   -0.215368        -137.589         -55.1858         110.588         -55.1847         110.586      -0.00945058         149.142
0.531                  -0.226665        -138.202         -54.8916         109.789         -54.8905         109.787      -0.00955177         149.074
0.532                  -0.238657        -138.822         -54.5931         108.961         -54.5921         108.958       -0.0096541         149.005
0.533                  -0.251397        -139.451         -54.2904         108.101         -54.2894         108.099      -0.00975757         148.937
0.534                  -0.264948        -140.087         -53.9833         107.209         -53.9823         107.206      -0.00986218         148.869
0.535                  -0.279375        -140.733         -53.6718         106.284         -53.6709         106.281      -0.00996793         148.801
0.536                  -0.294754        -141.387          -53.356         105.323         -53.3551          105.32       -0.0100748         148.732
0.537                  -0.311166         -142.05         -53.0359         104.326          -53.035         104.322       -0.0101829         148.663
0.538                  -0.328701        -142.723         -52.7112          103.29         -52.7104         103.287        -0.010292         148.595
0.539                   -0.34746        -143.406         -52.3822         102.215         -52.3814         102.211       -0.0104024         148.526
0.54                   -0.367555        -144.099         -52.0488         101.098          -52.048         101.094       -0.0105138         148.457
0.541                  -0.389108        -144.803         -51.7109         99.9374         -51.7101         99.9333       -0.0106264         148.388
0.542                  -0.412259        -145.518         -51.3686         98.7311         -51.3679         98.7269         -0.01074         148.319
0.543                  -0.437161        -146.245         -51.0219         97.4768         -51.0213         97.4725       -0.0108548          148.25
0.544                  -0.463985        -146.984         -50.6709         96.1722         -50.6703         96.1678       -0.0109706          148.18
0.545                  -0.492924        -147.734         -50.3157         94.8147         -50.3151         94.8103       -0.0110875         148.111
0.546                  -0.524191        -148.498         -49.9562         93.4016         -49.9557         93.3971       -0.0112055         148.041
0.547                  -0.558027        -149.274         -49.5926         91.9299         -49.5921         91.9254       -0.0113244         147.972
0.548                    -0.5947        -150.063         -49.2252         90.3965         -49.2247          90.392       -0.0114443         147.902
0.549                  -0.634513        -150.866         -48.8539         88.7981         -48.8535         88.7936       -0.0115652         147.832
0.55                   -0.677803        -151.683         -48.4791         87.1313         -48.4787         87.1268       -0.0116869         147.762
0.551                   -0.72495        -152.513          -48.101         85.3922         -48.1007         85.3878       -0.0118095         147.692
0.552                   -0.77638        -153.356           -47.72          83.577         -47.7197         83.5727       -0.0119329         147.621
0.553                   -0.83257        -154.213         -47.3364         81.6817         -47.3361         81.6774        -0.012057         147.551
0.554                  -0.894053        -155.082         -46.9507          79.702         -46.9504         79.6978       -0.0121818         147.481
0.555                  -0.961427        -155.962         -46.5634         77.6336         -46.5633         77.6296       -0.0123071          147.41
0.556                   -1.03536        -156.853         -46.1753         75.4721         -46.1752         75.4683       -0.0124329         147.339
0.557                   -1.11658        -157.752         -45.7871         73.2133          -45.787         73.2096       -0.0125592         147.268
0.558                    -1.2059        -158.656         -45.3996         70.8527         -45.3995         70.8492       -0.0126857         147.197
0.559                   -1.30421        -159.562         -45.0139         68.3864         -45.0138         68.3831       -0.0128124         147.126
0.56                    -1.41247        -160.465         -44.6311         65.8107         -44.6311         65.8076       -0.0129392         147.055
0.561                    -1.5317        -161.359         -44.2525         63.1223         -44.2526         63.1195        -0.013066         146.984
0.562                   -1.66296        -162.235         -43.8797          60.319         -43.8797         60.3165       -0.0131927         146.912
0.563                   -1.80731        -163.085          -43.514         57.3991         -43.5141         57.3969       -0.0133192         146.841
0.564                   -1.96577        -163.894         -43.1574         54.3624         -43.1575         54.3605       -0.0134453         146.769
0.565                   -2.13922        -164.649         -42.8117         51.2101         -42.8118         51.2085        -0.013571         146.697
0.566                   -2.32832        -165.329         -42.4787          47.945         -42.4788         47.9437       -0.0136964         146.625
0.567                   -2.53328        -165.912         -42.1605         44.5718         -42.1606         44.5708       -0.0138213         146.553
0.568                   -2.75372        -166.371          -41.859         41.0975          -41.859         41.0968       -0.0139459         146.481
0.569                   -2.98836        -166.676          -41.576         37.5311         -41.5761         37.5307       -0.0140703         146.408
0.57                    -3.23471        -166.795         -41.3134         33.8838         -41.3134         33.8837       -0.0141946         146.336
0.571                   -3.48872        -166.694         -41.0726         30.1691         -41.0726         30.1692       -0.0143191         146.263
0.572                   -3.74454        -166.342         -40.8549         26.4019         -40.8548         26.4023       -0.0144442         146.191
0.573                   -3.99428        -165.715          -40.661         22.5988          -40.661         22.5993       -0.0145704         146.118
0.574                    -4.2282        -164.802         -40.4915         18.7771         -40.4914         18.7779       -0.0146982         146.045
0.575                   -4.43524        -163.611         -40.3464         14.9547         -40.3463         14.9555       -0.0148283         145.972
0.576                   -4.60415        -162.175         -40.2253         11.1488         -40.2251         11.1497       -0.0149613         145.899
0.577                   -4.72493         -160.55         -40.1274         7.37608         -40.1272         7.37701       -0.0150979         145.825
0.578                   -4.79055        -158.816         -40.0515         3.65166         -40.0513         3.65258       -0.0152389         145.752
0.579                   -4.79822        -157.066         -39.9962      -0.0110498          -39.996      -0.0101668       -0.0153849         145.679
0.58                     -4.7499        -155.393         -39.9599        -3.60069         -39.9596        -3.59988       -0.0155365         145.605
0.581                   -4.65174        -153.876         -39.9406        -7.10809         -39.9403        -7.10737       -0.0156943         145.531
0.582                   -4.51283        -152.576         -39.9364        -10.5263         -39.9361        -10.5257       -0.0158587         145.457
0.583                    -4.3436        -151.528         -39.9456        -13.8504         -39.9452        -13.8499       -0.0160298         145.383
0.584                   -4.15434        -150.745          -39.966        -17.0774         -39.9657         -17.077       -0.0162078         145.309
0.585                   -3.95422         -150.22          -39.996        -20.2061         -39.9957        -20.2059       -0.0163926         145.234
0.586                   -3.75078        -149.937         -40.0339        -23.2368         -40.0335        -23.2367       -0.0165843          145.16
0.587                   -3.54976         -149.87         -40.0781        -26.1707         -40.0777        -26.1708       -0.0167824         145.085
0.588                   -3.35528        -149.992         -40.1271        -29.0104         -40.1268        -29.0106       -0.0169868          145.01
0.589                   -3.17008        -150.276         -40.1798         -31.759         -40.1794        -31.7593       -0.0171971         144.935
0.59                    -2.99579        -150.695          -40.235        -34.4199         -40.2346        -34.4204        -0.017413          144.86
0.591                   -2.83323        -151.228         -40.2917        -36.9974         -40.2913        -36.9979       -0.0176341         144.785
0.592                   -2.68263        -151.853         -40.3491        -39.4955         -40.3487        -39.4962       -0.0178601         144.709
0.593                   -2.54383        -152.554         -40.4064        -41.9187         -40.4061        -41.9194       -0.0180906         144.633
0.594                    -2.4164        -153.316         -40.4631        -44.2712         -40.4628         -44.272       -0.0183254         144.557
0.595                   -2.29973        -154.128         -40.5186        -46.5574         -40.5183        -46.5583       -0.0185642         144.481
0.596                   -2.19317         -154.98         -40.5725        -48.7814         -40.5722        -48.7823       -0.0188068         144.405
0.597                     -2.096        -155.865         -40.6245        -50.9473         -40.6242        -50.9483        -0.019053         144.328
0.598                   -2.00751        -156.775         -40.6742        -53.0589         -40.6739        -53.0599       -0.0193026         144.251
0.599                   -1.92702        -157.706         -40.7214        -55.1199         -40.7212        -55.1209       -0.0195556         144.174
0.6                     -1.85388        -158.654          -40.766        -57.1338         -40.7658        -57.1348       -0.0198118         144.097
0.601                   -1.78748        -159.615         -40.8078        -59.1038         -40.8076        -59.1048       -0.0200712          144.02
0.602                   -1.72727        -160.588         -40.8467         -61.033         -40.8465         -61.034       -0.0203337         143.942
0.603                   -1.67273         -161.57         -40.8827        -62.9242         -40.8825        -62.9253       -0.0205992         143.865
0.604                   -1.62339         -162.56         -40.9157        -64.7802         -40.9155        -64.7813       -0.0208679         143.787
0.605                   -1.57884        -163.556         -40.9456        -66.6035         -40.9455        -66.6045       -0.0211396         143.708
0.606                   -1.53869        -164.558         -40.9726        -68.3963         -40.9725        -68.3972       -0.0214144          143.63
0.607                   -1.50259        -165.566         -40.9965        -70.1608         -40.9964        -70.1617       -0.0216923         143.551
0.608                   -1.47025        -166.578         -41.0175         -71.899         -41.0174        -71.8999       -0.0219734         143.473
0.609                   -1.44137        -167.595         -41.0356        -73.6127         -41.0355        -73.6136       -0.0222575         143.394
0.61                    -1.41572        -168.617         -41.0507        -75.3038         -41.0506        -75.3046       -0.0225449         143.314
0.611                   -1.39306        -169.643          -41.063        -76.9737         -41.0629        -76.9745       -0.0228355         143.235
0.612                   -1.37321        -170.674         -41.0725        -78.6239         -41.0724        -78.6246       -0.0231293         143.155
0.613                   -1.35598         -171.71         -41.0793        -80.2558         -41.0792        -80.2565       -0.0234264         143.076
0.614                   -1.34122        -172.751         -41.0834        -81.8707         -41.0833        -81.8713       -0.0237269         142.996
0.615                   -1.32878        -173.797         -41.0848        -83.4696         -41.0848        -83.4702       -0.0240307         142.915
0.616                   -1.31855         -174.85         -41.0838        -85.0537         -41.0838        -85.0542       -0.0243379         142.835
0.617                   -1.31041        -175.908         -41.0803         -86.624         -41.0802        -86.6244       -0.0246484         142.754
0.618                   -1.30426        -176.972         -41.0743        -88.1813         -41.0743        -88.1817       -0.0249625         142.673
0.619                   -1.30003        -178.044          -41.066        -89.7266          -41.066        -89.7269       -0.0252799         142.592
0.62                    -1.29763        -179.123         -41.0554        -91.2605         -41.0554        -91.2608       -0.0256008          142.51
0.621                     -1.297         179.791         -41.0426        -92.7839         -41.0426        -92.7841       -0.0259252         142.429
0.622                   -1.29809         178.697         -41.0276        -94.2973         -41.0276        -94.2975       -0.0262531         142.347
0.623                   -1.30085         177.594         -41.0105        -95.8015         -41.0105        -95.8016       -0.0265844         142.265
0.624                   -1.30524         176.482         -40.9913        -97.2969         -40.9913         -97.297       -0.0269192         142.182
0.625                   -1.31124         175.361         -40.9701        -98.7841         -40.9701        -98.7842       -0.0272575           142.1
0.626                   -1.31881         174.229         -40.9469        -100.264         -40.9469        -100.264       -0.0275991         142.017
0.627                   -1.32794         173.088         -40.9218        -101.736         -40.9219        -101.736       -0.0279442         141.934
0.628                   -1.33861         171.935         -40.8949        -103.202         -40.8949        -103.201       -0.0282927          141.85
0.629                   -1.35083         170.771         -40.8661        -104.661         -40.8661        -104.661       -0.0286446         141.767
