! TOUCHSTONE file generated by CST MICROWAVE STUDIO
! Date and time: Mon Nov 30 09:06:45 2020
! Project name: Scenario_1_Planar_Body_Tissue_Out_of_Line_v2.cst
! Parameters = {dy1=-207.6; L_HA=400; Ltissue=700; MT=2.54; Rad_Dielectric=30; Rad_Lower=7.3; Rad_Upper=30; Wtissue=700; a_HA=580; a_WG=246; b_HA=500; b_WG=121; c_HA=0; c_WG=187; d_feed=85; dx1=346; h_feed=15; h_lower=18; h_upper=40; hfat=3; hgap=25; hmuscle=50; hskin=1.5}
! Header version: 2018
! Port assignment regex: !\s*Touchstone port\s*([0-9]+)\s*=\s*(CST MWS port|CST DS port)\s*([0-9]+|Zmin|Zmax)\s*\(\"(.*)\"\)(\s*mode\s*([0-9]+))?.*
! Touchstone port assignment:
! Touchstone port 1 = CST MWS port 1 ("")
! Touchstone port 2 = CST MWS port 2 ("")
# GHz S DB R 50
0.5                    -0.254926        -121.811          -56.944         20.1742         -56.9439         20.1745      -0.00831525         151.143
0.501                  -0.256949        -122.196         -56.9714         18.9747         -56.9713         18.9751      -0.00836953         151.078
0.502                  -0.258982        -122.584         -56.9973         17.7557         -56.9972          17.756       -0.0084242         151.013
0.503                  -0.261025        -122.975         -57.0217         16.5168         -57.0216         16.5172      -0.00847928         150.948
0.504                  -0.263082        -123.368         -57.0443         15.2579         -57.0442         15.2584      -0.00853478         150.883
0.505                  -0.265153        -123.765         -57.0652          13.979         -57.0651         13.9795       -0.0085907         150.817
0.506                  -0.267239        -124.164         -57.0842         12.6799         -57.0841         12.6804      -0.00864708         150.752
0.507                  -0.269344        -124.566         -57.1012         11.3606         -57.1011         11.3611      -0.00870391         150.686
0.508                  -0.271469        -124.971         -57.1161         10.0209         -57.1161         10.0215      -0.00876123         150.621
0.509                  -0.273615        -125.379         -57.1288         8.66092         -57.1288         8.66154      -0.00881903         150.555
0.51                   -0.275785         -125.79         -57.1392         7.28065         -57.1392          7.2813      -0.00887734         150.489
0.511                  -0.277981        -126.204         -57.1472         5.88014         -57.1471         5.88083      -0.00893618         150.423
0.512                  -0.280206        -126.621         -57.1526         4.45948         -57.1525         4.46019      -0.00899555         150.357
0.513                  -0.282461        -127.042         -57.1554         3.01878         -57.1553         3.01954      -0.00905548         150.291
0.514                  -0.284749        -127.465         -57.1553         1.55823         -57.1553         1.55902      -0.00911599         150.225
0.515                  -0.287073        -127.892         -57.1524        0.078021         -57.1523       0.0788376      -0.00917708         150.159
0.516                  -0.289436        -128.322         -57.1464         -1.4216         -57.1464        -1.42075      -0.00923879         150.093
0.517                   -0.29184        -128.756         -57.1374        -2.94035         -57.1373        -2.93947      -0.00930112         150.026
0.518                  -0.294289        -129.193         -57.1251         -4.4779          -57.125        -4.47698      -0.00936409          149.96
0.519                  -0.296785        -129.633         -57.1094        -6.03388         -57.1094        -6.03294      -0.00942772         149.893
0.52                   -0.299332        -130.077         -57.0903        -7.60788         -57.0903        -7.60691      -0.00949204         149.827
0.521                  -0.301934        -130.525         -57.0677        -9.19947         -57.0676        -9.19848      -0.00955705          149.76
0.522                  -0.304593        -130.976         -57.0414        -10.8082         -57.0414        -10.8071      -0.00962278         149.693
0.523                  -0.307315        -131.431         -57.0113        -12.4334         -57.0113        -12.4324      -0.00968926         149.626
0.524                  -0.310103        -131.889         -56.9775        -14.0748         -56.9775        -14.0737      -0.00975648         149.559
0.525                   -0.31296        -132.352         -56.9397        -15.7315         -56.9397        -15.7304      -0.00982449         149.492
0.526                  -0.315892        -132.818          -56.898        -17.4032          -56.898         -17.402       -0.0098933         149.425
0.527                  -0.318904        -133.288         -56.8522         -19.089         -56.8522        -19.0879      -0.00996292         149.358
0.528                  -0.321999        -133.763         -56.8023        -20.7885         -56.8023        -20.7873       -0.0100334          149.29
0.529                  -0.325184        -134.241         -56.7483        -22.5009         -56.7483        -22.4997       -0.0101047         149.223
0.53                   -0.328464        -134.724         -56.6901        -24.2256         -56.6902        -24.2244       -0.0101769         149.155
0.531                  -0.331844         -135.21         -56.6278        -25.9619         -56.6278        -25.9607         -0.01025         149.088
0.532                  -0.335331        -135.702         -56.5612        -27.7092         -56.5612         -27.708        -0.010324          149.02
0.533                   -0.33893        -136.197         -56.4904        -29.4668         -56.4904        -29.4656        -0.010399         148.952
0.534                  -0.342649        -136.697         -56.4154        -31.2341         -56.4154        -31.2329        -0.010475         148.884
0.535                  -0.346494        -137.202         -56.3362        -33.0106         -56.3362        -33.0093       -0.0105519         148.816
0.536                  -0.350473        -137.711         -56.2528        -34.7955         -56.2529        -34.7943       -0.0106298         148.748
0.537                  -0.354593        -138.225         -56.1654        -36.5885         -56.1654        -36.5872       -0.0107088         148.679
0.538                  -0.358864        -138.744         -56.0738         -38.389         -56.0739        -38.3877       -0.0107889         148.611
0.539                  -0.363293        -139.268         -55.9783        -40.1965         -55.9784        -40.1953         -0.01087         148.543
0.54                    -0.36789        -139.797         -55.8789        -42.0108          -55.879        -42.0095       -0.0109522         148.474
0.541                  -0.372664        -140.331         -55.7757        -43.8315         -55.7758        -43.8302       -0.0110356         148.405
0.542                  -0.377625         -140.87         -55.6688        -45.6583         -55.6689        -45.6571       -0.0111201         148.336
0.543                  -0.382785        -141.415         -55.5583        -47.4911         -55.5584        -47.4899       -0.0112058         148.267
0.544                  -0.388155        -141.965         -55.4444        -49.3298         -55.4445        -49.3286       -0.0112927         148.198
0.545                  -0.393747        -142.521         -55.3272        -51.1745         -55.3273        -51.1733       -0.0113808         148.129
0.546                  -0.399574        -143.082          -55.207        -53.0251          -55.207        -53.0239       -0.0114701          148.06
0.547                  -0.405649        -143.649         -55.0838        -54.8819         -55.0839        -54.8807       -0.0115608         147.991
0.548                  -0.411986        -144.223         -54.9579        -56.7451          -54.958        -56.7439       -0.0116527         147.921
0.549                  -0.418601        -144.802         -54.8296        -58.6151         -54.8297         -58.614       -0.0117459         147.852
0.55                   -0.425511        -145.387         -54.6991        -60.4924         -54.6991        -60.4913       -0.0118405         147.782
0.551                  -0.432731        -145.979         -54.5666        -62.3775         -54.5667        -62.3765       -0.0119365         147.712
0.552                  -0.440281        -146.577         -54.4327         -64.271         -54.4327        -64.2701       -0.0120339         147.642
0.553                  -0.448179        -147.182         -54.2975        -66.1737         -54.2975        -66.1728       -0.0121327         147.572
0.554                  -0.456446        -147.793         -54.1615        -68.0862         -54.1615        -68.0853        -0.012233         147.502
0.555                  -0.465104        -148.412         -54.0251        -70.0093         -54.0252        -70.0085       -0.0123347         147.432
0.556                  -0.474176        -149.038         -53.8889        -71.9437          -53.889         -71.943        -0.012438         147.361
0.557                  -0.483687         -149.67         -53.7535        -73.8901         -53.7536        -73.8895       -0.0125428         147.291
0.558                  -0.493662        -150.311         -53.6195        -75.8489         -53.6195        -75.8485       -0.0126491          147.22
0.559                   -0.50413        -150.959         -53.4876        -77.8206         -53.4877        -77.8203        -0.012757         147.149
0.56                   -0.515121        -151.614         -53.3587        -79.8049         -53.3588        -79.8047       -0.0128666         147.078
0.561                  -0.526665        -152.278         -53.2337        -81.8012         -53.2338        -81.8012       -0.0129778         147.007
0.562                  -0.538798         -152.95         -53.1137        -83.8081         -53.1138        -83.8083       -0.0130907         146.936
0.563                  -0.551555         -153.63         -52.9999        -85.8232              -53        -85.8236       -0.0132052         146.865
0.564                  -0.564974        -154.318         -52.8936        -87.8426         -52.8936        -87.8433       -0.0133215         146.793
0.565                  -0.579097        -155.016          -52.796        -89.8607         -52.7962        -89.8616       -0.0134396         146.722
0.566                  -0.593968        -155.722         -52.7088        -91.8694          -52.709        -91.8705       -0.0135595          146.65
0.567                  -0.609634        -156.437         -52.6333        -93.8578         -52.6335        -93.8592       -0.0136811         146.578
0.568                  -0.626145        -157.162         -52.5709        -95.8116         -52.5711        -95.8132       -0.0138047         146.506
0.569                  -0.643555        -157.896         -52.5226        -97.7123         -52.5229        -97.7142       -0.0139301         146.434
0.57                   -0.661921         -158.64          -52.489        -99.5375         -52.4893        -99.5395       -0.0140574         146.362
0.571                  -0.681306        -159.395         -52.4699         -101.26         -52.4703        -101.262       -0.0141867         146.289
0.572                  -0.701775        -160.159         -52.4639        -102.851         -52.4645        -102.853        -0.014318         146.217
0.573                    -0.7234        -160.934         -52.4686        -104.279         -52.4692         -104.28       -0.0144513         146.144
0.574                  -0.746256         -161.72         -52.4793        -105.514         -52.4801        -105.515       -0.0145867         146.071
0.575                  -0.770426        -162.516         -52.4901        -106.533          -52.491        -106.534       -0.0147241         145.998
0.576                  -0.795996        -163.324         -52.4933        -107.325         -52.4942        -107.325       -0.0148637         145.925
0.577                  -0.823061        -164.143         -52.4802        -107.894         -52.4811        -107.894       -0.0150054         145.852
0.578                  -0.851722        -164.974         -52.4423        -108.264         -52.4432        -108.262       -0.0151493         145.778
0.579                  -0.882088        -165.817         -52.3722        -108.476         -52.3731        -108.473       -0.0152955         145.705
0.58                   -0.914274        -166.672         -52.2651        -108.587         -52.2659        -108.583       -0.0154439         145.631
0.581                  -0.948407        -167.538         -52.1189        -108.659         -52.1196        -108.655       -0.0155947         145.557
0.582                  -0.984621        -168.418         -51.9347        -108.755         -51.9353        -108.751       -0.0157478         145.483
0.583                   -1.02306         -169.31         -51.7165        -108.928         -51.7169        -108.923       -0.0159034         145.409
0.584                   -1.06388        -170.214         -51.4695        -109.217         -51.4698        -109.212       -0.0160614         145.334
0.585                   -1.10725        -171.132         -51.2001        -109.646         -51.2003        -109.642       -0.0162218          145.26
0.586                   -1.15335        -172.062         -50.9143        -110.228         -50.9144        -110.224       -0.0163849         145.185
0.587                   -1.20237        -173.005         -50.6176        -110.964         -50.6177         -110.96       -0.0165505          145.11
0.588                   -1.25451        -173.961         -50.3148        -111.846         -50.3148        -111.842       -0.0167187         145.035
0.589                   -1.31001        -174.929         -50.0094        -112.865         -50.0094        -112.862       -0.0168896          144.96
0.59                    -1.36909         -175.91         -49.7043        -114.007         -49.7042        -114.005       -0.0170632         144.884
0.591                   -1.43202        -176.904         -49.4014         -115.26         -49.4013        -115.258       -0.0172397         144.809
0.592                   -1.49906        -177.909         -49.1022        -116.611         -49.1021        -116.609       -0.0174189         144.733
0.593                   -1.57051        -178.926         -48.8075        -118.049         -48.8074        -118.047       -0.0176011         144.657
0.594                   -1.64668        -179.953          -48.518        -119.563         -48.5179        -119.561       -0.0177861         144.581
0.595                   -1.72789         179.009         -48.2339        -121.144         -48.2338        -121.143       -0.0179742         144.505
0.596                   -1.81451         177.963         -47.9554        -122.785         -47.9553        -122.784       -0.0181653         144.429
0.597                   -1.90689         176.909         -47.6826         -124.48         -47.6825        -124.479       -0.0183595         144.352
0.598                   -2.00544         175.848         -47.4154        -126.223         -47.4153        -126.223       -0.0185569         144.275
0.599                   -2.11056         174.783         -47.1537        -128.011         -47.1537        -128.011       -0.0187574         144.198
0.6                     -2.22268         173.715         -46.8975         -129.84         -46.8975         -129.84       -0.0189612         144.121
0.601                   -2.34226         172.647         -46.6468        -131.707         -46.6467        -131.707       -0.0191683         144.044
0.602                   -2.46975         171.582         -46.4013        -133.609         -46.4013        -133.609       -0.0193788         143.966
0.603                   -2.60562         170.523         -46.1612        -135.546         -46.1612        -135.546       -0.0195927         143.888
0.604                   -2.75035         169.473         -45.9263        -137.514         -45.9263        -137.514       -0.0198101          143.81
0.605                   -2.90441         168.439         -45.6966        -139.513         -45.6967        -139.513       -0.0200309         143.732
0.606                   -3.06826         167.424         -45.4723        -141.542         -45.4723        -141.542       -0.0202553         143.654
0.607                   -3.24234         166.434         -45.2532        -143.599         -45.2533        -143.599       -0.0204833         143.575
0.608                   -3.42704         165.477         -45.0395        -145.684         -45.0396        -145.684       -0.0207148         143.496
0.609                   -3.62271          164.56         -44.8313        -147.795         -44.8314        -147.795         -0.02095         143.417
0.61                    -3.82961         163.692         -44.6287        -149.931         -44.6288        -149.931       -0.0211889         143.338
0.611                   -4.04788         162.882         -44.4318        -152.092         -44.4318        -152.092       -0.0214314         143.259
0.612                   -4.27753         162.142         -44.2406        -154.276         -44.2407        -154.276       -0.0216775         143.179
0.613                   -4.51838         161.483         -44.0554        -156.482         -44.0555        -156.482       -0.0219273         143.099
0.614                   -4.77002         160.917         -43.8763        -158.709         -43.8764        -158.709       -0.0221808         143.019
0.615                   -5.03173          160.46         -43.7035        -160.955         -43.7035        -160.955       -0.0224378         142.939
0.616                   -5.30245         160.127          -43.537        -163.219          -43.537        -163.219       -0.0226985         142.859
0.617                    -5.5807         159.931          -43.377        -165.499         -43.3771        -165.499       -0.0229626         142.778
0.618                   -5.86448         159.889         -43.2236        -167.794         -43.2237        -167.794       -0.0232303         142.697
0.619                   -6.15124         160.015          -43.077        -170.101         -43.0771          -170.1       -0.0235013         142.616
0.62                     -6.4378         160.324         -42.9373        -172.418         -42.9374        -172.417       -0.0237757         142.535
0.621                   -6.72035         160.825         -42.8045        -174.743         -42.8045        -174.743       -0.0240533         142.453
0.622                    -6.9944         161.526         -42.6786        -177.074         -42.6787        -177.074       -0.0243341         142.371
0.623                   -7.25493         162.429         -42.5598        -179.408         -42.5598        -179.408       -0.0246179         142.289
0.624                   -7.49653         163.529          -42.448         178.256          -42.448         178.256       -0.0249048         142.207
0.625                   -7.71361         164.812         -42.3431         175.922         -42.3432         175.922       -0.0251945         142.124
0.626                    -7.9008         166.258         -42.2452         173.592         -42.2453         173.592        -0.025487         142.041
0.627                   -8.05335         167.834         -42.1541         171.268         -42.1542         171.268       -0.0257823         141.958
0.628                   -8.16751         169.503         -42.0698         168.954         -42.0698         168.954       -0.0260802         141.875
0.629                   -8.24093         171.221          -41.992          166.65          -41.992          166.65       -0.0263807         141.791
