! TOUCHSTONE file generated by CST MICROWAVE STUDIO
! Date and time: Fri Dec 11 13:54:28 2020
! Project name: Scenario_1_Planar_Body_Tissue_Out_of_Line_v2.cst
! Parameters = {dy1=-207.6; L_HA=400; Ltissue=700; MT=2.54; Rad_Dielectric=30; Rad_Lower=7.3; Rad_Upper=30; Wtissue=700; a_HA=580; a_WG=246; b_HA=500; b_WG=121; c_HA=0; c_WG=187; d_feed=85; dx1=520; h_feed=15; h_lower=18; h_upper=40; hfat=3; hgap=25; hmuscle=50; hskin=1.5}
! Header version: 2018
! Port assignment regex: !\s*Touchstone port\s*([0-9]+)\s*=\s*(CST MWS port|CST DS port)\s*([0-9]+|Zmin|Zmax)\s*\(\"(.*)\"\)(\s*mode\s*([0-9]+))?.*
! Touchstone port assignment:
! Touchstone port 1 = CST MWS port 1 ("")
! Touchstone port 2 = CST MWS port 2 ("")
# GHz S DB R 50
0.5                   -0.0877783        -121.956         -62.8917        -61.1216         -62.8911        -61.1211      -0.00735693         151.154
0.501                 -0.0903581        -122.422         -62.6782         -62.085         -62.6776        -62.0847      -0.00741718         151.089
0.502                 -0.0932342        -122.891         -62.4608        -63.0701         -62.4603        -63.0699      -0.00747851         151.024
0.503                 -0.0964235        -123.364         -62.2396        -64.0775         -62.2391        -64.0774      -0.00754093         150.958
0.504                 -0.0999441         -123.84         -62.0144         -65.108         -62.0139        -65.1079      -0.00760447         150.893
0.505                  -0.103816         -124.32         -61.7852        -66.1624         -61.7847        -66.1624      -0.00766913         150.827
0.506                  -0.108059        -124.804         -61.5519        -67.2415         -61.5515        -67.2415      -0.00773495         150.761
0.507                  -0.112698        -125.291         -61.3147        -68.3462         -61.3143        -68.3463      -0.00780192         150.696
0.508                  -0.117756        -125.782         -61.0733        -69.4775         -61.0729        -69.4776      -0.00787009          150.63
0.509                  -0.123259        -126.277         -60.8279        -70.6365         -60.8275        -70.6366      -0.00793947         150.564
0.51                   -0.129237        -126.776         -60.5783        -71.8241          -60.578        -71.8242      -0.00801007         150.498
0.511                  -0.135719        -127.279         -60.3246        -73.0416         -60.3243        -73.0418      -0.00808194         150.432
0.512                   -0.14274        -127.786         -60.0667        -74.2902         -60.0664        -74.2904      -0.00815508         150.366
0.513                  -0.150335        -128.296         -59.8047        -75.5713         -59.8044        -75.5715      -0.00822953         150.299
0.514                  -0.158542        -128.811         -59.5385        -76.8863         -59.5383        -76.8865      -0.00830532         150.233
0.515                  -0.167403         -129.33         -59.2682        -78.2367          -59.268        -78.2369      -0.00838247         150.167
0.516                  -0.176962        -129.853         -58.9938         -79.624         -58.9936        -79.6242      -0.00846102           150.1
0.517                  -0.187267        -130.379         -58.7154        -81.0501         -58.7152        -81.0503      -0.00854101         150.034
0.518                   -0.19837         -130.91         -58.4329        -82.5167         -58.4327        -82.5169      -0.00862245         149.967
0.519                  -0.210326        -131.445         -58.1465        -84.0258         -58.1463        -84.0259       -0.0087054           149.9
0.52                   -0.223194        -131.983         -57.8562        -85.5793          -57.856        -85.5794       -0.0087899         149.833
0.521                  -0.237036        -132.525         -57.5622        -87.1795          -57.562        -87.1796      -0.00887598         149.766
0.522                   -0.25192         -133.07         -57.2646        -88.8287         -57.2644        -88.8287      -0.00896368         149.699
0.523                  -0.267917        -133.619         -56.9635        -90.5291         -56.9634        -90.5291      -0.00905306         149.632
0.524                  -0.285099        -134.171         -56.6592        -92.2834         -56.6591        -92.2834      -0.00914417         149.565
0.525                  -0.303546        -134.725         -56.3519        -94.0941         -56.3518         -94.094      -0.00923704         149.498
0.526                  -0.323338        -135.281         -56.0419        -95.9639         -56.0418        -95.9638      -0.00933175          149.43
0.527                  -0.344558         -135.84         -55.7296        -97.8956         -55.7294        -97.8955      -0.00942834         149.363
0.528                   -0.36729        -136.399         -55.4151         -99.892          -55.415        -99.8918      -0.00952687         149.295
0.529                  -0.391618        -136.959         -55.0992        -101.956          -55.099        -101.956      -0.00962741         149.228
0.53                   -0.417623        -137.519         -54.7821         -104.09          -54.782         -104.09         -0.00973          149.16
0.531                  -0.445383        -138.077         -54.4645        -106.298         -54.4644        -106.298      -0.00983473         149.092
0.532                  -0.474968        -138.633         -54.1471        -108.582          -54.147        -108.581      -0.00994165         149.024
0.533                  -0.506437        -139.186         -53.8306        -110.943         -53.8304        -110.943       -0.0100508         148.956
0.534                  -0.539832        -139.734         -53.5157        -113.386         -53.5155        -113.386       -0.0101623         148.888
0.535                  -0.575178        -140.275         -53.2034        -115.911         -53.2032        -115.911       -0.0102762          148.82
0.536                  -0.612468        -140.808         -52.8946         -118.52         -52.8944         -118.52       -0.0103925         148.752
0.537                  -0.651666        -141.331         -52.5905        -121.214         -52.5903        -121.214       -0.0105113         148.683
0.538                  -0.692691        -141.843         -52.2921        -123.993         -52.2919        -123.993       -0.0106326         148.615
0.539                  -0.735413         -142.34         -52.0006        -126.857         -52.0005        -126.856       -0.0107564         148.546
0.54                   -0.779646        -142.821         -51.7174        -129.803         -51.7172        -129.802       -0.0108828         148.477
0.541                  -0.825139        -143.284         -51.4438        -132.829         -51.4435        -132.829       -0.0110118         148.409
0.542                   -0.87157        -143.726         -51.1809        -135.931         -51.1807        -135.931       -0.0111433          148.34
0.543                  -0.918545        -144.147         -50.9301        -139.105         -50.9299        -139.105       -0.0112773         148.271
0.544                  -0.965595        -144.544         -50.6926        -142.343         -50.6924        -142.343       -0.0114137         148.202
0.545                   -1.01218        -144.916         -50.4696        -145.639         -50.4694        -145.639       -0.0115523         148.133
0.546                   -1.05772        -145.263          -50.262        -148.984         -50.2618        -148.984        -0.011693         148.063
0.547                   -1.10156        -145.585         -50.0706        -152.366         -50.0704        -152.367       -0.0118356         147.994
0.548                   -1.14306        -145.883         -49.8962        -155.777          -49.896        -155.778       -0.0119798         147.925
0.549                   -1.18157        -146.159          -49.739        -159.205         -49.7388        -159.205       -0.0121253         147.855
0.55                    -1.21648        -146.416         -49.5993        -162.638         -49.5991        -162.638       -0.0122716         147.786
0.551                   -1.24726        -146.657          -49.477        -166.064         -49.4768        -166.065       -0.0124185         147.716
0.552                   -1.27347        -146.887         -49.3717        -169.473         -49.3715        -169.473       -0.0125655         147.646
0.553                    -1.2948        -147.109         -49.2829        -172.853         -49.2828        -172.853       -0.0127121         147.576
0.554                   -1.31108         -147.33         -49.2099        -176.194         -49.2097        -176.194       -0.0128577         147.506
0.555                   -1.32228        -147.554         -49.1517        -179.487         -49.1515        -179.488        -0.013002         147.436
0.556                   -1.32854        -147.787         -49.1071         177.275          -49.107         177.275       -0.0131446         147.366
0.557                   -1.33011        -148.032         -49.0751           174.1          -49.075         174.099       -0.0132849         147.296
0.558                   -1.32734        -148.295         -49.0544         170.992         -49.0543         170.991       -0.0134228         147.225
0.559                   -1.32069        -148.579         -49.0437         167.956         -49.0436         167.955        -0.013558         147.155
0.56                    -1.31067        -148.885         -49.0417         164.994         -49.0416         164.994       -0.0136904         147.084
0.561                   -1.29784        -149.218         -49.0472         162.109         -49.0471         162.108         -0.01382         147.013
0.562                   -1.28272        -149.577         -49.0589         159.301         -49.0588           159.3       -0.0139468         146.942
0.563                   -1.26587        -149.964         -49.0757          156.57         -49.0756         156.569       -0.0140712         146.871
0.564                   -1.24779        -150.379         -49.0965         153.915         -49.0965         153.914       -0.0141933           146.8
0.565                   -1.22896        -150.822         -49.1204         151.335         -49.1204         151.334       -0.0143135         146.729
0.566                   -1.20978        -151.292         -49.1465         148.827         -49.1464         148.827       -0.0144323         146.658
0.567                   -1.19063        -151.787         -49.1738         146.391         -49.1738         146.391       -0.0145501         146.586
0.568                   -1.17183        -152.308         -49.2017         144.022         -49.2017         144.022       -0.0146673         146.514
0.569                   -1.15364        -152.852         -49.2296         141.718         -49.2296         141.718       -0.0147844         146.442
0.57                     -1.1363        -153.419         -49.2567         139.477         -49.2568         139.477       -0.0149019          146.37
0.571                   -1.11998        -154.007         -49.2827         137.294         -49.2828         137.295       -0.0150201         146.298
0.572                   -1.10483        -154.616         -49.3071         135.168         -49.3072         135.168       -0.0151395         146.226
0.573                   -1.09097        -155.243         -49.3296         133.095         -49.3296         133.095       -0.0152604         146.153
0.574                   -1.07849        -155.887         -49.3496         131.072         -49.3497         131.072       -0.0153831          146.08
0.575                   -1.06745        -156.549         -49.3671         129.095         -49.3671         129.096       -0.0155078         146.007
0.576                    -1.0579        -157.226         -49.3817         127.163         -49.3817         127.164       -0.0156347         145.934
0.577                   -1.04989        -157.918         -49.3933         125.273         -49.3933         125.273       -0.0157641         145.861
0.578                   -1.04343        -158.625         -49.4016         123.421         -49.4016         123.421       -0.0158961         145.788
0.579                   -1.03853        -159.344         -49.4066         121.605         -49.4066         121.606       -0.0160308         145.714
0.58                    -1.03522        -160.077         -49.4081         119.823         -49.4081         119.824       -0.0161684         145.641
0.581                   -1.03349        -160.822          -49.406         118.072          -49.406         118.073       -0.0163088         145.567
0.582                   -1.03334        -161.579         -49.4003          116.35         -49.4003         116.351       -0.0164522         145.493
0.583                   -1.03478        -162.348         -49.3909         114.655         -49.3909         114.656       -0.0165985         145.419
0.584                   -1.03781        -163.128         -49.3778         112.985         -49.3778         112.987       -0.0167479         145.344
0.585                   -1.04244        -163.919          -49.361         111.338          -49.361          111.34       -0.0169003          145.27
0.586                   -1.04866         -164.72         -49.3404         109.712         -49.3403         109.714       -0.0170558         145.195
0.587                   -1.05647        -165.533          -49.316         108.106          -49.316         108.107       -0.0172143          145.12
0.588                    -1.0659        -166.356         -49.2878         106.516         -49.2878         106.518       -0.0173759         145.045
0.589                   -1.07695        -167.189         -49.2559         104.943         -49.2559         104.944       -0.0175406          144.97
0.59                    -1.08964        -168.033         -49.2203         103.384         -49.2203         103.385       -0.0177084         144.895
0.591                   -1.10398        -168.888          -49.181         101.838         -49.1809         101.839       -0.0178792         144.819
0.592                      -1.12        -169.753          -49.138         100.303         -49.1379         100.305       -0.0180531         144.744
0.593                   -1.13773        -170.628         -49.0913         98.7787         -49.0913           98.78         -0.01823         144.668
0.594                    -1.1572        -171.514         -49.0411         97.2628          -49.041         97.2641       -0.0184101         144.592
0.595                   -1.17845        -172.411         -48.9872         95.7543         -48.9872         95.7556       -0.0185932         144.515
0.596                   -1.20152        -173.318         -48.9299         94.2521         -48.9298         94.2534       -0.0187794         144.439
0.597                   -1.22646        -174.236         -48.8691         92.7548          -48.869         92.7561       -0.0189686         144.362
0.598                   -1.25331        -175.165         -48.8048         91.2614         -48.8047         91.2627        -0.019161         144.286
0.599                   -1.28215        -176.106         -48.7372         89.7708         -48.7371         89.7721       -0.0193564         144.209
0.6                     -1.31303        -177.057         -48.6663         88.2818         -48.6661         88.2831        -0.019555         144.131
0.601                   -1.34603         -178.02          -48.592         86.7934         -48.5919         86.7946       -0.0197567         144.054
0.602                   -1.38123        -178.994         -48.5146         85.3045         -48.5145         85.3057       -0.0199615         143.977
0.603                   -1.41871         -179.98          -48.434         83.8142         -48.4339         83.8153       -0.0201695         143.899
0.604                   -1.45856         179.023         -48.3504         82.3213         -48.3503         82.3224       -0.0203807         143.821
0.605                   -1.50088         178.013         -48.2637          80.825         -48.2636         80.8261       -0.0205951         143.743
0.606                   -1.54578         176.992         -48.1741         79.3243          -48.174         79.3253       -0.0208126         143.664
0.607                   -1.59339         175.959         -48.0816         77.8183         -48.0815         77.8192       -0.0210335         143.586
0.608                   -1.64381         174.913         -47.9864         76.3059         -47.9862         76.3068       -0.0212576         143.507
0.609                   -1.69719         173.855         -47.8884         74.7864         -47.8882         74.7872        -0.021485         143.428
0.61                    -1.75367         172.785         -47.7877         73.2588         -47.7875         73.2596       -0.0217158         143.349
0.611                    -1.8134         171.703         -47.6845         71.7222         -47.6843         71.7229       -0.0219499          143.27
0.612                   -1.87654         170.609         -47.5789         70.1758         -47.5787         70.1764       -0.0221875          143.19
0.613                   -1.94328         169.502         -47.4709         68.6186         -47.4707         68.6192       -0.0224285          143.11
0.614                    -2.0138         168.384         -47.3606           67.05         -47.3604         67.0505       -0.0226729          143.03
0.615                   -2.08829         167.253         -47.2482          65.469          -47.248         65.4694       -0.0229209          142.95
0.616                   -2.16696         166.111         -47.1337         63.8748         -47.1336         63.8751       -0.0231725         142.869
0.617                   -2.25005         164.958         -47.0174         62.2666         -47.0172         62.2669       -0.0234277         142.789
0.618                   -2.33778         163.794         -46.8992         60.6438          -46.899          60.644       -0.0236865         142.708
0.619                   -2.43041         162.619         -46.7793         59.0055         -46.7791         59.0056       -0.0239491         142.626
0.62                    -2.52821         161.434         -46.6579         57.3511         -46.6577         57.3511       -0.0242154         142.545
0.621                   -2.63144         160.241         -46.5352         55.6798          -46.535         55.6797       -0.0244855         142.463
0.622                   -2.74041         159.038         -46.4112          53.991          -46.411         53.9909       -0.0247595         142.381
0.623                   -2.85543         157.829         -46.2861         52.2842         -46.2859         52.2839       -0.0250374         142.299
0.624                   -2.97681         156.613         -46.1601         50.5587         -46.1599         50.5583       -0.0253193         142.217
0.625                   -3.10491         155.392         -46.0333          48.814         -46.0332         48.8136       -0.0256052         142.134
0.626                   -3.24007         154.168          -45.906         47.0497         -45.9059         47.0492       -0.0258953         142.051
0.627                   -3.38267         152.942         -45.7784         45.2654         -45.7782         45.2648       -0.0261895         141.968
0.628                   -3.53308         151.716         -45.6506         43.4607         -45.6504         43.4601       -0.0264879         141.884
0.629                    -3.6917         150.493         -45.5228         41.6355         -45.5226         41.6347       -0.0267906         141.801
