! TOUCHSTONE file generated by CST MICROWAVE STUDIO
! Date and time: Mon Sep 28 14:05:15 2020
! Project name: Scenario_1_Free_SPace.cst
! Parameters = {dx1=173; L_HA=400; MT=2.54; Rad_Dielectric=30; Rad_Lower=7.3; Rad_Upper=30; a_HA=580; a_WG=246; b_HA=500; b_WG=121; c_HA=0; c_WG=187; d_feed=85; h_feed=15; h_lower=18; h_upper=40}
! Header version: 2018
! Port assignment regex: !\s*Touchstone port\s*([0-9]+)\s*=\s*(CST MWS port|CST DS port)\s*([0-9]+|Zmin|Zmax)\s*\(\"(.*)\"\)(\s*mode\s*([0-9]+))?.*
! Touchstone port assignment:
! Touchstone port 1 = CST MWS port 1 ("")
! Touchstone port 2 = CST MWS port 2 ("")
# GHz S DB R 50
0.5                    -0.160501        -122.678          -55.996         169.801          -55.996         169.801      -0.00690249         151.065
0.501                  -0.166267        -123.116         -55.7964         168.506         -55.7959         168.502      -0.00695214             151
0.502                  -0.172179        -123.556         -55.5973         167.201         -55.5964         167.194      -0.00700132         150.935
0.503                   -0.17824        -123.997         -55.3986         165.888         -55.3973         165.877      -0.00705005         150.869
0.504                   -0.18445         -124.44         -55.2004         164.566         -55.1989         164.552      -0.00709837         150.804
0.505                  -0.190808        -124.884         -55.0028         163.236         -55.0011         163.219       -0.0071463         150.738
0.506                  -0.197317         -125.33         -54.8059         161.897         -54.8041         161.878      -0.00719389         150.672
0.507                  -0.203976        -125.778         -54.6097          160.55         -54.6078         160.528      -0.00724115         150.606
0.508                  -0.210786        -126.228         -54.4143         159.194         -54.4123         159.171      -0.00728814          150.54
0.509                  -0.217749         -126.68         -54.2196         157.831         -54.2177         157.806      -0.00733488         150.474
0.51                   -0.224865        -127.133         -54.0259          156.46          -54.024         156.433      -0.00738141         150.408
0.511                  -0.232135        -127.588          -53.833         155.081         -53.8312         155.054      -0.00742778         150.342
0.512                  -0.239561        -128.045         -53.6411         153.696         -53.6394         153.668      -0.00747403         150.276
0.513                  -0.247143        -128.504         -53.4501         152.303         -53.4486         152.275       -0.0075202          150.21
0.514                  -0.254883        -128.965         -53.2602         150.904         -53.2588         150.876      -0.00756633         150.143
0.515                  -0.262783        -129.427         -53.0713         149.498         -53.0702         149.471      -0.00761248         150.077
0.516                  -0.270844        -129.892         -52.8835         148.087         -52.8826          148.06      -0.00765868          150.01
0.517                  -0.279068        -130.359         -52.6968         146.669         -52.6961         146.643        -0.007705         149.944
0.518                  -0.287455        -130.828         -52.5113         145.247         -52.5108         145.222      -0.00775147         149.877
0.519                   -0.29601        -131.299         -52.3269         143.819         -52.3267         143.796      -0.00779816          149.81
0.52                   -0.304732        -131.772         -52.1437         142.387         -52.1437         142.366      -0.00784512         149.743
0.521                  -0.313625        -132.247         -51.9617          140.95         -51.9619         140.931      -0.00789241         149.676
0.522                  -0.322691        -132.724         -51.7808          139.51         -51.7812         139.493      -0.00794007         149.609
0.523                  -0.331932        -133.204         -51.6012         138.065         -51.6018         138.051      -0.00798819         149.541
0.524                  -0.341351        -133.686         -51.4227         136.618         -51.4235         136.606       -0.0080368         149.474
0.525                   -0.35095         -134.17         -51.2454         135.167         -51.2465         135.159      -0.00808599         149.407
0.526                  -0.360733        -134.656         -51.0694         133.714         -51.0705         133.709      -0.00813581         149.339
0.527                  -0.370702        -135.145         -50.8945         132.259         -50.8958         132.257      -0.00818632         149.271
0.528                  -0.380861        -135.636         -50.7207         130.802         -50.7221         130.803      -0.00823761         149.204
0.529                  -0.391213         -136.13         -50.5482         129.343         -50.5496         129.347      -0.00828973         149.136
0.53                   -0.401763        -136.626         -50.3767         127.882         -50.3782         127.891      -0.00834276         149.068
0.531                  -0.412513        -137.125         -50.2064         126.421         -50.2079         126.433      -0.00839677             149
0.532                  -0.423467        -137.626         -50.0371         124.959         -50.0386         124.975      -0.00845184         148.931
0.533                  -0.434631         -138.13         -49.8689         123.497         -49.8704         123.516      -0.00850804         148.863
0.534                  -0.446009        -138.637         -49.7017         122.034         -49.7031         122.057      -0.00856546         148.795
0.535                  -0.457605        -139.146         -49.5355         120.571         -49.5368         120.598      -0.00862416         148.726
0.536                  -0.469425        -139.658         -49.3702         119.109         -49.3715         119.139      -0.00868423         148.657
0.537                  -0.481474        -140.173         -49.2059         117.647          -49.207          117.68      -0.00874576         148.589
0.538                  -0.493756        -140.691         -49.0424         116.185         -49.0434         116.222      -0.00880883          148.52
0.539                   -0.50628        -141.211         -48.8798         114.725         -48.8806         114.764      -0.00887352         148.451
0.54                   -0.519049        -141.735          -48.718         113.265         -48.7186         113.308      -0.00893992         148.382
0.541                  -0.532072        -142.261          -48.557         111.806         -48.5573         111.852      -0.00900812         148.312
0.542                  -0.545354        -142.791         -48.3967         110.349         -48.3967         110.397       -0.0090782         148.243
0.543                  -0.558903        -143.324          -48.237         108.892         -48.2368         108.943      -0.00915027         148.174
0.544                  -0.572727        -143.859          -48.078         107.437         -48.0775         107.491       -0.0092244         148.104
0.545                  -0.586832        -144.398         -47.9195         105.984         -47.9187         106.039       -0.0093007         148.034
0.546                  -0.601229        -144.941         -47.7617         104.531         -47.7605         104.589      -0.00937926         147.965
0.547                  -0.615924        -145.486         -47.6043          103.08         -47.6028          103.14      -0.00946017         147.895
0.548                  -0.630928        -146.035         -47.4474         101.631         -47.4455         101.692      -0.00954353         147.825
0.549                  -0.646249        -146.587         -47.2909         100.183         -47.2887         100.246      -0.00962944         147.754
0.55                   -0.661898        -147.143         -47.1348         98.7359         -47.1322         98.8003        -0.009718         147.684
0.551                  -0.677885        -147.702          -46.979         97.2904         -46.9761         97.3559      -0.00980929         147.614
0.552                  -0.694221        -148.265         -46.8235         95.8461         -46.8202         95.9124      -0.00990343         147.543
0.553                  -0.710918        -148.831         -46.6683          94.403         -46.6647         94.4699       -0.0100005         147.472
0.554                  -0.727987        -149.401         -46.5133         92.9609         -46.5093         93.0283       -0.0101006         147.402
0.555                  -0.745441        -149.975         -46.3585         91.5197         -46.3542         91.5873       -0.0102039         147.331
0.556                  -0.763292        -150.553         -46.2038         90.0793         -46.1992          90.147       -0.0103104          147.26
0.557                  -0.781555        -151.134         -46.0493         88.6395         -46.0443         88.7072       -0.0104203         147.188
0.558                  -0.800243        -151.719         -45.8949         87.2003         -45.8895         87.2676       -0.0105336         147.117
0.559                  -0.819372        -152.308         -45.7405         85.7615         -45.7348         85.8283       -0.0106504         147.045
0.56                   -0.838956        -152.901         -45.5861         84.3229         -45.5802          84.389       -0.0107709         146.974
0.561                  -0.859012        -153.498         -45.4318         82.8842         -45.4255         82.9495       -0.0108951         146.902
0.562                  -0.879557        -154.099         -45.2775         81.4454         -45.2709         81.5097       -0.0110232          146.83
0.563                  -0.900608        -154.705         -45.1231         80.0063         -45.1162         80.0695       -0.0111552         146.758
0.564                  -0.922184        -155.314         -44.9686         78.5666         -44.9615         78.6285       -0.0112912         146.686
0.565                  -0.944302        -155.927         -44.8141         77.1262         -44.8067         77.1866       -0.0114314         146.614
0.566                  -0.966983        -156.545         -44.6594         75.6848         -44.6519         75.7436       -0.0115758         146.541
0.567                  -0.990248        -157.167         -44.5047         74.2422         -44.4969         74.2994       -0.0117245         146.469
0.568                   -1.01412        -157.794         -44.3498         72.7982         -44.3419         72.8536       -0.0118776         146.396
0.569                   -1.03861        -158.424         -44.1948         71.3526         -44.1867         71.4061       -0.0120352         146.323
0.57                    -1.06376        -159.059         -44.0396         69.9051         -44.0314         69.9567       -0.0121973          146.25
0.571                   -1.08958        -159.698         -43.8843         68.4556          -43.876         68.5052       -0.0123642         146.177
0.572                   -1.11609        -160.342         -43.7289         67.0038         -43.7204         67.0512       -0.0125357         146.104
0.573                   -1.14333         -160.99         -43.5733         65.5494         -43.5647         65.5946       -0.0127121          146.03
0.574                   -1.17132        -161.643         -43.4175         64.0922         -43.4089         64.1353       -0.0128934         145.957
0.575                   -1.20009          -162.3         -43.2615          62.632         -43.2529         62.6729       -0.0130797         145.883
0.576                   -1.22965        -162.961         -43.1054         61.1686         -43.0967         61.2072       -0.0132709         145.809
0.577                   -1.26006        -163.627         -42.9492         59.7018         -42.9405          59.738       -0.0134673         145.735
0.578                   -1.29132        -164.297         -42.7928         58.2312         -42.7841         58.2651       -0.0136688         145.661
0.579                   -1.32349        -164.972         -42.6362         56.7567         -42.6276         56.7883       -0.0138756         145.587
0.58                    -1.35657        -165.651         -42.4795         55.2781          -42.471         55.3074       -0.0140875         145.512
0.581                   -1.39062        -166.334         -42.3228         53.7951         -42.3142         53.8221       -0.0143048         145.438
0.582                   -1.42565        -167.022         -42.1659         52.3075         -42.1574         52.3322       -0.0145274         145.363
0.583                   -1.46171        -167.714         -42.0089         50.8152         -42.0006         50.8376       -0.0147554         145.288
0.584                   -1.49883         -168.41         -41.8519         49.3178         -41.8437          49.338       -0.0149888         145.213
0.585                   -1.53705         -169.11         -41.6948         47.8152         -41.6867         47.8332       -0.0152276         145.138
0.586                   -1.57639        -169.814         -41.5377         46.3073         -41.5298         46.3231       -0.0154718         145.062
0.587                   -1.61691        -170.522         -41.3806         44.7937         -41.3728         44.8075       -0.0157215         144.987
0.588                   -1.65863        -171.233         -41.2235         43.2744         -41.2159         43.2862       -0.0159766         144.911
0.589                   -1.70159        -171.949         -41.0664         41.7492         -41.0591          41.759       -0.0162371         144.835
0.59                    -1.74584        -172.667         -40.9095         40.2178         -40.9023         40.2257       -0.0165031         144.759
0.591                    -1.7914        -173.389         -40.7527         38.6802         -40.7457         38.6863       -0.0167745         144.683
0.592                   -1.83832        -174.115          -40.596         37.1363         -40.5892         37.1406       -0.0170512         144.607
0.593                   -1.88664        -174.843         -40.4394         35.5857         -40.4329         35.5884       -0.0173333          144.53
0.594                    -1.9364        -175.574         -40.2831         34.0285         -40.2769         34.0297       -0.0176207         144.454
0.595                   -1.98763        -176.308          -40.127         32.4646          -40.121         32.4642       -0.0179133         144.377
0.596                   -2.04037        -177.044         -39.9712         30.8938         -39.9655          30.892       -0.0182111           144.3
0.597                   -2.09466        -177.782         -39.8158          29.316         -39.8103          29.313        -0.018514         144.223
0.598                   -2.15053        -178.522         -39.6607         27.7312         -39.6555          27.727       -0.0188219         144.145
0.599                   -2.20803        -179.263          -39.506         26.1393          -39.501          26.134       -0.0191348         144.068
0.6                     -2.26718         179.994         -39.3517         24.5403          -39.347         24.5339       -0.0194526          143.99
0.601                   -2.32802         179.251         -39.1979         22.9341         -39.1935         22.9268       -0.0197751         143.913
0.602                   -2.39057         178.507         -39.0446         21.3207         -39.0405         21.3126       -0.0201023         143.835
0.603                   -2.45488         177.764          -38.892         19.7001         -38.8881         19.6913        -0.020434         143.757
0.604                   -2.52096          177.02         -38.7399         18.0724         -38.7363         18.0629       -0.0207701         143.678
0.605                   -2.58884         176.278         -38.5885         16.4375         -38.5851         16.4274       -0.0211105           143.6
0.606                   -2.65855         175.536         -38.4377         14.7955         -38.4346          14.785       -0.0214551         143.521
0.607                   -2.73009         174.797         -38.2878         13.1465         -38.2849         13.1356       -0.0218036         143.442
0.608                   -2.80349         174.059         -38.1386         11.4905          -38.136         11.4793        -0.022156         143.363
0.609                   -2.87876         173.324         -37.9902         9.82766         -37.9879          9.8163       -0.0225121         143.284
0.61                     -2.9559         172.593         -37.8428         8.15808         -37.8406          8.1466       -0.0228718         143.205
0.611                   -3.03491         171.865         -37.6962         6.48189         -37.6943         6.47036       -0.0232348         143.125
0.612                    -3.1158         171.141         -37.5506         4.79923         -37.5489         4.78773        -0.023601         143.045
0.613                   -3.19855         170.423          -37.406         3.11027         -37.4045         3.09886       -0.0239703         142.965
0.614                   -3.28316          169.71         -37.2625          1.4152         -37.2612         1.40394       -0.0243425         142.885
0.615                    -3.3696         169.003           -37.12       -0.285801         -37.1189       -0.296842       -0.0247173         142.805
0.616                   -3.45786         168.302         -36.9787        -1.99251         -36.9777        -2.00328       -0.0250947         142.724
0.617                   -3.54788         167.609         -36.8385        -3.70469         -36.8377        -3.71515       -0.0254744         142.644
0.618                   -3.63965         166.924         -36.6994        -5.42212         -36.6988        -5.43222       -0.0258563         142.563
0.619                   -3.73312         166.248         -36.5617        -7.14452         -36.5612        -7.15423       -0.0262402         142.481
0.62                    -3.82822          165.58         -36.4251        -8.87164         -36.4248        -8.88092        -0.026626           142.4
0.621                   -3.92491         164.922         -36.2898        -10.6032         -36.2896         -10.612       -0.0270134         142.318
0.622                   -4.02312         164.275         -36.1559        -12.3389         -36.1558        -12.3472       -0.0274024         142.237
0.623                   -4.12277         163.638         -36.0232        -14.0784         -36.0232        -14.0862       -0.0277928         142.155
0.624                   -4.22378         163.012         -35.8919        -15.8214          -35.892        -15.8287       -0.0281845         142.072
0.625                   -4.32607         162.399          -35.762        -17.5676         -35.7622        -17.5745       -0.0285773          141.99
0.626                   -4.42953         161.798         -35.6334        -19.3167         -35.6337         -19.323       -0.0289711         141.907
0.627                   -4.53406         161.209         -35.5063        -21.0683         -35.5066        -21.0741       -0.0293658         141.824
0.628                   -4.63955         160.634         -35.3805        -22.8221         -35.3808        -22.8274       -0.0297614         141.741
0.629                   -4.74589         160.073         -35.2561        -24.5778         -35.2565        -24.5826       -0.0301576         141.657
