! TOUCHSTONE file generated by CST MICROWAVE STUDIO
! Date and time: Mon Sep 28 14:07:26 2020
! Project name: Scenario_1_Free_SPace.cst
! Parameters = {dx1=329.1; L_HA=400; MT=2.54; Rad_Dielectric=30; Rad_Lower=7.3; Rad_Upper=30; a_HA=580; a_WG=246; b_HA=500; b_WG=121; c_HA=0; c_WG=187; d_feed=85; h_feed=15; h_lower=18; h_upper=40}
! Header version: 2018
! Port assignment regex: !\s*Touchstone port\s*([0-9]+)\s*=\s*(CST MWS port|CST DS port)\s*([0-9]+|Zmin|Zmax)\s*\(\"(.*)\"\)(\s*mode\s*([0-9]+))?.*
! Touchstone port assignment:
! Touchstone port 1 = CST MWS port 1 ("")
! Touchstone port 2 = CST MWS port 2 ("")
# GHz S DB R 50
0.5                    -0.140806        -122.671         -58.7025         90.0494         -58.7025         90.0494      -0.00652889          151.15
0.501                  -0.145904        -123.112         -58.4939          88.701          -58.494         88.7009      -0.00659744         151.085
0.502                  -0.151174        -123.556         -58.2851         87.3437         -58.2852         87.3437      -0.00666728         151.019
0.503                  -0.156622        -124.002         -58.0762         85.9776         -58.0763         85.9775      -0.00673844         150.954
0.504                  -0.162258        -124.451         -57.8671         84.6023         -57.8673         84.6023      -0.00681095         150.888
0.505                  -0.168088        -124.902          -57.658         83.2178         -57.6582         83.2178      -0.00688483         150.823
0.506                  -0.174122        -125.356         -57.4487         81.8239          -57.449         81.8239      -0.00696012         150.757
0.507                  -0.180368        -125.812         -57.2394         80.4205         -57.2397         80.4205      -0.00703685         150.691
0.508                  -0.186834        -126.271         -57.0301         79.0075         -57.0304         79.0075      -0.00711503         150.625
0.509                  -0.193529        -126.732         -56.8208         77.5847         -56.8211         77.5847       -0.0071947         150.559
0.51                   -0.200463        -127.196         -56.6115          76.152         -56.6119         76.1521      -0.00727589         150.493
0.511                  -0.207644        -127.663         -56.4023         74.7094         -56.4027         74.7095      -0.00735861         150.427
0.512                  -0.215081        -128.132         -56.1932         73.2566         -56.1936         73.2568      -0.00744289          150.36
0.513                  -0.222785        -128.604         -55.9842         71.7937         -55.9846         71.7938      -0.00752876         150.294
0.514                  -0.230763        -129.078         -55.7754         70.3204         -55.7757         70.3206      -0.00761623         150.228
0.515                  -0.239026        -129.554         -55.5667         68.8368         -55.5671          68.837      -0.00770531         150.161
0.516                  -0.247583        -130.034         -55.3583         67.3427         -55.3587         67.3429      -0.00779604         150.095
0.517                  -0.256443        -130.515         -55.1502          65.838         -55.1505         65.8382      -0.00788842         150.028
0.518                  -0.265616            -131         -54.9424         64.3227         -54.9427         64.3229      -0.00798246         149.961
0.519                   -0.27511        -131.486         -54.7349         62.7968         -54.7352         62.7969      -0.00807818         149.894
0.52                   -0.284936        -131.976         -54.5278           61.26         -54.5281         61.2602      -0.00817557         149.827
0.521                  -0.295102        -132.467         -54.3211         59.7126         -54.3214         59.7127      -0.00827464          149.76
0.522                  -0.305617        -132.961         -54.1149         58.1543         -54.1152         58.1544       -0.0083754         149.693
0.523                  -0.316489        -133.457         -53.9093         56.5852         -53.9095         56.5853      -0.00847783         149.626
0.524                  -0.327728        -133.956         -53.7042         55.0052         -53.7044         55.0053      -0.00858194         149.559
0.525                  -0.339341        -134.457         -53.4996         53.4145         -53.4998         53.4145      -0.00868769         149.491
0.526                  -0.351336         -134.96         -53.2958         51.8129          -53.296         51.8129      -0.00879509         149.424
0.527                  -0.363721        -135.466         -53.0926         50.2006         -53.0928         50.2005      -0.00890411         149.357
0.528                  -0.376503        -135.973         -52.8902         48.5775         -52.8903         48.5773      -0.00901473         149.289
0.529                  -0.389689        -136.483         -52.6886         46.9437         -52.6887         46.9435       -0.0091269         149.221
0.53                   -0.403284        -136.995         -52.4878         45.2994         -52.4879         45.2991      -0.00924061         149.153
0.531                  -0.417294        -137.509         -52.2879         43.6445          -52.288         43.6442      -0.00935579         149.086
0.532                  -0.431726        -138.024          -52.089         41.9793          -52.089         41.9788      -0.00947242         149.018
0.533                  -0.446582        -138.542          -51.891         40.3037          -51.891         40.3032      -0.00959044          148.95
0.534                  -0.461868        -139.061          -51.694          38.618          -51.694         38.6174      -0.00970979         148.882
0.535                  -0.477586        -139.582         -51.4982         36.9223         -51.4982         36.9216      -0.00983041         148.813
0.536                  -0.493739        -140.105         -51.3035         35.2168         -51.3034          35.216      -0.00995223         148.745
0.537                  -0.510329         -140.63         -51.1099         33.5016         -51.1099         33.5007       -0.0100752         148.677
0.538                  -0.527357        -141.156         -50.9176          31.777         -50.9175          31.776       -0.0101992         148.608
0.539                  -0.544823        -141.683         -50.7265         30.0431         -50.7265         30.0421       -0.0103242         148.539
0.54                   -0.562728        -142.212         -50.5368         28.3003         -50.5367         28.2992         -0.01045         148.471
0.541                  -0.581069        -142.742         -50.3484         26.5488         -50.3483         26.5476       -0.0105767         148.402
0.542                  -0.599845        -143.274         -50.1614         24.7888         -50.1613         24.7875        -0.010704         148.333
0.543                  -0.619053        -143.807         -49.9759         23.0206         -49.9757         23.0193        -0.010832         148.264
0.544                   -0.63869        -144.341         -49.7918         21.2446         -49.7916         21.2432       -0.0109604         148.195
0.545                   -0.65875        -144.876         -49.6092          19.461          -49.609         19.4595       -0.0110893         148.126
0.546                  -0.679229        -145.412         -49.4282         17.6701          -49.428         17.6686       -0.0112184         148.057
0.547                   -0.70012         -145.95         -49.2487         15.8724         -49.2485         15.8708       -0.0113478         147.987
0.548                  -0.721418        -146.488         -49.0708         14.0681         -49.0707         14.0665       -0.0114772         147.918
0.549                  -0.743113        -147.027         -48.8946         12.2576         -48.8944          12.256       -0.0116066         147.848
0.55                   -0.765199        -147.567           -48.72         10.4414         -48.7199         10.4397        -0.011736         147.779
0.551                  -0.787666        -148.108         -48.5471         8.61973          -48.547         8.61803       -0.0118651         147.709
0.552                  -0.810505         -148.65         -48.3759         6.79305         -48.3758         6.79134       -0.0119939         147.639
0.553                  -0.833706        -149.192         -48.2064         4.96175         -48.2063         4.96004       -0.0121223         147.569
0.554                  -0.857259        -149.735         -48.0386         3.12623         -48.0385         3.12453       -0.0122502         147.499
0.555                  -0.881152         -150.28         -47.8726         1.28691         -47.8725         1.28523       -0.0123776         147.429
0.556                  -0.905375        -150.824         -47.7083       -0.555805         -47.7081       -0.557452       -0.0125043         147.358
0.557                  -0.929915         -151.37         -47.5457        -2.40149         -47.5456         -2.4031       -0.0126303         147.288
0.558                  -0.954762        -151.916         -47.3849        -4.24974         -47.3847         -4.2513       -0.0127555         147.217
0.559                  -0.979903        -152.464         -47.2258        -6.10014         -47.2256        -6.10163         -0.01288         147.147
0.56                    -1.00533        -153.012         -47.0684        -7.95226         -47.0683        -7.95369       -0.0130036         147.076
0.561                   -1.03102        -153.561         -46.9127        -9.80572         -46.9126        -9.80706       -0.0131262         147.005
0.562                   -1.05697         -154.11         -46.7588        -11.6601         -46.7586        -11.6614        -0.013248         146.934
0.563                   -1.08317        -154.661         -46.6065         -13.515         -46.6064        -13.5162       -0.0133688         146.863
0.564                   -1.10961        -155.213         -46.4559          -15.37         -46.4557        -15.3711       -0.0134887         146.791
0.565                   -1.13627        -155.766         -46.3069        -17.2248         -46.3068        -17.2258       -0.0136077          146.72
0.566                   -1.16315         -156.32         -46.1596         -19.079         -46.1594        -19.0799       -0.0137257         146.648
0.567                   -1.19023        -156.875         -46.0138        -20.9322         -46.0137         -20.933       -0.0138428         146.576
0.568                   -1.21751        -157.432         -45.8696        -22.7841         -45.8695        -22.7847       -0.0139591         146.505
0.569                   -1.24498         -157.99         -45.7269        -24.6343         -45.7268        -24.6348       -0.0140746         146.433
0.57                    -1.27262        -158.549         -45.5858        -26.4826         -45.5856         -26.483       -0.0141894          146.36
0.571                   -1.30044         -159.11          -45.446        -28.3285         -45.4459        -28.3288       -0.0143034         146.288
0.572                   -1.32843        -159.673         -45.3077        -30.1719         -45.3076        -30.1721       -0.0144168         146.216
0.573                   -1.35658        -160.238         -45.1708        -32.0125         -45.1707        -32.0126       -0.0145297         146.143
0.574                   -1.38488        -160.805         -45.0352        -33.8499          -45.035        -33.8499       -0.0146421          146.07
0.575                   -1.41335        -161.374         -44.9009         -35.684         -44.9007        -35.6839       -0.0147542         145.997
0.576                   -1.44196        -161.945         -44.7679        -37.5145         -44.7677        -37.5143       -0.0148661         145.924
0.577                   -1.47073        -162.519          -44.636        -39.3412         -44.6358        -39.3409       -0.0149778         145.851
0.578                   -1.49966        -163.095         -44.5053        -41.1639         -44.5051        -41.1635       -0.0150895         145.777
0.579                   -1.52874        -163.674         -44.3757        -42.9825         -44.3754         -42.982       -0.0152014         145.704
0.58                    -1.55799        -164.256         -44.2471        -44.7967         -44.2469        -44.7962       -0.0153134          145.63
0.581                    -1.5874        -164.841         -44.1196        -46.6065         -44.1193         -46.606       -0.0154259         145.556
0.582                   -1.61698        -165.429          -43.993        -48.4117         -43.9927        -48.4112       -0.0155388         145.482
0.583                   -1.64674        -166.021         -43.8673        -50.2122          -43.867        -50.2116       -0.0156524         145.408
0.584                   -1.67669        -166.616         -43.7424        -52.0079         -43.7421        -52.0074       -0.0157668         145.333
0.585                   -1.70684        -167.215         -43.6184        -53.7988         -43.6181        -53.7982       -0.0158822         145.259
0.586                    -1.7372        -167.817         -43.4951        -55.5847         -43.4948        -55.5842       -0.0159986         145.184
0.587                   -1.76778        -168.424         -43.3725        -57.3657         -43.3722        -57.3652       -0.0161163         145.109
0.588                   -1.79861        -169.035         -43.2506        -59.1417         -43.2503        -59.1413       -0.0162354         145.034
0.589                   -1.82969         -169.65         -43.1293        -60.9127         -43.1289        -60.9123       -0.0163561         144.958
0.59                    -1.86105         -170.27         -43.0085        -62.6787         -43.0082        -62.6784       -0.0164784         144.883
0.591                   -1.89269        -170.894         -42.8883        -64.4397         -42.8879        -64.4395       -0.0166027         144.807
0.592                   -1.92466        -171.523         -42.7685        -66.1958         -42.7681        -66.1957        -0.016729         144.731
0.593                   -1.95696        -172.157         -42.6491         -67.947         -42.6487        -67.9469       -0.0168574         144.655
0.594                   -1.98962        -172.797         -42.5301        -69.6933         -42.5297        -69.6933       -0.0169883         144.578
0.595                   -2.02267        -173.442         -42.4114        -71.4348          -42.411        -71.4349       -0.0171216         144.502
0.596                   -2.05613        -174.092          -42.293        -73.1716         -42.2926        -73.1719       -0.0172576         144.425
0.597                   -2.09003        -174.748         -42.1748        -74.9039         -42.1745        -74.9042       -0.0173965         144.348
0.598                    -2.1244        -175.409         -42.0569        -76.6316         -42.0565         -76.632       -0.0175383         144.271
0.599                   -2.15927        -176.077          -41.939        -78.3549         -41.9387        -78.3554       -0.0176834         144.194
0.6                     -2.19468        -176.751         -41.8213         -80.074          -41.821        -80.0746       -0.0178317         144.116
0.601                   -2.23066         -177.43         -41.7037         -81.789         -41.7033        -81.7897       -0.0179835         144.038
0.602                   -2.26724        -178.117         -41.5861           -83.5         -41.5857        -83.5007       -0.0181389          143.96
0.603                   -2.30446        -178.809         -41.4685        -85.2072         -41.4682         -85.208       -0.0182982         143.882
0.604                   -2.34237        -179.508         -41.3508        -86.9108         -41.3505        -86.9116       -0.0184614         143.803
0.605                   -2.38099         179.786         -41.2331        -88.6109         -41.2328        -88.6118       -0.0186287         143.725
0.606                   -2.42038         179.073         -41.1153        -90.3078          -41.115        -90.3087       -0.0188004         143.646
0.607                   -2.46057         178.354         -40.9973        -92.0016         -40.9971        -92.0025       -0.0189764         143.567
0.608                   -2.50161         177.627         -40.8792        -93.6926          -40.879        -93.6935       -0.0191571         143.487
0.609                   -2.54354         176.894         -40.7609        -95.3809         -40.7608        -95.3818       -0.0193425         143.408
0.61                    -2.58642         176.153         -40.6424        -97.0668         -40.6423        -97.0677       -0.0195328         143.328
0.611                   -2.63029         175.405         -40.5237        -98.7506         -40.5236        -98.7514       -0.0197282         143.248
0.612                   -2.67521          174.65         -40.4047        -100.432         -40.4046        -100.433       -0.0199289         143.167
0.613                   -2.72122         173.887         -40.2854        -102.112         -40.2853        -102.113       -0.0201349         143.087
0.614                   -2.76838         173.117         -40.1659        -103.791         -40.1658        -103.792       -0.0203465         143.006
0.615                   -2.81675         172.339          -40.046        -105.469         -40.0459        -105.469       -0.0205638         142.925
0.616                   -2.86638         171.554         -39.9258        -107.145         -39.9257        -107.146       -0.0207869         142.844
0.617                   -2.91733         170.762         -39.8052        -108.821         -39.8052        -108.822       -0.0210161         142.762
0.618                   -2.96967         169.962         -39.6843        -110.497         -39.6843        -110.497       -0.0212515          142.68
0.619                   -3.02345         169.154         -39.5631        -112.172         -39.5631        -112.173       -0.0214931         142.598
0.62                    -3.07874         168.339         -39.4415        -113.848         -39.4415        -113.848       -0.0217413         142.516
0.621                    -3.1356         167.517         -39.3195        -115.524         -39.3195        -115.524       -0.0219961         142.433
0.622                   -3.19411         166.687         -39.1972        -117.201         -39.1972        -117.201       -0.0222576         142.351
0.623                   -3.25432          165.85         -39.0746        -118.879         -39.0745        -118.879       -0.0225261         142.268
0.624                   -3.31633         165.005         -38.9515        -120.558         -38.9515        -120.558       -0.0228016         142.184
0.625                   -3.38018         164.153         -38.8282        -122.239         -38.8282        -122.238       -0.0230844         142.101
0.626                   -3.44597         163.294         -38.7045        -123.921         -38.7045        -123.921       -0.0233745         142.017
0.627                   -3.51377         162.429         -38.5805        -125.606         -38.5805        -125.605       -0.0236721         141.932
0.628                   -3.58366         161.556         -38.4562        -127.293         -38.4562        -127.292       -0.0239773         141.848
0.629                   -3.65571         160.676         -38.3317        -128.982         -38.3316        -128.982       -0.0242902         141.763
