! TOUCHSTONE file generated by CST MICROWAVE STUDIO
! Date and time: Mon Sep 28 14:07:42 2020
! Project name: Scenario_1_Free_SPace.cst
! Parameters = {dx1=346; L_HA=400; MT=2.54; Rad_Dielectric=30; Rad_Lower=7.3; Rad_Upper=30; a_HA=580; a_WG=246; b_HA=500; b_WG=121; c_HA=0; c_WG=187; d_feed=85; h_feed=15; h_lower=18; h_upper=40}
! Header version: 2018
! Port assignment regex: !\s*Touchstone port\s*([0-9]+)\s*=\s*(CST MWS port|CST DS port)\s*([0-9]+|Zmin|Zmax)\s*\(\"(.*)\"\)(\s*mode\s*([0-9]+))?.*
! Touchstone port assignment:
! Touchstone port 1 = CST MWS port 1 ("")
! Touchstone port 2 = CST MWS port 2 ("")
# GHz S DB R 50
0.5                    -0.142482        -122.836         -58.9139         81.0286         -58.9139         81.0286      -0.00659042         151.097
0.501                  -0.147778         -123.28         -58.7102         79.6379         -58.7102         79.6378      -0.00667748         151.032
0.502                  -0.153271        -123.726          -58.506         78.2391          -58.506         78.2389      -0.00676563         150.966
0.503                  -0.158966        -124.175         -58.3013         76.8321         -58.3012         76.8318      -0.00685484           150.9
0.504                  -0.164872        -124.626         -58.0962         75.4167         -58.0961         75.4163      -0.00694507         150.835
0.505                  -0.170993         -125.08         -57.8906         73.9926         -57.8905         73.9922      -0.00703631         150.769
0.506                  -0.177337        -125.535         -57.6846         72.5598         -57.6845         72.5593      -0.00712851         150.703
0.507                  -0.183911        -125.994         -57.4783          71.118         -57.4782         71.1174      -0.00722164         150.637
0.508                  -0.190723        -126.454         -57.2717         69.6671         -57.2715         69.6664      -0.00731568         150.571
0.509                  -0.197778        -126.917         -57.0648         68.2068         -57.0646         68.2061       -0.0074106         150.505
0.51                   -0.205085        -127.382         -56.8577          66.737         -56.8575         66.7363      -0.00750635         150.439
0.511                  -0.212651         -127.85         -56.6504         65.2576         -56.6502         65.2569      -0.00760291         150.373
0.512                  -0.220483         -128.32         -56.4429         63.7684         -56.4427         63.7676      -0.00770024         150.306
0.513                  -0.228588        -128.793         -56.2354         62.2692         -56.2352         62.2684      -0.00779832          150.24
0.514                  -0.236975        -129.267         -56.0278         60.7599         -56.0276         60.7591       -0.0078971         150.174
0.515                   -0.24565        -129.745         -55.8202         59.2403           -55.82         59.2395      -0.00799656         150.107
0.516                  -0.254621        -130.224         -55.6127         57.7104         -55.6125         57.7096      -0.00809666         150.041
0.517                  -0.263896        -130.706         -55.4053           56.17         -55.4051         56.1692      -0.00819736         149.974
0.518                  -0.273483         -131.19         -55.1981         54.6191         -55.1979         54.6182      -0.00829865         149.907
0.519                  -0.283387        -131.676          -54.991         53.0574         -54.9908         53.0566      -0.00840047         149.841
0.52                   -0.293617        -132.165         -54.7842         51.4849          -54.784         51.4841       -0.0085028         149.774
0.521                  -0.304179        -132.655         -54.5778         49.9017         -54.5776         49.9008       -0.0086056         149.707
0.522                  -0.315081        -133.148         -54.3717         48.3075         -54.3715         48.3067      -0.00870884          149.64
0.523                   -0.32633        -133.644         -54.1661         46.7023         -54.1659         46.7015      -0.00881248         149.573
0.524                  -0.337931        -134.141          -53.961         45.0862         -53.9608         45.0855       -0.0089165         149.506
0.525                  -0.349891         -134.64         -53.7564         43.4592         -53.7562         43.4584      -0.00902085         149.438
0.526                  -0.362216        -135.142         -53.5525         41.8211         -53.5523         41.8204      -0.00912551         149.371
0.527                  -0.374911        -135.645         -53.3492         40.1721         -53.3491         40.1714      -0.00923044         149.304
0.528                  -0.387982        -136.151         -53.1467         38.5122         -53.1466         38.5115      -0.00933561         149.236
0.529                  -0.401433        -136.658          -52.945         36.8414         -52.9449         36.8408      -0.00944099         149.169
0.53                   -0.415269        -137.167         -52.7442         35.1599         -52.7441         35.1593      -0.00954654         149.101
0.531                  -0.429493        -137.678         -52.5443         33.4678         -52.5442         33.4671      -0.00965224         149.033
0.532                  -0.444109        -138.191         -52.3454          31.765         -52.3453         31.7645      -0.00975805         148.965
0.533                  -0.459119        -138.706         -52.1476         30.0519         -52.1475         30.0514      -0.00986394         148.897
0.534                  -0.474526        -139.222         -51.9509         28.3286         -51.9508         28.3281      -0.00996988         148.829
0.535                  -0.490331         -139.74         -51.7553         26.5952         -51.7552         26.5948       -0.0100759         148.761
0.536                  -0.506534         -140.26         -51.5611         24.8521         -51.5609         24.8516       -0.0101818         148.693
0.537                  -0.523136        -140.781         -51.3681         23.0993          -51.368         23.0989       -0.0102877         148.625
0.538                  -0.540136        -141.303         -51.1764         21.3372         -51.1763         21.3368       -0.0103936         148.556
0.539                  -0.557533        -141.827         -50.9862          19.566         -50.9861         19.5657       -0.0104994         148.488
0.54                   -0.575324        -142.353         -50.7975         17.7861         -50.7974         17.7858       -0.0106051         148.419
0.541                  -0.593508        -142.879         -50.6102         15.9978         -50.6102         15.9975       -0.0107107          148.35
0.542                  -0.612079        -143.407         -50.4246         14.2013         -50.4245         14.2011       -0.0108161         148.282
0.543                  -0.631034        -143.936         -50.2405         12.3972         -50.2405          12.397       -0.0109213         148.213
0.544                  -0.650367        -144.467         -50.0581         10.5856         -50.0581         10.5855       -0.0110264         148.144
0.545                  -0.670074        -144.998         -49.8774         8.76716         -49.8774         8.76705       -0.0111312         148.075
0.546                  -0.690146        -145.531         -49.6984         6.94215         -49.6984         6.94207       -0.0112358         148.006
0.547                  -0.710576        -146.064         -49.5212         5.11103         -49.5212         5.11099       -0.0113402         147.936
0.548                  -0.731357        -146.599         -49.3458         3.27425         -49.3458         3.27425       -0.0114443         147.867
0.549                  -0.752481        -147.135         -49.1722         1.43226         -49.1722          1.4323       -0.0115482         147.797
0.55                   -0.773937        -147.671         -49.0005       -0.414466         -49.0005         -0.4144       -0.0116518         147.728
0.551                  -0.795716        -148.209         -48.8306        -2.26546         -48.8306        -2.26536       -0.0117552         147.658
0.552                  -0.817809        -148.748         -48.6626        -4.12024         -48.6626        -4.12011       -0.0118582         147.588
0.553                  -0.840205        -149.287         -48.4965        -5.97832         -48.4965        -5.97815        -0.011961         147.518
0.554                  -0.862892        -149.828         -48.3322        -7.83921         -48.3323        -7.83901       -0.0120636         147.448
0.555                  -0.885861        -150.369         -48.1699        -9.70241         -48.1699        -9.70218       -0.0121658         147.378
0.556                    -0.9091        -150.912         -48.0094        -11.5674         -48.0094        -11.5672       -0.0122678         147.307
0.557                  -0.932598        -151.456         -47.8508        -13.4338         -47.8508        -13.4335       -0.0123696         147.237
0.558                  -0.956344        -152.001         -47.6941         -15.301         -47.6941        -15.3007       -0.0124711         147.166
0.559                  -0.980327        -152.547         -47.5392        -17.1686         -47.5392        -17.1683       -0.0125724         147.096
0.56                    -1.00454        -153.094         -47.3861        -19.0361         -47.3862        -19.0358       -0.0126735         147.025
0.561                   -1.02897        -153.643         -47.2348        -20.9031         -47.2349        -20.9027       -0.0127744         146.954
0.562                    -1.0536        -154.193         -47.0853        -22.7691         -47.0854        -22.7687       -0.0128751         146.883
0.563                   -1.07843        -154.744         -46.9375        -24.6337         -46.9376        -24.6333       -0.0129758         146.811
0.564                   -1.10346        -155.297         -46.7915        -26.4965         -46.7915        -26.4961       -0.0130763          146.74
0.565                   -1.12866        -155.852          -46.647        -28.3571         -46.6471        -28.3566       -0.0131768         146.668
0.566                   -1.15404        -156.408         -46.5042         -30.215         -46.5043        -30.2145       -0.0132773         146.597
0.567                   -1.17959        -156.966          -46.363          -32.07          -46.363        -32.0695       -0.0133779         146.525
0.568                   -1.20531        -157.527         -46.2233        -33.9217         -46.2233        -33.9212       -0.0134785         146.453
0.569                   -1.23119        -158.089          -46.085        -35.7698         -46.0851        -35.7693       -0.0135793         146.381
0.57                    -1.25723        -158.653         -45.9482         -37.614         -45.9482        -37.6135       -0.0136802         146.309
0.571                   -1.28342         -159.22         -45.8127        -39.4541         -45.8127        -39.4536       -0.0137815         146.236
0.572                   -1.30978         -159.79         -45.6785        -41.2897         -45.6785        -41.2892        -0.013883         146.164
0.573                   -1.33629        -160.362         -45.5455        -43.1207         -45.5456        -43.1202        -0.013985         146.091
0.574                   -1.36296        -160.937         -45.4138        -44.9469         -45.4138        -44.9463       -0.0140874         146.018
0.575                   -1.38981        -161.515         -45.2831         -46.768         -45.2832        -46.7675       -0.0141904         145.945
0.576                   -1.41682        -162.096         -45.1535         -48.584         -45.1536        -48.5835        -0.014294         145.872
0.577                   -1.44401         -162.68          -45.025        -50.3947          -45.025        -50.3941       -0.0143983         145.799
0.578                   -1.47139        -163.267         -44.8973           -52.2         -44.8974        -52.1995       -0.0145035         145.725
0.579                   -1.49897        -163.859         -44.7705        -53.9998         -44.7706        -53.9993       -0.0146096         145.652
0.58                    -1.52676        -164.454         -44.6446        -55.7941         -44.6446        -55.7936       -0.0147167         145.578
0.581                   -1.55477        -165.052         -44.5194        -57.5828         -44.5194        -57.5823       -0.0148249         145.504
0.582                   -1.58301        -165.655         -44.3949         -59.366         -44.3949        -59.3654       -0.0149344          145.43
0.583                   -1.61151        -166.262          -44.271        -61.1435          -44.271         -61.143       -0.0150452         145.356
0.584                   -1.64028        -166.874         -44.1477        -62.9155         -44.1477         -62.915       -0.0151575         145.281
0.585                   -1.66934         -167.49         -44.0249        -64.6821          -44.025        -64.6815       -0.0152714         145.206
0.586                    -1.6987         -168.11         -43.9026        -66.4431         -43.9026        -66.4426       -0.0153871         145.132
0.587                    -1.7284        -168.736         -43.7807        -68.1988         -43.7807        -68.1983       -0.0155046         145.057
0.588                   -1.75845        -169.366         -43.6591        -69.9493         -43.6591        -69.9488       -0.0156241         144.981
0.589                   -1.78888        -170.002         -43.5378        -71.6945         -43.5379        -71.6941       -0.0157457         144.906
0.59                    -1.81971        -170.642         -43.4168        -73.4348         -43.4168        -73.4344       -0.0158697          144.83
0.591                   -1.85096        -171.288          -43.296        -75.1702          -43.296        -75.1698        -0.015996         144.755
0.592                   -1.88268         -171.94         -43.1753        -76.9009         -43.1753        -76.9004        -0.016125         144.679
0.593                   -1.91489        -172.597         -43.0548         -78.627         -43.0548        -78.6266       -0.0162567         144.603
0.594                   -1.94761         -173.26         -42.9343        -80.3488         -42.9343        -80.3484       -0.0163912         144.526
0.595                   -1.98088        -173.928         -42.8138        -82.0664         -42.8138         -82.066       -0.0165289          144.45
0.596                   -2.01473        -174.603         -42.6933          -83.78         -42.6933        -83.7796       -0.0166697         144.373
0.597                   -2.04921        -175.283         -42.5728        -85.4898         -42.5728        -85.4894       -0.0168139         144.296
0.598                   -2.08433         -175.97         -42.4522        -87.1961         -42.4522        -87.1957       -0.0169617         144.219
0.599                   -2.12014        -176.663         -42.3315        -88.8991         -42.3315        -88.8987       -0.0171132         144.141
0.6                     -2.15668        -177.363         -42.2106         -90.599         -42.2106        -90.5986       -0.0172685         144.064
0.601                   -2.19399        -178.068         -42.0896         -92.296         -42.0896        -92.2957       -0.0174279         143.986
0.602                   -2.23211         -178.78         -41.9683        -93.9905         -41.9683        -93.9901       -0.0175915         143.908
0.603                   -2.27107        -179.499         -41.8469        -95.6825         -41.8469        -95.6822       -0.0177595          143.83
0.604                   -2.31092         179.775         -41.7252        -97.3725         -41.7251        -97.3722        -0.017932         143.751
0.605                   -2.35171         179.043         -41.6032        -99.0607         -41.6032        -99.0604       -0.0181092         143.673
0.606                   -2.39348         178.305         -41.4809        -100.747         -41.4809        -100.747       -0.0182913         143.594
0.607                   -2.43627         177.559         -41.3584        -102.432         -41.3584        -102.432       -0.0184785         143.515
0.608                   -2.48014         176.807         -41.2355        -104.117         -41.2355        -104.116       -0.0186708         143.436
0.609                   -2.52513         176.048         -41.1124          -105.8         -41.1123          -105.8       -0.0188686         143.356
0.61                     -2.5713         175.282         -40.9889        -107.483         -40.9888        -107.483       -0.0190718         143.276
0.611                   -2.61869         174.509          -40.865        -109.165          -40.865        -109.165       -0.0192808         143.196
0.612                   -2.66736         173.729         -40.7408        -110.848         -40.7408        -110.848       -0.0194955         143.116
0.613                   -2.71736         172.943         -40.6163        -112.531         -40.6163        -112.531       -0.0197163         143.036
0.614                   -2.76875          172.15         -40.4915        -114.214         -40.4914        -114.214       -0.0199432         142.955
0.615                   -2.82158          171.35         -40.3663        -115.898         -40.3662        -115.898       -0.0201763         142.874
0.616                   -2.87592         170.543         -40.2407        -117.583         -40.2407        -117.583       -0.0204159         142.793
0.617                   -2.93182          169.73         -40.1149         -119.27         -40.1148         -119.27        -0.020662         142.712
0.618                   -2.98934          168.91         -39.9887        -120.958         -39.9886        -120.957       -0.0209147          142.63
0.619                   -3.04856         168.084         -39.8622        -122.647         -39.8621        -122.647       -0.0211742         142.548
0.62                    -3.10952         167.251         -39.7354        -124.339         -39.7353        -124.339       -0.0214406         142.466
0.621                   -3.17231         166.412         -39.6083        -126.033         -39.6082        -126.033        -0.021714         142.384
0.622                   -3.23698         165.566         -39.4809        -127.729         -39.4808        -127.729       -0.0219945         142.301
0.623                    -3.3036         164.715         -39.3533        -129.428         -39.3532        -129.428       -0.0222822         142.218
0.624                   -3.37225         163.858         -39.2254         -131.13         -39.2254         -131.13       -0.0225772         142.135
0.625                     -3.443         162.995         -39.0973        -132.835         -39.0973        -132.835       -0.0228795         142.052
0.626                   -3.51592         162.127          -38.969        -134.543          -38.969        -134.543       -0.0231893         141.968
0.627                   -3.59109         161.253         -38.8406        -136.254         -38.8405        -136.254       -0.0235066         141.884
0.628                   -3.66857         160.375          -38.712         -137.97         -38.7119         -137.97       -0.0238315           141.8
0.629                   -3.74846         159.491         -38.5833        -139.689         -38.5832        -139.689        -0.024164         141.715
