! TOUCHSTONE file generated by CST MICROWAVE STUDIO
! Date and time: Mon Sep 28 14:07:54 2020
! Project name: Scenario_1_Free_SPace.cst
! Parameters = {dx1=363.7; L_HA=400; MT=2.54; Rad_Dielectric=30; Rad_Lower=7.3; Rad_Upper=30; a_HA=580; a_WG=246; b_HA=500; b_WG=121; c_HA=0; c_WG=187; d_feed=85; h_feed=15; h_lower=18; h_upper=40}
! Header version: 2018
! Port assignment regex: !\s*Touchstone port\s*([0-9]+)\s*=\s*(CST MWS port|CST DS port)\s*([0-9]+|Zmin|Zmax)\s*\(\"(.*)\"\)(\s*mode\s*([0-9]+))?.*
! Touchstone port assignment:
! Touchstone port 1 = CST MWS port 1 ("")
! Touchstone port 2 = CST MWS port 2 ("")
# GHz S DB R 50
0.5                    -0.142881         -122.69         -59.2021         71.5065         -59.2021         71.5065       -0.0066061         151.146
0.501                  -0.152261        -123.145         -59.0222         70.1181         -59.0248         70.1085      -0.00669333         151.081
0.502                  -0.161814          -123.6         -58.8407          68.721          -58.846         68.7022      -0.00678034         151.016
0.503                  -0.171538        -124.057         -58.6579         67.3151         -58.6657         67.2875      -0.00686713         150.951
0.504                  -0.181433        -124.515         -58.4738         65.9002          -58.484         65.8642      -0.00695371         150.886
0.505                    -0.1915        -124.974         -58.2883         64.4762         -58.3009         64.4324       -0.0070401          150.82
0.506                  -0.201738        -125.434         -58.1015          63.043         -58.1164         62.9918      -0.00712629         150.755
0.507                  -0.212146        -125.895         -57.9136         61.6004         -57.9307         61.5424      -0.00721231         150.689
0.508                  -0.222724        -126.357         -57.7244         60.1484         -57.7437         60.0839      -0.00729815         150.624
0.509                  -0.233473         -126.82         -57.5342         58.6867         -57.5555         58.6163      -0.00738384         150.558
0.51                   -0.244391        -127.285         -57.3428         57.2152         -57.3661         57.1394      -0.00746938         150.492
0.511                  -0.255479         -127.75         -57.1504         55.7339         -57.1756          55.653      -0.00755478         150.427
0.512                  -0.266737        -128.217         -56.9571         54.2424         -56.9841         54.1571      -0.00764005         150.361
0.513                  -0.278164        -128.685         -56.7629         52.7408         -56.7916         52.6515       -0.0077252         150.295
0.514                   -0.28976        -129.154         -56.5678         51.2288         -56.5982          51.136      -0.00781025         150.229
0.515                  -0.301525        -129.624         -56.3719         49.7063         -56.4039         49.6106      -0.00789519         150.163
0.516                  -0.313459        -130.096         -56.1753         48.1733         -56.2088          48.075      -0.00798006         150.096
0.517                  -0.325562        -130.568         -55.9781         46.6295          -56.013         46.5293      -0.00806485          150.03
0.518                  -0.337834        -131.042         -55.7802         45.0749         -55.8164         44.9731      -0.00814958         149.964
0.519                  -0.350275        -131.518         -55.5819         43.5093         -55.6193         43.4065      -0.00823425         149.897
0.52                   -0.362886        -131.994         -55.3831         41.9327         -55.4217         41.8293      -0.00831889         149.831
0.521                  -0.375665        -132.472         -55.1839         40.3449         -55.2236         40.2414      -0.00840351         149.764
0.522                  -0.388613        -132.951         -54.9844         38.7459          -55.025         38.6427      -0.00848811         149.697
0.523                  -0.401732        -133.432         -54.7846         37.1356         -54.8262         37.0332      -0.00857271          149.63
0.524                  -0.415019        -133.914         -54.5847          35.514         -54.6272         35.4127      -0.00865732         149.564
0.525                  -0.428477        -134.397         -54.3848         33.8809          -54.428         33.7812      -0.00874196         149.497
0.526                  -0.442105        -134.882         -54.1848         32.2365         -54.2287         32.1387      -0.00882663         149.429
0.527                  -0.455904        -135.368          -53.985         30.5806         -54.0294         30.4851      -0.00891136         149.362
0.528                  -0.469875        -135.855         -53.7853         28.9133         -53.8302         28.8205      -0.00899616         149.295
0.529                  -0.484017        -136.345         -53.5858         27.2346         -53.6311         27.1448      -0.00908104         149.228
0.53                   -0.498331        -136.835         -53.3867         25.5445         -53.4323          25.458      -0.00916601          149.16
0.531                  -0.512818        -137.327         -53.1881         23.8432         -53.2339         23.7603      -0.00925109         149.093
0.532                  -0.527479        -137.821         -52.9899         22.1306         -53.0359         22.0517       -0.0093363         149.025
0.533                  -0.542314        -138.316         -52.7923         20.4071         -52.8384         20.3322      -0.00942165         148.957
0.534                  -0.557325        -138.813         -52.5954         18.6725         -52.6414          18.602      -0.00950716         148.889
0.535                  -0.572512        -139.312         -52.3992         16.9273         -52.4452         16.8613      -0.00959285         148.821
0.536                  -0.587877        -139.812         -52.2039         15.1714         -52.2497         15.1101      -0.00967872         148.753
0.537                   -0.60342        -140.315         -52.0096         13.4052         -52.0551         13.3487       -0.0097648         148.685
0.538                  -0.619143        -140.818         -51.8162         11.6289         -51.8614         11.5773       -0.0098511         148.617
0.539                  -0.635047        -141.324         -51.6239         9.84272         -51.6687         9.79614      -0.00993765         148.549
0.54                   -0.651133        -141.831         -51.4328         8.04702         -51.4771         8.00549       -0.0100245          148.48
0.541                  -0.667404        -142.341          -51.243         6.24209         -51.2867         6.20564       -0.0101115         148.411
0.542                   -0.68386        -142.852         -51.0544         4.42829         -51.0975         4.39692       -0.0101989         148.343
0.543                  -0.700504        -143.365         -50.8673         2.60599         -50.9096         2.57967       -0.0102866         148.274
0.544                  -0.717337         -143.88         -50.6816        0.775598         -50.7231        0.754262       -0.0103747         148.205
0.545                  -0.734362        -144.397         -50.4974        -1.06247         -50.5381         -1.0789       -0.0104631         148.136
0.546                   -0.75158        -144.916         -50.3148        -2.90776         -50.3546         -2.9194       -0.0105519         148.067
0.547                  -0.768994        -145.437         -50.1338        -4.75982         -50.1727        -4.76679       -0.0106411         147.998
0.548                  -0.786607        -145.961         -49.9545        -6.61814         -49.9924        -6.62061       -0.0107307         147.928
0.549                  -0.804421        -146.486         -49.7769        -8.48223         -49.8138        -8.48037       -0.0108207         147.859
0.55                   -0.822439        -147.014         -49.6011        -10.3516         -49.6369        -10.3456       -0.0109112         147.789
0.551                  -0.840663        -147.544         -49.4271        -12.2256         -49.4618        -12.2157       -0.0110023          147.72
0.552                  -0.859098        -148.076         -49.2549        -14.1038         -49.2885        -14.0902       -0.0110938          147.65
0.553                  -0.877746        -148.611         -49.0846        -15.9857          -49.117        -15.9686       -0.0111859          147.58
0.554                  -0.896611        -149.148         -48.9162        -17.8705         -48.9474        -17.8503       -0.0112786          147.51
0.555                  -0.915696        -149.687         -48.7497        -19.7579         -48.7796        -19.7348       -0.0113718          147.44
0.556                  -0.935006        -150.229         -48.5851        -21.6472         -48.6138        -21.6214       -0.0114657         147.369
0.557                  -0.954545        -150.773         -48.4224        -23.5378         -48.4498        -23.5097       -0.0115602         147.299
0.558                  -0.974317         -151.32         -48.2616        -25.4292         -48.2877         -25.399       -0.0116555         147.228
0.559                  -0.994327         -151.87         -48.1027        -27.3209         -48.1276        -27.2889       -0.0117514         147.158
0.56                    -1.01458        -152.422         -47.9456        -29.2123         -47.9693        -29.1788       -0.0118481         147.087
0.561                   -1.03508        -152.977         -47.7904        -31.1028         -47.8128        -31.0681       -0.0119456         147.016
0.562                   -1.05583        -153.535         -47.6371         -32.992         -47.6582        -32.9563       -0.0120438         146.945
0.563                   -1.07685        -154.096         -47.4856        -34.8793         -47.5055         -34.843        -0.012143         146.874
0.564                   -1.09812         -154.66         -47.3358        -36.7642         -47.3545        -36.7276        -0.012243         146.802
0.565                   -1.11967        -155.226         -47.1877        -38.6464         -47.2052        -38.6096        -0.012344         146.731
0.566                    -1.1415        -155.796         -47.0414        -40.5253         -47.0577        -40.4886       -0.0124459         146.659
0.567                   -1.16361        -156.369         -46.8966        -42.4006         -46.9118        -42.3643       -0.0125488         146.587
0.568                   -1.18602        -156.945         -46.7535        -44.2718         -46.7676        -44.2361       -0.0126527         146.516
0.569                   -1.20872        -157.524         -46.6119        -46.1387         -46.6249        -46.1037       -0.0127578         146.444
0.57                    -1.23174        -158.106         -46.4717        -48.0008         -46.4837        -47.9667       -0.0128639         146.371
0.571                   -1.25507        -158.692          -46.333        -49.8578          -46.344        -49.8249       -0.0129713         146.299
0.572                   -1.27873        -159.281         -46.1956        -51.7096         -46.2057        -51.6779       -0.0130799         146.227
0.573                   -1.30272        -159.874         -46.0595        -53.5557         -46.0686        -53.5255       -0.0131897         146.154
0.574                   -1.32706         -160.47         -45.9246        -55.3962         -45.9329        -55.3675       -0.0133009         146.081
0.575                   -1.35176         -161.07         -45.7909        -57.2306         -45.7983        -57.2036       -0.0134135         146.008
0.576                   -1.37682        -161.674         -45.6583         -59.059         -45.6649        -59.0337       -0.0135275         145.935
0.577                   -1.40226        -162.281         -45.5266        -60.8811         -45.5325        -60.8576       -0.0136429         145.862
0.578                   -1.42809        -162.892         -45.3959        -62.6969         -45.4011        -62.6753         -0.01376         145.789
0.579                   -1.45433        -163.507         -45.2661        -64.5063         -45.2706        -64.4866       -0.0138787         145.715
0.58                    -1.48098        -164.126          -45.137        -66.3093         -45.1409        -66.2915        -0.013999         145.641
0.581                   -1.50806        -164.749         -45.0087        -68.1058         -45.0121        -68.0899       -0.0141211         145.567
0.582                   -1.53559        -165.376         -44.8811        -69.8959         -44.8839         -69.882       -0.0142451         145.493
0.583                   -1.56357        -166.008         -44.7541        -71.6797         -44.7564        -71.6676       -0.0143709         145.419
0.584                   -1.59203        -166.644         -44.6276        -73.4571         -44.6294        -73.4469       -0.0144987         145.345
0.585                   -1.62099        -167.284         -44.5016        -75.2283          -44.503          -75.22       -0.0146286          145.27
0.586                   -1.65045        -167.928          -44.376        -76.9935          -44.377        -76.9869       -0.0147606         145.196
0.587                   -1.68044        -168.577         -44.2507        -78.7526         -44.2514        -78.7478       -0.0148949         145.121
0.588                   -1.71098        -169.231         -44.1257         -80.506         -44.1262        -80.5027       -0.0150314         145.046
0.589                   -1.74209        -169.889          -44.001        -82.2537         -44.0012         -82.252       -0.0151704          144.97
0.59                    -1.77378        -170.552         -43.8764         -83.996         -43.8764        -83.9957       -0.0153119         144.895
0.591                   -1.80609         -171.22          -43.752         -85.733         -43.7517        -85.7341        -0.015456         144.819
0.592                   -1.83903        -171.893         -43.6276         -87.465         -43.6272        -87.4674       -0.0156028         144.744
0.593                   -1.87262         -172.57         -43.5033        -89.1923         -43.5027        -89.1958       -0.0157525         144.668
0.594                    -1.9069        -173.253         -43.3789         -90.915         -43.3783        -90.9196       -0.0159051         144.592
0.595                   -1.94188        -173.941         -43.2545        -92.6334         -43.2538        -92.6389       -0.0160608         144.515
0.596                    -1.9776        -174.634           -43.13        -94.3479         -43.1292        -94.3542       -0.0162196         144.439
0.597                   -2.01408        -175.332         -43.0054        -96.0586         -43.0045        -96.0656       -0.0163818         144.362
0.598                   -2.05135        -176.036         -42.8806        -97.7659         -42.8797        -97.7735       -0.0165474         144.285
0.599                   -2.08944        -176.745         -42.7556        -99.4701         -42.7547        -99.4781       -0.0167167         144.208
0.6                      -2.1284         -177.46         -42.6304        -101.171         -42.6295         -101.18       -0.0168896         144.131
0.601                   -2.16824         -178.18          -42.505         -102.87          -42.504        -102.879       -0.0170665         144.053
0.602                     -2.209        -178.905         -42.3792        -104.567         -42.3783        -104.576       -0.0172473         143.975
0.603                   -2.25073        -179.636         -42.2532        -106.261         -42.2523         -106.27       -0.0174324         143.897
0.604                   -2.29345         179.627         -42.1268        -107.955          -42.126        -107.963       -0.0176218         143.819
0.605                   -2.33721         178.884         -42.0002        -109.646         -41.9994        -109.655       -0.0178157         143.741
0.606                   -2.38205         178.136         -41.8731        -111.337         -41.8724        -111.346       -0.0180143         143.662
0.607                   -2.42801         177.382         -41.7458        -113.028         -41.7451        -113.035       -0.0182178         143.584
0.608                   -2.47514         176.622         -41.6181        -114.718         -41.6174        -114.725       -0.0184262         143.505
0.609                   -2.52348         175.857           -41.49        -116.408         -41.4894        -116.414       -0.0186399         143.425
0.61                    -2.57308         175.085         -41.3615        -118.098          -41.361        -118.104        -0.018859         143.346
0.611                   -2.62398         174.308         -41.2327        -119.789         -41.2323        -119.794       -0.0190836         143.266
0.612                   -2.67625         173.525         -41.1035        -121.481         -41.1032        -121.485       -0.0193139         143.186
0.613                   -2.72993         172.736          -40.974        -123.174         -40.9737        -123.178       -0.0195502         143.106
0.614                   -2.78508         171.942         -40.8441        -124.869         -40.8439        -124.872       -0.0197926         143.026
0.615                   -2.84176         171.141         -40.7139        -126.565         -40.7138        -126.567       -0.0200413         142.945
0.616                   -2.90001         170.336         -40.5834        -128.264         -40.5833        -128.265       -0.0202965         142.865
0.617                   -2.95992         169.524         -40.4525        -129.965         -40.4525        -129.965       -0.0205582         142.784
0.618                   -3.02152         168.707         -40.3214        -131.669         -40.3214        -131.668       -0.0208268         142.702
0.619                    -3.0849         167.885         -40.1899        -133.375           -40.19        -133.373       -0.0211023         142.621
0.62                    -3.15012         167.058         -40.0583        -135.085         -40.0583        -135.082       -0.0213849         142.539
0.621                   -3.21724         166.226         -39.9263        -136.799         -39.9264        -136.794       -0.0216748         142.457
0.622                   -3.28634         165.388         -39.7942        -138.516         -39.7943         -138.51        -0.021972         142.375
0.623                   -3.35748         164.546         -39.6619        -140.236         -39.6621         -140.23       -0.0222768         142.292
0.624                   -3.43074           163.7         -39.5295        -141.961         -39.5296        -141.954       -0.0225891          142.21
0.625                    -3.5062         162.849         -39.3969         -143.69          -39.397        -143.682       -0.0229091         142.127
0.626                   -3.58392         161.995         -39.2642        -145.424         -39.2643        -145.414       -0.0232369         142.043
0.627                   -3.66399         161.137         -39.1315        -147.162         -39.1316        -147.151       -0.0235725          141.96
0.628                   -3.74648         160.275         -38.9987        -148.905         -38.9988        -148.893       -0.0239159         141.876
0.629                   -3.83148         159.411          -38.866        -150.653         -38.8661        -150.641       -0.0242673         141.792
