! TOUCHSTONE file generated by CST MICROWAVE STUDIO
! Date and time: Mon Sep 28 14:08:02 2020
! Project name: Scenario_1_Free_SPace.cst
! Parameters = {dx1=381.1; L_HA=400; MT=2.54; Rad_Dielectric=30; Rad_Lower=7.3; Rad_Upper=30; a_HA=580; a_WG=246; b_HA=500; b_WG=121; c_HA=0; c_WG=187; d_feed=85; h_feed=15; h_lower=18; h_upper=40}
! Header version: 2018
! Port assignment regex: !\s*Touchstone port\s*([0-9]+)\s*=\s*(CST MWS port|CST DS port)\s*([0-9]+|Zmin|Zmax)\s*\(\"(.*)\"\)(\s*mode\s*([0-9]+))?.*
! Touchstone port assignment:
! Touchstone port 1 = CST MWS port 1 ("")
! Touchstone port 2 = CST MWS port 2 ("")
# GHz S DB R 50
0.5                    -0.145407        -122.775         -59.3412          61.818         -59.3412          61.818      -0.00672096         151.143
0.501                  -0.155405        -123.218         -59.1433         59.6982         -59.1442          59.702      -0.00677236         151.078
0.502                  -0.165506        -123.662         -58.9444         57.6029         -58.9462         57.6102      -0.00682436         151.013
0.503                  -0.175713        -124.107         -58.7447         55.5313         -58.7474         55.5417      -0.00687698         150.947
0.504                  -0.186025        -124.553         -58.5444         53.4827         -58.5479         53.4958      -0.00693021         150.882
0.505                  -0.196444        -125.001         -58.3437         51.4561         -58.3479         51.4717      -0.00698407         150.816
0.506                  -0.206969         -125.45         -58.1427         49.4508         -58.1476         49.4687      -0.00703857         150.751
0.507                  -0.217603          -125.9         -57.9415          47.466         -57.9472         47.4857      -0.00709372         150.685
0.508                  -0.228345        -126.352         -57.7404         45.5007         -57.7467         45.5222      -0.00714953          150.62
0.509                  -0.239197        -126.805         -57.5394         43.5541         -57.5463         43.5771      -0.00720601         150.554
0.51                    -0.25016        -127.259         -57.3386         41.6255          -57.346         41.6498      -0.00726316         150.488
0.511                  -0.261234        -127.715         -57.1381         39.7139         -57.1461         39.7393      -0.00732101         150.422
0.512                  -0.272421        -128.172         -56.9381         37.8186         -56.9466          37.845      -0.00737955         150.356
0.513                  -0.283722        -128.631         -56.7386         35.9388         -56.7475          35.966       -0.0074388          150.29
0.514                  -0.295138        -129.091         -56.5397         34.0736          -56.549         34.1015      -0.00749877         150.224
0.515                  -0.306671        -129.553         -56.3414         32.2225         -56.3511          32.251      -0.00755947         150.158
0.516                  -0.318321        -130.016         -56.1439         30.3845         -56.1539         30.4135      -0.00762092         150.091
0.517                   -0.33009         -130.48         -55.9471         28.5591         -55.9574         28.5884      -0.00768311         150.025
0.518                  -0.341979        -130.947         -55.7512         26.7455         -55.7617         26.7751      -0.00774607         149.958
0.519                   -0.35399        -131.415         -55.5561         24.9431         -55.5668         24.9729       -0.0078098         149.892
0.52                   -0.366124        -131.884         -55.3619         23.1512         -55.3728         23.1812      -0.00787432         149.825
0.521                  -0.378383        -132.355         -55.1686         21.3692         -55.1798         21.3993      -0.00793964         149.758
0.522                  -0.390769        -132.828         -54.9764         19.5966         -54.9876         19.6267      -0.00800577         149.691
0.523                  -0.403283        -133.303         -54.7851         17.8327         -54.7965         17.8628      -0.00807271         149.624
0.524                  -0.415927        -133.779         -54.5948         16.0771         -54.6063         16.1071      -0.00814049         149.557
0.525                  -0.428703        -134.257         -54.4056         14.3292         -54.4171         14.3591      -0.00820912          149.49
0.526                  -0.441612        -134.737         -54.2174         12.5884          -54.229         12.6182      -0.00827861         149.423
0.527                  -0.454658        -135.219         -54.0303         10.8545         -54.0419          10.884      -0.00834896         149.355
0.528                  -0.467842        -135.703         -53.8443         9.12676         -53.8559         9.15612       -0.0084202         149.288
0.529                  -0.481166        -136.188         -53.6594         7.40492         -53.6709         7.43404      -0.00849233          149.22
0.53                   -0.494632        -136.675         -53.4756         5.68853         -53.4871         5.71738      -0.00856537         149.153
0.531                  -0.508244        -137.165         -53.2928         3.97719         -53.3043         4.00574      -0.00863934         149.085
0.532                  -0.522003        -137.656         -53.1112         2.27053         -53.1226         2.29876      -0.00871424         149.017
0.533                  -0.535912        -138.149         -52.9307        0.568192          -52.942        0.596093      -0.00879008         148.949
0.534                  -0.549974        -138.645         -52.7513        -1.13015         -52.7625         -1.1026      -0.00886689         148.881
0.535                  -0.564192        -139.142          -52.573        -2.82481         -52.5841        -2.79764      -0.00894468         148.813
0.536                  -0.578568        -139.641         -52.3959         -4.5161         -52.4068        -4.48931      -0.00902346         148.745
0.537                  -0.593105        -140.143         -52.2198         -6.2043         -52.2305        -6.17791      -0.00910325         148.676
0.538                  -0.607808        -140.647         -52.0449        -7.88968         -52.0554        -7.86371      -0.00918405         148.608
0.539                  -0.622678        -141.153          -51.871        -9.57249         -51.8814        -9.54695      -0.00926589         148.539
0.54                   -0.637721        -141.661         -51.6982         -11.253         -51.7085        -11.2279      -0.00934878          148.47
0.541                  -0.652938        -142.172         -51.5266        -12.9313         -51.5366        -12.9067      -0.00943273         148.402
0.542                  -0.668334        -142.685          -51.356        -14.6078         -51.3658        -14.5837      -0.00951776         148.333
0.543                  -0.683913          -143.2         -51.1865        -16.2826         -51.1961        -16.2589      -0.00960389         148.264
0.544                  -0.699678        -143.718          -51.018        -17.9559         -51.0274        -17.9327      -0.00969114         148.194
0.545                  -0.715634        -144.238         -50.8506        -19.6279         -50.8598        -19.6052      -0.00977951         148.125
0.546                  -0.731786        -144.761         -50.6842        -21.2987         -50.6932        -21.2765      -0.00986902         148.056
0.547                  -0.748137        -145.286         -50.5189        -22.9685         -50.5276        -22.9468       -0.0099597         147.986
0.548                  -0.764693        -145.813         -50.3546        -24.6374         -50.3631        -24.6162       -0.0100516         147.917
0.549                  -0.781459        -146.344         -50.1913        -26.3056         -50.1995         -26.285       -0.0101446         147.847
0.55                   -0.798439        -146.877          -50.029        -27.9732          -50.037        -27.9531       -0.0102389         147.777
0.551                  -0.815638        -147.412         -49.8677        -29.6403         -49.8755        -29.6208       -0.0103344         147.707
0.552                  -0.833063        -147.951         -49.7074         -31.307         -49.7149         -31.288       -0.0104311         147.637
0.553                  -0.850719        -148.492          -49.548        -32.9734         -49.5553         -32.955       -0.0105292         147.567
0.554                  -0.868612        -149.036         -49.3896        -34.6397         -49.3966        -34.6219       -0.0106285         147.497
0.555                  -0.886748        -149.583         -49.2321        -36.3058         -49.2388        -36.2886       -0.0107291         147.426
0.556                  -0.905133        -150.132         -49.0755         -37.972          -49.082        -37.9553        -0.010831         147.356
0.557                  -0.923775        -150.685         -48.9198        -39.6381         -48.9261         -39.622       -0.0109343         147.285
0.558                   -0.94268        -151.241          -48.765        -41.3044          -48.771        -41.2889        -0.011039         147.214
0.559                  -0.961856          -151.8         -48.6111        -42.9709         -48.6169         -42.956        -0.011145         147.143
0.56                   -0.981309        -152.362          -48.458        -44.6376         -48.4636        -44.6233       -0.0112525         147.072
0.561                   -1.00105        -152.927         -48.3058        -46.3046         -48.3111        -46.2909       -0.0113614         147.001
0.562                   -1.02108        -153.495         -48.1544         -47.972         -48.1594        -47.9589       -0.0114718         146.929
0.563                   -1.04142        -154.067         -48.0038        -49.6397         -48.0086        -49.6272       -0.0115836         146.858
0.564                   -1.06206        -154.642         -47.8539        -51.3079         -47.8586         -51.296       -0.0116969         146.786
0.565                   -1.08303         -155.22         -47.7049        -52.9765         -47.7093        -52.9652       -0.0118118         146.714
0.566                   -1.10433        -155.802         -47.5566        -54.6457         -47.5608         -54.635       -0.0119282         146.643
0.567                   -1.12596        -156.387          -47.409        -56.3153          -47.413        -56.3052       -0.0120462         146.571
0.568                   -1.14795        -156.976         -47.2622        -57.9856         -47.2659        -57.9761       -0.0121658         146.498
0.569                    -1.1703        -157.568          -47.116        -59.6564         -47.1195        -59.6475        -0.012287         146.426
0.57                    -1.19302        -158.164         -46.9705        -61.3278         -46.9738        -61.3195       -0.0124099         146.354
0.571                   -1.21612        -158.764         -46.8257        -62.9999         -46.8288        -62.9922       -0.0125345         146.281
0.572                   -1.23961        -159.367         -46.6815        -64.6727         -46.6845        -64.6655       -0.0126608         146.208
0.573                   -1.26352        -159.975          -46.538        -66.3461         -46.5407        -66.3396       -0.0127889         146.135
0.574                   -1.28785        -160.586          -46.395        -68.0203         -46.3976        -68.0143       -0.0129188         146.062
0.575                   -1.31261        -161.201         -46.2526        -69.6952          -46.255        -69.6898       -0.0130504         145.989
0.576                   -1.33781         -161.82         -46.1108        -71.3709          -46.113         -71.366        -0.013184         145.916
0.577                   -1.36348        -162.443         -45.9695        -73.0474         -45.9716         -73.043       -0.0133194         145.842
0.578                   -1.38963         -163.07         -45.8288        -74.7247         -45.8306        -74.7208       -0.0134567         145.768
0.579                   -1.41628        -163.701         -45.6885        -76.4028         -45.6902        -76.3994        -0.013596         145.694
0.58                    -1.44343        -164.337         -45.5487        -78.0817         -45.5503        -78.0788       -0.0137374          145.62
0.581                   -1.47111        -164.977         -45.4094        -79.7616         -45.4109        -79.7592       -0.0138807         145.546
0.582                   -1.49933        -165.621         -45.2706        -81.4424         -45.2719        -81.4404       -0.0140262         145.472
0.583                   -1.52812        -166.269         -45.1321         -83.124         -45.1333        -83.1225       -0.0141739         145.397
0.584                   -1.55749        -166.922         -44.9941        -84.8067         -44.9952        -84.8056       -0.0143237         145.323
0.585                   -1.58747        -167.579         -44.8564        -86.4904         -44.8574        -86.4897       -0.0144758         145.248
0.586                   -1.61806        -168.241         -44.7192         -88.175           -44.72        -88.1747       -0.0146303         145.173
0.587                    -1.6493        -168.908         -44.5822        -89.8608          -44.583        -89.8608       -0.0147871         145.098
0.588                   -1.68121        -169.579         -44.4456        -91.5476         -44.4463         -91.548       -0.0149463         145.022
0.589                    -1.7138        -170.255         -44.3094        -93.2356         -44.3099        -93.2364       -0.0151081         144.947
0.59                    -1.74711        -170.935         -44.1734        -94.9248         -44.1739        -94.9258       -0.0152724         144.871
0.591                   -1.78116         -171.62         -44.0377        -96.6152         -44.0381        -96.6165       -0.0154395         144.795
0.592                   -1.81597        -172.311         -43.9022        -98.3068         -43.9025        -98.3084       -0.0156092         144.719
0.593                   -1.85158        -173.006          -43.767        -99.9998         -43.7673        -100.002       -0.0157819         144.643
0.594                     -1.888        -173.705          -43.632        -101.694         -43.6322        -101.696       -0.0159574         144.566
0.595                   -1.92527         -174.41         -43.4972         -103.39         -43.4974        -103.392        -0.016136          144.49
0.596                   -1.96342         -175.12         -43.3627        -105.087         -43.3627        -105.089       -0.0163178         144.413
0.597                   -2.00248        -175.835         -43.2283        -106.786         -43.2283        -106.788       -0.0165029         144.336
0.598                   -2.04247        -176.554          -43.094        -108.486          -43.094        -108.489       -0.0166914         144.258
0.599                   -2.08345        -177.279           -42.96        -110.188         -42.9599        -110.191       -0.0168834         144.181
0.6                     -2.12543        -178.009          -42.826        -111.892         -42.8259        -111.895       -0.0170792         144.103
0.601                   -2.16845        -178.744         -42.6922        -113.597         -42.6921          -113.6       -0.0172788         144.025
0.602                   -2.21255        -179.483         -42.5585        -115.304         -42.5583        -115.307       -0.0174825         143.947
0.603                   -2.25778         179.772         -42.4249        -117.014         -42.4247        -117.017       -0.0176904         143.869
0.604                   -2.30416         179.022         -42.2914        -118.725         -42.2912        -118.728       -0.0179027          143.79
0.605                   -2.35174         178.267         -42.1579        -120.438         -42.1577        -120.441       -0.0181197         143.711
0.606                   -2.40056         177.507         -42.0246        -122.153         -42.0243        -122.156       -0.0183416         143.632
0.607                   -2.45067         176.742         -41.8913        -123.871          -41.891        -123.874       -0.0185687         143.553
0.608                   -2.50211         175.973          -41.758        -125.591         -41.7578        -125.594       -0.0188011         143.474
0.609                   -2.55491         175.198         -41.6248        -127.313         -41.6246        -127.316       -0.0190392         143.394
0.61                    -2.60915         174.419         -41.4917        -129.038         -41.4914        -129.041       -0.0192832         143.314
0.611                   -2.66485         173.635         -41.3586        -130.766         -41.3583        -130.768       -0.0195336         143.234
0.612                   -2.72207         172.846         -41.2255        -132.496         -41.2252        -132.498       -0.0197905         143.154
0.613                   -2.78086         172.053         -41.0924        -134.228         -41.0922        -134.231       -0.0200543         143.073
0.614                   -2.84127         171.256         -40.9594        -135.964         -40.9592        -135.966       -0.0203253         142.992
0.615                   -2.90336         170.455         -40.8264        -137.703         -40.8262        -137.704       -0.0206039         142.911
0.616                   -2.96719         169.649         -40.6935        -139.444         -40.6932        -139.446       -0.0208903          142.83
0.617                    -3.0328          168.84         -40.5605        -141.189         -40.5603         -141.19        -0.021185         142.749
0.618                   -3.10025         168.026         -40.4277        -142.937         -40.4274        -142.938       -0.0214881         142.667
0.619                    -3.1696          167.21         -40.2948        -144.688         -40.2945        -144.689          -0.0218         142.585
0.62                    -3.24092          166.39          -40.162        -146.443         -40.1617        -146.443       -0.0221208         142.502
0.621                   -3.31425         165.567         -40.0292        -148.201         -40.0289        -148.201       -0.0224509          142.42
0.622                   -3.38966         164.742         -39.8965        -149.962         -39.8962        -149.962       -0.0227902         142.337
0.623                   -3.46722         163.914         -39.7638        -151.728         -39.7636        -151.727       -0.0231389         142.254
0.624                   -3.54697         163.084         -39.6312        -153.497          -39.631        -153.496        -0.023497         142.171
0.625                   -3.62899         162.253         -39.4987         -155.27         -39.4985        -155.269       -0.0238643         142.087
0.626                   -3.71332          161.42         -39.3663        -157.046          -39.366        -157.045       -0.0242408         142.004
0.627                   -3.80004         160.587          -39.234        -158.827         -39.2337        -158.826       -0.0246261          141.92
0.628                    -3.8892         159.753         -39.1018        -160.612         -39.1015         -160.61       -0.0250199         141.836
0.629                   -3.98087         158.919         -38.9697        -162.401         -38.9695        -162.399       -0.0254218         141.751
