! TOUCHSTONE file generated by CST MICROWAVE STUDIO
! Date and time: Mon Sep 28 14:08:12 2020
! Project name: Scenario_1_Free_SPace.cst
! Parameters = {dx1=398.4; L_HA=400; MT=2.54; Rad_Dielectric=30; Rad_Lower=7.3; Rad_Upper=30; a_HA=580; a_WG=246; b_HA=500; b_WG=121; c_HA=0; c_WG=187; d_feed=85; h_feed=15; h_lower=18; h_upper=40}
! Header version: 2018
! Port assignment regex: !\s*Touchstone port\s*([0-9]+)\s*=\s*(CST MWS port|CST DS port)\s*([0-9]+|Zmin|Zmax)\s*\(\"(.*)\"\)(\s*mode\s*([0-9]+))?.*
! Touchstone port assignment:
! Touchstone port 1 = CST MWS port 1 ("")
! Touchstone port 2 = CST MWS port 2 ("")
# GHz S DB R 50
0.5                    -0.146911        -122.704          -59.512          52.528          -59.512          52.528      -0.00679563         151.158
0.501                  -0.155665        -123.155         -59.2919          51.154          -59.292         51.1534       -0.0068806         151.092
0.502                  -0.164566        -123.608         -59.0721         49.7609         -59.0722         49.7597      -0.00696538         151.027
0.503                  -0.173613        -124.062         -58.8526         48.3489         -58.8527         48.3471      -0.00704998         150.962
0.504                  -0.182807        -124.516         -58.6334          46.918         -58.6335         46.9157      -0.00713439         150.896
0.505                  -0.192146        -124.972         -58.4145         45.4684         -58.4147         45.4657       -0.0072186         150.831
0.506                  -0.201631         -125.43         -58.1961         44.0003         -58.1964         43.9972      -0.00730261         150.765
0.507                  -0.211263        -125.888         -57.9783          42.514         -57.9785         42.5105      -0.00738643           150.7
0.508                  -0.221041        -126.347          -57.761         41.0095         -57.7613         41.0057      -0.00747003         150.634
0.509                  -0.230965        -126.808         -57.5444         39.4871         -57.5447         39.4831      -0.00755343         150.568
0.51                   -0.241035         -127.27         -57.3285         37.9471         -57.3288         37.9429      -0.00763661         150.502
0.511                  -0.251252        -127.734         -57.1133         36.3897         -57.1138         36.3853      -0.00771959         150.436
0.512                  -0.261616        -128.198         -56.8991         34.8151         -56.8995         34.8106      -0.00780234          150.37
0.513                  -0.272126        -128.664         -56.6857         33.2237         -56.6862         33.2191      -0.00788489         150.304
0.514                  -0.282784        -129.131         -56.4733         31.6158         -56.4739         31.6111      -0.00796721         150.238
0.515                   -0.29359          -129.6          -56.262         29.9917         -56.2626          29.987      -0.00804932         150.172
0.516                  -0.304543         -130.07         -56.0518         28.3517         -56.0524          28.347      -0.00813122         150.105
0.517                  -0.315646        -130.541         -55.8428         26.6962         -55.8434         26.6915       -0.0082129         150.039
0.518                  -0.326897        -131.014          -55.635         25.0256         -55.6356          25.021      -0.00829437         149.972
0.519                  -0.338298        -131.488         -55.4285         23.3403         -55.4291         23.3358      -0.00837564         149.906
0.52                    -0.34985        -131.964         -55.2234         21.6408          -55.224         21.6364       -0.0084567         149.839
0.521                  -0.361552        -132.441         -55.0197         19.9274         -55.0204         19.9232      -0.00853755         149.772
0.522                  -0.373407         -132.92         -54.8174         18.2007         -54.8181         18.1966      -0.00861821         149.705
0.523                  -0.385415          -133.4         -54.6167         16.4612         -54.6174         16.4573      -0.00869869         149.638
0.524                  -0.397576        -133.882         -54.4176         14.7093         -54.4183         14.7055      -0.00877898         149.571
0.525                  -0.409892        -134.365         -54.2201         12.9455         -54.2208          12.942      -0.00885909         149.504
0.526                  -0.422365         -134.85         -54.0243         11.1704          -54.025         11.1671      -0.00893904         149.437
0.527                  -0.434994        -135.337         -53.8302         9.38462         -53.8309          9.3815      -0.00901883         149.369
0.528                  -0.447782        -135.825         -53.6378          7.5886         -53.6385         7.58571      -0.00909847         149.302
0.529                  -0.460731        -136.315         -53.4472         5.78297          -53.448         5.78031      -0.00917799         149.234
0.53                    -0.47384        -136.807         -53.2584         3.96831         -53.2592         3.96588      -0.00925738         149.167
0.531                  -0.487113        -137.301         -53.0715         2.14521         -53.0723         2.14302      -0.00933666         149.099
0.532                  -0.500551        -137.796         -52.8865        0.314265         -52.8872        0.312313      -0.00941586         149.031
0.533                  -0.514156        -138.293         -52.7033        -1.52391          -52.704        -1.52563      -0.00949498         148.963
0.534                   -0.52793        -138.792          -52.522        -3.36871         -52.5227         -3.3702      -0.00957404         148.895
0.535                  -0.541875        -139.293         -52.3426        -5.21953         -52.3433        -5.22079      -0.00965307         148.827
0.536                  -0.555993        -139.796         -52.1651        -7.07576         -52.1658        -7.07679      -0.00973209         148.759
0.537                  -0.570287        -140.301         -51.9896        -8.93679         -51.9902        -8.93761      -0.00981112          148.69
0.538                  -0.584759        -140.808         -51.8159         -10.802         -51.8165        -10.8026      -0.00989017         148.622
0.539                  -0.599412        -141.317         -51.6441        -12.6709         -51.6447        -12.6713      -0.00996929         148.553
0.54                   -0.614249        -141.828         -51.4742        -14.5428         -51.4748         -14.543       -0.0100485         148.485
0.541                  -0.629273        -142.342         -51.3062        -16.4171         -51.3067        -16.4171       -0.0101278         148.416
0.542                  -0.644488        -142.857           -51.14        -18.2933         -51.1405        -18.2932       -0.0102073         148.347
0.543                  -0.659895        -143.375         -50.9756        -20.1709         -50.9761        -20.1706       -0.0102869         148.278
0.544                    -0.6755        -143.895          -50.813        -22.0493         -50.8135        -22.0489       -0.0103668         148.209
0.545                  -0.691307        -144.417         -50.6521        -23.9281         -50.6526        -23.9275       -0.0104469          148.14
0.546                  -0.707318        -144.942          -50.493        -25.8066         -50.4934        -25.8059       -0.0105273          148.07
0.547                  -0.723538        -145.469         -50.3355        -27.6845         -50.3359        -27.6837        -0.010608         148.001
0.548                  -0.739972        -145.998         -50.1797        -29.5613         -50.1801        -29.5604       -0.0106892         147.931
0.549                  -0.756625         -146.53         -50.0254        -31.4366         -50.0258        -31.4356       -0.0107707         147.861
0.55                   -0.773501        -147.064         -49.8727          -33.31          -49.873        -33.3089       -0.0108527         147.791
0.551                  -0.790606        -147.601         -49.7214         -35.181         -49.7218        -35.1799       -0.0109352         147.722
0.552                  -0.807944        -148.141         -49.5716        -37.0494         -49.5719        -37.0482       -0.0110183         147.651
0.553                  -0.825523        -148.683         -49.4232        -38.9149         -49.4235        -38.9136       -0.0111021         147.581
0.554                  -0.843348        -149.228         -49.2761         -40.777         -49.2763        -40.7757       -0.0111865         147.511
0.555                  -0.861424        -149.776         -49.1302        -42.6356         -49.1305        -42.6343       -0.0112716          147.44
0.556                   -0.87976        -150.327         -48.9856        -44.4904         -48.9858        -44.4891       -0.0113576          147.37
0.557                  -0.898362         -150.88         -48.8421        -46.3412         -48.8423        -46.3399       -0.0114444         147.299
0.558                  -0.917237        -151.437         -48.6997        -48.1877         -48.6998        -48.1864       -0.0115322         147.228
0.559                  -0.936393        -151.996         -48.5583        -50.0299         -48.5584        -50.0286        -0.011621         147.157
0.56                   -0.955839        -152.558         -48.4178        -51.8675         -48.4179        -51.8662       -0.0117109         147.086
0.561                  -0.975582        -153.124         -48.2783        -53.7004         -48.2784        -53.6992       -0.0118019         147.015
0.562                  -0.995631        -153.693         -48.1396        -55.5286         -48.1397        -55.5274       -0.0118942         146.943
0.563                     -1.016        -154.264         -48.0017         -57.352         -48.0018        -57.3508       -0.0119877         146.872
0.564                   -1.03669         -154.84         -47.8645        -59.1704         -47.8646        -59.1693       -0.0120827           146.8
0.565                   -1.05771        -155.418          -47.728         -60.984         -47.7281        -60.9828       -0.0121792         146.728
0.566                   -1.07909            -156         -47.5921        -62.7926         -47.5921        -62.7915       -0.0122772         146.656
0.567                   -1.10082        -156.585         -47.4568        -64.5962         -47.4568        -64.5952        -0.012377         146.584
0.568                   -1.12292        -157.174         -47.3219         -66.395         -47.3219        -66.3941       -0.0124784         146.512
0.569                    -1.1454        -157.766         -47.1875         -68.189         -47.1875        -68.1881       -0.0125817         146.439
0.57                    -1.16828        -158.362         -47.0535        -69.9782         -47.0535        -69.9773        -0.012687         146.367
0.571                   -1.19156        -158.962         -46.9198        -71.7626         -46.9198        -71.7619       -0.0127944         146.294
0.572                   -1.21527        -159.565         -46.7865        -73.5425         -46.7865        -73.5418       -0.0129038         146.221
0.573                   -1.23941        -160.173         -46.6534        -75.3179         -46.6534        -75.3173       -0.0130156         146.148
0.574                     -1.264        -160.784         -46.5205         -77.089         -46.5205        -77.0884       -0.0131297         146.075
0.575                   -1.28907        -161.398         -46.3877        -78.8558         -46.3877        -78.8553       -0.0132463         146.001
0.576                   -1.31461        -162.017         -46.2551        -80.6186         -46.2551        -80.6181       -0.0133655         145.928
0.577                   -1.34066         -162.64         -46.1226        -82.3775         -46.1225         -82.377       -0.0134874         145.854
0.578                   -1.36722        -163.267         -45.9901        -84.1326         -45.9901        -84.1322       -0.0136121          145.78
0.579                   -1.39433        -163.899         -45.8576        -85.8842         -45.8576        -85.8839       -0.0137397         145.706
0.58                    -1.42199        -164.534         -45.7251        -87.6325         -45.7251        -87.6322       -0.0138704         145.632
0.581                   -1.45023        -165.174         -45.5925        -89.3775         -45.5925        -89.3773       -0.0140042         145.558
0.582                   -1.47908        -165.818         -45.4598        -91.1197         -45.4598        -91.1195       -0.0141414         145.483
0.583                   -1.50854        -166.466         -45.3271        -92.8591         -45.3271        -92.8589       -0.0142819         145.408
0.584                   -1.53865        -167.119         -45.1942         -94.596         -45.1942        -94.5959       -0.0144259         145.333
0.585                   -1.56942        -167.776         -45.0611        -96.3306         -45.0611        -96.3305       -0.0145736         145.258
0.586                   -1.60089        -168.438         -44.9279        -98.0631         -44.9279        -98.0631        -0.014725         145.183
0.587                   -1.63308        -169.105         -44.7944        -99.7939         -44.7944        -99.7938       -0.0148803         145.108
0.588                   -1.66602        -169.776         -44.6607        -101.523         -44.6607        -101.523       -0.0150395         145.032
0.589                   -1.69973        -170.451         -44.5268        -103.251         -44.5268        -103.251       -0.0152029         144.956
0.59                    -1.73424        -171.132         -44.3927        -104.977         -44.3927        -104.978       -0.0153705          144.88
0.591                   -1.76958        -171.817         -44.2582        -106.703         -44.2583        -106.703       -0.0155424         144.804
0.592                   -1.80579        -172.507         -44.1235        -108.428         -44.1236        -108.429       -0.0157187         144.728
0.593                   -1.84289        -173.202         -43.9886        -110.153         -43.9886        -110.153       -0.0158996         144.651
0.594                   -1.88092        -173.901         -43.8533        -111.878         -43.8533        -111.878       -0.0160851         144.575
0.595                   -1.91992        -174.606         -43.7177        -113.603         -43.7178        -113.603       -0.0162754         144.498
0.596                   -1.95991        -175.315         -43.5819        -115.328         -43.5819        -115.328       -0.0164706         144.421
0.597                   -2.00093        -176.029         -43.4458        -117.054         -43.4458        -117.054       -0.0166707         144.343
0.598                   -2.04303        -176.748         -43.3093         -118.78         -43.3094         -118.78       -0.0168758         144.266
0.599                   -2.08624        -177.472         -43.1726        -120.508         -43.1726        -120.508       -0.0170861         144.188
0.6                     -2.13059          -178.2         -43.0356        -122.237         -43.0356        -122.237       -0.0173016          144.11
0.601                   -2.17614        -178.933         -42.8983        -123.968         -42.8984        -123.968       -0.0175224         144.032
0.602                   -2.22291        -179.671         -42.7608          -125.7         -42.7608          -125.7       -0.0177485         143.954
0.603                   -2.27096         179.586         -42.6229        -127.434          -42.623        -127.434       -0.0179801         143.876
0.604                   -2.32033         178.839         -42.4849        -129.171         -42.4849        -129.171       -0.0182172         143.797
0.605                   -2.37106         178.087         -42.3466         -130.91         -42.3466         -130.91       -0.0184599         143.718
0.606                    -2.4232         177.331          -42.208        -132.651         -42.2081        -132.651       -0.0187082         143.639
0.607                   -2.47679          176.57         -42.0693        -134.396         -42.0693        -134.396       -0.0189622          143.56
0.608                   -2.53188         175.805         -41.9304        -136.143         -41.9304        -136.143        -0.019222          143.48
0.609                   -2.58852         175.036         -41.7913        -137.894         -41.7913        -137.894       -0.0194874         143.401
0.61                    -2.64676         174.263          -41.652        -139.648          -41.652        -139.648       -0.0197587         143.321
0.611                   -2.70664         173.486         -41.5126        -141.406         -41.5127        -141.406       -0.0200358          143.24
0.612                   -2.76822         172.706         -41.3731        -143.168         -41.3732        -143.168       -0.0203187          143.16
0.613                   -2.83154         171.922         -41.2336        -144.933         -41.2336        -144.933       -0.0206075          143.08
0.614                   -2.89666         171.136         -41.0939        -146.703          -41.094        -146.703       -0.0209021         142.999
0.615                   -2.96362         170.346         -40.9543        -148.477         -40.9543        -148.477       -0.0212027         142.918
0.616                   -3.03247         169.554         -40.8146        -150.255         -40.8146        -150.255       -0.0215091         142.836
0.617                   -3.10326         168.759          -40.675        -152.038          -40.675        -152.038       -0.0218213         142.755
0.618                   -3.17604         167.962         -40.5354        -153.825         -40.5354        -153.825       -0.0221394         142.673
0.619                   -3.25086         167.164         -40.3959        -155.617         -40.3959        -155.617       -0.0224634         142.591
0.62                    -3.32776         166.365         -40.2565        -157.414         -40.2565        -157.414       -0.0227932         142.509
0.621                   -3.40679         165.564         -40.1173        -159.215         -40.1173        -159.215       -0.0231288         142.427
0.622                     -3.488         164.764         -39.9782        -161.022         -39.9782        -161.022       -0.0234702         142.344
0.623                   -3.57141         163.963         -39.8394        -162.833         -39.8394        -162.833       -0.0238173         142.261
0.624                   -3.65709         163.163         -39.7008         -164.65         -39.7008         -164.65       -0.0241701         142.178
0.625                   -3.74505         162.364         -39.5625        -166.471         -39.5625        -166.471       -0.0245285         142.095
0.626                   -3.83533         161.567         -39.4245        -168.298         -39.4245        -168.298       -0.0248927         142.011
0.627                   -3.92797         160.772         -39.2869        -170.129         -39.2868        -170.129       -0.0252624         141.927
0.628                   -4.02299         159.979         -39.1496        -171.966         -39.1496        -171.966       -0.0256377         141.843
0.629                   -4.12042         159.191         -39.0128        -173.808         -39.0127        -173.808       -0.0260184         141.758
