! TOUCHSTONE file generated by CST MICROWAVE STUDIO
! Date and time: Mon Sep 28 14:08:35 2020
! Project name: Scenario_1_Free_SPace.cst
! Parameters = {dx1=433; L_HA=400; MT=2.54; Rad_Dielectric=30; Rad_Lower=7.3; Rad_Upper=30; a_HA=580; a_WG=246; b_HA=500; b_WG=121; c_HA=0; c_WG=187; d_feed=85; h_feed=15; h_lower=18; h_upper=40}
! Header version: 2018
! Port assignment regex: !\s*Touchstone port\s*([0-9]+)\s*=\s*(CST MWS port|CST DS port)\s*([0-9]+|Zmin|Zmax)\s*\(\"(.*)\"\)(\s*mode\s*([0-9]+))?.*
! Touchstone port assignment:
! Touchstone port 1 = CST MWS port 1 ("")
! Touchstone port 2 = CST MWS port 2 ("")
# GHz S DB R 50
0.5                    -0.151615        -122.784         -59.8378         32.8784         -59.8378         32.8784      -0.00685889          151.11
0.501                    -0.1586        -123.231         -59.6217         31.3148         -59.6214         31.3184      -0.00692946         151.045
0.502                  -0.165753        -123.678         -59.4064           29.74         -59.4057         29.7469      -0.00699978          150.98
0.503                  -0.173075        -124.128         -59.1919          28.154         -59.1909         28.1638      -0.00706985         150.914
0.504                  -0.180567        -124.578         -58.9783          26.557          -58.977         26.5694       -0.0071397         150.849
0.505                  -0.188227         -125.03         -58.7657          24.949         -58.7641         24.9638      -0.00720932         150.783
0.506                  -0.196057        -125.484          -58.554         23.3301         -58.5521          23.347      -0.00727875         150.718
0.507                  -0.204056        -125.939         -58.3433         21.7005         -58.3412         21.7191      -0.00734798         150.652
0.508                  -0.212226        -126.395         -58.1337         20.0604         -58.1313         20.0805      -0.00741703         150.586
0.509                  -0.220566        -126.853         -57.9251         18.4097         -57.9225         18.4311      -0.00748592          150.52
0.51                   -0.229078        -127.313         -57.7177         16.7488         -57.7149         16.7713      -0.00755466         150.454
0.511                  -0.237761        -127.774         -57.5114         15.0779         -57.5084         15.1011      -0.00762327         150.388
0.512                  -0.246616        -128.236         -57.3063          13.397         -57.3031         13.4209      -0.00769177         150.322
0.513                  -0.255644          -128.7         -57.1024         11.7065          -57.099         11.7308      -0.00776016         150.256
0.514                  -0.264846        -129.166         -56.8997         10.0065         -56.8962          10.031      -0.00782847          150.19
0.515                  -0.274222        -129.633         -56.6983         8.29728         -56.6947         8.32194      -0.00789672         150.124
0.516                  -0.283773        -130.102         -56.4983         6.57913         -56.4945         6.60374      -0.00796492         150.057
0.517                    -0.2935        -130.573         -56.2995         4.85231         -56.2957         4.87671       -0.0080331         149.991
0.518                  -0.303405        -131.046         -56.1022         3.11708         -56.0983         3.14116      -0.00810127         149.924
0.519                  -0.313488         -131.52         -55.9062         1.37376         -55.9023         1.39739      -0.00816945         149.857
0.52                   -0.323751        -131.996         -55.7116       -0.377369         -55.7077       -0.354278      -0.00823768         149.791
0.521                  -0.334195        -132.473         -55.5185        -2.13598         -55.5145        -2.11352      -0.00830596         149.724
0.522                  -0.344821        -132.953         -55.3269        -3.90174         -55.3229           -3.88      -0.00837433         149.657
0.523                  -0.355631        -133.434         -55.1367        -5.67432         -55.1327        -5.65336       -0.0084428          149.59
0.524                  -0.366627        -133.917          -54.948        -7.45337         -54.9441        -7.43326      -0.00851141         149.523
0.525                   -0.37781        -134.402         -54.7609        -9.23854         -54.7569        -9.21932      -0.00858017         149.455
0.526                  -0.389182        -134.889         -54.5752        -11.0295         -54.5713        -11.0112      -0.00864912         149.388
0.527                  -0.400745        -135.378         -54.3911        -12.8258         -54.3872        -12.8085      -0.00871829         149.321
0.528                  -0.412501        -135.869         -54.2085        -14.6272         -54.2047        -14.6108       -0.0087877         149.253
0.529                  -0.424453        -136.362         -54.0274        -16.4332         -54.0237        -16.4178      -0.00885738         149.185
0.53                   -0.436602        -136.857         -53.8478        -18.2435         -53.8443        -18.2291      -0.00892737         149.118
0.531                  -0.448952        -137.354         -53.6698        -20.0577         -53.6664        -20.0444       -0.0089977          149.05
0.532                  -0.461506        -137.853         -53.4933        -21.8755           -53.49        -21.8631       -0.0090684         148.982
0.533                  -0.474265        -138.355         -53.3183        -23.6964         -53.3151         -23.685       -0.0091395         148.914
0.534                  -0.487233        -138.858         -53.1448        -25.5202         -53.1418        -25.5097      -0.00921104         148.846
0.535                  -0.500413        -139.364         -52.9728        -27.3464         -52.9699        -27.3369      -0.00928307         148.777
0.536                  -0.513809        -139.872         -52.8023        -29.1747         -52.7995        -29.1661      -0.00935561         148.709
0.537                  -0.527425        -140.382         -52.6332        -31.0047         -52.6306        -30.9969      -0.00942872         148.641
0.538                  -0.541263        -140.895         -52.4655        -32.8362         -52.4631        -32.8292      -0.00950242         148.572
0.539                  -0.555328         -141.41         -52.2993        -34.6687          -52.297        -34.6625      -0.00957676         148.503
0.54                   -0.569624        -141.927         -52.1344        -36.5019         -52.1323        -36.4965      -0.00965179         148.434
0.541                  -0.584155        -142.447         -51.9709        -38.3356         -51.9689        -38.3309      -0.00972755         148.366
0.542                  -0.598927        -142.969         -51.8086        -40.1695         -51.8068        -40.1653      -0.00980409         148.297
0.543                  -0.613943        -143.494         -51.6477        -42.0032          -51.646        -41.9996      -0.00988145         148.227
0.544                  -0.629209        -144.022          -51.488        -43.8364         -51.4865        -43.8334       -0.0099597         148.158
0.545                  -0.644731        -144.552         -51.3295         -45.669         -51.3282        -45.6665       -0.0100389         148.089
0.546                  -0.660514        -145.085         -51.1722        -47.5007          -51.171        -47.4987        -0.010119         148.019
0.547                  -0.676564         -145.62          -51.016        -49.3313          -51.015        -49.3296       -0.0102002          147.95
0.548                  -0.692887        -146.158         -50.8609        -51.1605         -50.8601        -51.1592       -0.0102825          147.88
0.549                   -0.70949        -146.699         -50.7069        -52.9881         -50.7062        -52.9871        -0.010366          147.81
0.55                   -0.726379        -147.243         -50.5539        -54.8141         -50.5533        -54.8133       -0.0104506          147.74
0.551                  -0.743562         -147.79         -50.4018        -56.6381         -50.4013        -56.6376       -0.0105365          147.67
0.552                  -0.761046        -148.339         -50.2506        -58.4601         -50.2503        -58.4598       -0.0106238           147.6
0.553                  -0.778838        -148.892         -50.1003          -60.28         -50.1001        -60.2798       -0.0107125         147.529
0.554                  -0.796948        -149.447         -49.9509        -62.0976         -49.9508        -62.0975       -0.0108026         147.459
0.555                  -0.815383        -150.006         -49.8022        -63.9128         -49.8022        -63.9128       -0.0108943         147.388
0.556                  -0.834152        -150.568         -49.6542        -65.7256         -49.6544        -65.7256       -0.0109876         147.318
0.557                  -0.853265        -151.133          -49.507        -67.5359         -49.5072        -67.5359       -0.0110826         147.247
0.558                  -0.872731        -151.701         -49.3603        -69.3437         -49.3607        -69.3436       -0.0111794         147.176
0.559                  -0.892561        -152.272         -49.2143        -71.1489         -49.2148        -71.1488       -0.0112779         147.105
0.56                   -0.912765        -152.847         -49.0688        -72.9515         -49.0694        -72.9513       -0.0113784         147.033
0.561                  -0.933353        -153.425         -48.9239        -74.7515         -48.9245        -74.7512       -0.0114809         146.962
0.562                  -0.954339        -154.006         -48.7794         -76.549         -48.7801        -76.5486       -0.0115855          146.89
0.563                  -0.975732         -154.59         -48.6353        -78.3439         -48.6361        -78.3434       -0.0116922         146.819
0.564                  -0.997546        -155.179         -48.4917        -80.1364         -48.4924        -80.1358       -0.0118011         146.747
0.565                   -1.01979         -155.77         -48.3483        -81.9264         -48.3492        -81.9257       -0.0119124         146.675
0.566                   -1.04249        -156.365         -48.2053        -83.7141         -48.2062        -83.7132       -0.0120261         146.603
0.567                   -1.06564        -156.964         -48.0626        -85.4996         -48.0635        -85.4985       -0.0121423         146.531
0.568                   -1.08928        -157.567           -47.92        -87.2828          -47.921        -87.2816       -0.0122611         146.458
0.569                    -1.1134        -158.173         -47.7777         -89.064         -47.7787        -89.0626       -0.0123826         146.386
0.57                    -1.13803        -158.782         -47.6356        -90.8433         -47.6365        -90.8417       -0.0125069         146.313
0.571                   -1.16318        -159.396         -47.4935        -92.6207         -47.4945         -92.619        -0.012634          146.24
0.572                   -1.18886        -160.013         -47.3516        -94.3965         -47.3526        -94.3946       -0.0127641         146.167
0.573                   -1.21511        -160.634         -47.2098        -96.1707         -47.2107        -96.1686       -0.0128973         146.094
0.574                   -1.24193        -161.259          -47.068        -97.9435         -47.0689        -97.9413       -0.0130336         146.021
0.575                   -1.26934        -161.888         -46.9262        -99.7151         -46.9271        -99.7128       -0.0131732         145.947
0.576                   -1.29737         -162.52         -46.7844        -101.486         -46.7853        -101.483       -0.0133161         145.874
0.577                   -1.32602        -163.157         -46.6426        -103.255         -46.6435        -103.253       -0.0134624           145.8
0.578                   -1.35533        -163.797         -46.5007        -105.024         -46.5016        -105.022       -0.0136123         145.726
0.579                   -1.38532        -164.441         -46.3588        -106.793         -46.3597         -106.79       -0.0137658         145.652
0.58                      -1.416         -165.09         -46.2168        -108.561         -46.2177        -108.558       -0.0139231         145.578
0.581                   -1.44739        -165.742         -46.0747        -110.329         -46.0755        -110.326       -0.0140841         145.503
0.582                   -1.47953        -166.398         -45.9325        -112.097         -45.9333        -112.094       -0.0142491         145.429
0.583                   -1.51243        -167.058         -45.7902        -113.865         -45.7909        -113.862       -0.0144181         145.354
0.584                   -1.54613        -167.722         -45.6477        -115.634         -45.6484        -115.631       -0.0145911         145.279
0.585                   -1.58063         -168.39         -45.5051        -117.404         -45.5058        -117.401       -0.0147683         145.204
0.586                   -1.61598        -169.062         -45.3624        -119.174          -45.363        -119.171       -0.0149498         145.129
0.587                   -1.65219        -169.737         -45.2195        -120.945         -45.2201        -120.942       -0.0151356         145.054
0.588                    -1.6893        -170.417         -45.0765        -122.718          -45.077        -122.715       -0.0153258         144.978
0.589                   -1.72732          -171.1         -44.9333        -124.492         -44.9338        -124.489       -0.0155205         144.902
0.59                     -1.7663        -171.787         -44.7899        -126.268         -44.7904        -126.265       -0.0157197         144.826
0.591                   -1.80625        -172.478         -44.6465        -128.046         -44.6469        -128.043       -0.0159235          144.75
0.592                    -1.8472        -173.173         -44.5028        -129.826         -44.5033        -129.823        -0.016132         144.674
0.593                   -1.88919        -173.871         -44.3591        -131.608         -44.3595        -131.605       -0.0163453         144.598
0.594                   -1.93225        -174.572         -44.2152        -133.393         -44.2156         -133.39       -0.0165633         144.521
0.595                   -1.97639        -175.277         -44.0712         -135.18         -44.0715        -135.177       -0.0167861         144.444
0.596                   -2.02167        -175.985         -43.9271         -136.97         -43.9274        -136.968       -0.0170138         144.367
0.597                   -2.06809        -176.696         -43.7829        -138.763         -43.7832        -138.761       -0.0172463          144.29
0.598                   -2.11571        -177.411         -43.6386        -140.559         -43.6389        -140.557       -0.0174838         144.213
0.599                   -2.16453        -178.128         -43.4943        -142.359         -43.4945        -142.357       -0.0177262         144.135
0.6                     -2.21461        -178.848           -43.35        -144.162         -43.3501         -144.16       -0.0179736         144.058
0.601                   -2.26595        -179.571         -43.2056        -145.969         -43.2057        -145.967       -0.0182258          143.98
0.602                   -2.31861         179.704         -43.0612         -147.78         -43.0613        -147.778       -0.0184831         143.902
0.603                    -2.3726         178.977         -42.9168        -149.595         -42.9169        -149.593       -0.0187453         143.823
0.604                   -2.42795         178.247         -42.7725        -151.413         -42.7726        -151.412       -0.0190123         143.745
0.605                    -2.4847         177.516         -42.6282        -153.236         -42.6283        -153.235       -0.0192843         143.666
0.606                   -2.54286         176.783         -42.4841        -155.063         -42.4841        -155.062       -0.0195612         143.588
0.607                   -2.60247         176.048           -42.34        -156.895         -42.3401        -156.894       -0.0198429         143.509
0.608                   -2.66355         175.313         -42.1962        -158.731         -42.1962         -158.73       -0.0201294         143.429
0.609                   -2.72613         174.576         -42.0524        -160.572         -42.0524        -160.571       -0.0204206          143.35
0.61                    -2.79022         173.839         -41.9089        -162.417         -41.9089        -162.416       -0.0207165          143.27
0.611                   -2.85586         173.102         -41.7657        -164.267         -41.7656        -164.267        -0.021017          143.19
0.612                   -2.92305         172.365         -41.6227        -166.122         -41.6226        -166.121       -0.0213221          143.11
0.613                   -2.99181         171.628           -41.48        -167.981         -41.4799        -167.981       -0.0216317          143.03
0.614                   -3.06216         170.892         -41.3376        -169.846         -41.3375        -169.845       -0.0219458          142.95
0.615                   -3.13411         170.156         -41.1956        -171.715         -41.1955        -171.714       -0.0222641         142.869
0.616                   -3.20767         169.422         -41.0539        -173.589         -41.0539        -173.588       -0.0225867         142.788
0.617                   -3.28285          168.69         -40.9127        -175.467         -40.9127        -175.467       -0.0229136         142.707
0.618                   -3.35965          167.96          -40.772         -177.35         -40.7719         -177.35       -0.0232445         142.626
0.619                   -3.43806         167.233         -40.6317        -179.238         -40.6316        -179.238       -0.0235794         142.544
0.62                     -3.5181         166.508          -40.492         178.869         -40.4919          178.87       -0.0239183         142.462
0.621                   -3.59974         165.786         -40.3528         176.973         -40.3527         176.973       -0.0242611          142.38
0.622                   -3.68298         165.069         -40.2141         175.071          -40.214         175.071       -0.0246076         142.298
0.623                    -3.7678         164.355         -40.0761         173.165          -40.076         173.166       -0.0249579         142.215
0.624                   -3.85419         163.646         -39.9387         171.256         -39.9386         171.256       -0.0253118         142.133
0.625                   -3.94212         162.942          -39.802         169.342         -39.8019         169.342       -0.0256692          142.05
0.626                   -4.03156         162.243         -39.6659         167.424         -39.6658         167.424       -0.0260302         141.967
0.627                   -4.12248          161.55         -39.5306         165.502         -39.5305         165.502       -0.0263947         141.883
0.628                   -4.21485         160.862         -39.3959         163.577         -39.3959         163.577       -0.0267626         141.799
0.629                   -4.30861         160.182         -39.2621         161.648          -39.262         161.648       -0.0271339         141.715
