! TOUCHSTONE file generated by CST MICROWAVE STUDIO
! Date and time: Mon Sep 28 14:08:47 2020
! Project name: Scenario_1_Free_SPace.cst
! Parameters = {dx1=450.3; L_HA=400; MT=2.54; Rad_Dielectric=30; Rad_Lower=7.3; Rad_Upper=30; a_HA=580; a_WG=246; b_HA=500; b_WG=121; c_HA=0; c_WG=187; d_feed=85; h_feed=15; h_lower=18; h_upper=40}
! Header version: 2018
! Port assignment regex: !\s*Touchstone port\s*([0-9]+)\s*=\s*(CST MWS port|CST DS port)\s*([0-9]+|Zmin|Zmax)\s*\(\"(.*)\"\)(\s*mode\s*([0-9]+))?.*
! Touchstone port assignment:
! Touchstone port 1 = CST MWS port 1 ("")
! Touchstone port 2 = CST MWS port 2 ("")
# GHz S DB R 50
0.5                    -0.152729        -122.758         -60.0501         22.7729         -60.0501         22.7729      -0.00684482         151.123
0.501                  -0.159815        -123.196         -59.8775         20.6423         -59.8754         20.6376      -0.00690391         151.058
0.502                   -0.16703        -123.636         -59.7029         18.5346         -59.6989          18.526      -0.00696309         150.992
0.503                  -0.174376        -124.078         -59.5265         16.4495         -59.5206         16.4376      -0.00702235         150.927
0.504                  -0.181853        -124.521         -59.3485         14.3865         -59.3408         14.3718      -0.00708171         150.861
0.505                  -0.189465        -124.967         -59.1691         12.3451         -59.1597         12.3282      -0.00714119         150.796
0.506                  -0.197211        -125.413         -58.9884         10.3246         -58.9775          10.306      -0.00720078          150.73
0.507                  -0.205095        -125.862         -58.8067         8.32454         -58.7944          8.3046      -0.00726052         150.665
0.508                  -0.213117        -126.312         -58.6241          6.3442         -58.6104         6.32329       -0.0073204         150.599
0.509                  -0.221279        -126.764         -58.4408          4.3829         -58.4259         4.36135      -0.00738045         150.533
0.51                   -0.229584        -127.218         -58.2568         2.43997         -58.2408         2.41805      -0.00744067         150.467
0.511                  -0.238032        -127.674         -58.0724        0.514687         -58.0554        0.492653      -0.00750109         150.401
0.512                  -0.246628        -128.132         -57.8876        -1.39365         -57.8696         -1.4156      -0.00756172         150.335
0.513                  -0.255371        -128.592         -57.7026        -3.28576         -57.6838        -3.30745      -0.00762257         150.269
0.514                  -0.264265        -129.053         -57.5174        -5.16236         -57.4978        -5.18363      -0.00768366         150.202
0.515                  -0.273313        -129.516         -57.3322        -7.02416         -57.3119         -7.0449      -0.00774502         150.136
0.516                  -0.282515        -129.982          -57.147        -8.87186         -57.1261        -8.89198      -0.00780666         150.069
0.517                  -0.291875        -130.449         -56.9619        -10.7062         -56.9405        -10.7256       -0.0078686         150.003
0.518                  -0.301396        -130.918         -56.7769        -12.5278         -56.7551        -12.5464      -0.00793086         149.936
0.519                   -0.31108         -131.39         -56.5922        -14.3373           -56.57        -14.3552      -0.00799346          149.87
0.52                    -0.32093        -131.863         -56.4077        -16.1355         -56.3853        -16.1525      -0.00805643         149.803
0.521                  -0.330948        -132.339         -56.2236         -17.923          -56.201        -17.9391      -0.00811978         149.736
0.522                  -0.341138        -132.816         -56.0399        -19.7003         -56.0171        -19.7156      -0.00818355         149.669
0.523                  -0.351503        -133.296         -55.8566        -21.4682         -55.8337        -21.4827      -0.00824776         149.602
0.524                  -0.362047        -133.778         -55.6738        -23.2272         -55.6508        -23.2408      -0.00831243         149.535
0.525                  -0.372772        -134.262         -55.4914        -24.9779         -55.4685        -24.9907      -0.00837759         149.467
0.526                  -0.383682        -134.749         -55.3096        -26.7208         -55.2867        -26.7328      -0.00844327           149.4
0.527                  -0.394781        -135.237         -55.1283        -28.4565         -55.1056        -28.4678       -0.0085095         149.332
0.528                  -0.406073        -135.728         -54.9476        -30.1856          -54.925        -30.1962      -0.00857632         149.265
0.529                  -0.417561        -136.221         -54.7675        -31.9085         -54.7451        -31.9184      -0.00864374         149.197
0.53                    -0.42925        -136.717         -54.5879        -33.6258         -54.5658         -33.635      -0.00871181         149.129
0.531                  -0.441144        -137.215          -54.409        -35.3378         -54.3872        -35.3465      -0.00878057         149.061
0.532                  -0.453248        -137.715         -54.2307        -37.0451         -54.2092        -37.0532      -0.00885003         148.993
0.533                  -0.465565        -138.218         -54.0531        -38.7482         -54.0319        -38.7557      -0.00892025         148.925
0.534                  -0.478102        -138.723          -53.876        -40.4473         -53.8552        -40.4544      -0.00899127         148.857
0.535                  -0.490862        -139.231         -53.6997        -42.1431         -53.6793        -42.1497      -0.00906311         148.789
0.536                  -0.503851        -139.742          -53.524        -43.8357          -53.504         -43.842      -0.00913583          148.72
0.537                  -0.517074        -140.255         -53.3489        -45.5257         -53.3294        -45.5316      -0.00920945         148.652
0.538                  -0.530537         -140.77         -53.1745        -47.2134         -53.1555         -47.219      -0.00928404         148.583
0.539                  -0.544246        -141.288         -53.0007        -48.8991         -52.9822        -48.9044      -0.00935964         148.515
0.54                   -0.558207        -141.809         -52.8276        -50.5831         -52.8097        -50.5882      -0.00943628         148.446
0.541                  -0.572425        -142.332         -52.6552        -52.2659         -52.6378        -52.2708      -0.00951402         148.377
0.542                  -0.586908        -142.859         -52.4834        -53.9477         -52.4665        -53.9524      -0.00959291         148.308
0.543                  -0.601661        -143.388         -52.3123        -55.6288         -52.2959        -55.6333      -0.00967301         148.239
0.544                  -0.616693         -143.92         -52.1418        -57.3094          -52.126        -57.3138      -0.00975435         148.169
0.545                  -0.632009        -144.454         -51.9719          -58.99         -51.9568        -58.9942      -0.00983701           148.1
0.546                  -0.647618        -144.992         -51.8027        -60.6706         -51.7881        -60.6748      -0.00992103          148.03
0.547                  -0.663528        -145.532         -51.6341        -62.3516         -51.6201        -62.3557       -0.0100065         147.961
0.548                  -0.679745        -146.075         -51.4661        -64.0333         -51.4528        -64.0373       -0.0100934         147.891
0.549                  -0.696279        -146.622         -51.2987        -65.7158          -51.286        -65.7197       -0.0101819         147.821
0.55                   -0.713138        -147.171          -51.132        -67.3993         -51.1199        -67.4032       -0.0102719         147.751
0.551                  -0.730331        -147.724         -50.9658        -69.0841         -50.9544         -69.088       -0.0103637         147.681
0.552                  -0.747868        -148.279         -50.8003        -70.7704         -50.7894        -70.7742       -0.0104572         147.611
0.553                  -0.765756        -148.838         -50.6353        -72.4583         -50.6251        -72.4621       -0.0105525          147.54
0.554                  -0.784008        -149.399          -50.471         -74.148         -50.4613        -74.1518       -0.0106496          147.47
0.555                  -0.802632        -149.964         -50.3071        -75.8398         -50.2982        -75.8435       -0.0107487         147.399
0.556                  -0.821639        -150.532         -50.1439        -77.5337         -50.1355        -77.5374       -0.0108498         147.328
0.557                  -0.841041        -151.103         -49.9812          -79.23         -49.9734        -79.2336        -0.010953         147.257
0.558                  -0.860847        -151.678         -49.8191        -80.9287         -49.8119        -80.9323       -0.0110584         147.186
0.559                  -0.881071        -152.256         -49.6575        -82.6301         -49.6509        -82.6336        -0.011166         147.115
0.56                   -0.901724        -152.837         -49.4965        -84.3342         -49.4904        -84.3376        -0.011276         147.044
0.561                  -0.922818        -153.421         -49.3359        -86.0412         -49.3305        -86.0445       -0.0113883         146.972
0.562                  -0.944366        -154.009         -49.1759        -87.7511         -49.1711        -87.7544       -0.0115031         146.901
0.563                  -0.966382          -154.6         -49.0165        -89.4642         -49.0121        -89.4673       -0.0116204         146.829
0.564                  -0.988878        -155.195         -48.8575        -91.1805         -48.8537        -91.1834       -0.0117404         146.757
0.565                   -1.01187        -155.793          -48.699        -92.9001         -48.6957        -92.9029       -0.0118631         146.685
0.566                   -1.03537        -156.395          -48.541        -94.6231         -48.5382        -94.6257       -0.0119886         146.613
0.567                    -1.0594        -156.999         -48.3835        -96.3496         -48.3812         -96.352        -0.012117         146.541
0.568                   -1.08396        -157.608         -48.2265        -98.0796         -48.2247        -98.0819       -0.0122483         146.469
0.569                   -1.10908         -158.22           -48.07        -99.8133         -48.0686        -99.8154       -0.0123827         146.396
0.57                    -1.13477        -158.835         -47.9139        -101.551          -47.913        -101.553       -0.0125202         146.323
0.571                   -1.16105        -159.454         -47.7583        -103.292         -47.7578        -103.294       -0.0126609          146.25
0.572                   -1.18793        -160.077         -47.6031        -105.037         -47.6031        -105.038       -0.0128049         146.177
0.573                   -1.21544        -160.703         -47.4484        -106.786         -47.4487        -106.787       -0.0129523         146.104
0.574                   -1.24359        -161.332         -47.2941        -108.539         -47.2948         -108.54       -0.0131031         146.031
0.575                   -1.27239        -161.965         -47.1403        -110.296         -47.1414        -110.296       -0.0132574         145.958
0.576                   -1.30187        -162.602         -46.9869        -112.057         -46.9883        -112.057       -0.0134154         145.884
0.577                   -1.33205        -163.242          -46.834        -113.822         -46.8357        -113.822        -0.013577          145.81
0.578                   -1.36295        -163.885         -46.6814        -115.592         -46.6834        -115.591       -0.0137424         145.736
0.579                   -1.39458        -164.532         -46.5293        -117.365         -46.5316        -117.364       -0.0139116         145.662
0.58                    -1.42696        -165.183         -46.3776        -119.143         -46.3802        -119.141       -0.0140847         145.588
0.581                   -1.46013        -165.836         -46.2264        -120.925         -46.2291        -120.923       -0.0142617         145.514
0.582                   -1.49409        -166.494         -46.0755        -122.711         -46.0785        -122.708       -0.0144428         145.439
0.583                   -1.52887        -167.154          -45.925        -124.501         -45.9282        -124.498       -0.0146279         145.364
0.584                   -1.56449        -167.818          -45.775        -126.296         -45.7784        -126.293       -0.0148172          145.29
0.585                   -1.60097        -168.485         -45.6254        -128.095         -45.6289        -128.091       -0.0150106         145.215
0.586                   -1.63834        -169.155         -45.4761        -129.898         -45.4798        -129.894       -0.0152082         145.139
0.587                   -1.67661        -169.828         -45.3273        -131.705         -45.3311        -131.701       -0.0154101         145.064
0.588                   -1.71581        -170.504         -45.1789        -133.517         -45.1828        -133.512       -0.0156162         144.989
0.589                   -1.75597        -171.184         -45.0309        -135.333         -45.0348        -135.328       -0.0158267         144.913
0.59                    -1.79709        -171.866         -44.8833        -137.153         -44.8873        -137.148       -0.0160416         144.837
0.591                   -1.83922        -172.551          -44.736        -138.978         -44.7401        -138.973       -0.0162607         144.761
0.592                   -1.88236        -173.238         -44.5892        -140.807         -44.5933        -140.801       -0.0164843         144.685
0.593                   -1.92654        -173.928         -44.4428         -142.64         -44.4469        -142.634       -0.0167122         144.609
0.594                   -1.97178        -174.621         -44.2968        -144.478         -44.3008        -144.471       -0.0169445         144.532
0.595                   -2.01811        -175.315         -44.1512        -146.319         -44.1552        -146.313       -0.0171812         144.455
0.596                   -2.06554        -176.012          -44.006        -148.165           -44.01        -148.158       -0.0174223         144.379
0.597                    -2.1141        -176.711         -43.8613        -150.015         -43.8651        -150.008       -0.0176676         144.302
0.598                   -2.16381        -177.412         -43.7169        -151.869         -43.7207        -151.862       -0.0179173         144.224
0.599                   -2.21468        -178.115          -43.573        -153.727         -43.5766         -153.72       -0.0181713         144.147
0.6                     -2.26673        -178.819         -43.4294         -155.59          -43.433        -155.583       -0.0184295         144.069
0.601                   -2.31999        -179.524         -43.2863        -157.456         -43.2898        -157.449       -0.0186919         143.992
0.602                   -2.37447         179.769         -43.1437        -159.327          -43.147        -159.319       -0.0189585         143.914
0.603                   -2.43018         179.061         -43.0014        -161.201         -43.0046        -161.194       -0.0192292         143.836
0.604                   -2.48714         178.353         -42.8596        -163.079         -42.8626        -163.072       -0.0195039         143.757
0.605                   -2.54537         177.644         -42.7183        -164.961         -42.7211        -164.954       -0.0197825         143.679
0.606                   -2.60486         176.935         -42.5773        -166.847           -42.58        -166.841       -0.0200651           143.6
0.607                   -2.66565         176.225         -42.4369        -168.737         -42.4394        -168.731       -0.0203515         143.521
0.608                   -2.72772         175.516         -42.2969        -170.631         -42.2992        -170.624       -0.0206417         143.442
0.609                    -2.7911         174.807         -42.1574        -172.528         -42.1595        -172.522       -0.0209356         143.363
0.61                    -2.85577         174.099         -42.0183        -174.429         -42.0202        -174.423       -0.0212331         143.283
0.611                   -2.92176         173.392         -41.8797        -176.333         -41.8814        -176.328        -0.021534         143.204
0.612                   -2.98905         172.685         -41.7416        -178.241         -41.7431        -178.236       -0.0218385         143.124
0.613                   -3.05764         171.981          -41.604         179.848         -41.6053         179.852       -0.0221463         143.044
0.614                   -3.12754         171.278         -41.4669         177.934          -41.468         177.937       -0.0224574         142.963
0.615                   -3.19872         170.577         -41.3303         176.016         -41.3312         176.019       -0.0227717         142.883
0.616                   -3.27119         169.878         -41.1942         174.095         -41.1949         174.098       -0.0230891         142.802
0.617                   -3.34493         169.181         -41.0586         172.171         -41.0591         172.173       -0.0234096         142.721
0.618                   -3.41991         168.488         -40.9235         170.244         -40.9239         170.245        -0.023733          142.64
0.619                   -3.49614         167.797          -40.789         168.314         -40.7892         168.315       -0.0240594         142.558
0.62                    -3.57357          167.11          -40.655         166.381          -40.655         166.381       -0.0243887         142.477
0.621                    -3.6522         166.426         -40.5216         164.446         -40.5214         164.445       -0.0247208         142.395
0.622                   -3.73198         165.746         -40.3887         162.508         -40.3884         162.506       -0.0250557         142.313
0.623                    -3.8129          165.07         -40.2564         160.567         -40.2559         160.565       -0.0253934          142.23
0.624                   -3.89491         164.398         -40.1246         158.624          -40.124         158.621       -0.0257338         142.148
0.625                   -3.97799          163.73         -39.9934         156.679         -39.9927         156.675       -0.0260769         142.065
0.626                   -4.06208         163.068         -39.8628         154.731         -39.8619         154.727       -0.0264227         141.982
0.627                   -4.14716         162.409         -39.7328         152.781         -39.7318         152.777       -0.0267712         141.898
0.628                   -4.23318         161.756         -39.6033          150.83         -39.6022         150.824       -0.0271224         141.815
0.629                   -4.32008         161.108         -39.4745         148.876         -39.4733          148.87       -0.0274765         141.731
