! TOUCHSTONE file generated by CST MICROWAVE STUDIO
! Date and time: Mon Sep 28 14:08:57 2020
! Project name: Scenario_1_Free_SPace.cst
! Parameters = {dx1=467.7; L_HA=400; MT=2.54; Rad_Dielectric=30; Rad_Lower=7.3; Rad_Upper=30; a_HA=580; a_WG=246; b_HA=500; b_WG=121; c_HA=0; c_WG=187; d_feed=85; h_feed=15; h_lower=18; h_upper=40}
! Header version: 2018
! Port assignment regex: !\s*Touchstone port\s*([0-9]+)\s*=\s*(CST MWS port|CST DS port)\s*([0-9]+|Zmin|Zmax)\s*\(\"(.*)\"\)(\s*mode\s*([0-9]+))?.*
! Touchstone port assignment:
! Touchstone port 1 = CST MWS port 1 ("")
! Touchstone port 2 = CST MWS port 2 ("")
# GHz S DB R 50
0.5                    -0.151798        -122.525         -60.3699         12.7205         -60.3699         12.7205      -0.00673317         151.147
0.501                  -0.153001        -122.968         -60.2392         12.1523         -60.2388         12.1712      -0.00677155         151.081
0.502                  -0.154436        -123.413         -60.1077          11.555         -60.1068         11.5923      -0.00681121         151.016
0.503                  -0.156107        -123.861         -59.9755         10.9285         -59.9742         10.9837      -0.00685215          150.95
0.504                   -0.15802        -124.311         -59.8426         10.2727         -59.8408         10.3455      -0.00689436         150.885
0.505                  -0.160179        -124.764          -59.709          9.5876         -59.7067         9.67738      -0.00693786         150.819
0.506                   -0.16259        -125.219         -59.5746         8.87306         -59.5719          8.9794      -0.00698266         150.753
0.507                  -0.165257        -125.676         -59.4395         8.12898         -59.4364         8.25141      -0.00702875         150.687
0.508                  -0.168186        -126.137         -59.3037         7.35526         -59.3002         7.49332      -0.00707614         150.621
0.509                  -0.171383        -126.599         -59.1671          6.5518         -59.1632         6.70504      -0.00712484         150.556
0.51                   -0.174852        -127.064         -59.0298          5.7185         -59.0256         5.88646      -0.00717486         150.489
0.511                  -0.178599        -127.532         -58.8917         4.85523         -58.8871         5.03746      -0.00722619         150.423
0.512                  -0.182628        -128.002         -58.7529          3.9619         -58.7479         4.15795      -0.00727886         150.357
0.513                  -0.186947        -128.475         -58.6132         3.03838          -58.608         3.24779      -0.00733285         150.291
0.514                  -0.191559         -128.95         -58.4727         2.08456         -58.4672          2.3069      -0.00738818         150.224
0.515                  -0.196471        -129.428         -58.3314         1.10033         -58.3256         1.33513      -0.00744485         150.158
0.516                  -0.201688        -129.908         -58.1893       0.0855615         -58.1832        0.332386      -0.00750288         150.091
0.517                  -0.207216        -130.391         -58.0462       -0.959848         -58.0399       -0.701455      -0.00756226         150.025
0.518                   -0.21306        -130.876         -57.9022        -2.03602         -57.8957        -1.76651      -0.00762301         149.958
0.519                  -0.219226        -131.363         -57.7572        -3.14306         -57.7506        -2.86289      -0.00768513         149.891
0.52                    -0.22572        -131.854         -57.6113        -4.28107         -57.6045         -3.9907      -0.00774862         149.824
0.521                  -0.232547        -132.346         -57.4644        -5.45018         -57.4574        -5.15006       -0.0078135         149.757
0.522                  -0.239714        -132.842         -57.3164        -6.65046         -57.3094        -6.34107      -0.00787978          149.69
0.523                  -0.247226        -133.339         -57.1673        -7.88202         -57.1602        -7.56381      -0.00794745         149.623
0.524                  -0.255089         -133.84         -57.0171        -9.14494           -57.01        -8.81839      -0.00801653         149.556
0.525                  -0.263308        -134.342         -56.8658        -10.4393         -56.8586        -10.1049      -0.00808703         149.489
0.526                   -0.27189        -134.848         -56.7133        -11.7652         -56.7061        -11.4233      -0.00815895         149.421
0.527                  -0.280841        -135.355         -56.5596        -13.1226         -56.5524        -12.7739       -0.0082323         149.354
0.528                  -0.290167        -135.866         -56.4046        -14.5116         -56.3975        -14.1565      -0.00830709         149.286
0.529                  -0.299873        -136.378         -56.2483        -15.9323         -56.2413        -15.5712      -0.00838333         149.219
0.53                   -0.309965        -136.893         -56.0907        -17.3846         -56.0838        -17.0181      -0.00846102         149.151
0.531                   -0.32045        -137.411         -55.9317        -18.8686         -55.9249        -18.4972      -0.00854018         149.083
0.532                  -0.331333        -137.931         -55.7714        -20.3842         -55.7647        -20.0083      -0.00862082         149.015
0.533                   -0.34262        -138.453         -55.6096        -21.9314         -55.6031        -21.5516      -0.00870294         148.947
0.534                  -0.354318        -138.978         -55.4464        -23.5101         -55.4401         -23.127      -0.00878656         148.879
0.535                  -0.366432        -139.506         -55.2817        -25.1204         -55.2756        -24.7343      -0.00887167         148.811
0.536                  -0.378969        -140.035         -55.1155        -26.7619         -55.1096        -26.3736      -0.00895831         148.742
0.537                  -0.391934        -140.567         -54.9478        -28.4348         -54.9421        -28.0446      -0.00904646         148.674
0.538                  -0.405333        -141.102         -54.7786        -30.1387         -54.7731        -29.7472      -0.00913615         148.605
0.539                  -0.419172        -141.639         -54.6078        -31.8735         -54.6026        -31.4813      -0.00922738         148.537
0.54                   -0.433458        -142.178         -54.4355        -33.6391         -54.4305        -33.2466      -0.00932016         148.468
0.541                  -0.448196        -142.719         -54.2616        -35.4352         -54.2569         -35.043      -0.00941451         148.399
0.542                  -0.463391        -143.263         -54.0861        -37.2615         -54.0817        -36.8701      -0.00951044          148.33
0.543                  -0.479051        -143.809         -53.9092        -39.1177         -53.9049        -38.7277      -0.00960795         148.261
0.544                   -0.49518        -144.358         -53.7306        -41.0036         -53.7267        -40.6155      -0.00970707         148.192
0.545                  -0.511785        -144.909         -53.5506        -42.9187         -53.5469         -42.533      -0.00980779         148.123
0.546                  -0.528871        -145.462         -53.3691        -44.8628         -53.3656          -44.48      -0.00991014         148.054
0.547                  -0.546444        -146.017         -53.1861        -46.8353         -53.1829         -46.456       -0.0100141         147.984
0.548                   -0.56451        -146.574         -53.0016        -48.8359         -52.9987        -48.4605       -0.0101198         147.915
0.549                  -0.583075        -147.134         -52.8158         -50.864         -52.8131        -50.4931       -0.0102271         147.845
0.55                   -0.602143        -147.695         -52.6287        -52.9192         -52.6262        -52.5531        -0.010336         147.775
0.551                  -0.621722        -148.259         -52.4402        -55.0009          -52.438        -54.6402       -0.0104467         147.705
0.552                  -0.641815        -148.825         -52.2506        -57.1085         -52.2486        -56.7536        -0.010559         147.635
0.553                  -0.662429        -149.394         -52.0598        -59.2414          -52.058        -58.8928       -0.0106731         147.565
0.554                  -0.683569        -149.964          -51.868        -61.3989         -51.8663         -61.057       -0.0107889         147.495
0.555                   -0.70524        -150.536         -51.6752        -63.5804         -51.6737        -63.2456       -0.0109065         147.425
0.556                  -0.727448         -151.11         -51.4815        -65.7851         -51.4801        -65.4579       -0.0110258         147.354
0.557                  -0.750197        -151.687          -51.287        -68.0123         -51.2858         -67.693       -0.0111469         147.284
0.558                  -0.773494        -152.265         -51.0918        -70.2612         -51.0908        -69.9501       -0.0112697         147.213
0.559                  -0.797342        -152.845         -50.8961         -72.531         -50.8951        -72.2284       -0.0113944         147.142
0.56                   -0.821748        -153.428         -50.6999        -74.8207          -50.699        -74.5271       -0.0115209         147.071
0.561                  -0.846715        -154.012         -50.5034        -77.1296         -50.5026        -76.8451       -0.0116493             147
0.562                   -0.87225        -154.598         -50.3067        -79.4567          -50.306        -79.1816       -0.0117795         146.929
0.563                  -0.898356        -155.186         -50.1099         -81.801         -50.1092        -81.5356       -0.0119116         146.858
0.564                  -0.925038        -155.775         -49.9131        -84.1616         -49.9125         -83.906       -0.0120455         146.786
0.565                  -0.952301        -156.367         -49.7166        -86.5374          -49.716        -86.2919       -0.0121814         146.715
0.566                  -0.980149         -156.96         -49.5204        -88.9274         -49.5198        -88.6921       -0.0123192         146.643
0.567                   -1.00859        -157.555         -49.3246        -91.3306         -49.3241        -91.1056        -0.012459         146.571
0.568                   -1.03762        -158.152         -49.1295        -93.7458          -49.129        -93.5312       -0.0126007         146.499
0.569                   -1.06725         -158.75         -48.9351        -96.1719         -48.9346        -95.9678       -0.0127444         146.427
0.57                    -1.09748         -159.35         -48.7416        -98.6079          -48.741        -98.4142       -0.0128902         146.355
0.571                   -1.12832        -159.952          -48.549        -101.052         -48.5485        -100.869       -0.0130379         146.282
0.572                   -1.15977        -160.555         -48.3576        -103.504         -48.3571        -103.332       -0.0131877          146.21
0.573                   -1.19184         -161.16         -48.1675        -105.963          -48.167        -105.801       -0.0133396         146.137
0.574                   -1.22452        -161.767         -47.9788        -108.426         -47.9782        -108.275       -0.0134936         146.065
0.575                   -1.25782        -162.375         -47.7915        -110.894         -47.7909        -110.752       -0.0136496         145.992
0.576                   -1.29175        -162.984         -47.6058        -113.364         -47.6053        -113.232       -0.0138079         145.919
0.577                   -1.32631        -163.595         -47.4218        -115.835         -47.4213        -115.714       -0.0139682         145.845
0.578                    -1.3615        -164.208         -47.2396        -118.307         -47.2391        -118.196       -0.0141308         145.772
0.579                   -1.39733        -164.821         -47.0593        -120.778         -47.0587        -120.677       -0.0142956         145.699
0.58                     -1.4338        -165.437         -46.8809        -123.248         -46.8804        -123.156       -0.0144626         145.625
0.581                   -1.47091        -166.053         -46.7045        -125.714          -46.704        -125.631       -0.0146319         145.551
0.582                   -1.50866        -166.671         -46.5302        -128.175         -46.5297        -128.102       -0.0148035         145.477
0.583                   -1.54706         -167.29          -46.358        -130.632         -46.3575        -130.567       -0.0149774         145.403
0.584                   -1.58612         -167.91         -46.1879        -133.082         -46.1874        -133.026       -0.0151536         145.329
0.585                   -1.62583        -168.532         -46.0199        -135.525         -46.0195        -135.477       -0.0153322         145.254
0.586                   -1.66619        -169.155         -45.8542         -137.96         -45.8538        -137.919       -0.0155132          145.18
0.587                   -1.70722        -169.779         -45.6906        -140.385         -45.6903        -140.352       -0.0156967         145.105
0.588                   -1.74891        -170.404         -45.5293          -142.8          -45.529        -142.774       -0.0158826          145.03
0.589                   -1.79126        -171.031         -45.3701        -145.204         -45.3699        -145.185        -0.016071         144.955
0.59                    -1.83429        -171.658         -45.2131        -147.596         -45.2129        -147.584       -0.0162619          144.88
0.591                   -1.87798        -172.287         -45.0582        -149.976         -45.0581        -149.971       -0.0164554         144.805
0.592                   -1.92234        -172.916         -44.9054        -152.343         -44.9054        -152.344       -0.0166515         144.729
0.593                   -1.96739        -173.547         -44.7547        -154.696         -44.7547        -154.702       -0.0168503         144.653
0.594                   -2.01311        -174.179         -44.6059        -157.035         -44.6061        -157.046       -0.0170517         144.577
0.595                   -2.05951        -174.812         -44.4592        -159.359         -44.4594        -159.376       -0.0172558         144.501
0.596                   -2.10659        -175.446         -44.3143        -161.668         -44.3146        -161.689       -0.0174626         144.425
0.597                   -2.15436         -176.08         -44.1713        -163.962         -44.1717        -163.987       -0.0176722         144.349
0.598                   -2.20282        -176.716         -44.0301        -166.239         -44.0306        -166.268       -0.0178847         144.272
0.599                   -2.25196        -177.353         -43.8906        -168.501         -43.8911        -168.533          -0.0181         144.195
0.6                      -2.3018        -177.991         -43.7528        -170.746         -43.7534        -170.782       -0.0183182         144.118
0.601                   -2.35234        -178.629         -43.6165        -172.974         -43.6171        -173.014       -0.0185394         144.041
0.602                   -2.40357        -179.269         -43.4817        -175.186         -43.4824        -175.228       -0.0187635         143.964
0.603                   -2.45551        -179.909         -43.3483        -177.382         -43.3491        -177.426       -0.0189907         143.886
0.604                   -2.50815         179.449         -43.2163        -179.561         -43.2171        -179.608       -0.0192209         143.808
0.605                   -2.56149         178.807         -43.0855         178.277         -43.0864         178.228       -0.0194543          143.73
0.606                   -2.61555         178.164         -42.9559         176.131         -42.9569          176.08       -0.0196909         143.652
0.607                   -2.67031          177.52         -42.8274         174.002         -42.8285         173.949       -0.0199306         143.574
0.608                    -2.7258         176.875            -42.7         171.888         -42.7011         171.834       -0.0201737         143.495
0.609                     -2.782          176.23         -42.5735         169.791         -42.5747         169.736       -0.0204201         143.417
0.61                    -2.83892         175.583          -42.448         167.709         -42.4492         167.653       -0.0206699         143.338
0.611                   -2.89657         174.935         -42.3232         165.642         -42.3245         165.586       -0.0209231         143.258
0.612                   -2.95495         174.287         -42.1992         163.591         -42.2005         163.534       -0.0211798         143.179
0.613                   -3.01406         173.638         -42.0759         161.554         -42.0772         161.497         -0.02144         143.099
0.614                   -3.07391         172.988         -41.9532         159.532         -41.9546         159.475       -0.0217039          143.02
0.615                    -3.1345         172.337         -41.8311         157.524         -41.8324         157.466       -0.0219714          142.94
0.616                   -3.19583         171.685         -41.7094          155.53         -41.7108         155.472       -0.0222427         142.859
0.617                   -3.25792         171.032         -41.5882         153.548         -41.5896         153.491       -0.0225178         142.779
0.618                   -3.32077         170.379         -41.4674          151.58         -41.4688         151.523       -0.0227967         142.698
0.619                   -3.38437         169.724         -41.3469         149.624         -41.3483         149.567       -0.0230796         142.617
0.62                    -3.44875         169.068         -41.2266          147.68         -41.2281         147.623       -0.0233665         142.536
0.621                    -3.5139         168.412         -41.1066         145.747         -41.1081         145.691       -0.0236575         142.454
0.622                   -3.57983         167.754         -40.9868         143.825         -40.9882          143.77       -0.0239526         142.373
0.623                   -3.64655         167.096         -40.8671         141.914         -40.8686          141.86        -0.024252         142.291
0.624                   -3.71406         166.436         -40.7475         140.012          -40.749         139.959       -0.0245557         142.209
0.625                   -3.78238         165.776          -40.628          138.12         -40.6294         138.068       -0.0248637         142.126
0.626                   -3.85151         165.114         -40.5085         136.238         -40.5099         136.187       -0.0251763         142.044
0.627                   -3.92146         164.451          -40.389         134.363         -40.3904         134.314       -0.0254934         141.961
0.628                   -3.99223         163.787         -40.2695         132.497         -40.2708         132.448       -0.0258151         141.877
0.629                   -4.06385         163.122         -40.1499         130.638         -40.1512         130.591       -0.0261416         141.794
