! TOUCHSTONE file generated by CST MICROWAVE STUDIO
! Date and time: Mon Sep 28 14:09:08 2020
! Project name: Scenario_1_Free_SPace.cst
! Parameters = {dx1=485; L_HA=400; MT=2.54; Rad_Dielectric=30; Rad_Lower=7.3; Rad_Upper=30; a_HA=580; a_WG=246; b_HA=500; b_WG=121; c_HA=0; c_WG=187; d_feed=85; h_feed=15; h_lower=18; h_upper=40}
! Header version: 2018
! Port assignment regex: !\s*Touchstone port\s*([0-9]+)\s*=\s*(CST MWS port|CST DS port)\s*([0-9]+|Zmin|Zmax)\s*\(\"(.*)\"\)(\s*mode\s*([0-9]+))?.*
! Touchstone port assignment:
! Touchstone port 1 = CST MWS port 1 ("")
! Touchstone port 2 = CST MWS port 2 ("")
# GHz S DB R 50
0.5                    -0.152392        -122.606         -60.4912         2.82867         -60.4789         2.78545      -0.00674905         151.145
0.501                    -0.1587        -123.044         -60.3234        0.290882         -60.3413        0.378655      -0.00682649          151.08
0.502                  -0.165141        -123.484         -60.1495        -2.18901         -60.1967        -1.99538      -0.00690531         151.014
0.503                  -0.171717        -123.926         -59.9702        -4.61144         -60.0455        -4.33512      -0.00698548         150.949
0.504                  -0.178432         -124.37         -59.7864        -6.97733         -59.8884        -6.63945      -0.00706694         150.883
0.505                  -0.185286        -124.816         -59.5988        -9.28803          -59.726        -8.90759      -0.00714963         150.817
0.506                  -0.192283        -125.263         -59.4082        -11.5452         -59.5586        -11.1391      -0.00723349         150.751
0.507                  -0.199425        -125.713         -59.2151        -13.7507         -59.3869        -13.3338      -0.00731847         150.685
0.508                  -0.206714        -126.165         -59.0201        -15.9068         -59.2113        -15.4919       -0.0074045         150.619
0.509                  -0.214155        -126.618         -58.8237        -18.0157         -59.0323        -17.6138       -0.0074915         150.553
0.51                   -0.221749        -127.074         -58.6263        -20.0797         -58.8504        -19.7001      -0.00757939         150.487
0.511                  -0.229499        -127.531         -58.4284        -22.1014         -58.6659        -21.7515      -0.00766809         150.421
0.512                  -0.237409        -127.991         -58.2302         -24.083         -58.4792         -23.769      -0.00775752         150.355
0.513                  -0.245482        -128.452         -58.0321        -26.0271         -58.2907        -25.7537      -0.00784758         150.288
0.514                  -0.253721        -128.916         -57.8343         -27.936         -58.1007        -27.7068      -0.00793816         150.222
0.515                  -0.262129        -129.382          -57.637        -29.8121         -57.9095        -29.6295      -0.00802917         150.156
0.516                  -0.270711         -129.85         -57.4405        -31.6578         -57.7174        -31.5231       -0.0081205         150.089
0.517                  -0.279469        -130.321         -57.2448        -33.4752         -57.5247        -33.3891      -0.00821201         150.022
0.518                  -0.288407        -130.793         -57.0502        -35.2665         -57.3316        -35.2289       -0.0083036         149.956
0.519                  -0.297531        -131.268         -56.8566        -37.0337         -57.1382        -37.0439      -0.00839513         149.889
0.52                   -0.306842        -131.745         -56.6643        -38.7789         -56.9448        -38.8355      -0.00848646         149.822
0.521                  -0.316346        -132.224         -56.4732        -40.5039         -56.7515        -40.6051      -0.00857746         149.755
0.522                  -0.326048        -132.705         -56.2835        -42.2105         -56.5585        -42.3543      -0.00866799         149.688
0.523                   -0.33595        -133.189         -56.0951        -43.9005          -56.366        -44.0843      -0.00875788         149.621
0.524                  -0.346059        -133.675          -55.908        -45.5756         -56.1739        -45.7966        -0.008847         149.554
0.525                  -0.356379        -134.164         -55.7224        -47.2372         -55.9824        -47.4926      -0.00893518         149.487
0.526                  -0.366915        -134.655         -55.5381        -48.8868         -55.7917        -49.1735      -0.00902228          149.42
0.527                  -0.377672        -135.148         -55.3551        -50.5259         -55.6017        -50.8407      -0.00910815         149.352
0.528                  -0.388655        -135.644         -55.1736        -52.1557         -55.4126        -52.4954      -0.00919262         149.285
0.529                   -0.39987        -136.142         -54.9934        -53.7775         -55.2244        -54.1388      -0.00927557         149.218
0.53                   -0.411322        -136.643         -54.8144        -55.3925          -55.037        -55.7722      -0.00935685          149.15
0.531                  -0.423018        -137.146         -54.6368        -57.0019         -54.8507        -57.3966      -0.00943634         149.082
0.532                  -0.434963        -137.652         -54.4604        -58.6066         -54.6654        -59.0132      -0.00951393         149.014
0.533                  -0.447163        -138.161         -54.2852        -60.2076          -54.481        -60.6231      -0.00958952         148.947
0.534                  -0.459626        -138.672         -54.1112        -61.8059         -54.2978        -62.2272      -0.00966305         148.879
0.535                  -0.472357        -139.185         -53.9383        -63.4024         -54.1155        -63.8265      -0.00973446         148.811
0.536                  -0.485363        -139.702         -53.7664        -64.9979         -53.9343        -65.4221      -0.00980373         148.742
0.537                  -0.498652        -140.221         -53.5956        -66.5931         -53.7541        -67.0148      -0.00987088         148.674
0.538                   -0.51223        -140.742         -53.4258        -68.1889          -53.575        -68.6055      -0.00993594         148.606
0.539                  -0.526106        -141.267          -53.257        -69.7859         -53.3969         -70.195      -0.00999902         148.537
0.54                   -0.540286        -141.794          -53.089        -71.3847         -53.2198        -71.7841       -0.0100602         148.468
0.541                  -0.554779        -142.324         -52.9219        -72.9859         -53.0437        -73.3737       -0.0101197           148.4
0.542                  -0.569593        -142.857         -52.7556        -74.5902         -52.8686        -74.9643       -0.0101778         148.331
0.543                  -0.584736        -143.392           -52.59        -76.1979         -52.6944        -76.5568       -0.0102346         148.262
0.544                  -0.600217        -143.931         -52.4252        -77.8097         -52.5212        -78.1518       -0.0102905         148.193
0.545                  -0.616045        -144.472          -52.261         -79.426         -52.3489        -79.7499       -0.0103458         148.123
0.546                  -0.632229        -145.016         -52.0974        -81.0472         -52.1775        -81.3517       -0.0104009         148.054
0.547                  -0.648778        -145.563         -51.9345        -82.6737          -52.007        -82.9578       -0.0104563         147.985
0.548                  -0.665702        -146.113         -51.7721        -84.3059         -51.8373        -84.5688       -0.0105124         147.915
0.549                  -0.683011        -146.665         -51.6102        -85.9441         -51.6684        -86.1851       -0.0105696         147.845
0.55                   -0.700715        -147.221         -51.4487        -87.5886         -51.5004        -87.8071       -0.0106285         147.775
0.551                  -0.718823         -147.78         -51.2877        -89.2398         -51.3331        -89.4355       -0.0106895         147.705
0.552                  -0.737348        -148.341         -51.1271        -90.8978         -51.1665        -91.0705       -0.0107532         147.635
0.553                  -0.756299        -148.906         -50.9669        -92.5629         -51.0006        -92.7125         -0.01082         147.564
0.554                  -0.775688        -149.473          -50.807        -94.2353         -50.8354         -94.362       -0.0108904         147.494
0.555                  -0.795526        -150.044         -50.6474        -95.9152         -50.6709        -96.0193       -0.0109649         147.423
0.556                  -0.815825        -150.617         -50.4881        -97.6028         -50.5069        -97.6846       -0.0110438         147.352
0.557                  -0.836596        -151.194         -50.3291        -99.2982         -50.3436        -99.3582       -0.0111276         147.281
0.558                  -0.857851        -151.773         -50.1703        -101.002         -50.1809         -101.04       -0.0112165          147.21
0.559                  -0.879604        -152.356         -50.0118        -102.713         -50.0186        -102.731       -0.0113109         147.139
0.56                   -0.901866        -152.941         -49.8534        -104.433          -49.857        -104.431       -0.0114109         147.068
0.561                   -0.92465        -153.529         -49.6952        -106.161         -49.6958        -106.141       -0.0115169         146.996
0.562                  -0.947968        -154.121         -49.5373        -107.897         -49.5351        -107.859       -0.0116288         146.924
0.563                  -0.971835        -154.715         -49.3795        -109.641         -49.3748        -109.587       -0.0117468         146.853
0.564                  -0.996262        -155.312         -49.2218        -111.394          -49.215        -111.324       -0.0118709         146.781
0.565                   -1.02126        -155.912         -49.0643        -113.155         -49.0556        -113.071       -0.0120011         146.709
0.566                   -1.04685        -156.515          -48.907        -114.925         -48.8967        -114.828       -0.0121374         146.636
0.567                   -1.07305        -157.121         -48.7498        -116.703         -48.7381        -116.595       -0.0122797         146.564
0.568                   -1.09985        -157.729         -48.5927         -118.49         -48.5799        -118.371       -0.0124278         146.492
0.569                   -1.12729        -158.341         -48.4358        -120.284         -48.4221        -120.156       -0.0125818         146.419
0.57                    -1.15537        -158.955         -48.2791        -122.087         -48.2646        -121.952       -0.0127413         146.346
0.571                    -1.1841        -159.572         -48.1225        -123.899         -48.1075        -123.757       -0.0129062         146.273
0.572                   -1.21351        -160.192         -47.9661        -125.718         -47.9508        -125.571       -0.0130764           146.2
0.573                    -1.2436        -160.814         -47.8099        -127.545         -47.7944        -127.395       -0.0132516         146.127
0.574                   -1.27438        -161.439         -47.6538        -129.381         -47.6383        -129.228       -0.0134316         146.054
0.575                   -1.30588        -162.066          -47.498        -131.224         -47.4826         -131.07       -0.0136163         145.981
0.576                   -1.33811        -162.696         -47.3424        -133.075         -47.3272        -132.921       -0.0138054         145.907
0.577                   -1.37107        -163.328          -47.187        -134.933         -47.1722        -134.781       -0.0139988         145.834
0.578                   -1.40478        -163.963         -47.0319        -136.799         -47.0175         -136.65       -0.0141961          145.76
0.579                   -1.43926        -164.599         -46.8771        -138.672         -46.8632        -138.527       -0.0143973         145.686
0.58                    -1.47451        -165.238         -46.7225        -140.553         -46.7093        -140.412       -0.0146022         145.612
0.581                   -1.51055        -165.879         -46.5683         -142.44         -46.5558        -142.305       -0.0148105         145.538
0.582                   -1.54738        -166.523         -46.4144        -144.335         -46.4026        -144.206       -0.0150222         145.463
0.583                   -1.58503        -167.168         -46.2609        -146.236         -46.2499        -146.114        -0.015237         145.389
0.584                    -1.6235        -167.815         -46.1077        -148.143         -46.0975         -148.03       -0.0154548         145.314
0.585                    -1.6628        -168.463          -45.955        -150.057         -45.9457        -149.952       -0.0156754          145.24
0.586                   -1.70293        -169.113         -45.8027        -151.977         -45.7942        -151.882       -0.0158988         145.165
0.587                   -1.74392        -169.765         -45.6508        -153.903         -45.6432        -153.817       -0.0161248          145.09
0.588                   -1.78576        -170.418         -45.4995        -155.835         -45.4928        -155.759       -0.0163532         145.015
0.589                   -1.82846        -171.073         -45.3486        -157.772         -45.3428        -157.707       -0.0165841         144.939
0.59                    -1.87203        -171.729         -45.1983        -159.714         -45.1933         -159.66       -0.0168172         144.864
0.591                   -1.91647        -172.385         -45.0485        -161.662         -45.0444        -161.618       -0.0170526         144.788
0.592                   -1.96179        -173.043         -44.8994        -163.614          -44.896        -163.581       -0.0172901         144.713
0.593                   -2.00798        -173.702         -44.7508        -165.571         -44.7483        -165.549       -0.0175296         144.637
0.594                   -2.05506        -174.361         -44.6028        -167.533         -44.6011        -167.521       -0.0177711         144.561
0.595                   -2.10302        -175.021         -44.4555        -169.498         -44.4545        -169.497       -0.0180145         144.484
0.596                   -2.15186        -175.681         -44.3089        -171.468         -44.3086        -171.476       -0.0182598         144.408
0.597                   -2.20158        -176.342          -44.163        -173.441         -44.1633        -173.459        -0.018507         144.331
0.598                   -2.25217        -177.003         -44.0178        -175.417         -44.0187        -175.445       -0.0187559         144.254
0.599                   -2.30363        -177.664         -43.8733        -177.397         -43.8748        -177.434       -0.0190066         144.178
0.6                     -2.35596        -178.325         -43.7295         -179.38         -43.7316        -179.426       -0.0192591           144.1
0.601                   -2.40914        -178.986         -43.5865         178.634         -43.5891         178.581       -0.0195133         144.023
0.602                   -2.46318        -179.647         -43.4443         176.646         -43.4473         176.585       -0.0197691         143.946
0.603                   -2.51805         179.693         -43.3029         174.656         -43.3063         174.588       -0.0200267         143.868
0.604                   -2.57375         179.033         -43.1623         172.664          -43.166          172.59       -0.0202859          143.79
0.605                   -2.63027         178.374         -43.0225          170.67         -43.0265         170.591       -0.0205469         143.712
0.606                   -2.68759         177.715         -42.8835         168.674         -42.8877          168.59       -0.0208095         143.634
0.607                    -2.7457         177.057         -42.7454         166.677         -42.7498         166.589       -0.0210738         143.555
0.608                   -2.80457         176.399         -42.6081         164.679         -42.6126         164.588       -0.0213397         143.477
0.609                   -2.86421         175.743         -42.4716          162.68         -42.4762         162.587       -0.0216074         143.398
0.61                    -2.92458         175.087         -42.3359          160.68         -42.3405         160.585       -0.0218769         143.319
0.611                   -2.98567         174.432         -42.2011          158.68         -42.2057         158.584        -0.022148         143.239
0.612                   -3.04745         173.778          -42.067          156.68         -42.0717         156.584        -0.022421          143.16
0.613                   -3.10992         173.125         -41.9339         154.679         -41.9384         154.584       -0.0226958          143.08
0.614                   -3.17304         172.473         -41.8015         152.679         -41.8059         152.585       -0.0229724             143
0.615                   -3.23681         171.821         -41.6699         150.679         -41.6742         150.586        -0.023251          142.92
0.616                   -3.30119         171.171         -41.5392         148.679         -41.5433         148.589       -0.0235314          142.84
0.617                   -3.36617         170.521         -41.4092          146.68         -41.4131         146.594       -0.0238139         142.759
0.618                   -3.43173         169.872           -41.28         144.681         -41.2836         144.599       -0.0240984         142.678
0.619                   -3.49785         169.224         -41.1516         142.683         -41.1549         142.606       -0.0243849         142.597
0.62                    -3.56451         168.576          -41.024         140.687         -41.0269         140.615       -0.0246737         142.516
0.621                   -3.63168         167.929          -40.897         138.691         -40.8996         138.625       -0.0249647         142.434
0.622                   -3.69937         167.281         -40.7708         136.697         -40.7731         136.637        -0.025258         142.352
0.623                   -3.76754         166.634         -40.6453         134.704         -40.6471          134.65       -0.0255537          142.27
0.624                   -3.83619         165.987         -40.5204         132.712         -40.5219         132.666       -0.0258519         142.188
0.625                   -3.90531         165.339         -40.3962         130.722         -40.3973         130.683       -0.0261527         142.105
0.626                   -3.97488         164.691         -40.2727         128.734         -40.2733         128.702       -0.0264561         142.023
0.627                    -4.0449         164.043         -40.1498         126.747         -40.1499         126.723       -0.0267624          141.94
0.628                   -4.11536         163.393         -40.0274         124.761         -40.0271         124.746       -0.0270715         141.856
0.629                   -4.18627         162.742         -39.9056         122.778         -39.9048         122.771       -0.0273836         141.772
