! TOUCHSTONE file generated by CST MICROWAVE STUDIO
! Date and time: Mon Sep 28 14:05:38 2020
! Project name: Scenario_1_Free_SPace.cst
! Parameters = {dx1=190.5; L_HA=400; MT=2.54; Rad_Dielectric=30; Rad_Lower=7.3; Rad_Upper=30; a_HA=580; a_WG=246; b_HA=500; b_WG=121; c_HA=0; c_WG=187; d_feed=85; h_feed=15; h_lower=18; h_upper=40}
! Header version: 2018
! Port assignment regex: !\s*Touchstone port\s*([0-9]+)\s*=\s*(CST MWS port|CST DS port)\s*([0-9]+|Zmin|Zmax)\s*\(\"(.*)\"\)(\s*mode\s*([0-9]+))?.*
! Touchstone port assignment:
! Touchstone port 1 = CST MWS port 1 ("")
! Touchstone port 2 = CST MWS port 2 ("")
# GHz S DB R 50
0.5                    -0.158389        -122.722           -56.28         160.902           -56.28         160.902      -0.00679491         151.121
0.501                  -0.164167        -123.158         -56.0821         159.593         -56.0821         159.593       -0.0068374         151.056
0.502                  -0.170065        -123.596         -55.8848         158.277         -55.8848         158.277      -0.00687988          150.99
0.503                  -0.176084        -124.036          -55.688         156.954          -55.688         156.954      -0.00692238         150.925
0.504                  -0.182227        -124.478         -55.4919         155.623         -55.4918         155.623      -0.00696494         150.859
0.505                  -0.188496        -124.922         -55.2963         154.286         -55.2963         154.286       -0.0070076         150.794
0.506                  -0.194892        -125.368         -55.1015         152.942         -55.1015         152.942       -0.0070504         150.728
0.507                  -0.201418        -125.816         -54.9073         151.592         -54.9073         151.592       -0.0070934         150.662
0.508                  -0.208077        -126.266         -54.7139         150.235         -54.7139         150.235      -0.00713662         150.596
0.509                  -0.214871        -126.718         -54.5212         148.872         -54.5212         148.872      -0.00718011          150.53
0.51                   -0.221802        -127.172         -54.3293         147.502         -54.3293         147.502      -0.00722393         150.464
0.511                  -0.228873        -127.629         -54.1382         146.127         -54.1382         146.127      -0.00726811         150.398
0.512                  -0.236087        -128.087         -53.9479         144.747         -53.9479         144.747       -0.0073127         150.332
0.513                  -0.243446        -128.548         -53.7584          143.36         -53.7584          143.36      -0.00735776         150.266
0.514                  -0.250954         -129.01         -53.5698         141.969         -53.5698         141.969      -0.00740332         150.199
0.515                  -0.258613        -129.475          -53.382         140.572          -53.382         140.572      -0.00744944         150.133
0.516                  -0.266427        -129.943         -53.1952          139.17         -53.1952          139.17      -0.00749617         150.066
0.517                    -0.2744        -130.412         -53.0092         137.764         -53.0092         137.764      -0.00754357             150
0.518                  -0.282534        -130.884         -52.8241         136.353         -52.8241         136.353      -0.00759168         149.933
0.519                  -0.290833        -131.358         -52.6399         134.939         -52.6399         134.939      -0.00764056         149.866
0.52                   -0.299301        -131.835         -52.4567          133.52         -52.4567          133.52      -0.00769026         149.799
0.521                  -0.307942        -132.314         -52.2743         132.097         -52.2743         132.097      -0.00774085         149.732
0.522                  -0.316759        -132.795         -52.0929         130.671         -52.0928         130.671      -0.00779237         149.665
0.523                  -0.325758        -133.279         -51.9123         129.242         -51.9123         129.242      -0.00784489         149.598
0.524                  -0.334942        -133.765         -51.7327         127.809         -51.7327         127.809      -0.00789847          149.53
0.525                  -0.344317        -134.254         -51.5539         126.374         -51.5539         126.374      -0.00795317         149.463
0.526                  -0.353886        -134.746         -51.3761         124.936         -51.3761         124.936      -0.00800904         149.395
0.527                  -0.363655         -135.24         -51.1991         123.495         -51.1991         123.495      -0.00806615         149.328
0.528                  -0.373629        -135.737          -51.023         122.053          -51.023         122.053      -0.00812457          149.26
0.529                  -0.383813        -136.236         -50.8478         120.608         -50.8478         120.608      -0.00818437         149.192
0.53                   -0.394213        -136.738         -50.6734         119.161         -50.6734         119.161       -0.0082456         149.124
0.531                  -0.404834        -137.243         -50.4998         117.713         -50.4998         117.713      -0.00830833         149.056
0.532                  -0.415684        -137.751          -50.327         116.264          -50.327         116.264      -0.00837264         148.988
0.533                  -0.426767        -138.262         -50.1549         114.812         -50.1549         114.812       -0.0084386         148.919
0.534                  -0.438091        -138.775         -49.9837          113.36         -49.9837          113.36      -0.00850627         148.851
0.535                  -0.449662        -139.291         -49.8131         111.907         -49.8131         111.907      -0.00857573         148.782
0.536                  -0.461488        -139.811         -49.6433         110.453         -49.6433         110.453      -0.00864705         148.714
0.537                  -0.473575        -140.333         -49.4741         108.998         -49.4741         108.998       -0.0087203         148.645
0.538                  -0.485931        -140.858         -49.3056         107.542         -49.3056         107.542      -0.00879557         148.576
0.539                  -0.498565        -141.387         -49.1378         106.086         -49.1378         106.086      -0.00887292         148.507
0.54                   -0.511485        -141.918         -48.9705         104.629         -48.9705         104.629      -0.00895244         148.438
0.541                  -0.524699        -142.453         -48.8038         103.172         -48.8038         103.172       -0.0090342         148.369
0.542                  -0.538215        -142.991         -48.6376         101.714         -48.6376         101.714      -0.00911829           148.3
0.543                  -0.552045        -143.532         -48.4719         100.256         -48.4719         100.256      -0.00920479          148.23
0.544                  -0.566196        -144.076         -48.3067         98.7979         -48.3067         98.7979      -0.00929377         148.161
0.545                  -0.580679        -144.623          -48.142         97.3392          -48.142         97.3392      -0.00938532         148.091
0.546                  -0.595505        -145.174         -47.9776         95.8802         -47.9776         95.8802      -0.00947952         148.021
0.547                  -0.610685        -145.729         -47.8137         94.4209         -47.8137         94.4209      -0.00957646         147.951
0.548                  -0.626229        -146.286         -47.6501         92.9612         -47.6501         92.9612      -0.00967622         147.881
0.549                  -0.642149        -146.847         -47.4868         91.5011         -47.4868         91.5011      -0.00977889         147.811
0.55                   -0.658457        -147.412         -47.3238         90.0405         -47.3238         90.0405      -0.00988454         147.741
0.551                  -0.675167         -147.98         -47.1611         88.5795         -47.1611         88.5795      -0.00999328         147.671
0.552                   -0.69229        -148.552         -46.9987         87.1178         -46.9987         87.1178       -0.0101052           147.6
0.553                  -0.709842        -149.127         -46.8364         85.6555         -46.8364         85.6555       -0.0102203         147.529
0.554                  -0.727834        -149.706         -46.6744         84.1923         -46.6744         84.1923       -0.0103388         147.459
0.555                  -0.746283        -150.288         -46.5125         82.7283         -46.5125         82.7283       -0.0104607         147.388
0.556                  -0.765203        -150.875         -46.3508         81.2633         -46.3508         81.2633       -0.0105862         147.317
0.557                   -0.78461        -151.465         -46.1892         79.7972         -46.1892         79.7972       -0.0107152         147.246
0.558                   -0.80452        -152.058         -46.0277         78.3298         -46.0277         78.3298       -0.0108479         147.174
0.559                   -0.82495        -152.656         -45.8663         76.8609         -45.8663         76.8609       -0.0109843         147.103
0.56                   -0.845917        -153.257         -45.7049         75.3905         -45.7049         75.3905       -0.0111247         147.031
0.561                  -0.867439        -153.862         -45.5436         73.9184         -45.5436         73.9184       -0.0112689          146.96
0.562                  -0.889534        -154.471         -45.3823         72.4444         -45.3823         72.4444       -0.0114172         146.888
0.563                  -0.912222        -155.083         -45.2211         70.9682         -45.2211         70.9683       -0.0115695         146.816
0.564                  -0.935522          -155.7         -45.0599         69.4899         -45.0599         69.4899       -0.0117261         146.744
0.565                  -0.959454         -156.32         -44.8987         68.0091         -44.8987         68.0091       -0.0118868         146.672
0.566                   -0.98404        -156.944         -44.7374         66.5256         -44.7374         66.5256       -0.0120519         146.599
0.567                    -1.0093        -157.572         -44.5762         65.0393         -44.5762         65.0393       -0.0122214         146.527
0.568                   -1.03526        -158.204         -44.4149           63.55         -44.4149           63.55       -0.0123954         146.454
0.569                   -1.06194        -158.839         -44.2537         62.0575         -44.2537         62.0575       -0.0125738         146.382
0.57                    -1.08936        -159.479         -44.0924         60.5616         -44.0924         60.5616       -0.0127569         146.309
0.571                   -1.11755        -160.122         -43.9311          59.062         -43.9311          59.062       -0.0129446         146.236
0.572                   -1.14653        -160.769         -43.7698         57.5586         -43.7698         57.5586        -0.013137         146.163
0.573                   -1.17633         -161.42         -43.6085         56.0512         -43.6085         56.0512       -0.0133341         146.089
0.574                   -1.20697        -162.074         -43.4472         54.5395         -43.4472         54.5395       -0.0135361         146.016
0.575                   -1.23848        -162.733         -43.2859         53.0234         -43.2859         53.0234       -0.0137428         145.942
0.576                   -1.27088        -163.394         -43.1246         51.5026         -43.1246         51.5026       -0.0139545         145.869
0.577                   -1.30421        -164.059         -42.9634          49.977         -42.9634          49.977        -0.014171         145.795
0.578                   -1.33849        -164.728         -42.8022         48.4464         -42.8022         48.4465       -0.0143924         145.721
0.579                   -1.37375          -165.4         -42.6411         46.9106         -42.6411         46.9106       -0.0146188         145.647
0.58                    -1.41002        -166.075         -42.4802         45.3695         -42.4802         45.3695         -0.01485         145.572
0.581                   -1.44732        -166.754         -42.3193         43.8227         -42.3193         43.8227       -0.0150862         145.498
0.582                   -1.48568        -167.436         -42.1585         42.2702         -42.1585         42.2702       -0.0153274         145.423
0.583                   -1.52514         -168.12         -41.9979         40.7118         -41.9979         40.7118       -0.0155734         145.349
0.584                   -1.56572        -168.807         -41.8376         39.1474         -41.8376         39.1474       -0.0158244         145.274
0.585                   -1.60746        -169.497         -41.6774         37.5768         -41.6774         37.5768       -0.0160802         145.199
0.586                   -1.65037         -170.19         -41.5175         35.9999         -41.5175         35.9999       -0.0163408         145.124
0.587                   -1.69449        -170.885         -41.3578         34.4165         -41.3578         34.4165       -0.0166061         145.048
0.588                   -1.73985        -171.582         -41.1985         32.8265         -41.1985         32.8265       -0.0168762         144.973
0.589                   -1.78647        -172.281         -41.0395         31.2299         -41.0395         31.2299       -0.0171509         144.897
0.59                    -1.83439        -172.981          -40.881         29.6266          -40.881         29.6266       -0.0174301         144.821
0.591                   -1.88362        -173.684         -40.7228         28.0164         -40.7228         28.0164       -0.0177138         144.746
0.592                   -1.93419        -174.387         -40.5651         26.3993         -40.5651         26.3993       -0.0180019          144.67
0.593                   -1.98612        -175.091         -40.4079         24.7753         -40.4079         24.7753       -0.0182943         144.593
0.594                   -2.03945        -175.797         -40.2513         23.1444         -40.2513         23.1444       -0.0185908         144.517
0.595                   -2.09419        -176.502         -40.0952         21.5064         -40.0952         21.5064       -0.0188913          144.44
0.596                   -2.15035        -177.208         -39.9398         19.8615         -39.9398         19.8615       -0.0191958         144.364
0.597                   -2.20796        -177.914          -39.785         18.2096          -39.785         18.2096       -0.0195039         144.287
0.598                   -2.26702        -178.619         -39.6309         16.5508         -39.6309         16.5508       -0.0198157          144.21
0.599                   -2.32756        -179.323         -39.4776         14.8851         -39.4776         14.8851       -0.0201309         144.133
0.6                     -2.38959         179.974         -39.3251         13.2125         -39.3251         13.2125       -0.0204494         144.055
0.601                    -2.4531         179.273         -39.1735         11.5333         -39.1735         11.5333        -0.020771         143.978
0.602                    -2.5181         178.573         -39.0227         9.84739         -39.0227         9.84738       -0.0210955           143.9
0.603                    -2.5846         177.876         -38.8728         8.15499         -38.8728         8.15498       -0.0214228         143.822
0.604                   -2.65258         177.182          -38.724         6.45621          -38.724          6.4562       -0.0217526         143.744
0.605                   -2.72205         176.491         -38.5761         4.75121         -38.5761          4.7512       -0.0220848         143.666
0.606                   -2.79299         175.804         -38.4293         3.04017         -38.4293         3.04016       -0.0224192         143.588
0.607                   -2.86538         175.121         -38.2835         1.32326         -38.2835         1.32326       -0.0227556         143.509
0.608                    -2.9392         174.442         -38.1389       -0.399289         -38.1389       -0.399296       -0.0230937         143.431
0.609                   -3.01444         173.768         -37.9955        -2.12727         -37.9955        -2.12728       -0.0234335         143.352
0.61                    -3.09105         173.099         -37.8532        -3.86045         -37.8532        -3.86046       -0.0237747         143.273
0.611                     -3.169         172.436         -37.7122        -5.59857         -37.7122        -5.59858       -0.0241171         143.193
0.612                   -3.24826          171.78         -37.5724        -7.34137         -37.5724        -7.34137       -0.0244606         143.114
0.613                   -3.32877          171.13         -37.4339        -9.08856         -37.4339        -9.08856        -0.024805         143.034
0.614                   -3.41049         170.487         -37.2967        -10.8399         -37.2967        -10.8399       -0.0251501         142.954
0.615                   -3.49336         169.851         -37.1608         -12.595         -37.1608         -12.595       -0.0254958         142.874
0.616                   -3.57732         169.223         -37.0263        -14.3536         -37.0263        -14.3536       -0.0258418         142.794
0.617                    -3.6623         168.603         -36.8932        -16.1153         -36.8932        -16.1153       -0.0261882         142.713
0.618                   -3.74823         167.992         -36.7614        -17.8799         -36.7614        -17.8799       -0.0265347         142.633
0.619                   -3.83503         167.389         -36.6311         -19.647         -36.6311        -19.6471       -0.0268813         142.552
0.62                    -3.92262         166.795         -36.5021        -21.4163         -36.5021        -21.4163       -0.0272278          142.47
0.621                   -4.01092         166.211         -36.3745        -23.1874         -36.3745        -23.1875       -0.0275742         142.389
0.622                   -4.09983         165.635         -36.2484          -24.96         -36.2484          -24.96       -0.0279205         142.307
0.623                   -4.18927          165.07         -36.1237        -26.7338         -36.1237        -26.7338       -0.0282665         142.226
0.624                   -4.27913         164.513         -36.0003        -28.5083         -36.0003        -28.5083       -0.0286123         142.143
0.625                   -4.36932         163.967         -35.8784        -30.2833         -35.8784        -30.2833       -0.0289579         142.061
0.626                   -4.45974         163.429         -35.7579        -32.0583         -35.7579        -32.0583       -0.0293032         141.978
0.627                   -4.55028         162.902         -35.6387        -33.8332         -35.6387        -33.8332       -0.0296484         141.895
0.628                   -4.64085         162.383         -35.5209        -35.6075         -35.5209        -35.6075       -0.0299934         141.812
0.629                   -4.73133         161.874         -35.4045        -37.3809         -35.4045        -37.3809       -0.0303384         141.729
