! TOUCHSTONE file generated by CST MICROWAVE STUDIO
! Date and time: Mon Sep 28 14:09:22 2020
! Project name: Scenario_1_Free_SPace.cst
! Parameters = {dx1=502.3; L_HA=400; MT=2.54; Rad_Dielectric=30; Rad_Lower=7.3; Rad_Upper=30; a_HA=580; a_WG=246; b_HA=500; b_WG=121; c_HA=0; c_WG=187; d_feed=85; h_feed=15; h_lower=18; h_upper=40}
! Header version: 2018
! Port assignment regex: !\s*Touchstone port\s*([0-9]+)\s*=\s*(CST MWS port|CST DS port)\s*([0-9]+|Zmin|Zmax)\s*\(\"(.*)\"\)(\s*mode\s*([0-9]+))?.*
! Touchstone port assignment:
! Touchstone port 1 = CST MWS port 1 ("")
! Touchstone port 2 = CST MWS port 2 ("")
# GHz S DB R 50
0.5                    -0.152601        -122.616         -60.6704        -7.14652         -60.6704        -7.14652      -0.00671327         151.129
0.501                  -0.157323        -123.061         -60.5372        -8.89155         -60.5371         -8.8915      -0.00676169         151.064
0.502                  -0.162237        -123.507         -60.4018        -10.6379         -60.4015        -10.6378      -0.00681126         150.998
0.503                  -0.167344        -123.955         -60.2642        -12.3854         -60.2637        -12.3852        -0.006862         150.933
0.504                  -0.172648        -124.406         -60.1244        -14.1338         -60.1238        -14.1335      -0.00691391         150.867
0.505                  -0.178152        -124.858         -59.9825        -15.8829         -59.9817        -15.8825      -0.00696699         150.801
0.506                   -0.18386        -125.313         -59.8385        -17.6327         -59.8375        -17.6322      -0.00702126         150.736
0.507                  -0.189775         -125.77         -59.6925         -19.383         -59.6914        -19.3824      -0.00707673          150.67
0.508                  -0.195901        -126.228         -59.5444        -21.1337         -59.5432        -21.1329       -0.0071334         150.604
0.509                   -0.20224        -126.689         -59.3945        -22.8847         -59.3931        -22.8837      -0.00719129         150.538
0.51                   -0.208797        -127.152         -59.2426        -24.6358         -59.2412        -24.6347       -0.0072504         150.471
0.511                  -0.215575        -127.617         -59.0889        -26.3871         -59.0874        -26.3858      -0.00731074         150.405
0.512                  -0.222578        -128.085         -58.9335        -28.1385         -58.9318         -28.137      -0.00737232         150.339
0.513                   -0.22981        -128.554         -58.7762        -29.8899         -58.7745        -29.8882      -0.00743516         150.272
0.514                  -0.237274        -129.026         -58.6174        -31.6413         -58.6155        -31.6395      -0.00749925         150.206
0.515                  -0.244975        -129.499         -58.4568        -33.3928         -58.4549        -33.3908      -0.00756462         150.139
0.516                  -0.252915        -129.975         -58.2947        -35.1442         -58.2927        -35.1421      -0.00763127         150.073
0.517                  -0.261101        -130.453         -58.1311        -36.8958          -58.129        -36.8934      -0.00769921         150.006
0.518                  -0.269534        -130.934          -57.966        -38.6473         -57.9638        -38.6448      -0.00776845         149.939
0.519                   -0.27822        -131.416         -57.7995        -40.3991         -57.7973        -40.3964        -0.007839         149.872
0.52                   -0.287164        -131.901         -57.6316         -42.151         -57.6293        -42.1481      -0.00791088         149.805
0.521                  -0.296368        -132.388         -57.4624        -43.9031         -57.4601        -43.9001       -0.0079841         149.738
0.522                  -0.305838        -132.877          -57.292        -45.6556         -57.2896        -45.6525      -0.00805866         149.671
0.523                  -0.315579        -133.369         -57.1203        -47.4085         -57.1179        -47.4053      -0.00813458         149.604
0.524                  -0.325594        -133.863         -56.9475         -49.162          -56.945        -49.1586      -0.00821187         149.536
0.525                  -0.335888        -134.359         -56.7735        -50.9161          -56.771        -50.9126      -0.00829054         149.469
0.526                  -0.346467        -134.857         -56.5985         -52.671          -56.596        -52.6673       -0.0083706         149.401
0.527                  -0.357334        -135.358         -56.4226        -54.4267           -56.42         -54.423      -0.00845208         149.334
0.528                  -0.368496        -135.861         -56.2456        -56.1835          -56.243        -56.1797      -0.00853497         149.266
0.529                  -0.379956        -136.366         -56.0678        -57.9415         -56.0652        -57.9375       -0.0086193         149.198
0.53                    -0.39172        -136.874         -55.8891        -59.7007         -55.8865        -59.6967      -0.00870507          149.13
0.531                  -0.403793        -137.384         -55.7096        -61.4614          -55.707        -61.4574       -0.0087923         149.062
0.532                  -0.416181        -137.896         -55.5293        -63.2238         -55.5267        -63.2197        -0.008881         148.994
0.533                  -0.428888        -138.411         -55.3483        -64.9879         -55.3457        -64.9837      -0.00897119         148.926
0.534                   -0.44192        -138.928         -55.1667         -66.754         -55.1641        -66.7498      -0.00906289         148.858
0.535                  -0.455283        -139.447         -54.9845        -68.5222         -54.9819        -68.5179       -0.0091561         148.789
0.536                  -0.468982        -139.969         -54.8017        -70.2927         -54.7991        -70.2884      -0.00925084         148.721
0.537                  -0.483023        -140.493         -54.6184        -72.0656         -54.6158        -72.0613      -0.00934712         148.652
0.538                  -0.497411        -141.019         -54.4346        -73.8411          -54.432        -73.8368      -0.00944497         148.584
0.539                  -0.512153        -141.548         -54.2504        -75.6195         -54.2478        -75.6152      -0.00954439         148.515
0.54                   -0.527255        -142.079         -54.0658        -77.4008         -54.0633        -77.3965      -0.00964541         148.446
0.541                  -0.542722        -142.613         -53.8809        -79.1852         -53.8784        -79.1809      -0.00974804         148.377
0.542                  -0.558561        -143.149         -53.6957        -80.9729         -53.6932        -80.9687      -0.00985229         148.308
0.543                  -0.574778        -143.688         -53.5103        -82.7641         -53.5078        -82.7599      -0.00995819         148.239
0.544                  -0.591379        -144.229         -53.3247        -84.5589         -53.3223        -84.5547       -0.0100657         148.169
0.545                  -0.608372        -144.772         -53.1389        -86.3575         -53.1365        -86.3534        -0.010175           148.1
0.546                  -0.625761        -145.318          -52.953          -88.16         -52.9507         -88.156       -0.0102859          148.03
0.547                  -0.643555        -145.866         -52.7671        -89.9666         -52.7648        -89.9626       -0.0103986         147.961
0.548                  -0.661759        -146.416         -52.5812        -91.7775         -52.5789        -91.7736       -0.0105129         147.891
0.549                  -0.680381        -146.969         -52.3953        -93.5927         -52.3931        -93.5889       -0.0106291         147.821
0.55                   -0.699428        -147.524         -52.2095        -95.4124         -52.2073        -95.4087        -0.010747         147.751
0.551                  -0.718906        -148.082         -52.0238        -97.2368         -52.0217        -97.2331       -0.0108667         147.681
0.552                  -0.738822        -148.642         -51.8383        -99.0659         -51.8362        -99.0624       -0.0109882         147.611
0.553                  -0.759185        -149.205          -51.653          -100.9         -51.6509        -100.896       -0.0111115          147.54
0.554                      -0.78         -149.77         -51.4679        -102.739         -51.4659        -102.736       -0.0112367          147.47
0.555                  -0.801276        -150.337         -51.2832        -104.583         -51.2812         -104.58       -0.0113638         147.399
0.556                  -0.823019        -150.907         -51.0987        -106.432         -51.0968        -106.429       -0.0114927         147.329
0.557                  -0.845238        -151.479         -50.9147        -108.287         -50.9128        -108.284       -0.0116236         147.258
0.558                  -0.867939        -152.054         -50.7311        -110.146         -50.7293        -110.143       -0.0117564         147.187
0.559                  -0.891131        -152.631          -50.548        -112.012         -50.5462        -112.009       -0.0118912         147.116
0.56                   -0.914821         -153.21         -50.3653        -113.882         -50.3636        -113.879        -0.012028         147.044
0.561                  -0.939017        -153.792         -50.1833        -115.758         -50.1816        -115.755       -0.0121668         146.973
0.562                  -0.963727        -154.376         -50.0018         -117.64         -50.0002        -117.637       -0.0123076         146.902
0.563                  -0.988958        -154.962          -49.821        -119.527         -49.8194        -119.524       -0.0124505          146.83
0.564                   -1.01472         -155.55         -49.6408        -121.419         -49.6393        -121.417       -0.0125954         146.758
0.565                   -1.04102        -156.141         -49.4613        -123.317         -49.4599        -123.315       -0.0127425         146.687
0.566                   -1.06786        -156.734         -49.2826        -125.221         -49.2812        -125.218       -0.0128917         146.615
0.567                   -1.09526         -157.33         -49.1047         -127.13         -49.1034        -127.127       -0.0130431         146.543
0.568                   -1.12321        -157.927         -48.9276        -129.044         -48.9263        -129.042       -0.0131967          146.47
0.569                   -1.15174        -158.527         -48.7514        -130.964         -48.7502        -130.962       -0.0133525         146.398
0.57                    -1.18084        -159.129         -48.5761        -132.889         -48.5749        -132.887       -0.0135105         146.325
0.571                   -1.21053        -159.733         -48.4017        -134.819         -48.4005        -134.817       -0.0136708         146.253
0.572                   -1.24081        -160.339         -48.2282        -136.754         -48.2271        -136.753       -0.0138334          146.18
0.573                   -1.27169        -160.947         -48.0558        -138.695         -48.0547        -138.693       -0.0139984         146.107
0.574                   -1.30318        -161.558         -47.8844         -140.64         -47.8834        -140.639       -0.0141657         146.034
0.575                   -1.33529         -162.17          -47.714         -142.59         -47.7131        -142.589       -0.0143354         145.961
0.576                   -1.36802        -162.785         -47.5447        -144.545         -47.5438        -144.544       -0.0145075         145.887
0.577                   -1.40138        -163.401         -47.3765        -146.505         -47.3757        -146.503       -0.0146821         145.814
0.578                   -1.43537        -164.019         -47.2095        -148.468         -47.2087        -148.467       -0.0148591          145.74
0.579                   -1.47002         -164.64         -47.0436        -150.436         -47.0428        -150.435       -0.0150387         145.666
0.58                    -1.50531        -165.262         -46.8789        -152.408         -46.8782        -152.407       -0.0152208         145.592
0.581                   -1.54127        -165.886         -46.7153        -154.384         -46.7147        -154.383       -0.0154055         145.518
0.582                   -1.57789        -166.511          -46.553        -156.364         -46.5524        -156.362       -0.0155929         145.444
0.583                   -1.61518        -167.139         -46.3919        -158.347         -46.3913        -158.345       -0.0157828          145.37
0.584                   -1.65315        -167.768          -46.232        -160.333         -46.2315        -160.332       -0.0159754         145.295
0.585                    -1.6918        -168.398         -46.0734        -162.323         -46.0729        -162.321       -0.0161708          145.22
0.586                   -1.73114        -169.031          -45.916        -164.315         -45.9155        -164.314       -0.0163688         145.145
0.587                   -1.77118        -169.664         -45.7599         -166.31         -45.7595        -166.309       -0.0165697          145.07
0.588                   -1.81191          -170.3          -45.605        -168.307         -45.6046        -168.306       -0.0167733         144.995
0.589                   -1.85335        -170.936         -45.4514        -170.307         -45.4511        -170.306       -0.0169798          144.92
0.59                     -1.8955        -171.574         -45.2991        -172.309         -45.2988        -172.308       -0.0171891         144.844
0.591                   -1.93835        -172.214          -45.148        -174.313         -45.1477        -174.311       -0.0174013         144.768
0.592                   -1.98192        -172.854         -44.9982        -176.318         -44.9979        -176.316       -0.0176164         144.693
0.593                   -2.02621        -173.496         -44.8496        -178.324         -44.8494        -178.323       -0.0178345         144.616
0.594                   -2.07121        -174.139         -44.7023         179.668         -44.7021          179.67       -0.0180555          144.54
0.595                   -2.11693        -174.784         -44.5562          177.66         -44.5561         177.661       -0.0182795         144.464
0.596                   -2.16338        -175.429         -44.4114          175.65         -44.4112         175.652       -0.0185065         144.387
0.597                   -2.21054        -176.075         -44.2677          173.64         -44.2676         173.642       -0.0187366          144.31
0.598                   -2.25842        -176.722         -44.1252          171.63         -44.1251         171.632       -0.0189696         144.233
0.599                   -2.30702         -177.37         -43.9839          169.62         -43.9838         169.622       -0.0192058         144.156
0.6                     -2.35634        -178.019         -43.8438          167.61         -43.8437         167.611        -0.019445         144.079
0.601                   -2.40638        -178.669         -43.7047           165.6         -43.7047         165.601       -0.0196872         144.001
0.602                   -2.45712        -179.319         -43.5668          163.59         -43.5668         163.592       -0.0199326         143.924
0.603                   -2.50858         -179.97           -43.43         161.581           -43.43         161.583        -0.020181         143.846
0.604                   -2.56073         179.378         -43.2942         159.573         -43.2942         159.575       -0.0204324         143.768
0.605                   -2.61359         178.725         -43.1594         157.566         -43.1594         157.567       -0.0206869         143.689
0.606                   -2.66714         178.072         -43.0257         155.559         -43.0257         155.561       -0.0209444         143.611
0.607                   -2.72138         177.418         -42.8929         153.554         -42.8929         153.556        -0.021205         143.532
0.608                    -2.7763         176.763          -42.761          151.55         -42.7611         151.552       -0.0214684         143.453
0.609                   -2.83189         176.108         -42.6301         149.548         -42.6301          149.55       -0.0217348         143.374
0.61                    -2.88814         175.453         -42.5001         147.547         -42.5001         147.549        -0.022004         143.295
0.611                   -2.94506         174.796         -42.3708         145.547         -42.3709         145.549        -0.022276         143.215
0.612                   -3.00262         174.139         -42.2424          143.55         -42.2425         143.551       -0.0225507         143.136
0.613                   -3.06083         173.482         -42.1148         141.553         -42.1149         141.555       -0.0228281         143.056
0.614                   -3.11967         172.823         -41.9879         139.559          -41.988         139.561        -0.023108         142.976
0.615                   -3.17913         172.164         -41.8618         137.566         -41.8618         137.568       -0.0233904         142.895
0.616                    -3.2392         171.504         -41.7363         135.576         -41.7364         135.577       -0.0236751         142.815
0.617                   -3.29989         170.843         -41.6115         133.587         -41.6115         133.589       -0.0239621         142.734
0.618                   -3.36117         170.181         -41.4872           131.6         -41.4873         131.601       -0.0242511         142.653
0.619                   -3.42304         169.518         -41.3636         129.614         -41.3637         129.616       -0.0245422         142.571
0.62                     -3.4855         168.853         -41.2405         127.631         -41.2406         127.633        -0.024835          142.49
0.621                   -3.54854         168.187         -41.1179         125.649          -41.118         125.651       -0.0251297         142.408
0.622                   -3.61216          167.52         -40.9958          123.67         -40.9959         123.671       -0.0254259         142.326
0.623                   -3.67636         166.851         -40.8742         121.691         -40.8742         121.693       -0.0257236         142.244
0.624                   -3.74112          166.18          -40.753         119.715          -40.753         119.717       -0.0260227         142.161
0.625                   -3.80646         165.507         -40.6322          117.74         -40.6322         117.742       -0.0263231         142.079
0.626                   -3.87239         164.832         -40.5117         115.767         -40.5118         115.768       -0.0266247         141.996
0.627                   -3.93889         164.154         -40.3916         113.795         -40.3917         113.796       -0.0269276         141.912
0.628                     -4.006         163.473         -40.2718         111.824         -40.2719         111.826       -0.0272317         141.829
0.629                   -4.07371          162.79         -40.1523         109.855         -40.1524         109.857       -0.0275371         141.745
