! TOUCHSTONE file generated by CST MICROWAVE STUDIO
! Date and time: Mon Sep 28 14:09:32 2020
! Project name: Scenario_1_Free_SPace.cst
! Parameters = {dx1=520; L_HA=400; MT=2.54; Rad_Dielectric=30; Rad_Lower=7.3; Rad_Upper=30; a_HA=580; a_WG=246; b_HA=500; b_WG=121; c_HA=0; c_WG=187; d_feed=85; h_feed=15; h_lower=18; h_upper=40}
! Header version: 2018
! Port assignment regex: !\s*Touchstone port\s*([0-9]+)\s*=\s*(CST MWS port|CST DS port)\s*([0-9]+|Zmin|Zmax)\s*\(\"(.*)\"\)(\s*mode\s*([0-9]+))?.*
! Touchstone port assignment:
! Touchstone port 1 = CST MWS port 1 ("")
! Touchstone port 2 = CST MWS port 2 ("")
# GHz S DB R 50
0.5                    -0.151971        -122.661         -60.8681        -17.3959         -60.8681        -17.3959       -0.0066555         151.134
0.501                  -0.157292          -123.1         -60.6668        -19.0783         -60.6667        -19.0776      -0.00670707         151.069
0.502                  -0.162772         -123.54         -60.4664         -20.762         -60.4662        -20.7606       -0.0067594         151.003
0.503                  -0.168413        -123.983         -60.2671        -22.4473         -60.2668        -22.4453      -0.00681247         150.938
0.504                  -0.174219        -124.428         -60.0687        -24.1345         -60.0683         -24.132      -0.00686629         150.872
0.505                  -0.180192        -124.875         -59.8712        -25.8239         -59.8708        -25.8208      -0.00692084         150.807
0.506                  -0.186337        -125.324         -59.6746        -27.5158         -59.6741        -27.5122      -0.00697611         150.741
0.507                  -0.192657        -125.775         -59.4789        -29.2103         -59.4783        -29.2062       -0.0070321         150.675
0.508                  -0.199154        -126.228         -59.2841        -30.9078         -59.2834        -30.9033       -0.0070888         150.609
0.509                  -0.205833        -126.684           -59.09        -32.6084         -59.0893        -32.6035      -0.00714619         150.543
0.51                   -0.212697        -127.142         -58.8968        -34.3124         -58.8961        -34.3071      -0.00720426         150.477
0.511                  -0.219751        -127.601         -58.7044          -36.02         -58.7036        -36.0143        -0.007263         150.411
0.512                  -0.226997        -128.064         -58.5128        -37.7312         -58.5119        -37.7252      -0.00732239         150.345
0.513                  -0.234441        -128.528         -58.3219        -39.4464          -58.321          -39.44      -0.00738243         150.279
0.514                  -0.242086        -128.995         -58.1318        -41.1656         -58.1309         -41.159       -0.0074431         150.212
0.515                  -0.249937        -129.464         -57.9423         -42.889         -57.9414        -42.8822      -0.00750437         150.146
0.516                  -0.257998        -129.935         -57.7536        -44.6168         -57.7527        -44.6097      -0.00756625          150.08
0.517                  -0.266274        -130.408         -57.5656        -46.3491         -57.5646        -46.3418       -0.0076287         150.013
0.518                  -0.274769        -130.884         -57.3783        -48.0859         -57.3773        -48.0785      -0.00769172         149.946
0.519                  -0.283489        -131.363         -57.1916        -49.8275         -57.1906        -49.8199      -0.00775529          149.88
0.52                   -0.292439        -131.843         -57.0056        -51.5739         -57.0046        -51.5662      -0.00781938         149.813
0.521                  -0.301623        -132.327         -56.8203        -53.3252         -56.8192        -53.3174      -0.00788399         149.746
0.522                  -0.311047        -132.812         -56.6356        -55.0814         -56.6345        -55.0736      -0.00794911         149.679
0.523                  -0.320717          -133.3         -56.4515        -56.8428         -56.4504        -56.8349      -0.00801471         149.612
0.524                  -0.330638        -133.791          -56.268        -58.6093         -56.2669        -58.6014      -0.00808078         149.544
0.525                  -0.340817        -134.283         -56.0852         -60.381         -56.0841         -60.373      -0.00814733         149.477
0.526                  -0.351258        -134.779         -55.9029        -62.1579         -55.9018          -62.15      -0.00821434          149.41
0.527                   -0.36197        -135.277         -55.7213        -63.9401         -55.7202        -63.9323      -0.00828182         149.342
0.528                  -0.372957        -135.777         -55.5402        -65.7277         -55.5391        -65.7199      -0.00834978         149.274
0.529                  -0.384227         -136.28         -55.3597        -67.5207         -55.3587        -67.5129      -0.00841824         149.207
0.53                   -0.395786        -136.786         -55.1798         -69.319         -55.1788        -69.3113      -0.00848722         149.139
0.531                  -0.407641        -137.294         -55.0005        -71.1228         -54.9995        -71.1152      -0.00855676         149.071
0.532                  -0.419799        -137.805         -54.8218         -72.932         -54.8208        -72.9245      -0.00862693         149.003
0.533                  -0.432269        -138.318         -54.6437        -74.7466         -54.6426        -74.7392      -0.00869779         148.935
0.534                  -0.445056        -138.834         -54.4661        -76.5667         -54.4651        -76.5594      -0.00876945         148.867
0.535                   -0.45817        -139.353         -54.2891        -78.3922         -54.2881         -78.385      -0.00884202         148.798
0.536                  -0.471617        -139.874         -54.1127        -80.2231         -54.1117        -80.2161      -0.00891565          148.73
0.537                  -0.485407        -140.398         -53.9368        -82.0594         -53.9359        -82.0526      -0.00899054         148.661
0.538                  -0.499546        -140.925         -53.7616        -83.9011         -53.7606        -83.8944      -0.00906688         148.592
0.539                  -0.514045        -141.454         -53.5869        -85.7481          -53.586        -85.7416      -0.00914495         148.524
0.54                    -0.52891        -141.986         -53.4128        -87.6005         -53.4119        -87.5942      -0.00922503         148.455
0.541                  -0.544152        -142.521         -53.2392        -89.4581         -53.2384         -89.452      -0.00930745         148.386
0.542                  -0.559778        -143.058         -53.0663         -91.321         -53.0654        -91.3151      -0.00939258         148.317
0.543                  -0.575799        -143.598         -52.8939        -93.1891         -52.8931        -93.1833      -0.00948083         148.247
0.544                  -0.592223        -144.141         -52.7222        -95.0622         -52.7214        -95.0567      -0.00957262         148.178
0.545                  -0.609061        -144.686          -52.551        -96.9405         -52.5502        -96.9352       -0.0096684         148.108
0.546                   -0.62632        -145.234         -52.3804        -98.8238         -52.3797        -98.8187       -0.0097686         148.039
0.547                  -0.644011        -145.785         -52.2104        -100.712         -52.2097        -100.707      -0.00987365         147.969
0.548                  -0.662144        -146.338          -52.041        -102.605         -52.0403          -102.6      -0.00998395         147.899
0.549                  -0.680729        -146.894         -51.8722        -104.503         -51.8716        -104.498       -0.0100998         147.829
0.55                   -0.699775        -147.453         -51.7041        -106.406         -51.7035        -106.401       -0.0102215         147.759
0.551                  -0.719293        -148.014         -51.5365        -108.313          -51.536        -108.309       -0.0103492         147.688
0.552                  -0.739291        -148.578         -51.3696        -110.224         -51.3691        -110.221       -0.0104829         147.618
0.553                  -0.759781        -149.144         -51.2033        -112.141         -51.2028        -112.137       -0.0106226         147.547
0.554                  -0.780772        -149.713         -51.0377        -114.061         -51.0372        -114.058       -0.0107681         147.477
0.555                  -0.802275        -150.284         -50.8727        -115.986         -50.8722        -115.983       -0.0109191         147.406
0.556                  -0.824297        -150.858         -50.7083        -117.915         -50.7079        -117.912       -0.0110752         147.335
0.557                  -0.846851        -151.435         -50.5446        -119.848         -50.5442        -119.845        -0.011236         147.264
0.558                  -0.869944        -152.013         -50.3815        -121.785         -50.3812        -121.783       -0.0114009         147.193
0.559                  -0.893587        -152.595         -50.2191        -123.726         -50.2188        -123.724       -0.0115694         147.122
0.56                   -0.917788        -153.178         -50.0573        -125.671          -50.057        -125.668       -0.0117409         147.051
0.561                  -0.942556        -153.764         -49.8963        -127.619          -49.896        -127.617        -0.011915          146.98
0.562                    -0.9679        -154.352         -49.7358        -129.571         -49.7356        -129.569        -0.012091         146.908
0.563                  -0.993828        -154.942         -49.5761        -131.526         -49.5759        -131.524       -0.0122686         146.837
0.564                   -1.02035        -155.534          -49.417        -133.484         -49.4169        -133.483       -0.0124474         146.765
0.565                   -1.04747        -156.128         -49.2587        -135.446         -49.2585        -135.444        -0.012627         146.694
0.566                   -1.07519        -156.725          -49.101         -137.41         -49.1009        -137.409       -0.0128073         146.622
0.567                   -1.10353        -157.323          -48.944        -139.378         -48.9439        -139.377       -0.0129878          146.55
0.568                   -1.13249        -157.923         -48.7877        -141.348         -48.7876        -141.347       -0.0131687         146.478
0.569                   -1.16207        -158.525         -48.6321        -143.321          -48.632         -143.32       -0.0133496         146.405
0.57                    -1.19227        -159.129         -48.4771        -145.297         -48.4771        -145.296       -0.0135307         146.333
0.571                   -1.22312        -159.734         -48.3229        -147.275          -48.323        -147.274       -0.0137118         146.261
0.572                   -1.25459        -160.341         -48.1694        -149.255         -48.1695        -149.255        -0.013893         146.188
0.573                   -1.28671         -160.95         -48.0166        -151.237         -48.0167        -151.237       -0.0140744         146.115
0.574                   -1.31946         -161.56         -47.8645        -153.222         -47.8646        -153.222       -0.0142559         146.043
0.575                   -1.35285        -162.171          -47.713        -155.208         -47.7132        -155.208       -0.0144377          145.97
0.576                   -1.38689        -162.784         -47.5623        -157.197         -47.5625        -157.197       -0.0146199         145.896
0.577                   -1.42157        -163.398         -47.4123        -159.187         -47.4125        -159.187       -0.0148025         145.823
0.578                   -1.45688        -164.013          -47.263        -161.178         -47.2632        -161.179       -0.0149856          145.75
0.579                   -1.49283        -164.629         -47.1144        -163.171         -47.1146        -163.172       -0.0151693         145.676
0.58                    -1.52941        -165.247         -46.9665        -165.166         -46.9667        -165.166       -0.0153538         145.602
0.581                   -1.56662        -165.865         -46.8193        -167.162         -46.8195        -167.162       -0.0155391         145.529
0.582                   -1.60446        -166.484         -46.6727        -169.158          -46.673        -169.159       -0.0157254         145.454
0.583                   -1.64291        -167.105         -46.5269        -171.156         -46.5271        -171.157       -0.0159126          145.38
0.584                   -1.68197        -167.726         -46.3817        -173.155          -46.382        -173.156        -0.016101         145.306
0.585                   -1.72164        -168.347         -46.2372        -175.155         -46.2375        -175.155       -0.0162906         145.231
0.586                    -1.7619         -168.97         -46.0934        -177.155         -46.0937        -177.156       -0.0164814         145.157
0.587                   -1.80275        -169.593         -45.9503        -179.156         -45.9506        -179.157       -0.0166736         145.082
0.588                   -1.84418        -170.217         -45.8078         178.842         -45.8082         178.842       -0.0168673         145.007
0.589                   -1.88617        -170.842          -45.666          176.84         -45.6664          176.84       -0.0170625         144.932
0.59                    -1.92873        -171.467         -45.5249         174.838         -45.5252         174.838       -0.0172593         144.856
0.591                   -1.97183        -172.094         -45.3844         172.835         -45.3847         172.835       -0.0174578         144.781
0.592                   -2.01547         -172.72         -45.2445         170.833         -45.2448         170.832       -0.0176579         144.705
0.593                   -2.05963        -173.348         -45.1053          168.83         -45.1056         168.829       -0.0178599         144.629
0.594                   -2.10432        -173.976         -44.9667         166.827          -44.967         166.826       -0.0180638         144.553
0.595                   -2.14951        -174.605         -44.8287         164.824          -44.829         164.823       -0.0182696         144.477
0.596                   -2.19519        -175.235         -44.6913         162.821         -44.6917         162.821       -0.0184773           144.4
0.597                   -2.24136        -175.866         -44.5546         160.818         -44.5549         160.818       -0.0186872         144.324
0.598                   -2.28801        -176.498         -44.4184         158.816         -44.4187         158.816       -0.0188991         144.247
0.599                   -2.33513        -177.131         -44.2828         156.814         -44.2831         156.813       -0.0191131          144.17
0.6                     -2.38271        -177.765         -44.1478         154.812         -44.1481         154.812       -0.0193294         144.093
0.601                   -2.43074          -178.4         -44.0133          152.81         -44.0137          152.81        -0.019548         144.015
0.602                   -2.47922        -179.036         -43.8795         150.809         -43.8798         150.809       -0.0197688         143.938
0.603                   -2.52815        -179.674         -43.7461         148.809         -43.7464         148.808       -0.0199921          143.86
0.604                   -2.57751         179.686         -43.6133         146.808         -43.6136         146.808       -0.0202178         143.782
0.605                   -2.62731         179.045         -43.4811         144.809         -43.4813         144.809       -0.0204459         143.704
0.606                   -2.67755         178.401         -43.3493          142.81         -43.3496         142.809       -0.0206766         143.625
0.607                   -2.72824         177.756         -43.2181         140.811         -43.2183         140.811       -0.0209099         143.547
0.608                   -2.77936         177.109         -43.0873         138.813         -43.0876         138.813       -0.0211458         143.468
0.609                   -2.83093         176.459         -42.9571         136.816         -42.9573         136.816       -0.0213844         143.389
0.61                    -2.88295         175.807         -42.8273         134.819         -42.8275         134.819       -0.0216258          143.31
0.611                   -2.93544         175.152          -42.698         132.823         -42.6982         132.823       -0.0218699          143.23
0.612                    -2.9884         174.494         -42.5692         130.827         -42.5694         130.827        -0.022117         143.151
0.613                   -3.04184         173.833         -42.4408         128.832          -42.441         128.832       -0.0223669         143.071
0.614                   -3.09578         173.169         -42.3129         126.838          -42.313         126.838       -0.0226198          142.99
0.615                   -3.15024         172.502         -42.1853         124.844         -42.1855         124.844       -0.0228758          142.91
0.616                   -3.20524         171.831         -42.0583         122.851         -42.0584         122.851       -0.0231348         142.829
0.617                   -3.26079         171.156         -41.9316         120.858         -41.9317         120.858        -0.023397         142.749
0.618                   -3.31692         170.477         -41.8053         118.866         -41.8054         118.866       -0.0236625         142.668
0.619                   -3.37366         169.795         -41.6794         116.875         -41.6795         116.875       -0.0239312         142.586
0.62                    -3.43103         169.108         -41.5539         114.884          -41.554         114.884       -0.0242033         142.505
0.621                   -3.48907         168.416         -41.4288         112.893         -41.4289         112.893       -0.0244788         142.423
0.622                   -3.54781          167.72          -41.304         110.903         -41.3041         110.903       -0.0247579         142.341
0.623                   -3.60727         167.019         -41.1796         108.913         -41.1797         108.913       -0.0250405         142.258
0.624                   -3.66751         166.313         -41.0556         106.924         -41.0556         106.924       -0.0253268         142.176
0.625                   -3.72856         165.602         -40.9319         104.934         -40.9319         104.934       -0.0256168         142.093
0.626                   -3.79045         164.886         -40.8085         102.946         -40.8085         102.946       -0.0259106          142.01
0.627                   -3.85325         164.164         -40.6855         100.957         -40.6855         100.957       -0.0262084         141.926
0.628                   -3.91698         163.437         -40.5628         98.9684         -40.5628         98.9684       -0.0265103         141.843
0.629                   -3.98171         162.704         -40.4404           96.98         -40.4404           96.98       -0.0268162         141.759
