! TOUCHSTONE file generated by CST MICROWAVE STUDIO
! Date and time: Mon Sep 28 14:09:39 2020
! Project name: Scenario_1_Free_SPace.cst
! Parameters = {dx1=537; L_HA=400; MT=2.54; Rad_Dielectric=30; Rad_Lower=7.3; Rad_Upper=30; a_HA=580; a_WG=246; b_HA=500; b_WG=121; c_HA=0; c_WG=187; d_feed=85; h_feed=15; h_lower=18; h_upper=40}
! Header version: 2018
! Port assignment regex: !\s*Touchstone port\s*([0-9]+)\s*=\s*(CST MWS port|CST DS port)\s*([0-9]+|Zmin|Zmax)\s*\(\"(.*)\"\)(\s*mode\s*([0-9]+))?.*
! Touchstone port assignment:
! Touchstone port 1 = CST MWS port 1 ("")
! Touchstone port 2 = CST MWS port 2 ("")
# GHz S DB R 50
0.5                    -0.150906        -122.671         -61.0564        -27.2509         -61.0564        -27.2509      -0.00660709          151.14
0.501                  -0.155119        -123.131         -60.9207        -28.8947         -60.9207        -28.8947      -0.00667286         151.074
0.502                  -0.159583        -123.592         -60.7826        -30.5455         -60.7825        -30.5456      -0.00673951         151.008
0.503                  -0.164301        -124.054         -60.6421        -32.2032          -60.642        -32.2032      -0.00680706         150.943
0.504                  -0.169275        -124.519         -60.4993        -33.8675         -60.4991        -33.8676      -0.00687549         150.877
0.505                  -0.174508        -124.985         -60.3541        -35.5383         -60.3539        -35.5384      -0.00694483         150.811
0.506                  -0.180002        -125.453         -60.2067        -37.2154         -60.2064        -37.2154      -0.00701507         150.745
0.507                  -0.185762        -125.923          -60.057        -38.8987         -60.0567        -38.8987      -0.00708622         150.679
0.508                  -0.191788        -126.394          -59.905        -40.5879         -59.9047        -40.5879      -0.00715827         150.613
0.509                  -0.198085        -126.867         -59.7508         -42.283         -59.7505        -42.2829      -0.00723124         150.547
0.51                   -0.204654        -127.343         -59.5945        -43.9838         -59.5942        -43.9837      -0.00730513         150.481
0.511                  -0.211499        -127.819         -59.4361        -45.6902         -59.4357        -45.6901      -0.00737994         150.415
0.512                  -0.218623        -128.298         -59.2756        -47.4021         -59.2752        -47.4019      -0.00745568         150.348
0.513                  -0.226027        -128.778         -59.1131        -49.1194         -59.1126        -49.1192      -0.00753235         150.282
0.514                  -0.233716         -129.26         -58.9486         -50.842         -58.9481        -50.8419      -0.00760996         150.215
0.515                  -0.241691        -129.744         -58.7821        -52.5699         -58.7816        -52.5697      -0.00768851         150.149
0.516                  -0.249956         -130.23         -58.6137         -54.303         -58.6132        -54.3028        -0.007768         150.082
0.517                  -0.258513        -130.717         -58.4436        -56.0413          -58.443        -56.0411      -0.00784845         150.015
0.518                  -0.267366        -131.207         -58.2716        -57.7848         -58.2711        -57.7845      -0.00792986         149.949
0.519                  -0.276516        -131.698         -58.0979        -59.5333         -58.0974         -59.533      -0.00801223         149.882
0.52                   -0.285967         -132.19         -57.9226         -61.287          -57.922        -61.2867      -0.00809557         149.815
0.521                  -0.295722        -132.685         -57.7456        -63.0458          -57.745        -63.0455      -0.00817989         149.748
0.522                  -0.305783        -133.181         -57.5671        -64.8098         -57.5665        -64.8094      -0.00826519          149.68
0.523                  -0.316154        -133.679         -57.3871        -66.5789         -57.3865        -66.5785      -0.00835148         149.613
0.524                  -0.326836        -134.179         -57.2057        -68.3533          -57.205        -68.3529      -0.00843876         149.546
0.525                  -0.337834        -134.681         -57.0229        -70.1329         -57.0222        -70.1325      -0.00852705         149.478
0.526                  -0.349149        -135.184         -56.8388        -71.9179         -56.8381        -71.9174      -0.00861634         149.411
0.527                  -0.360784        -135.689         -56.6534        -73.7082         -56.6528        -73.7077      -0.00870666         149.343
0.528                  -0.372743        -136.196          -56.467        -75.5041         -56.4663        -75.5035        -0.008798         149.276
0.529                  -0.385028        -136.705         -56.2794        -77.3054         -56.2787        -77.3049      -0.00889037         149.208
0.53                   -0.397642        -137.215         -56.0908        -79.1124         -56.0901        -79.1119      -0.00898379          149.14
0.531                  -0.410588        -137.727         -55.9012        -80.9252         -55.9005        -80.9246      -0.00907825         149.072
0.532                  -0.423868        -138.241         -55.7108        -82.7437         -55.7101        -82.7432      -0.00917377         149.004
0.533                  -0.437486        -138.757         -55.5195        -84.5682         -55.5188        -84.5677      -0.00927036         148.936
0.534                  -0.451444        -139.275         -55.3275        -86.3988         -55.3268        -86.3982      -0.00936802         148.868
0.535                  -0.465745        -139.794         -55.1348        -88.2354         -55.1341        -88.2349      -0.00946676         148.799
0.536                  -0.480392        -140.315         -54.9415        -90.0784         -54.9408        -90.0778      -0.00956661         148.731
0.537                  -0.495387        -140.838         -54.7477        -91.9276          -54.747         -91.927      -0.00966755         148.662
0.538                  -0.510734        -141.362         -54.5535        -93.7833         -54.5528        -93.7828      -0.00976961         148.594
0.539                  -0.526436        -141.889         -54.3588        -95.6456         -54.3582         -95.645       -0.0098728         148.525
0.54                   -0.542494        -142.417         -54.1639        -97.5145         -54.1633         -97.514      -0.00997711         148.456
0.541                  -0.558913        -142.947         -53.9688        -99.3902         -53.9681        -99.3896       -0.0100826         148.387
0.542                  -0.575694        -143.478         -53.7735        -101.273         -53.7729        -101.272       -0.0101892         148.318
0.543                  -0.592841        -144.012         -53.5782        -103.162         -53.5775        -103.162        -0.010297         148.249
0.544                  -0.610356        -144.547         -53.3828        -105.059         -53.3822        -105.058        -0.010406          148.18
0.545                  -0.628242        -145.084         -53.1876        -106.962         -53.1869        -106.961       -0.0105161         148.111
0.546                  -0.646503        -145.623         -52.9925        -108.872         -52.9919        -108.872       -0.0106275         148.041
0.547                  -0.665141        -146.163         -52.7976         -110.79          -52.797         -110.79       -0.0107401         147.972
0.548                  -0.684158        -146.706         -52.6031        -112.715         -52.6025        -112.714       -0.0108539         147.902
0.549                  -0.703558         -147.25         -52.4089        -114.647         -52.4084        -114.646       -0.0109689         147.832
0.55                   -0.723343        -147.795         -52.2152        -116.586         -52.2147        -116.586       -0.0110853         147.762
0.551                  -0.743517        -148.343         -52.0221        -118.533         -52.0216        -118.532       -0.0112028         147.692
0.552                  -0.764082        -148.892         -51.8296        -120.486         -51.8291        -120.486       -0.0113217         147.622
0.553                  -0.785042        -149.444         -51.6378        -122.447         -51.6372        -122.446       -0.0114419         147.552
0.554                  -0.806398        -149.997         -51.4467        -124.414         -51.4462        -124.414       -0.0115634         147.482
0.555                  -0.828154        -150.552         -51.2565        -126.389          -51.256        -126.389       -0.0116862         147.411
0.556                  -0.850313        -151.108         -51.0671         -128.37         -51.0667         -128.37       -0.0118104         147.341
0.557                  -0.872879        -151.667         -50.8788        -130.359         -50.8783        -130.358       -0.0119359          147.27
0.558                  -0.895853        -152.227         -50.6914        -132.354          -50.691        -132.353       -0.0120628         147.199
0.559                  -0.919238        -152.789         -50.5052        -134.355         -50.5048        -134.354       -0.0121911         147.128
0.56                   -0.943039        -153.353         -50.3202        -136.363         -50.3198        -136.362       -0.0123208         147.057
0.561                  -0.967258        -153.918         -50.1363        -138.376         -50.1359        -138.376       -0.0124519         146.986
0.562                  -0.991898        -154.486         -49.9538        -140.396         -49.9534        -140.396       -0.0125845         146.915
0.563                   -1.01696        -155.055         -49.7726        -142.421         -49.7722        -142.421       -0.0127186         146.844
0.564                   -1.04245        -155.626         -49.5928        -144.452         -49.5924        -144.452       -0.0128542         146.772
0.565                   -1.06837        -156.199         -49.4144        -146.488         -49.4141        -146.488       -0.0129912           146.7
0.566                   -1.09473        -156.774         -49.2375        -148.529         -49.2372        -148.529       -0.0131298         146.629
0.567                   -1.12152        -157.351         -49.0622        -150.575         -49.0618        -150.574       -0.0132699         146.557
0.568                   -1.14876         -157.93         -48.8884        -152.625         -48.8881        -152.624       -0.0134117         146.485
0.569                   -1.17643         -158.51         -48.7162        -154.679         -48.7159        -154.678        -0.013555         146.412
0.57                    -1.20456        -159.093         -48.5456        -156.736         -48.5453        -156.736       -0.0136999          146.34
0.571                   -1.23313        -159.677         -48.3767        -158.797         -48.3764        -158.797       -0.0138464         146.268
0.572                   -1.26216        -160.264         -48.2095        -160.861         -48.2092        -160.861       -0.0139946         146.195
0.573                   -1.29165        -160.852          -48.044        -162.928         -48.0438        -162.928       -0.0141445         146.122
0.574                    -1.3216        -161.442         -47.8802        -164.997           -47.88        -164.997       -0.0142961         146.049
0.575                   -1.35201        -162.034         -47.7182        -167.068         -47.7179        -167.068       -0.0144495         145.976
0.576                    -1.3829        -162.628         -47.5578        -169.141         -47.5576         -169.14       -0.0146046         145.903
0.577                   -1.41426        -163.225         -47.3993        -171.215         -47.3991        -171.214       -0.0147614          145.83
0.578                   -1.44609        -163.823         -47.2425        -173.289         -47.2423        -173.289       -0.0149201         145.756
0.579                   -1.47841        -164.423         -47.0874        -175.365         -47.0872        -175.364       -0.0150807         145.683
0.58                    -1.51122        -165.025          -46.934         -177.44         -46.9338        -177.439       -0.0152431         145.609
0.581                   -1.54451         -165.63         -46.7823        -179.515         -46.7822        -179.515       -0.0154074         145.535
0.582                    -1.5783        -166.236         -46.6324          178.41         -46.6323         178.411       -0.0155736         145.461
0.583                   -1.61259        -166.845         -46.4841         176.336          -46.484         176.337       -0.0157418         145.386
0.584                   -1.64739        -167.456         -46.3375         174.264         -46.3374         174.264       -0.0159119         145.312
0.585                    -1.6827        -168.069         -46.1925         172.192         -46.1924         172.193       -0.0160841         145.237
0.586                   -1.71852        -168.684         -46.0491         170.123          -46.049         170.124       -0.0162584         145.163
0.587                   -1.75486        -169.301         -45.9072         168.056         -45.9071         168.056       -0.0164347         145.088
0.588                   -1.79173        -169.921         -45.7669         165.991         -45.7668         165.991       -0.0166131         145.013
0.589                   -1.82914        -170.543          -45.628         163.928         -45.6279         163.929       -0.0167937         144.937
0.59                    -1.86708        -171.167         -45.4906         161.869         -45.4905         161.869       -0.0169765         144.862
0.591                   -1.90557        -171.794         -45.3545         159.812         -45.3545         159.813       -0.0171616         144.786
0.592                   -1.94461        -172.422         -45.2199         157.759         -45.2198          157.76       -0.0173489         144.711
0.593                    -1.9842        -173.054         -45.0865         155.709         -45.0864          155.71       -0.0175385         144.635
0.594                   -2.02437        -173.688         -44.9543         153.663         -44.9543         153.664       -0.0177304         144.559
0.595                   -2.06511        -174.324         -44.8234          151.62         -44.8233         151.621       -0.0179247         144.482
0.596                   -2.10642        -174.963         -44.6936         149.582         -44.6935         149.582       -0.0181215         144.406
0.597                   -2.14833        -175.604         -44.5649         147.547         -44.5648         147.548       -0.0183207         144.329
0.598                   -2.19084        -176.248         -44.4372         145.516         -44.4371         145.517       -0.0185224         144.252
0.599                   -2.23395        -176.895         -44.3105         143.489         -44.3105          143.49       -0.0187267         144.175
0.6                     -2.27768        -177.544         -44.1847         141.467         -44.1847         141.468       -0.0189336         144.098
0.601                   -2.32204        -178.196         -44.0598         139.448         -44.0598         139.449       -0.0191431         144.021
0.602                   -2.36703        -178.851         -43.9358         137.434         -43.9357         137.435       -0.0193553         143.943
0.603                   -2.41266        -179.509         -43.8125         135.424         -43.8124         135.425       -0.0195703         143.865
0.604                   -2.45896          179.83         -43.6899         133.418         -43.6898         133.419       -0.0197881         143.787
0.605                   -2.50593         179.167         -43.5679         131.416         -43.5679         131.417       -0.0200087         143.709
0.606                   -2.55357           178.5         -43.4466         129.418         -43.4465         129.419       -0.0202322         143.631
0.607                   -2.60192         177.831         -43.3258         127.424         -43.3258         127.425       -0.0204587         143.552
0.608                   -2.65097         177.158         -43.2056         125.434         -43.2055         125.434       -0.0206881         143.473
0.609                   -2.70074         176.482         -43.0857         123.447         -43.0857         123.448       -0.0209207         143.394
0.61                    -2.75125         175.803         -42.9664         121.464         -42.9663         121.464       -0.0211563         143.315
0.611                   -2.80252          175.12         -42.8473         119.484         -42.8473         119.485       -0.0213952         143.235
0.612                   -2.85455         174.434         -42.7286         117.508         -42.7286         117.508       -0.0216373         143.156
0.613                   -2.90737         173.745         -42.6102         115.534         -42.6102         115.535       -0.0218827         143.076
0.614                     -2.961         173.052         -42.4921         113.564          -42.492         113.564       -0.0221315         142.995
0.615                   -3.01546         172.356         -42.3741         111.596         -42.3741         111.597       -0.0223837         142.915
0.616                   -3.07076         171.656         -42.2563         109.631         -42.2563         109.632       -0.0226394         142.834
0.617                   -3.12692         170.952         -42.1387         107.668         -42.1386         107.669       -0.0228987         142.754
0.618                   -3.18398         170.244         -42.0211         105.707         -42.0211         105.708       -0.0231617         142.672
0.619                   -3.24194         169.533         -41.9036         103.749         -41.9036         103.749       -0.0234283         142.591
0.62                    -3.30085         168.817         -41.7862         101.792         -41.7862         101.792       -0.0236988          142.51
0.621                   -3.36072         168.098         -41.6688          99.836         -41.6688         99.8366       -0.0239732         142.428
0.622                   -3.42158         167.374         -41.5514         97.8817         -41.5514         97.8822       -0.0242515         142.346
0.623                   -3.48346         166.647          -41.434         95.9283          -41.434         95.9289       -0.0245338         142.263
0.624                    -3.5464         165.915         -41.3166         93.9758         -41.3165         93.9763       -0.0248203         142.181
0.625                   -3.61041         165.178          -41.199         92.0238          -41.199         92.0243       -0.0251109         142.098
0.626                   -3.67555         164.438         -41.0815         90.0721         -41.0814         90.0726       -0.0254059         142.015
0.627                   -3.74184         163.692         -40.9638         88.1205         -40.9637         88.1209       -0.0257053         141.931
0.628                   -3.80932         162.943          -40.846         86.1687          -40.846         86.1692       -0.0260091         141.848
0.629                   -3.87804         162.188         -40.7282         84.2165         -40.7281          84.217       -0.0263176         141.764
