! TOUCHSTONE file generated by CST MICROWAVE STUDIO
! Date and time: Mon Sep 28 14:10:57 2020
! Project name: Scenario_1_Free_SPace.cst
! Parameters = {dx1=571.6; L_HA=400; MT=2.54; Rad_Dielectric=30; Rad_Lower=7.3; Rad_Upper=30; a_HA=580; a_WG=246; b_HA=500; b_WG=121; c_HA=0; c_WG=187; d_feed=85; h_feed=15; h_lower=18; h_upper=40}
! Header version: 2018
! Port assignment regex: !\s*Touchstone port\s*([0-9]+)\s*=\s*(CST MWS port|CST DS port)\s*([0-9]+|Zmin|Zmax)\s*\(\"(.*)\"\)(\s*mode\s*([0-9]+))?.*
! Touchstone port assignment:
! Touchstone port 1 = CST MWS port 1 ("")
! Touchstone port 2 = CST MWS port 2 ("")
# GHz S DB R 50
0.5                    -0.146703        -122.397          -61.533        -47.1601          -61.533        -47.1601      -0.00647385         151.139
0.501                   -0.15012        -122.853         -61.3555        -48.8204         -61.3554        -48.8199      -0.00653858         151.073
0.502                  -0.153844         -123.31          -61.177        -50.4864         -61.1769        -50.4853      -0.00660442         151.008
0.503                  -0.157877         -123.77         -60.9976        -52.1581         -60.9974        -52.1565      -0.00667136         150.942
0.504                  -0.162221        -124.231         -60.8172        -53.8356         -60.8169        -53.8335      -0.00673942         150.877
0.505                   -0.16688        -124.694          -60.636        -55.5191         -60.6356        -55.5166      -0.00680858         150.811
0.506                  -0.171854        -125.159         -60.4539        -57.2087         -60.4535        -57.2058      -0.00687885         150.745
0.507                  -0.177146        -125.626          -60.271        -58.9045         -60.2705        -58.9012      -0.00695023         150.679
0.508                   -0.18276        -126.095         -60.0872        -60.6066         -60.0867        -60.6029      -0.00702273         150.613
0.509                  -0.188696        -126.566         -59.9028        -62.3151         -59.9022        -62.3111      -0.00709633         150.547
0.51                   -0.194957        -127.039         -59.7176        -64.0303         -59.7169        -64.0259      -0.00717104         150.481
0.511                  -0.201546        -127.513         -59.5317         -65.752          -59.531        -65.7474      -0.00724687         150.415
0.512                  -0.208464        -127.989         -59.3451        -67.4806         -59.3444        -67.4758       -0.0073238         150.349
0.513                  -0.215713        -128.468          -59.158        -69.2161         -59.1573        -69.2111      -0.00740185         150.283
0.514                  -0.223296        -128.947         -58.9703        -70.9587         -58.9695        -70.9534      -0.00748101         150.216
0.515                  -0.231214        -129.429          -58.782        -72.7084         -58.7812         -72.703      -0.00756128          150.15
0.516                  -0.239469        -129.913         -58.5933        -74.4654         -58.5925        -74.4599      -0.00764267         150.083
0.517                  -0.248063        -130.398         -58.4041        -76.2298         -58.4033        -76.2241      -0.00772517         150.017
0.518                  -0.256997        -130.885         -58.2145        -78.0017         -58.2137         -77.996      -0.00780879          149.95
0.519                  -0.266274        -131.374         -58.0245        -79.7813         -58.0237        -79.7754      -0.00789352         149.883
0.52                   -0.275895        -131.865         -57.8342        -81.5686         -57.8334        -81.5626      -0.00797937         149.817
0.521                  -0.285861        -132.357         -57.6437        -83.3637         -57.6428        -83.3577      -0.00806633          149.75
0.522                  -0.296174        -132.851         -57.4528        -85.1667          -57.452        -85.1607      -0.00815442         149.683
0.523                  -0.306836        -133.347         -57.2619        -86.9778          -57.261        -86.9718      -0.00824362         149.616
0.524                  -0.317848        -133.845         -57.0707        -88.7969         -57.0698         -88.791      -0.00833395         149.548
0.525                  -0.329211        -134.344         -56.8795        -90.6243         -56.8786        -90.6184      -0.00842539         149.481
0.526                  -0.340926        -134.845         -56.6882        -92.4599         -56.6873        -92.4541      -0.00851796         149.414
0.527                  -0.352995        -135.348         -56.4969        -94.3039         -56.4961        -94.2981      -0.00861166         149.346
0.528                  -0.365418        -135.852         -56.3057        -96.1562         -56.3048        -96.1506      -0.00870648         149.279
0.529                  -0.378198        -136.358         -56.1145         -98.017         -56.1137        -98.0115      -0.00880242         149.211
0.53                   -0.391334        -136.866         -55.9236        -99.8862         -55.9227        -99.8809       -0.0088995         149.144
0.531                  -0.404829        -137.375         -55.7328        -101.764          -55.732        -101.759       -0.0089977         149.076
0.532                  -0.418682        -137.886         -55.5422         -103.65         -55.5414        -103.645      -0.00909703         149.008
0.533                  -0.432895        -138.399          -55.352        -105.545         -55.3512         -105.54       -0.0091975          148.94
0.534                  -0.447468        -138.913         -55.1621        -107.449         -55.1613        -107.444       -0.0092991         148.872
0.535                  -0.462403        -139.429         -54.9726         -109.36         -54.9719        -109.356      -0.00940183         148.804
0.536                  -0.477699        -139.946         -54.7836        -111.281         -54.7829        -111.276      -0.00950571         148.736
0.537                  -0.493358        -140.465          -54.595         -113.21         -54.5944        -113.205      -0.00961072         148.667
0.538                  -0.509381        -140.986         -54.4071        -115.147         -54.4064        -115.143      -0.00971687         148.599
0.539                  -0.525767        -141.509         -54.2197        -117.092         -54.2191        -117.089      -0.00982416          148.53
0.54                   -0.542517        -142.033          -54.033        -119.046         -54.0324        -119.043       -0.0099326         148.462
0.541                  -0.559632        -142.558          -53.847        -121.008         -53.8464        -121.005       -0.0100422         148.393
0.542                  -0.577112        -143.085         -53.6618        -122.978         -53.6612        -122.975       -0.0101529         148.324
0.543                  -0.594957        -143.614         -53.4774        -124.956         -53.4768        -124.953       -0.0102648         148.255
0.544                  -0.613169        -144.144         -53.2938        -126.942         -53.2933        -126.939       -0.0103778         148.186
0.545                  -0.631746        -144.676         -53.1111        -128.936         -53.1107        -128.933        -0.010492         148.117
0.546                   -0.65069         -145.21         -52.9294        -130.936          -52.929        -130.934       -0.0106074         148.048
0.547                  -0.670001        -145.745         -52.7487        -132.945         -52.7483        -132.942       -0.0107239         147.978
0.548                  -0.689679        -146.282          -52.569         -134.96         -52.5687        -134.958       -0.0108415         147.909
0.549                  -0.709724         -146.82         -52.3905        -136.982         -52.3902         -136.98       -0.0109603         147.839
0.55                   -0.730137         -147.36          -52.213        -139.011         -52.2127        -139.009       -0.0110803          147.77
0.551                  -0.750917        -147.902         -52.0367        -141.046         -52.0365        -141.045       -0.0112015           147.7
0.552                  -0.772065        -148.445         -51.8616        -143.087         -51.8614        -143.086       -0.0113238          147.63
0.553                  -0.793581         -148.99         -51.6877        -145.135         -51.6876        -145.134       -0.0114473          147.56
0.554                  -0.815466        -149.537         -51.5151        -147.188          -51.515        -147.187       -0.0115719          147.49
0.555                  -0.837719        -150.085         -51.3438        -149.246         -51.3437        -149.245       -0.0116978          147.42
0.556                  -0.860341        -150.635         -51.1738        -151.309         -51.1738        -151.309       -0.0118248         147.349
0.557                  -0.883332        -151.187         -51.0052        -153.378         -51.0052        -153.377        -0.011953         147.279
0.558                  -0.906693         -151.74         -50.8379         -155.45         -50.8379         -155.45       -0.0120824         147.208
0.559                  -0.930423        -152.295          -50.672        -157.527         -50.6721        -157.527        -0.012213         147.138
0.56                   -0.954524        -152.852         -50.5076        -159.607         -50.5077        -159.607       -0.0123447         147.067
0.561                  -0.978996         -153.41         -50.3445        -161.691         -50.3447        -161.691       -0.0124777         146.996
0.562                   -1.00384        -153.971         -50.1829        -163.778         -50.1831        -163.778       -0.0126118         146.925
0.563                   -1.02905        -154.533         -50.0227        -165.868         -50.0229        -165.868       -0.0127472         146.854
0.564                   -1.05464        -155.097          -49.864         -167.96         -49.8642        -167.961       -0.0128837         146.783
0.565                    -1.0806        -155.662         -49.7067        -170.055          -49.707        -170.055       -0.0130215         146.711
0.566                   -1.10694         -156.23         -49.5509        -172.151         -49.5512        -172.151       -0.0131605          146.64
0.567                   -1.13365        -156.799         -49.3965        -174.249         -49.3968        -174.249       -0.0133006         146.568
0.568                   -1.16074        -157.371         -49.2436        -176.347         -49.2439        -176.348        -0.013442         146.496
0.569                    -1.1882        -157.944          -49.092        -178.447         -49.0924        -178.447       -0.0135846         146.424
0.57                    -1.21605        -158.519         -48.9419         179.453         -48.9423         179.453       -0.0137285         146.352
0.571                   -1.24427        -159.097         -48.7932         177.353         -48.7936         177.353       -0.0138735          146.28
0.572                   -1.27288        -159.676         -48.6459         175.253         -48.6463         175.253       -0.0140198         146.207
0.573                   -1.30188        -160.258         -48.4999         173.154         -48.5003         173.153       -0.0141673         146.135
0.574                   -1.33126        -160.841         -48.3553         171.055         -48.3557         171.055       -0.0143161         146.062
0.575                   -1.36103        -161.427          -48.212         168.958         -48.2124         168.957       -0.0144661          145.99
0.576                   -1.39119        -162.015         -48.0699         166.861         -48.0704         166.861       -0.0146173         145.917
0.577                   -1.42175        -162.605         -47.9291         164.766         -47.9296         164.766       -0.0147698         145.844
0.578                   -1.45271        -163.198         -47.7896         162.673         -47.7901         162.673       -0.0149236          145.77
0.579                   -1.48407        -163.793         -47.6512         160.582         -47.6517         160.582       -0.0150786         145.697
0.58                    -1.51584         -164.39          -47.514         158.493         -47.5145         158.493       -0.0152349         145.624
0.581                   -1.54802         -164.99         -47.3779         156.407         -47.3784         156.407       -0.0153924          145.55
0.582                   -1.58061        -165.592         -47.2429         154.323         -47.2434         154.323       -0.0155513         145.476
0.583                   -1.61362        -166.197         -47.1089         152.242         -47.1094         152.242       -0.0157114         145.402
0.584                   -1.64706        -166.805         -46.9759         150.164         -46.9764         150.164       -0.0158729         145.328
0.585                   -1.68093        -167.415         -46.8439         148.089         -46.8444         148.089       -0.0160356         145.254
0.586                   -1.71523        -168.028         -46.7128         146.017         -46.7133         146.017       -0.0161997         145.179
0.587                   -1.74999        -168.644         -46.5826         143.949         -46.5831         143.949       -0.0163651         145.105
0.588                   -1.78519        -169.262         -46.4533         141.883         -46.4537         141.883       -0.0165318          145.03
0.589                   -1.82085        -169.884         -46.3247         139.822         -46.3252         139.822       -0.0166999         144.955
0.59                    -1.85698        -170.509         -46.1969         137.763         -46.1973         137.763       -0.0168693          144.88
0.591                   -1.89359        -171.136         -46.0698         135.708         -46.0702         135.708       -0.0170402         144.805
0.592                   -1.93069        -171.767         -45.9433         133.657         -45.9438         133.657       -0.0172124         144.729
0.593                   -1.96828        -172.402         -45.8175         131.609          -45.818         131.609       -0.0173861         144.654
0.594                   -2.00639        -173.039         -45.6923         129.565         -45.6927         129.565       -0.0175612         144.578
0.595                   -2.04501         -173.68         -45.5677         127.524         -45.5681         127.525       -0.0177377         144.502
0.596                   -2.08417        -174.325         -45.4435         125.487         -45.4439         125.488       -0.0179158         144.426
0.597                   -2.12387        -174.973         -45.3198         123.454         -45.3202         123.454       -0.0180953          144.35
0.598                   -2.16414        -175.624         -45.1966         121.423         -45.1969         121.424       -0.0182765         144.273
0.599                   -2.20498         -176.28         -45.0737         119.396         -45.0741         119.397       -0.0184592         144.196
0.6                     -2.24642        -176.939         -44.9512         117.372         -44.9515         117.373       -0.0186435          144.12
0.601                   -2.28847        -177.602         -44.8291         115.352         -44.8294         115.352       -0.0188295         144.042
0.602                   -2.33115        -178.269         -44.7072         113.334         -44.7075         113.335       -0.0190171         143.965
0.603                   -2.37447        -178.941         -44.5856          111.32         -44.5859          111.32       -0.0192066         143.888
0.604                   -2.41847        -179.616         -44.4642         109.308         -44.4645         109.308       -0.0193979          143.81
0.605                   -2.46316         179.704          -44.343         107.299         -44.3433         107.299        -0.019591         143.732
0.606                   -2.50856          179.02         -44.2221         105.292         -44.2223         105.292       -0.0197861         143.654
0.607                    -2.5547         178.331         -44.1012         103.288         -44.1014         103.288       -0.0199832         143.576
0.608                   -2.60161         177.638         -43.9805         101.286         -43.9807         101.286       -0.0201825         143.497
0.609                   -2.64931          176.94         -43.8599         99.2861           -43.86         99.2864       -0.0203839         143.419
0.61                    -2.69784         176.238         -43.7394         97.2882         -43.7395         97.2885       -0.0205876          143.34
0.611                   -2.74721          175.53         -43.6189         95.2921          -43.619         95.2924       -0.0207938          143.26
0.612                   -2.79747         174.818         -43.4985         93.2977         -43.4986          93.298       -0.0210024         143.181
0.613                   -2.84865         174.101         -43.3781         91.3047         -43.3782         91.3049       -0.0212137         143.101
0.614                   -2.90079         173.379         -43.2577         89.3129         -43.2578         89.3132       -0.0214278         143.022
0.615                   -2.95391         172.652         -43.1374         87.3223         -43.1374         87.3225       -0.0216449         142.942
0.616                   -3.00806         171.919          -43.017         85.3326          -43.017         85.3327        -0.021865         142.861
0.617                   -3.06329         171.181         -42.8966         83.3436         -42.8966         83.3437       -0.0220885         142.781
0.618                   -3.11963         170.438         -42.7762         81.3552         -42.7761         81.3553       -0.0223154           142.7
0.619                   -3.17713          169.69         -42.6557         79.3671         -42.6557         79.3672        -0.022546         142.619
0.62                    -3.23584         168.936         -42.5352         77.3793         -42.5352         77.3793       -0.0227805         142.537
0.621                    -3.2958         168.177         -42.4147         75.3915         -42.4146         75.3915       -0.0230191         142.456
0.622                   -3.35707         167.413         -42.2941         73.4035          -42.294         73.4035       -0.0232621         142.374
0.623                   -3.41969         166.643         -42.1735         71.4153         -42.1734         71.4151       -0.0235097         142.292
0.624                   -3.48374         165.868         -42.0528         69.4265         -42.0527         69.4263       -0.0237622          142.21
0.625                   -3.54926         165.087         -41.9321         67.4371          -41.932         67.4368       -0.0240198         142.127
0.626                   -3.61631         164.301         -41.8114         65.4468         -41.8113         65.4466       -0.0242829         142.044
0.627                   -3.68496         163.509         -41.6907         63.4556         -41.6905         63.4553       -0.0245517         141.961
0.628                   -3.75527         162.712         -41.5699         61.4632         -41.5698         61.4629       -0.0248265         141.878
0.629                    -3.8273          161.91         -41.4491         59.4696          -41.449         59.4692       -0.0251076         141.794
