! TOUCHSTONE file generated by CST MICROWAVE STUDIO
! Date and time: Mon Sep 28 14:12:18 2020
! Project name: Scenario_1_Free_SPace.cst
! Parameters = {dx1=606; L_HA=400; MT=2.54; Rad_Dielectric=30; Rad_Lower=7.3; Rad_Upper=30; a_HA=580; a_WG=246; b_HA=500; b_WG=121; c_HA=0; c_WG=187; d_feed=85; h_feed=15; h_lower=18; h_upper=40}
! Header version: 2018
! Port assignment regex: !\s*Touchstone port\s*([0-9]+)\s*=\s*(CST MWS port|CST DS port)\s*([0-9]+|Zmin|Zmax)\s*\(\"(.*)\"\)(\s*mode\s*([0-9]+))?.*
! Touchstone port assignment:
! Touchstone port 1 = CST MWS port 1 ("")
! Touchstone port 2 = CST MWS port 2 ("")
# GHz S DB R 50
0.5                    -0.145816        -122.668         -61.7067         -66.335         -61.7067         -66.335      -0.00652564         151.147
0.501                  -0.153014        -123.125         -61.6778        -68.8753         -61.6677        -68.9469      -0.00660128         151.081
0.502                  -0.160417        -123.583          -61.639        -71.4326         -61.6184        -71.5702      -0.00667778         151.016
0.503                  -0.168027        -124.042         -61.5903        -74.0027         -61.5586        -74.2006      -0.00675512          150.95
0.504                  -0.175846        -124.503         -61.5316        -76.5816         -61.4884        -76.8335      -0.00683332         150.885
0.505                  -0.183875        -124.966         -61.4629        -79.1652         -61.4078        -79.4646      -0.00691237         150.819
0.506                  -0.192115         -125.43         -61.3841        -81.7491         -61.3171        -82.0894      -0.00699227         150.753
0.507                  -0.200568        -125.895         -61.2956        -84.3294         -61.2164         -84.704      -0.00707303         150.688
0.508                  -0.209234        -126.362         -61.1973        -86.9021         -61.1061        -87.3044      -0.00715465         150.622
0.509                  -0.218116        -126.831         -61.0896        -89.4635         -60.9864        -89.8868      -0.00723713         150.556
0.51                   -0.227214        -127.301         -60.9727        -92.0099         -60.8578        -92.4481      -0.00732046          150.49
0.511                   -0.23653        -127.772          -60.847        -94.5381         -60.7206        -94.9851      -0.00740466         150.424
0.512                  -0.246066        -128.245         -60.7128        -97.0452         -60.5754        -97.4953      -0.00748972         150.357
0.513                  -0.255822         -128.72         -60.5706        -99.5283         -60.4226        -99.9763      -0.00757564         150.291
0.514                    -0.2658        -129.196         -60.4207        -101.985         -60.2627        -102.426      -0.00766243         150.225
0.515                  -0.276001        -129.674         -60.2637        -104.414         -60.0963        -104.844      -0.00775008         150.158
0.516                  -0.286427        -130.153            -60.1        -106.813         -59.9237        -107.227       -0.0078386         150.092
0.517                   -0.29708        -130.633           -59.93         -109.18         -59.7455        -109.576      -0.00792799         150.025
0.518                   -0.30796        -131.116         -59.7543        -111.515         -59.5623        -111.889      -0.00801824         149.959
0.519                  -0.319069          -131.6         -59.5733        -113.818         -59.3744        -114.167      -0.00810937         149.892
0.52                   -0.330409        -132.085         -59.3874        -116.086         -59.1824         -116.41      -0.00820136         149.825
0.521                  -0.341981        -132.572         -59.1971        -118.321         -58.9866        -118.617      -0.00829423         149.758
0.522                  -0.353786        -133.061         -59.0029        -120.522         -58.7876        -120.789      -0.00838797         149.691
0.523                  -0.365826        -133.551         -58.8051         -122.69         -58.5857        -122.926      -0.00848259         149.624
0.524                  -0.378104        -134.043         -58.6041        -124.824         -58.3813         -125.03      -0.00857808         149.557
0.525                  -0.390619        -134.536         -58.4004        -126.926         -58.1747        -127.102      -0.00867445         149.489
0.526                  -0.403374        -135.032         -58.1941        -128.996         -57.9663        -129.141      -0.00877169         149.422
0.527                   -0.41637        -135.528         -57.9858        -131.036         -57.7563         -131.15      -0.00886982         149.355
0.528                   -0.42961        -136.027         -57.7757        -133.045         -57.5451        -133.129      -0.00896882         149.287
0.529                  -0.443094        -136.527          -57.564        -135.025         -57.3329        -135.081       -0.0090687         149.219
0.53                   -0.456824        -137.029          -57.351        -136.978         -57.1199        -137.005      -0.00916946         149.152
0.531                  -0.470803        -137.533          -57.137        -138.903         -56.9064        -138.903       -0.0092711         149.084
0.532                  -0.485031        -138.038         -56.9221        -140.803         -56.6925        -140.777      -0.00937362         149.016
0.533                  -0.499511        -138.545         -56.7067        -142.679         -56.4784        -142.627      -0.00947703         148.948
0.534                  -0.514245        -139.054         -56.4908        -144.532         -56.2643        -144.456      -0.00958131          148.88
0.535                  -0.529234        -139.564         -56.2746        -146.362         -56.0504        -146.264      -0.00968648         148.812
0.536                   -0.54448        -140.077         -56.0584        -148.172         -55.8367        -148.053      -0.00979253         148.743
0.537                  -0.559985        -140.591         -55.8421        -149.962         -55.6234        -149.823      -0.00989947         148.675
0.538                  -0.575752        -141.107          -55.626        -151.734         -55.4105        -151.577       -0.0100073         148.606
0.539                  -0.591782        -141.624         -55.4102        -153.489         -55.1982        -153.315        -0.010116         148.538
0.54                   -0.608077        -142.144         -55.1947        -155.228         -54.9866        -155.039       -0.0102256         148.469
0.541                   -0.62464        -142.665         -54.9797        -156.951         -54.7757        -156.749        -0.010336           148.4
0.542                  -0.641473        -143.189         -54.7652        -158.662         -54.5657        -158.447       -0.0104474         148.331
0.543                  -0.658578        -143.714         -54.5514        -160.359         -54.3564        -160.134       -0.0105596         148.262
0.544                  -0.675957        -144.241         -54.3382        -162.045         -54.1481        -161.811       -0.0106727         148.193
0.545                  -0.693613         -144.77         -54.1257        -163.721         -53.9408        -163.479       -0.0107867         148.124
0.546                  -0.711549        -145.301         -53.9141        -165.387         -53.7344        -165.139       -0.0109016         148.055
0.547                  -0.729766        -145.834         -53.7033        -167.044         -53.5291        -166.791       -0.0110174         147.985
0.548                  -0.748268        -146.369         -53.4933        -168.694         -53.3249        -168.438        -0.011134         147.916
0.549                  -0.767057        -146.906         -53.2843        -170.337         -53.1217        -170.079       -0.0112515         147.846
0.55                   -0.786137        -147.445         -53.0762        -171.975         -52.9197        -171.716       -0.0113699         147.776
0.551                  -0.805509        -147.986         -52.8691        -173.607         -52.7189        -173.349       -0.0114892         147.706
0.552                  -0.825177        -148.529          -52.663        -175.236         -52.5192         -174.98       -0.0116094         147.636
0.553                  -0.845145        -149.074          -52.458        -176.861         -52.3207        -176.609       -0.0117304         147.566
0.554                  -0.865415        -149.622          -52.254        -178.484         -52.1234        -178.237       -0.0118523         147.496
0.555                   -0.88599        -150.171         -52.0511         179.895         -51.9273        -179.864       -0.0119751         147.426
0.556                  -0.906875        -150.723         -51.8493         178.274         -51.7324         178.508       -0.0120987         147.355
0.557                  -0.928072        -151.277         -51.6486         176.654         -51.5388          176.88       -0.0122232         147.285
0.558                  -0.949586        -151.833         -51.4491         175.033         -51.3465         175.249       -0.0123486         147.214
0.559                   -0.97142        -152.392         -51.2507         173.411         -51.1555         173.617       -0.0124749         147.143
0.56                   -0.993579        -152.953         -51.0535         171.787         -50.9657         171.981        -0.012602         147.072
0.561                   -1.01607        -153.516         -50.8575          170.16         -50.7773         170.341         -0.01273         147.001
0.562                   -1.03888        -154.081         -50.6627         168.531         -50.5901         168.698       -0.0128588          146.93
0.563                   -1.06204        -154.649         -50.4692         166.897         -50.4043          167.05       -0.0129886         146.859
0.564                   -1.08554        -155.219         -50.2768         165.259         -50.2198         165.396       -0.0131192         146.787
0.565                   -1.10939        -155.792         -50.0858         163.617         -50.0367         163.736       -0.0132506         146.716
0.566                   -1.13358        -156.367         -49.8961         161.969          -49.855         162.071       -0.0133829         146.644
0.567                   -1.15814        -156.945         -49.7076         160.315         -49.6746         160.398       -0.0135161         146.572
0.568                   -1.18305        -157.526         -49.5205         158.654         -49.4957         158.718       -0.0136502           146.5
0.569                   -1.20834        -158.109         -49.3348         156.987         -49.3182          157.03       -0.0137851         146.428
0.57                      -1.234        -158.694         -49.1504         155.312         -49.1421         155.333       -0.0139209         146.356
0.571                   -1.26004        -159.283         -48.9674         153.629         -48.9674         153.629       -0.0140576         146.283
0.572                   -1.28647        -159.874         -48.7859         151.938         -48.7943         151.915       -0.0141952         146.211
0.573                   -1.31329        -160.468         -48.6058         150.238         -48.6226         150.191       -0.0143336         146.138
0.574                   -1.34051        -161.064         -48.4272         148.529         -48.4524         148.458        -0.014473         146.065
0.575                   -1.36814        -161.664         -48.2501          146.81         -48.2838         146.714       -0.0146132         145.992
0.576                   -1.39618        -162.266         -48.0746         145.082         -48.1167          144.96       -0.0147544         145.919
0.577                   -1.42465        -162.872         -47.9007         143.343         -47.9513         143.195       -0.0148965         145.846
0.578                   -1.45355         -163.48         -47.7283         141.594         -47.7874         141.418       -0.0150395         145.772
0.579                   -1.48289        -164.091         -47.5577         139.834         -47.6252         139.631       -0.0151835         145.699
0.58                    -1.51268        -164.706         -47.3887         138.062         -47.4646         137.831       -0.0153284         145.625
0.581                   -1.54293        -165.323         -47.2214         136.279         -47.3057         136.019       -0.0154744         145.551
0.582                   -1.57365        -165.944          -47.056         134.484         -47.1485         134.195       -0.0156213         145.477
0.583                   -1.60485        -166.568         -46.8923         132.677         -46.9931         132.359       -0.0157694         145.403
0.584                   -1.63653        -167.196         -46.7305         130.858         -46.8394          130.51       -0.0159185         145.328
0.585                   -1.66873        -167.826         -46.5706         129.027         -46.6875         128.647       -0.0160687         145.254
0.586                   -1.70143         -168.46         -46.4127         127.182         -46.5375         126.772         -0.01622         145.179
0.587                   -1.73466        -169.098         -46.2568         125.325         -46.3893         124.884       -0.0163726         145.104
0.588                   -1.76843        -169.739         -46.1029         123.455          -46.243         122.982       -0.0165265         145.029
0.589                   -1.80276        -170.384         -45.9511         121.571         -46.0986         121.067       -0.0166816         144.954
0.59                    -1.83765        -171.032         -45.8015         119.674         -45.9561         119.138       -0.0168382         144.878
0.591                   -1.87312        -171.684         -45.6541         117.764         -45.8156         117.195       -0.0169961         144.803
0.592                   -1.90919        -172.339         -45.5089         115.839          -45.677         115.239       -0.0171557         144.727
0.593                   -1.94588        -172.999         -45.3661         113.902         -45.5405         113.268       -0.0173168         144.651
0.594                   -1.98319        -173.662         -45.2256          111.95          -45.406         111.284       -0.0174796         144.575
0.595                   -2.02116        -174.329         -45.0876         109.984         -45.2736         109.286       -0.0176443         144.498
0.596                   -2.05979            -175          -44.952         108.005         -45.1432         107.274       -0.0178109         144.422
0.597                   -2.09911        -175.675         -44.8189         106.011          -45.015         105.249       -0.0179795         144.345
0.598                   -2.13914        -176.354         -44.6885         104.003         -44.8888         103.209       -0.0181504         144.268
0.599                    -2.1799        -177.038         -44.5606         101.981         -44.7648         101.155       -0.0183236         144.191
0.6                     -2.22141        -177.725         -44.4355         99.9446         -44.6428         99.0876       -0.0184992         144.113
0.601                   -2.26369        -178.417         -44.3131         97.8936          -44.523         97.0062       -0.0186775         144.036
0.602                   -2.30678        -179.113         -44.1935         95.8279         -44.4054          94.911       -0.0188587         143.958
0.603                   -2.35069        -179.813         -44.0767         93.7474         -44.2898          92.802       -0.0190428          143.88
0.604                   -2.39545         179.482         -43.9628          91.652         -44.1764         90.6793       -0.0192302         143.802
0.605                   -2.44109         178.773         -43.8518         89.5413         -44.0651         88.5429       -0.0194209         143.723
0.606                   -2.48765          178.06         -43.7437          87.415         -43.9558         86.3928       -0.0196153         143.645
0.607                   -2.53514         177.341         -43.6387         85.2729         -43.8487         84.2291       -0.0198136         143.566
0.608                   -2.58361         176.619         -43.5366         83.1145         -43.7435         82.0518       -0.0200159         143.487
0.609                   -2.63308         175.892         -43.4376         80.9393         -43.6404         79.8609       -0.0202225         143.407
0.61                     -2.6836          175.16         -43.3416         78.7467         -43.5392         77.6563       -0.0204337         143.328
0.611                   -2.73519         174.423         -43.2487          76.536         -43.4398         75.4382       -0.0206497         143.248
0.612                    -2.7879         173.682         -43.1587         74.3064         -43.3424         73.2065       -0.0208706         143.168
0.613                   -2.84176         172.936         -43.0717         72.0568         -43.2466         70.9611       -0.0210969         143.088
0.614                   -2.89682         172.186         -42.9876         69.7862         -43.1526          68.702       -0.0213286         143.007
0.615                   -2.95312         171.431         -42.9064         67.4932         -43.0601         66.4292        -0.021566         142.926
0.616                    -3.0107         170.671         -42.8278         65.1763          -42.969         64.1424       -0.0218094         142.845
0.617                   -3.06961         169.907         -42.7517         62.8339         -42.8794         61.8418       -0.0220589         142.764
0.618                    -3.1299         169.138          -42.678          60.464         -42.7909          59.527       -0.0223147         142.683
0.619                   -3.19163         168.364         -42.6062         58.0646         -42.7034         57.1981        -0.022577         142.601
0.62                    -3.25483         167.586         -42.5361         55.6336         -42.6168         54.8549        -0.022846         142.519
0.621                   -3.31957         166.804         -42.4671         53.1684         -42.5309         52.4974       -0.0231218         142.437
0.622                   -3.38589         166.017         -42.3988         50.6668         -42.4455         50.1254       -0.0234046         142.354
0.623                   -3.45387         165.226         -42.3303         48.1266         -42.3602         47.7389       -0.0236943         142.271
0.624                   -3.52355         164.431         -42.2608         45.5457         -42.2749         45.3379       -0.0239912         142.188
0.625                     -3.595         163.632         -42.1893         42.9226         -42.1892         42.9226       -0.0242952         142.105
0.626                   -3.66829          162.83         -42.1145         40.2568         -42.1029         40.4931       -0.0246064         142.021
0.627                   -3.74346         162.023         -42.0351         37.5488         -42.0156         38.0498       -0.0249248         141.938
0.628                    -3.8206         161.214         -41.9494         34.8011         -41.9268         35.5932       -0.0252504         141.854
0.629                   -3.89977         160.401         -41.8558         32.0182         -41.8363         33.1242       -0.0255832         141.769
