! TOUCHSTONE file generated by CST MICROWAVE STUDIO
! Date and time: Mon Sep 28 14:12:26 2020
! Project name: Scenario_1_Free_SPace.cst
! Parameters = {dx1=623.6; L_HA=400; MT=2.54; Rad_Dielectric=30; Rad_Lower=7.3; Rad_Upper=30; a_HA=580; a_WG=246; b_HA=500; b_WG=121; c_HA=0; c_WG=187; d_feed=85; h_feed=15; h_lower=18; h_upper=40}
! Header version: 2018
! Port assignment regex: !\s*Touchstone port\s*([0-9]+)\s*=\s*(CST MWS port|CST DS port)\s*([0-9]+|Zmin|Zmax)\s*\(\"(.*)\"\)(\s*mode\s*([0-9]+))?.*
! Touchstone port assignment:
! Touchstone port 1 = CST MWS port 1 ("")
! Touchstone port 2 = CST MWS port 2 ("")
# GHz S DB R 50
0.5                    -0.145267        -122.621         -61.8466        -76.4248         -61.8466        -76.4248      -0.00654767         151.134
0.501                  -0.152304        -123.077         -61.6876        -78.8571         -61.6876        -78.8533      -0.00662169         151.068
0.502                  -0.159552        -123.535         -61.5239        -81.2636         -61.5239        -81.2562      -0.00669673         151.003
0.503                  -0.167014        -123.994         -61.3559        -83.6438          -61.356         -83.633      -0.00677278         150.937
0.504                   -0.17469        -124.454         -61.1841        -85.9977         -61.1842        -85.9836      -0.00684984         150.872
0.505                  -0.182581        -124.916         -61.0087        -88.3251         -61.0089        -88.3081       -0.0069279         150.806
0.506                  -0.190688        -125.379         -60.8301        -90.6262         -60.8304        -90.6065      -0.00700696          150.74
0.507                  -0.199013        -125.844         -60.6486        -92.9014         -60.6491        -92.8791      -0.00708702         150.674
0.508                  -0.207556        -126.311         -60.4645        -95.1511         -60.4651        -95.1265      -0.00716806         150.608
0.509                  -0.216319        -126.778         -60.2781        -97.3758         -60.2789        -97.3491      -0.00725009         150.542
0.51                   -0.225302        -127.248         -60.0898        -99.5761         -60.0906        -99.5475      -0.00733309         150.476
0.511                  -0.234507        -127.718         -59.8997        -101.753         -59.9006        -101.723      -0.00741706          150.41
0.512                  -0.243935         -128.19          -59.708        -103.907         -59.7091        -103.875        -0.007502         150.344
0.513                  -0.253586        -128.664         -59.5151        -106.039         -59.5163        -106.005      -0.00758789         150.277
0.514                  -0.263463        -129.139         -59.3211         -108.15         -59.3225        -108.115      -0.00767473         150.211
0.515                  -0.273565        -129.616         -59.1262         -110.24         -59.1277        -110.205      -0.00776252         150.145
0.516                  -0.283895        -130.094         -58.9306        -112.312         -58.9322        -112.275      -0.00785124         150.078
0.517                  -0.294452        -130.573         -58.7345        -114.365         -58.7362        -114.328      -0.00794089         150.011
0.518                  -0.305239        -131.054          -58.538        -116.401         -58.5398        -116.363      -0.00803145         149.945
0.519                  -0.316257        -131.537         -58.3413         -118.42         -58.3432        -118.382      -0.00812293         149.878
0.52                   -0.327506        -132.021         -58.1444        -120.425         -58.1464        -120.386      -0.00821531         149.811
0.521                  -0.338987        -132.507         -57.9476        -122.415         -57.9496        -122.376      -0.00830858         149.744
0.522                  -0.350702        -132.994         -57.7509        -124.391          -57.753        -124.352      -0.00840273         149.677
0.523                  -0.362653        -133.483         -57.5544        -126.355         -57.5565        -126.316      -0.00849775          149.61
0.524                  -0.374839        -133.973         -57.3582        -128.308         -57.3604        -128.269      -0.00859364         149.543
0.525                  -0.387262        -134.465         -57.1623         -130.25         -57.1646        -130.211      -0.00869038         149.475
0.526                  -0.399924        -134.959          -56.967        -132.183         -56.9693        -132.144      -0.00878797         149.408
0.527                  -0.412826        -135.454         -56.7721        -134.106         -56.7745        -134.068      -0.00888638          149.34
0.528                  -0.425969        -135.951         -56.5779        -136.022         -56.5802        -135.984      -0.00898561         149.273
0.529                  -0.439354        -136.449         -56.3843         -137.93         -56.3867        -137.892      -0.00908565         149.205
0.53                   -0.452982        -136.949         -56.1914        -139.832         -56.1938        -139.795      -0.00918648         149.138
0.531                  -0.466855        -137.451         -55.9993        -141.729         -56.0016        -141.692       -0.0092881          149.07
0.532                  -0.480975        -137.954         -55.8079        -143.621         -55.8103        -143.584      -0.00939048         149.002
0.533                  -0.495342        -138.459         -55.6174        -145.508         -55.6197        -145.473      -0.00949363         148.934
0.534                  -0.509958        -138.966         -55.4277        -147.393           -55.43        -147.358      -0.00959751         148.866
0.535                  -0.524824        -139.474          -55.239        -149.274         -55.2412         -149.24      -0.00970213         148.797
0.536                  -0.539943        -139.985         -55.0511        -151.153         -55.0534         -151.12      -0.00980746         148.729
0.537                  -0.555314        -140.497         -54.8642        -153.031         -54.8664        -152.999       -0.0099135         148.661
0.538                  -0.570941         -141.01         -54.6783        -154.908         -54.6805        -154.877       -0.0100202         148.592
0.539                  -0.586825        -141.526         -54.4935        -156.785         -54.4955        -156.754       -0.0101276         148.524
0.54                   -0.602967        -142.043         -54.3096        -158.662         -54.3116        -158.632       -0.0102357         148.455
0.541                  -0.619369        -142.562         -54.1268         -160.54         -54.1287         -160.51       -0.0103444         148.386
0.542                  -0.636033        -143.083          -53.945        -162.418         -53.9469         -162.39       -0.0104537         148.317
0.543                  -0.652961        -143.606         -53.7643        -164.299         -53.7662        -164.272       -0.0105637         148.248
0.544                  -0.670154         -144.13         -53.5848        -166.182         -53.5866        -166.155       -0.0106742         148.179
0.545                  -0.687615        -144.657         -53.4063        -168.067          -53.408        -168.041       -0.0107854          148.11
0.546                  -0.705346        -145.186          -53.229        -169.955         -53.2307        -169.931       -0.0108971          148.04
0.547                  -0.723349        -145.716         -53.0529        -171.846         -53.0544        -171.823       -0.0110093         147.971
0.548                  -0.741626        -146.248         -52.8779        -173.741         -52.8793        -173.719       -0.0111222         147.901
0.549                  -0.760179        -146.783         -52.7041         -175.64         -52.7054        -175.619       -0.0112355         147.832
0.55                   -0.779012        -147.319         -52.5314        -177.544         -52.5327        -177.523       -0.0113494         147.762
0.551                  -0.798126        -147.858           -52.36        -179.451         -52.3612        -179.432       -0.0114637         147.692
0.552                  -0.817524        -148.398         -52.1898         178.636         -52.1909         178.654       -0.0115786         147.622
0.553                  -0.837209        -148.941         -52.0208         176.718         -52.0219         176.735        -0.011694         147.552
0.554                  -0.857184        -149.486         -51.8531         174.795         -51.8541         174.811       -0.0118098         147.482
0.555                  -0.877452        -150.033         -51.6866         172.867         -51.6875         172.882       -0.0119261         147.411
0.556                  -0.898016        -150.582         -51.5214         170.933         -51.5222         170.947       -0.0120429         147.341
0.557                  -0.918879        -151.133         -51.3574         168.994         -51.3582         169.007       -0.0121601          147.27
0.558                  -0.940044        -151.687         -51.1948         167.048         -51.1954          167.06       -0.0122777           147.2
0.559                  -0.961516        -152.243         -51.0334         165.097          -51.034         165.108       -0.0123959         147.129
0.56                   -0.983298        -152.801         -50.8733          163.14         -50.8738         163.149       -0.0125144         147.058
0.561                   -1.00539        -153.362         -50.7146         161.176          -50.715         161.185       -0.0126334         146.987
0.562                   -1.02781        -153.925         -50.5571         159.207         -50.5575         159.214       -0.0127529         146.915
0.563                   -1.05055        -154.491          -50.401         157.231         -50.4013         157.238       -0.0128728         146.844
0.564                   -1.07361        -155.059         -50.2462         155.249         -50.2465         155.255       -0.0129932         146.773
0.565                   -1.09701        -155.629         -50.0928         153.261          -50.093         153.266       -0.0131141         146.701
0.566                   -1.12074        -156.202         -49.9407         151.267         -49.9408         151.271       -0.0132355         146.629
0.567                   -1.14481        -156.778           -49.79         149.267           -49.79          149.27       -0.0133574         146.557
0.568                   -1.16924        -157.356         -49.6406         147.261         -49.6406         147.264       -0.0134799         146.485
0.569                   -1.19401        -157.938         -49.4925         145.249         -49.4925         145.251       -0.0136029         146.413
0.57                    -1.21915        -158.521         -49.3458         143.232         -49.3458         143.233       -0.0137265         146.341
0.571                   -1.24465        -159.108         -49.2005         141.208         -49.2004         141.209       -0.0138508         146.268
0.572                   -1.27053        -159.697         -49.0565          139.18         -49.0563         139.179       -0.0139758         146.196
0.573                   -1.29678         -160.29         -48.9138         137.146         -48.9136         137.145       -0.0141015         146.123
0.574                   -1.32342        -160.885         -48.7725         135.107         -48.7723         135.105        -0.014228          146.05
0.575                   -1.35046        -161.483         -48.6325         133.063         -48.6323          133.06       -0.0143553         145.977
0.576                    -1.3779        -162.085         -48.4939         131.014         -48.4936         131.011       -0.0144835         145.904
0.577                   -1.40575        -162.689         -48.3565          128.96         -48.3563         128.957       -0.0146127          145.83
0.578                   -1.43403        -163.297         -48.2205         126.903         -48.2202         126.899        -0.014743         145.757
0.579                   -1.46273        -163.908         -48.0858         124.841         -48.0855         124.837       -0.0148744         145.683
0.58                    -1.49187        -164.522         -47.9523         122.775          -47.952         122.771       -0.0150071         145.609
0.581                   -1.52147        -165.139         -47.8201         120.706         -47.8198         120.701       -0.0151411         145.535
0.582                   -1.55153         -165.76         -47.6891         118.633         -47.6888         118.628       -0.0152765         145.461
0.583                   -1.58206        -166.384         -47.5594         116.558         -47.5591         116.552       -0.0154134         145.387
0.584                   -1.61308        -167.012         -47.4309         114.479         -47.4306         114.474        -0.015552         145.312
0.585                   -1.64459        -167.643         -47.3035         112.398         -47.3032         112.392       -0.0156924         145.237
0.586                   -1.67662        -168.279         -47.1773         110.314          -47.177         110.309       -0.0158347         145.162
0.587                   -1.70918        -168.917         -47.0522         108.229         -47.0519         108.223        -0.015979         145.087
0.588                   -1.74227         -169.56         -46.9282         106.141         -46.9279         106.136       -0.0161255         145.012
0.589                   -1.77593        -170.206         -46.8052         104.053          -46.805         104.047       -0.0162744         144.937
0.59                    -1.81016        -170.856         -46.6833         101.963         -46.6831         101.958       -0.0164257         144.861
0.591                   -1.84498         -171.51         -46.5624         99.8717         -46.5622         99.8668       -0.0165797         144.785
0.592                    -1.8804        -172.169         -46.4424         97.7801         -46.4422         97.7754       -0.0167364         144.709
0.593                   -1.91646        -172.831         -46.3234          95.688         -46.3232         95.6836       -0.0168961         144.633
0.594                   -1.95317        -173.497         -46.2053         93.5958         -46.2051         93.5918       -0.0170589         144.557
0.595                   -1.99054        -174.168          -46.088         91.5037         -46.0878            91.5        -0.017225          144.48
0.596                   -2.02861        -174.843         -45.9714         89.4119         -45.9713         89.4087       -0.0173945         144.403
0.597                   -2.06739        -175.522         -45.8557         87.3207         -45.8556         87.3179       -0.0175677         144.326
0.598                   -2.10691        -176.206         -45.7407         85.2303         -45.7405          85.228       -0.0177446         144.249
0.599                    -2.1472        -176.894         -45.6263         83.1409         -45.6262         83.1392       -0.0179254         144.172
0.6                     -2.18828        -177.587         -45.5126         81.0528         -45.5125         81.0516       -0.0181103         144.094
0.601                   -2.23017        -178.285         -45.3994          78.966         -45.3993         78.9655       -0.0182995         144.016
0.602                   -2.27292        -178.986         -45.2868         76.8809         -45.2867         76.8811       -0.0184931         143.938
0.603                   -2.31654        -179.693         -45.1747         74.7976         -45.1746         74.7985       -0.0186912          143.86
0.604                   -2.36108         179.596          -45.063         72.7163         -45.0629         72.7179       -0.0188939         143.782
0.605                   -2.40656         178.879         -44.9517         70.6371         -44.9516         70.6394       -0.0191015         143.703
0.606                   -2.45303         178.158         -44.8407         68.5601         -44.8406         68.5633        -0.019314         143.624
0.607                   -2.50051         177.433           -44.73         66.4856           -44.73         66.4895       -0.0195316         143.545
0.608                   -2.54905         176.702         -44.6196         64.4135         -44.6195         64.4183       -0.0197543         143.466
0.609                   -2.59868         175.967         -44.5094         62.3441         -44.5093         62.3497       -0.0199823         143.386
0.61                    -2.64945         175.226         -44.3993         60.2773         -44.3992         60.2838       -0.0202156         143.307
0.611                    -2.7014         174.481         -44.2893         58.2134         -44.2892         58.2206       -0.0204543         143.227
0.612                   -2.75457         173.731         -44.1794         56.1522         -44.1792         56.1603       -0.0206985         143.146
0.613                   -2.80902         172.976         -44.0695         54.0939         -44.0693         54.1029       -0.0209483         143.066
0.614                   -2.86479         172.216         -43.9595         52.0385         -43.9593         52.0484       -0.0212037         142.985
0.615                   -2.92193         171.452         -43.8494          49.986         -43.8492         49.9968       -0.0214647         142.905
0.616                   -2.98049         170.683         -43.7393         47.9364         -43.7389         47.9481       -0.0217314         142.824
0.617                   -3.04053         169.909         -43.6289         45.8897         -43.6285         45.9022       -0.0220039         142.742
0.618                    -3.1021         169.131         -43.5183         43.8459         -43.5179         43.8592        -0.022282         142.661
0.619                   -3.16526         168.348         -43.4075         41.8049          -43.407         41.8191       -0.0225659         142.579
0.62                    -3.23007         167.561         -43.2963         39.7666         -43.2958         39.7816       -0.0228555         142.497
0.621                   -3.29658          166.77         -43.1848          37.731         -43.1842         37.7468       -0.0231509         142.415
0.622                   -3.36487         165.975          -43.073         35.6979         -43.0723         35.7145       -0.0234519         142.332
0.623                   -3.43498         165.177         -42.9607         33.6674         -42.9599         33.6847       -0.0237588         142.249
0.624                   -3.50699         164.374          -42.848         31.6391         -42.8471         31.6572       -0.0240713         142.166
0.625                   -3.58095         163.569         -42.7347         29.6131         -42.7338         29.6318       -0.0243895         142.083
0.626                   -3.65694         162.761          -42.621         27.5892           -42.62         27.6085       -0.0247134         141.999
0.627                   -3.73502          161.95         -42.5067         25.5671         -42.5056          25.587       -0.0250429         141.916
0.628                   -3.81525         161.136         -42.3918         23.5467         -42.3907         23.5672       -0.0253781         141.832
0.629                    -3.8977         160.321         -42.2764         21.5278         -42.2751         21.5488       -0.0257189         141.747
