! TOUCHSTONE file generated by CST MICROWAVE STUDIO
! Date and time: Mon Sep 28 14:12:44 2020
! Project name: Scenario_1_Free_SPace.cst
! Parameters = {dx1=658.2; L_HA=400; MT=2.54; Rad_Dielectric=30; Rad_Lower=7.3; Rad_Upper=30; a_HA=580; a_WG=246; b_HA=500; b_WG=121; c_HA=0; c_WG=187; d_feed=85; h_feed=15; h_lower=18; h_upper=40}
! Header version: 2018
! Port assignment regex: !\s*Touchstone port\s*([0-9]+)\s*=\s*(CST MWS port|CST DS port)\s*([0-9]+|Zmin|Zmax)\s*\(\"(.*)\"\)(\s*mode\s*([0-9]+))?.*
! Touchstone port assignment:
! Touchstone port 1 = CST MWS port 1 ("")
! Touchstone port 2 = CST MWS port 2 ("")
# GHz S DB R 50
0.5                    -0.145143         -122.68         -62.0991        -96.3412         -62.1692        -96.2768       -0.0066064          151.11
0.501                  -0.151959        -123.136         -61.9087        -98.2303         -61.9644        -98.1205      -0.00668168         151.044
0.502                  -0.158994        -123.593         -61.7175        -100.122         -61.7596        -99.9697      -0.00675784         150.979
0.503                  -0.166248        -124.051         -61.5255        -102.017         -61.5547        -101.824       -0.0068349         150.913
0.504                  -0.173721        -124.511         -61.3328        -103.916         -61.3498        -103.685      -0.00691282         150.848
0.505                  -0.181413        -124.972         -61.1395        -105.817          -61.145        -105.552      -0.00699161         150.782
0.506                  -0.189325        -125.434         -60.9457        -107.723         -60.9403        -107.426      -0.00707125         150.716
0.507                  -0.197458        -125.898         -60.7513        -109.633         -60.7357        -109.306      -0.00715173          150.65
0.508                  -0.205811        -126.363         -60.5565        -111.547         -60.5313        -111.193      -0.00723303         150.585
0.509                  -0.214385        -126.829         -60.3613        -113.466         -60.3272        -113.088      -0.00731514         150.519
0.51                    -0.22318        -127.297         -60.1658        -115.389         -60.1234         -114.99      -0.00739804         150.453
0.511                  -0.232196        -127.766           -59.97        -117.318         -59.9199        -116.899      -0.00748172         150.386
0.512                  -0.241434        -128.237          -59.774        -119.251         -59.7168        -118.816      -0.00756617          150.32
0.513                  -0.250894        -128.709          -59.578         -121.19         -59.5141        -120.742      -0.00765136         150.254
0.514                  -0.260577        -129.183         -59.3818        -123.135         -59.3119        -122.675      -0.00773728         150.188
0.515                  -0.270482        -129.658         -59.1857        -125.086         -59.1102        -124.617      -0.00782391         150.121
0.516                   -0.28061        -130.134         -58.9896        -127.043         -58.9091        -126.567      -0.00791124         150.055
0.517                  -0.290961        -130.612         -58.7936        -129.006         -58.7086        -128.525      -0.00799924         149.988
0.518                  -0.301536        -131.091         -58.5978        -130.975         -58.5088        -130.492       -0.0080879         149.921
0.519                  -0.312335        -131.572         -58.4023        -132.951         -58.3097        -132.467      -0.00817719         149.855
0.52                   -0.323359        -132.054         -58.2071        -134.933         -58.1113        -134.451       -0.0082671         149.788
0.521                  -0.334607        -132.538         -58.0122        -136.923         -57.9138        -136.444       -0.0083576         149.721
0.522                  -0.346081        -133.023         -57.8178        -138.919         -57.7172        -138.445      -0.00844867         149.654
0.523                   -0.35778         -133.51         -57.6239        -140.922         -57.5214        -140.455      -0.00854029         149.587
0.524                  -0.369705        -133.998         -57.4305        -142.932         -57.3267        -142.473      -0.00863244          149.52
0.525                  -0.381857        -134.488         -57.2378        -144.949         -57.1329          -144.5       -0.0087251         149.452
0.526                  -0.394236         -134.98         -57.0457        -146.974         -56.9402        -146.536      -0.00881824         149.385
0.527                  -0.406844        -135.473         -56.8543        -149.005         -56.7485        -148.579      -0.00891184         149.317
0.528                  -0.419679        -135.968         -56.6637        -151.044         -56.5581        -150.631      -0.00900588          149.25
0.529                  -0.432744        -136.464          -56.474        -153.089         -56.3688        -152.691      -0.00910033         149.182
0.53                   -0.446039        -136.962         -56.2852        -155.142         -56.1807        -154.758      -0.00919517         149.115
0.531                  -0.459565        -137.462         -56.0973        -157.202         -55.9939        -156.834      -0.00929038         149.047
0.532                  -0.473323        -137.963         -55.9105        -159.268         -55.8084        -158.916      -0.00938593         148.979
0.533                  -0.487313        -138.467         -55.7247        -161.341         -55.6242        -161.006       -0.0094818         148.911
0.534                  -0.501537        -138.972           -55.54        -163.421         -55.4414        -163.103      -0.00957798         148.843
0.535                  -0.515996        -139.478         -55.3565        -165.508           -55.26        -165.207      -0.00967443         148.775
0.536                  -0.530691        -139.987         -55.1742          -167.6         -55.0801        -167.317      -0.00977114         148.706
0.537                  -0.545623        -140.497         -54.9931        -169.699         -54.9016        -169.433      -0.00986809         148.638
0.538                  -0.560794        -141.009         -54.8133        -171.804         -54.7246        -171.555      -0.00996526          148.57
0.539                  -0.576206        -141.523         -54.6349        -173.914         -54.5491        -173.683       -0.0100626         148.501
0.54                   -0.591859        -142.039         -54.4578         -176.03         -54.3752        -175.816       -0.0101602         148.432
0.541                  -0.607757        -142.557         -54.2821        -178.151         -54.2028        -177.954       -0.0102579         148.363
0.542                    -0.6239        -143.077         -54.1079         179.723         -54.0319         179.904       -0.0103558         148.295
0.543                  -0.640291        -143.599          -53.935         177.593         -53.8626         177.758       -0.0104538         148.226
0.544                  -0.656931        -144.123         -53.7637         175.458         -53.6949         175.608        -0.010552         148.157
0.545                  -0.673825        -144.649         -53.5939         173.319         -53.5288         173.455       -0.0106504         148.087
0.546                  -0.690973        -145.177         -53.4256         171.176         -53.3642         171.299       -0.0107488         148.018
0.547                  -0.708378        -145.708         -53.2588         169.031         -53.2012          169.14       -0.0108474         147.949
0.548                  -0.726044         -146.24         -53.0935         166.882         -53.0398         166.978       -0.0109462         147.879
0.549                  -0.743974        -146.775         -52.9298         164.731         -52.8799         164.815        -0.011045         147.809
0.55                   -0.762171        -147.312         -52.7677         162.577         -52.7216         162.651       -0.0111441          147.74
0.551                  -0.780639        -147.851         -52.6071         160.421         -52.5647         160.485       -0.0112433          147.67
0.552                  -0.799381        -148.393          -52.448         158.264         -52.4094         158.319       -0.0113427           147.6
0.553                  -0.818401        -148.937         -52.2904         156.105         -52.2556         156.152       -0.0114424          147.53
0.554                  -0.837704        -149.483         -52.1344         153.946         -52.1032         153.985       -0.0115423         147.459
0.555                  -0.857294        -150.032         -51.9799         151.786         -51.9523         151.819       -0.0116425         147.389
0.556                  -0.877177        -150.584         -51.8269         149.626         -51.8027         149.653        -0.011743         147.318
0.557                  -0.897357        -151.138         -51.6753         147.466         -51.6545         147.488       -0.0118439         147.248
0.558                   -0.91784        -151.694         -51.5251         145.307         -51.5076         145.324       -0.0119452         147.177
0.559                  -0.938632        -152.254         -51.3764         143.148         -51.3621         143.162        -0.012047         147.106
0.56                    -0.95974        -152.816         -51.2291          140.99         -51.2177         141.001       -0.0121493         147.035
0.561                  -0.981169        -153.381          -51.083         138.834         -51.0746         138.843       -0.0122522         146.964
0.562                   -1.00293        -153.948         -50.9383         136.679         -50.9326         136.687       -0.0123558         146.893
0.563                   -1.02502        -154.519         -50.7949         134.526         -50.7917         134.533       -0.0124602         146.821
0.564                   -1.04746        -155.092         -50.6527         132.376         -50.6519         132.382       -0.0125654          146.75
0.565                   -1.07025        -155.669         -50.5116         130.227         -50.5132         130.234       -0.0126715         146.678
0.566                    -1.0934        -156.248         -50.3717         128.081         -50.3754         128.088       -0.0127787         146.606
0.567                   -1.11692        -156.831         -50.2329         125.938         -50.2385         125.946        -0.012887         146.534
0.568                   -1.14083        -157.417         -50.0951         123.798         -50.1025         123.807       -0.0129965         146.462
0.569                   -1.16512        -158.006         -49.9583         121.661         -49.9674         121.672       -0.0131074          146.39
0.57                    -1.18981        -158.598         -49.8225         119.527          -49.833          119.54       -0.0132197         146.317
0.571                   -1.21492        -159.194         -49.6875         117.396         -49.6993         117.411       -0.0133336         146.245
0.572                   -1.24046        -159.793         -49.5534         115.269         -49.5664         115.286       -0.0134491         146.172
0.573                   -1.26643        -160.395         -49.4201         113.146          -49.434         113.165       -0.0135665         146.099
0.574                   -1.29285        -161.001         -49.2875         111.025         -49.3023         111.047       -0.0136858         146.026
0.575                   -1.31973         -161.61         -49.1557         108.909         -49.1711         108.932       -0.0138072         145.953
0.576                    -1.3471        -162.223         -49.0244         106.796         -49.0404         106.822       -0.0139308         145.879
0.577                   -1.37496         -162.84         -48.8938         104.686         -48.9102         104.714       -0.0140567         145.806
0.578                   -1.40334         -163.46         -48.7636          102.58         -48.7804         102.611        -0.014185         145.732
0.579                   -1.43224        -164.085          -48.634         100.478         -48.6509          100.51       -0.0143159         145.658
0.58                    -1.46168        -164.713         -48.5049         98.3786         -48.5218         98.4133       -0.0144495         145.584
0.581                    -1.4917        -165.344         -48.3761          96.283          -48.393         96.3194       -0.0145859          145.51
0.582                   -1.52229         -165.98         -48.2477         94.1907         -48.2645         94.2287       -0.0147253         145.436
0.583                   -1.55349         -166.62         -48.1196         92.1016         -48.1361          92.141       -0.0148678         145.361
0.584                   -1.58531        -167.263         -47.9918         90.0156          -48.008         90.0562       -0.0150134         145.286
0.585                   -1.61778        -167.911         -47.8642         87.9326           -47.88         87.9741       -0.0151624         145.211
0.586                   -1.65092        -168.563         -47.7368         85.8524         -47.7522         85.8945       -0.0153147         145.136
0.587                   -1.68475        -169.219         -47.6096         83.7749         -47.6244         83.8174       -0.0154706         145.061
0.588                    -1.7193        -169.878         -47.4826         81.6999         -47.4968         81.7426       -0.0156301         144.986
0.589                   -1.75459        -170.543         -47.3556         79.6273         -47.3692         79.6699       -0.0157933          144.91
0.59                    -1.79065        -171.211         -47.2287         77.5568         -47.2416         77.5991       -0.0159603         144.835
0.591                    -1.8275        -171.883         -47.1018         75.4884         -47.1141         75.5301       -0.0161312         144.759
0.592                   -1.86518         -172.56          -46.975         73.4218         -46.9865         73.4627        -0.016306         144.682
0.593                   -1.90371         -173.24         -46.8482         71.3568         -46.8589         71.3966       -0.0164849         144.606
0.594                   -1.94311        -173.925         -46.7213         69.2932         -46.7313         69.3317       -0.0166679          144.53
0.595                   -1.98344        -174.614         -46.5944         67.2308         -46.6037         67.2679       -0.0168551         144.453
0.596                    -2.0247        -175.307         -46.4675         65.1694          -46.476         65.2049       -0.0170466         144.376
0.597                   -2.06693        -176.004         -46.3405         63.1089         -46.3483         63.1425       -0.0172423         144.299
0.598                   -2.11018        -176.705         -46.2134         61.0489         -46.2204         61.0805       -0.0174423         144.222
0.599                   -2.15446         -177.41         -46.0863         58.9894         -46.0926         59.0189       -0.0176468         144.145
0.6                     -2.19981        -178.119          -45.959           56.93         -45.9646         56.9573       -0.0178556         144.067
0.601                   -2.24628        -178.832         -45.8317         54.8706         -45.8366         54.8956       -0.0180689         143.989
0.602                   -2.29388        -179.548         -45.7043         52.8109         -45.7085         52.8336       -0.0182867         143.911
0.603                   -2.34266         179.732         -45.5768         50.7509         -45.5804         50.7711        -0.018509         143.833
0.604                   -2.39265         179.008         -45.4491         48.6902         -45.4522          48.708       -0.0187358         143.755
0.605                   -2.44388         178.281         -45.3214         46.6288          -45.324         46.6441       -0.0189671         143.676
0.606                   -2.49639         177.551         -45.1937         44.5663         -45.1957         44.5793        -0.019203         143.597
0.607                   -2.55022         176.817         -45.0658         42.5027         -45.0674         42.5133       -0.0194435         143.518
0.608                    -2.6054         176.081         -44.9379         40.4378         -44.9391         40.4461       -0.0196886         143.439
0.609                   -2.66196         175.342           -44.81         38.3713         -44.8108         38.3775       -0.0199382          143.36
0.61                    -2.71994         174.601          -44.682         36.3033         -44.6825         36.3074       -0.0201925          143.28
0.611                   -2.77937         173.857          -44.554         34.2334         -44.5542         34.2356       -0.0204514           143.2
0.612                   -2.84027         173.111          -44.426         32.1616         -44.4259         32.1621       -0.0207148          143.12
0.613                   -2.90269         172.363          -44.298         30.0878         -44.2977         30.0867       -0.0209829          143.04
0.614                   -2.96664         171.613           -44.17         28.0118         -44.1696         28.0094       -0.0212556         142.959
0.615                   -3.03216         170.862         -44.0421         25.9336         -44.0416           25.93        -0.021533         142.878
0.616                   -3.09928          170.11         -43.9143          23.853         -43.9137         23.8485        -0.021815         142.798
0.617                   -3.16801         169.358         -43.7865         21.7701         -43.7859         21.7648       -0.0221016         142.716
0.618                   -3.23837         168.605         -43.6589         19.6846         -43.6582         19.6789       -0.0223928         142.635
0.619                    -3.3104         167.851         -43.5314         17.5966         -43.5308         17.5907       -0.0226887         142.553
0.62                     -3.3841         167.098         -43.4041         15.5061         -43.4035         15.5002       -0.0229892         142.471
0.621                   -3.45948         166.346          -43.277         13.4129         -43.2764         13.4074       -0.0232945         142.389
0.622                   -3.53656         165.594         -43.1501         11.3172         -43.1496         11.3123       -0.0236044         142.307
0.623                   -3.61536         164.844         -43.0234         9.21883         -43.0231         9.21475        -0.023919         142.224
0.624                   -3.69586         164.095          -42.897         7.11789         -42.8968         7.11492       -0.0242383         142.141
0.625                   -3.77808         163.349         -42.7709         5.01438         -42.7707         5.01278       -0.0245624         142.058
0.626                   -3.86201         162.604          -42.645         2.90835          -42.645         2.90835       -0.0248912         141.975
0.627                   -3.94764         161.863         -42.5195        0.799846         -42.5197        0.801685       -0.0252248         141.891
0.628                   -4.03498         161.124         -42.3944        -1.31107         -42.3947        -1.30717       -0.0255633         141.807
0.629                     -4.124         160.389         -42.2696        -3.42432           -42.27        -3.41816       -0.0259066         141.723
