! TOUCHSTONE file generated by CST MICROWAVE STUDIO
! Date and time: Mon Sep 28 14:05:51 2020
! Project name: Scenario_1_Free_SPace.cst
! Parameters = {dx1=207.9; L_HA=400; MT=2.54; Rad_Dielectric=30; Rad_Lower=7.3; Rad_Upper=30; a_HA=580; a_WG=246; b_HA=500; b_WG=121; c_HA=0; c_WG=187; d_feed=85; h_feed=15; h_lower=18; h_upper=40}
! Header version: 2018
! Port assignment regex: !\s*Touchstone port\s*([0-9]+)\s*=\s*(CST MWS port|CST DS port)\s*([0-9]+|Zmin|Zmax)\s*\(\"(.*)\"\)(\s*mode\s*([0-9]+))?.*
! Touchstone port assignment:
! Touchstone port 1 = CST MWS port 1 ("")
! Touchstone port 2 = CST MWS port 2 ("")
# GHz S DB R 50
0.5                     -0.15486        -122.761         -56.6307         151.876         -56.6307         151.876      -0.00665532         151.135
0.501                  -0.158839        -123.181          -56.474         150.287          -56.474         150.287      -0.00667154         151.069
0.502                   -0.16293        -123.605         -56.3156         148.709         -56.3155         148.709      -0.00668924         151.004
0.503                  -0.167138        -124.031         -56.1556         147.141         -56.1555         147.141      -0.00670847         150.938
0.504                  -0.171466        -124.459          -55.994         145.583          -55.994         145.583      -0.00672924         150.873
0.505                  -0.175919        -124.891         -55.8311         144.036          -55.831         144.036       -0.0067516         150.807
0.506                  -0.180502        -125.325         -55.6668         142.499         -55.6666         142.499      -0.00677558         150.741
0.507                  -0.185221        -125.762         -55.5012         140.971         -55.5011         140.971      -0.00680119         150.676
0.508                   -0.19008        -126.202         -55.3344         139.453         -55.3343         139.453      -0.00682848          150.61
0.509                  -0.195084        -126.644         -55.1666         137.944         -55.1664         137.944      -0.00685748         150.544
0.51                   -0.200239        -127.089         -54.9976         136.444         -54.9974         136.444      -0.00688822         150.477
0.511                   -0.20555        -127.537         -54.8277         134.952         -54.8275         134.953      -0.00692073         150.411
0.512                  -0.211024        -127.989         -54.6568         133.469         -54.6566         133.469      -0.00695504         150.345
0.513                  -0.216665        -128.442         -54.4851         131.993         -54.4849         131.994      -0.00699119         150.278
0.514                   -0.22248        -128.899         -54.3126         130.525         -54.3124         130.526       -0.0070292         150.212
0.515                  -0.228475        -129.359         -54.1393         129.065         -54.1391         129.066      -0.00706913         150.145
0.516                  -0.234656        -129.822         -53.9653         127.611         -53.9651         127.612      -0.00711099         150.079
0.517                   -0.24103        -130.288         -53.7907         126.164         -53.7904         126.165      -0.00715483         150.012
0.518                  -0.247603        -130.757         -53.6155         124.723         -53.6152         124.724      -0.00720067         149.945
0.519                  -0.254383        -131.229         -53.4396         123.289         -53.4393          123.29      -0.00724856         149.878
0.52                   -0.261377        -131.704         -53.2633         121.859          -53.263          121.86      -0.00729853         149.811
0.521                  -0.268591        -132.182         -53.0864         120.435         -53.0861         120.436      -0.00735061         149.744
0.522                  -0.276033        -132.663         -52.9091         119.016         -52.9088         119.017      -0.00740484         149.677
0.523                  -0.283711        -133.148         -52.7314         117.601          -52.731         117.602      -0.00746127          149.61
0.524                  -0.291633        -133.635         -52.5532         116.191         -52.5529         116.192      -0.00751992         149.542
0.525                  -0.299806        -134.126         -52.3748         114.784         -52.3744         114.785      -0.00758083         149.475
0.526                  -0.308239         -134.62         -52.1959          113.38         -52.1956         113.382      -0.00764405         149.407
0.527                  -0.316941        -135.118         -52.0168          111.98         -52.0165         111.981       -0.0077096         149.339
0.528                   -0.32592        -135.618         -51.8374         110.583         -51.8371         110.584      -0.00777753         149.271
0.529                  -0.335185        -136.122         -51.6577         109.188         -51.6574         109.189      -0.00784788         149.204
0.53                   -0.344745        -136.629         -51.4778         107.795         -51.4775         107.796      -0.00792068         149.135
0.531                   -0.35461         -137.14         -51.2977         106.404         -51.2974         106.405      -0.00799598         149.067
0.532                  -0.364789        -137.654         -51.1174         105.014          -51.117         105.016      -0.00807381         148.999
0.533                  -0.375292        -138.171         -50.9369         103.626         -50.9366         103.627      -0.00815421         148.931
0.534                  -0.386129        -138.692         -50.7563         102.238         -50.7559          102.24      -0.00823722         148.862
0.535                   -0.39731        -139.216         -50.5755         100.851         -50.5751         100.853      -0.00832289         148.794
0.536                  -0.408846        -139.744         -50.3946         99.4641         -50.3942         99.4657      -0.00841125         148.725
0.537                  -0.420747        -140.274         -50.2136         98.0771         -50.2132         98.0787      -0.00850235         148.657
0.538                  -0.433025        -140.809         -50.0325         96.6896         -50.0321         96.6913      -0.00859621         148.588
0.539                  -0.445692        -141.347         -49.8513         95.3014          -49.851         95.3031      -0.00869289         148.519
0.54                   -0.458757        -141.888         -49.6701         93.9123         -49.6698          93.914      -0.00879243          148.45
0.541                  -0.472234        -142.433         -49.4888         92.5218         -49.4885         92.5236      -0.00889485         148.381
0.542                  -0.486134        -142.981         -49.3076         91.1298         -49.3072         91.1316      -0.00900021         148.311
0.543                  -0.500469        -143.533         -49.1263          89.736         -49.1259         89.7377      -0.00910855         148.242
0.544                  -0.515252        -144.088          -48.945           88.34         -48.9446         88.3418       -0.0092199         148.172
0.545                  -0.530496        -144.647         -48.7637         86.9416         -48.7634         86.9434       -0.0093343         148.103
0.546                  -0.546214        -145.209         -48.5824         85.5406         -48.5821         85.5424       -0.0094518         148.033
0.547                  -0.562418        -145.775         -48.4012         84.1367         -48.4009         84.1385      -0.00957243         147.963
0.548                  -0.579123        -146.344         -48.2201         82.7296         -48.2198         82.7314      -0.00969623         147.893
0.549                  -0.596342        -146.917          -48.039          81.319         -48.0387         81.3209      -0.00982323         147.823
0.55                   -0.614088        -147.493          -47.858         79.9049         -47.8577         79.9067      -0.00995349         147.753
0.551                  -0.632377        -148.073         -47.6772         78.4868         -47.6769         78.4886        -0.010087         147.683
0.552                  -0.651221        -148.656         -47.4964         77.0646         -47.4961         77.0664       -0.0102239         147.612
0.553                  -0.670637        -149.242         -47.3158          75.638         -47.3155         75.6398       -0.0103641         147.542
0.554                  -0.690639        -149.832         -47.1354         74.2069         -47.1351         74.2087       -0.0105077         147.471
0.555                  -0.711241        -150.425         -46.9551         72.7709         -46.9548         72.7727       -0.0106547           147.4
0.556                  -0.732458        -151.022          -46.775           71.33         -46.7747         71.3318       -0.0108052          147.33
0.557                  -0.754307        -151.622         -46.5951         69.8838         -46.5948         69.8856       -0.0109592         147.259
0.558                  -0.776802        -152.225         -46.4155         68.4322         -46.4152          68.434       -0.0111167         147.187
0.559                   -0.79996        -152.832          -46.236         66.9751         -46.2358         66.9768       -0.0112778         147.116
0.56                   -0.823794        -153.441         -46.0569         65.5121         -46.0567         65.5139       -0.0114424         147.045
0.561                  -0.848323        -154.054          -45.878         64.0432         -45.8778         64.0449       -0.0116106         146.973
0.562                  -0.873561         -154.67         -45.6995         62.5681         -45.6993         62.5699       -0.0117825         146.902
0.563                  -0.899524        -155.289         -45.5213         61.0868         -45.5211         61.0885        -0.011958          146.83
0.564                  -0.926229        -155.911         -45.3434          59.599         -45.3432         59.6007       -0.0121371         146.758
0.565                  -0.953691        -156.536         -45.1659         58.1046         -45.1657         58.1063         -0.01232         146.686
0.566                  -0.981927        -157.164         -44.9888         56.6034         -44.9886         56.6051       -0.0125066         146.614
0.567                   -1.01095        -157.795         -44.8122         55.0954          -44.812         55.0971       -0.0126969         146.542
0.568                   -1.04078        -158.429          -44.636         53.5804         -44.6358          53.582       -0.0128909         146.469
0.569                   -1.07143        -159.065         -44.4602         52.0583           -44.46         52.0599       -0.0130886         146.397
0.57                    -1.10292        -159.704          -44.285          50.529         -44.2848         50.5306       -0.0132901         146.324
0.571                   -1.13526        -160.345         -44.1103         48.9924         -44.1101         48.9939       -0.0134953         146.252
0.572                   -1.16847        -160.989         -43.9361         47.4483         -43.9359         47.4499       -0.0137043         146.179
0.573                   -1.20257        -161.635         -43.7625         45.8969         -43.7624         45.8983        -0.013917         146.106
0.574                   -1.23756        -162.283         -43.5896         44.3378         -43.5894         44.3393       -0.0141334         146.033
0.575                   -1.27346        -162.933         -43.4173         42.7712         -43.4171         42.7727       -0.0143536         145.959
0.576                   -1.31029        -163.585         -43.2457          41.197         -43.2455         41.1984       -0.0145774         145.886
0.577                   -1.34806         -164.24         -43.0747         39.6151         -43.0746         39.6165        -0.014805         145.812
0.578                   -1.38678        -164.896         -42.9045         38.0256         -42.9044         38.0269       -0.0150362         145.739
0.579                   -1.42647        -165.553         -42.7351         36.4283          -42.735         36.4296        -0.015271         145.665
0.58                    -1.46714        -166.212         -42.5665         34.8234         -42.5664         34.8247       -0.0155094         145.591
0.581                    -1.5088        -166.872         -42.3987         33.2108         -42.3986         33.2121       -0.0157513         145.517
0.582                   -1.55146        -167.534         -42.2317         31.5906         -42.2316         31.5918       -0.0159967         145.442
0.583                   -1.59514        -168.196         -42.0657         29.9628         -42.0656          29.964       -0.0162456         145.368
0.584                   -1.63983         -168.86         -41.9006         28.3274         -41.9005         28.3286        -0.016498         145.293
0.585                   -1.68555        -169.524         -41.7364         26.6846         -41.7363         26.6858       -0.0167536         145.219
0.586                   -1.73231        -170.188         -41.5733         25.0345         -41.5732         25.0356       -0.0170125         145.144
0.587                   -1.78011        -170.853         -41.4111          23.377          -41.411         23.3781       -0.0172746         145.069
0.588                   -1.82896        -171.518           -41.25         21.7124         -41.2499         21.7134       -0.0175399         144.994
0.589                   -1.87887        -172.183           -41.09         20.0407         -41.0899         20.0417       -0.0178081         144.918
0.59                    -1.92983        -172.848         -40.9311          18.362          -40.931          18.363       -0.0180794         144.843
0.591                   -1.98184        -173.513         -40.7733         16.6767         -40.7733         16.6776       -0.0183535         144.767
0.592                   -2.03492        -174.177         -40.6167         14.9847         -40.6167         14.9856       -0.0186303         144.692
0.593                   -2.08905         -174.84         -40.4613         13.2862         -40.4613         13.2871       -0.0189098         144.616
0.594                   -2.14424        -175.502         -40.3071         11.5816         -40.3071         11.5824       -0.0191918          144.54
0.595                   -2.20047        -176.163         -40.1542         9.87083         -40.1542         9.87167       -0.0194763         144.464
0.596                   -2.25775        -176.822         -40.0025         8.15426         -40.0025         8.15508        -0.019763         144.387
0.597                   -2.31607         -177.48         -39.8521         6.43208         -39.8521         6.43287        -0.020052         144.311
0.598                   -2.37542        -178.136         -39.7031         4.70451         -39.7031         4.70527       -0.0203429         144.234
0.599                   -2.43578         -178.79         -39.5553          2.9718         -39.5553         2.97253       -0.0206358         144.157
0.6                     -2.49714        -179.442         -39.4089          1.2342         -39.4089          1.2349       -0.0209305          144.08
0.601                   -2.55949         179.908         -39.2639        -0.50803         -39.2639       -0.507359       -0.0212268         144.003
0.602                   -2.62282         179.262         -39.1203        -2.25462         -39.1203        -2.25398       -0.0215245         143.925
0.603                   -2.68709         178.618          -38.978         -4.0053          -38.978        -4.00469       -0.0218236         143.848
0.604                   -2.75229         177.977         -38.8372        -5.75978         -38.8372        -5.75919       -0.0221239          143.77
0.605                    -2.8184         177.339         -38.6977        -7.51778         -38.6978        -7.51721       -0.0224253         143.692
0.606                   -2.88539         176.705         -38.5597        -9.27899         -38.5597        -9.27845       -0.0227275         143.614
0.607                   -2.95324         176.075         -38.4231        -11.0431         -38.4231        -11.0426       -0.0230305         143.536
0.608                    -3.0219         175.448         -38.2879        -12.8099         -38.2879        -12.8094       -0.0233341         143.457
0.609                   -3.09136         174.825         -38.1541         -14.579         -38.1542        -14.5785       -0.0236382         143.379
0.61                    -3.16157         174.207         -38.0218        -16.3501         -38.0218        -16.3496       -0.0239426           143.3
0.611                    -3.2325         173.592         -37.8908        -18.1229         -37.8909        -18.1224       -0.0242472         143.221
0.612                    -3.3041         172.982         -37.7613        -19.8971         -37.7613        -19.8967       -0.0245519         143.141
0.613                   -3.37635         172.377         -37.6331        -21.6724         -37.6331         -21.672       -0.0248566         143.062
0.614                   -3.44919         171.776         -37.5063        -23.4485         -37.5064        -23.4482       -0.0251611         142.982
0.615                   -3.52258          171.18         -37.3809        -25.2252          -37.381        -25.2248       -0.0254654         142.902
0.616                   -3.59647         170.589         -37.2568        -27.0021         -37.2569        -27.0017       -0.0257693         142.822
0.617                   -3.67082         170.002         -37.1341        -28.7789         -37.1342        -28.7786       -0.0260728         142.742
0.618                   -3.74557         169.421         -37.0127        -30.5553         -37.0127        -30.5551       -0.0263759         142.661
0.619                   -3.82067         168.844         -36.8925        -32.3312         -36.8926        -32.3309       -0.0266784         142.581
0.62                    -3.89607         168.272         -36.7737        -34.1062         -36.7737        -34.1059       -0.0269804         142.499
0.621                   -3.97172         167.705          -36.656        -35.8801         -36.6561        -35.8798       -0.0272819         142.418
0.622                   -4.04755         167.143         -36.5396        -37.6526         -36.5397        -37.6523       -0.0275828         142.337
0.623                   -4.12351         166.585         -36.4243        -39.4235         -36.4244        -39.4232       -0.0278832         142.255
0.624                   -4.19956         166.032         -36.3102        -41.1925         -36.3103        -41.1923       -0.0281831         142.173
0.625                   -4.27562         165.483         -36.1973        -42.9595         -36.1973        -42.9594       -0.0284826          142.09
0.626                   -4.35165         164.939         -36.0854        -44.7243         -36.0854        -44.7242       -0.0287818         142.008
0.627                   -4.42758         164.398         -35.9745        -46.4867         -35.9746        -46.4865       -0.0290808         141.925
0.628                   -4.50337         163.861         -35.8647        -48.2464         -35.8647        -48.2463       -0.0293796         141.842
0.629                   -4.57896         163.328         -35.7558        -50.0034         -35.7559        -50.0033       -0.0296786         141.758
