! TOUCHSTONE file generated by CST MICROWAVE STUDIO
! Date and time: Mon Sep 28 14:12:54 2020
! Project name: Scenario_1_Free_SPace.cst
! Parameters = {dx1=675.5; L_HA=400; MT=2.54; Rad_Dielectric=30; Rad_Lower=7.3; Rad_Upper=30; a_HA=580; a_WG=246; b_HA=500; b_WG=121; c_HA=0; c_WG=187; d_feed=85; h_feed=15; h_lower=18; h_upper=40}
! Header version: 2018
! Port assignment regex: !\s*Touchstone port\s*([0-9]+)\s*=\s*(CST MWS port|CST DS port)\s*([0-9]+|Zmin|Zmax)\s*\(\"(.*)\"\)(\s*mode\s*([0-9]+))?.*
! Touchstone port assignment:
! Touchstone port 1 = CST MWS port 1 ("")
! Touchstone port 2 = CST MWS port 2 ("")
# GHz S DB R 50
0.5                    -0.145219        -122.589         -62.2062        -106.192         -62.2044        -106.186      -0.00665981         151.139
0.501                  -0.150379        -123.032          -62.004        -107.995         -62.0024        -107.989      -0.00672237         151.074
0.502                  -0.155759        -123.477         -61.8015        -109.809            -61.8        -109.804      -0.00678771         151.008
0.503                  -0.161363        -123.924         -61.5987        -111.634         -61.5974        -111.628      -0.00685566         150.943
0.504                  -0.167197        -124.373         -61.3958        -113.469         -61.3947        -113.464      -0.00692604         150.877
0.505                  -0.173263        -124.824         -61.1928        -115.315         -61.1917         -115.31      -0.00699866         150.812
0.506                  -0.179567        -125.277         -60.9896        -117.172         -60.9888        -117.167      -0.00707336         150.746
0.507                  -0.186112        -125.733         -60.7865         -119.04         -60.7857        -119.036      -0.00714995          150.68
0.508                  -0.192903        -126.191         -60.5834        -120.919         -60.5828        -120.915      -0.00722827         150.614
0.509                  -0.199943         -126.65         -60.3804         -122.81         -60.3799        -122.806      -0.00730816         150.548
0.51                   -0.207237        -127.112         -60.1776        -124.712         -60.1771        -124.708      -0.00738947         150.482
0.511                  -0.214789        -127.576         -59.9749        -126.625         -59.9746        -126.621      -0.00747206         150.416
0.512                  -0.222603        -128.042         -59.7726        -128.549         -59.7724        -128.546       -0.0075558          150.35
0.513                  -0.230683         -128.51         -59.5706        -130.485         -59.5704        -130.482      -0.00764055         150.284
0.514                  -0.239032         -128.98          -59.369        -132.433         -59.3689         -132.43      -0.00772621         150.218
0.515                  -0.247654        -129.453         -59.1679        -134.391         -59.1678        -134.389      -0.00781267         150.151
0.516                  -0.256554        -129.927         -58.9672        -136.361         -58.9673        -136.359      -0.00789984         150.085
0.517                  -0.265733        -130.403         -58.7672        -138.343         -58.7673        -138.341      -0.00798761         150.018
0.518                  -0.275196        -130.882         -58.5678        -140.335          -58.568        -140.333      -0.00807591         149.952
0.519                  -0.284946        -131.362         -58.3692        -142.339         -58.3694        -142.337      -0.00816468         149.885
0.52                   -0.294986        -131.844         -58.1713        -144.354         -58.1716        -144.352      -0.00825383         149.818
0.521                  -0.305319        -132.329         -57.9742        -146.379         -57.9746        -146.377      -0.00834331         149.751
0.522                  -0.315948        -132.815         -57.7781        -148.415         -57.7785        -148.414      -0.00843306         149.684
0.523                  -0.326875        -133.303         -57.5829        -150.462         -57.5833        -150.461      -0.00852304         149.617
0.524                  -0.338102        -133.793         -57.3888        -152.519         -57.3892        -152.518      -0.00861321          149.55
0.525                  -0.349633        -134.286         -57.1957        -154.586         -57.1962        -154.585      -0.00870353         149.483
0.526                  -0.361468         -134.78         -57.0038        -156.663         -57.0043        -156.662      -0.00879397         149.416
0.527                  -0.373609        -135.275          -56.813         -158.75         -56.8135        -158.748      -0.00888449         149.348
0.528                  -0.386058        -135.773         -56.6235        -160.846         -56.6241        -160.844      -0.00897509         149.281
0.529                  -0.398817        -136.273         -56.4353         -162.95         -56.4359        -162.949      -0.00906574         149.213
0.53                   -0.411885        -136.774         -56.2485        -165.064          -56.249        -165.063      -0.00915642         149.146
0.531                  -0.425265        -137.278          -56.063        -167.186         -56.0636        -167.184      -0.00924713         149.078
0.532                  -0.438955        -137.783          -55.879        -169.315         -55.8796        -169.314      -0.00933786          149.01
0.533                  -0.452957         -138.29         -55.6965        -171.453          -55.697        -171.451      -0.00942861         148.942
0.534                   -0.46727        -138.798         -55.5154        -173.597          -55.516        -173.596      -0.00951938         148.874
0.535                  -0.481894        -139.309         -55.3359        -175.748         -55.3365        -175.747      -0.00961018         148.806
0.536                  -0.496828        -139.821          -55.158        -177.906         -55.1586        -177.904        -0.009701         148.738
0.537                  -0.512071        -140.335         -54.9817         179.931         -54.9823         179.932      -0.00979187          148.67
0.538                  -0.527621        -140.851          -54.807         177.762         -54.8076         177.764      -0.00988279         148.601
0.539                  -0.543478        -141.369          -54.634         175.589         -54.6346          175.59      -0.00997379         148.533
0.54                   -0.559639        -141.888         -54.4626          173.41         -54.4632         173.412       -0.0100649         148.464
0.541                  -0.576102        -142.409         -54.2929         171.228         -54.2934         171.229       -0.0101561         148.395
0.542                  -0.592865        -142.932         -54.1248         169.042         -54.1254         169.043       -0.0102474         148.326
0.543                  -0.609926        -143.456         -53.9584         166.853          -53.959         166.854       -0.0103389         148.257
0.544                  -0.627282        -143.983         -53.7937         164.661         -53.7942         164.662       -0.0104306         148.188
0.545                  -0.644931        -144.511         -53.6307         162.467         -53.6312         162.468       -0.0105226         148.119
0.546                  -0.662869        -145.041         -53.4693         160.271         -53.4698         160.273       -0.0106148          148.05
0.547                  -0.681093        -145.573         -53.3095         158.074           -53.31         158.076       -0.0107073          147.98
0.548                  -0.699601        -146.106         -53.1513         155.876         -53.1518         155.878       -0.0108002         147.911
0.549                   -0.71839        -146.642         -52.9948         153.678         -52.9953         153.679       -0.0108935         147.841
0.55                   -0.737456        -147.179         -52.8398          151.48         -52.8403         151.481       -0.0109872         147.771
0.551                  -0.756799        -147.719         -52.6864         149.281         -52.6868         149.283       -0.0110814         147.701
0.552                  -0.776414         -148.26         -52.5344         147.084         -52.5348         147.085       -0.0111762         147.631
0.553                  -0.796301        -148.804         -52.3839         144.888         -52.3844         144.889       -0.0112715         147.561
0.554                  -0.816456        -149.349         -52.2349         142.693         -52.2353         142.694       -0.0113676         147.491
0.555                  -0.836881        -149.897         -52.0872           140.5         -52.0876         140.501       -0.0114643         147.421
0.556                  -0.857572        -150.447         -51.9409         138.309         -51.9413          138.31       -0.0115619          147.35
0.557                  -0.878531            -151         -51.7959          136.12         -51.7963         136.121       -0.0116603         147.279
0.558                  -0.899758        -151.555         -51.6521         133.934         -51.6525         133.935       -0.0117596         147.209
0.559                  -0.921255        -152.112         -51.5096         131.751         -51.5099         131.752       -0.0118599         147.138
0.56                   -0.943024        -152.672         -51.3681         129.571         -51.3685         129.572       -0.0119613         147.067
0.561                  -0.965067        -153.234         -51.2278         127.394         -51.2282         127.395       -0.0120639         146.996
0.562                   -0.98739        -153.799         -51.0886          125.22         -51.0889         125.222       -0.0121677         146.924
0.563                      -1.01        -154.367         -50.9503         123.051         -50.9506         123.052       -0.0122728         146.853
0.564                   -1.03289        -154.938         -50.8129         120.884         -50.8132         120.885       -0.0123793         146.781
0.565                   -1.05609        -155.512         -50.6765         118.722         -50.6768         118.723       -0.0124873         146.709
0.566                    -1.0796         -156.09         -50.5408         116.564         -50.5411         116.565       -0.0125968         146.638
0.567                   -1.10342         -156.67          -50.406         114.409         -50.4063          114.41       -0.0127081         146.565
0.568                   -1.12757        -157.254         -50.2719         112.258         -50.2722          112.26        -0.012821         146.493
0.569                   -1.15207        -157.841         -50.1384         110.112         -50.1387         110.113       -0.0129359         146.421
0.57                    -1.17692        -158.431         -50.0056         107.969         -50.0059         107.971       -0.0130527         146.349
0.571                   -1.20214        -159.026         -49.8733         105.831         -49.8736         105.832       -0.0131716         146.276
0.572                   -1.22776        -159.624         -49.7416         103.696         -49.7419         103.697       -0.0132926         146.203
0.573                   -1.25379        -160.226         -49.6103         101.565         -49.6106         101.567       -0.0134158          146.13
0.574                   -1.28024        -160.832         -49.4795         99.4385         -49.4798         99.4396       -0.0135414         146.057
0.575                   -1.30715        -161.441         -49.3491         97.3152         -49.3493         97.3164       -0.0136695         145.984
0.576                   -1.33453        -162.055          -49.219         95.1956         -49.2192         95.1967       -0.0138001          145.91
0.577                   -1.36241        -162.673         -49.0892         93.0794         -49.0894         93.0806       -0.0139334         145.837
0.578                   -1.39082        -163.295         -48.9597         90.9666         -48.9599         90.9678       -0.0140694         145.763
0.579                   -1.41977        -163.922         -48.8304         88.8571         -48.8306         88.8582       -0.0142083         145.689
0.58                     -1.4493        -164.553         -48.7012         86.7505         -48.7015         86.7517       -0.0143502         145.615
0.581                   -1.47944        -165.188         -48.5723         84.6469         -48.5725         84.6481       -0.0144951         145.541
0.582                   -1.51021        -165.827         -48.4435          82.546         -48.4437         82.5472       -0.0146431         145.467
0.583                   -1.54165        -166.471         -48.3148         80.4477          -48.315         80.4489       -0.0147945         145.392
0.584                   -1.57378        -167.119         -48.1861         78.3518         -48.1863          78.353       -0.0149491         145.318
0.585                   -1.60664        -167.772         -48.0576          76.258         -48.0578         76.2592       -0.0151072         145.243
0.586                   -1.64026        -168.428          -47.929         74.1662         -47.9292         74.1674       -0.0152689         145.168
0.587                   -1.67466         -169.09         -47.8005         72.0762         -47.8007         72.0774       -0.0154341         145.092
0.588                   -1.70989        -169.755         -47.6719         69.9878         -47.6721          69.989       -0.0156031         145.017
0.589                   -1.74597        -170.425         -47.5434         67.9008         -47.5436          67.902       -0.0157758         144.941
0.59                    -1.78293        -171.099         -47.4148         65.8149          -47.415         65.8161       -0.0159524         144.866
0.591                    -1.8208        -171.776         -47.2861         63.7301         -47.2863         63.7312       -0.0161329          144.79
0.592                   -1.85962        -172.458         -47.1575          61.646         -47.1576         61.6471       -0.0163174         144.714
0.593                   -1.89942        -173.144         -47.0287         59.5624         -47.0289         59.5636       -0.0165059         144.637
0.594                   -1.94022        -173.834         -46.8999         57.4793         -46.9001         57.4804       -0.0166986         144.561
0.595                   -1.98206        -174.527          -46.771         55.3963         -46.7712         55.3975       -0.0168954         144.484
0.596                   -2.02496        -175.224         -46.6421         53.3133         -46.6423         53.3145       -0.0170964         144.408
0.597                   -2.06896        -175.924         -46.5131         51.2301         -46.5133         51.2313       -0.0173017         144.331
0.598                   -2.11407        -176.628         -46.3841         49.1466         -46.3842         49.1477       -0.0175113         144.253
0.599                   -2.16032        -177.334          -46.255         47.0624         -46.2551         47.0635       -0.0177253         144.176
0.6                     -2.20774        -178.044         -46.1258         44.9775          -46.126         44.9786       -0.0179435         144.098
0.601                   -2.25636        -178.756         -45.9966         42.8918         -45.9968         42.8928       -0.0181662         144.021
0.602                   -2.30619        -179.471         -45.8674         40.8049         -45.8675         40.8059       -0.0183933         143.943
0.603                   -2.35725         179.811         -45.7382         38.7169         -45.7383         38.7178       -0.0186247         143.865
0.604                   -2.40957         179.092         -45.6089         36.6275          -45.609         36.6284       -0.0188606         143.786
0.605                   -2.46317          178.37         -45.4797         34.5366         -45.4798         34.5375       -0.0191009         143.708
0.606                   -2.51805         177.646         -45.3505         32.4441         -45.3506          32.445       -0.0193457         143.629
0.607                   -2.57425         176.921         -45.2213         30.3499         -45.2214         30.3507       -0.0195949          143.55
0.608                   -2.63177         176.194         -45.0922         28.2539         -45.0923         28.2547       -0.0198485         143.471
0.609                   -2.69062         175.467         -44.9631         26.1559         -44.9632         26.1567       -0.0201065         143.391
0.61                    -2.75082         174.738         -44.8341          24.056         -44.8342         24.0567       -0.0203689         143.312
0.611                   -2.81238         174.008         -44.7053          21.954         -44.7054         21.9546       -0.0206356         143.232
0.612                   -2.87531         173.278         -44.5766         19.8498         -44.5767         19.8504       -0.0209068         143.152
0.613                   -2.93961         172.547          -44.448         17.7435         -44.4481         17.7441       -0.0211823         143.072
0.614                   -3.00529         171.817         -44.3195         15.6349         -44.3196         15.6355       -0.0214621         142.991
0.615                   -3.07235         171.086         -44.1913         13.5241         -44.1914         13.5246       -0.0217462         142.911
0.616                   -3.14081         170.356         -44.0633          11.411         -44.0634         11.4115       -0.0220346          142.83
0.617                   -3.21065         169.626         -43.9355         9.29565         -43.9356         9.29604       -0.0223273         142.749
0.618                   -3.28189         168.898         -43.8079           7.178          -43.808         7.17835       -0.0226243         142.667
0.619                   -3.35451          168.17         -43.6806         5.05809         -43.6807         5.05839       -0.0229254         142.586
0.62                    -3.42851         167.443         -43.5536         2.93594         -43.5537         2.93619       -0.0232308         142.504
0.621                    -3.5039         166.718         -43.4268        0.811577         -43.4269        0.811774       -0.0235405         142.422
0.622                   -3.58066         165.994         -43.3004        -1.31495         -43.3005        -1.31481       -0.0238543          142.34
0.623                   -3.65879         165.273         -43.1744         -3.4436         -43.1744         -3.4435       -0.0241724         142.257
0.624                   -3.73828         164.553         -43.0486         -5.5743         -43.0487        -5.57425       -0.0244946         142.174
0.625                   -3.81911         163.836         -42.9232        -7.70699         -42.9233        -7.70699       -0.0248211         142.091
0.626                   -3.90128         163.121         -42.7982         -9.8416         -42.7983        -9.84164       -0.0251518         142.008
0.627                   -3.98478         162.408         -42.6736         -11.978         -42.6737        -11.9781       -0.0254867         141.924
0.628                   -4.06958         161.699         -42.5494        -14.1162         -42.5495        -14.1163        -0.025826         141.841
0.629                   -4.15567         160.993         -42.4256         -16.256         -42.4256        -16.2562       -0.0261695         141.757
