! TOUCHSTONE file generated by CST MICROWAVE STUDIO
! Date and time: Mon Sep 28 14:13:01 2020
! Project name: Scenario_1_Free_SPace.cst
! Parameters = {dx1=693; L_HA=400; MT=2.54; Rad_Dielectric=30; Rad_Lower=7.3; Rad_Upper=30; a_HA=580; a_WG=246; b_HA=500; b_WG=121; c_HA=0; c_WG=187; d_feed=85; h_feed=15; h_lower=18; h_upper=40}
! Header version: 2018
! Port assignment regex: !\s*Touchstone port\s*([0-9]+)\s*=\s*(CST MWS port|CST DS port)\s*([0-9]+|Zmin|Zmax)\s*\(\"(.*)\"\)(\s*mode\s*([0-9]+))?.*
! Touchstone port assignment:
! Touchstone port 1 = CST MWS port 1 ("")
! Touchstone port 2 = CST MWS port 2 ("")
# GHz S DB R 50
0.5                    -0.146537        -122.674         -62.2288        -116.043         -62.2288        -116.043      -0.00675172         151.089
0.501                  -0.153798        -123.118         -61.8902        -118.665         -61.8918         -118.68      -0.00682694         151.024
0.502                  -0.161217        -123.564         -61.5646        -121.224         -61.5675        -121.253      -0.00690247         150.959
0.503                  -0.168793        -124.011         -61.2513        -123.727         -61.2554        -123.767      -0.00697831         150.893
0.504                  -0.176529         -124.46         -60.9496         -126.18         -60.9546         -126.23      -0.00705446         150.827
0.505                  -0.184425         -124.91         -60.6587        -128.588         -60.6645        -128.647       -0.0071309         150.762
0.506                  -0.192483        -125.362          -60.378        -130.956         -60.3845        -131.023      -0.00720764         150.696
0.507                  -0.200705        -125.816         -60.1069        -133.289          -60.114        -133.361      -0.00728467          150.63
0.508                  -0.209092        -126.271         -59.8448        -135.588         -59.8524        -135.666      -0.00736198         150.564
0.509                  -0.217644        -126.728         -59.5912        -137.858         -59.5991        -137.941      -0.00743957         150.498
0.51                   -0.226365        -127.187         -59.3456        -140.102         -59.3539        -140.188      -0.00751744         150.432
0.511                  -0.235256        -127.647         -59.1075        -142.322          -59.116         -142.41      -0.00759558         150.366
0.512                  -0.244317        -128.109         -58.8766        -144.519         -58.8852        -144.609      -0.00767398           150.3
0.513                  -0.253552        -128.573         -58.6523        -146.697          -58.661        -146.788      -0.00775266         150.234
0.514                  -0.262961        -129.039         -58.4343        -148.856         -58.4431        -148.949      -0.00783159         150.168
0.515                  -0.272546        -129.506         -58.2222        -150.999          -58.231        -151.092      -0.00791079         150.101
0.516                   -0.28231        -129.975         -58.0157        -153.127         -58.0245         -153.22      -0.00799024         150.035
0.517                  -0.292254        -130.446         -57.8144        -155.241         -57.8233        -155.333      -0.00806995         149.968
0.518                   -0.30238        -130.919         -57.6182        -157.343         -57.6269        -157.434      -0.00814991         149.901
0.519                  -0.312691        -131.394         -57.4266        -159.433         -57.4352        -159.523      -0.00823013         149.835
0.52                   -0.323188         -131.87         -57.2394        -161.513         -57.2479        -161.602      -0.00831059         149.768
0.521                  -0.333874        -132.349         -57.0564        -163.583         -57.0648         -163.67      -0.00839131         149.701
0.522                  -0.344752        -132.829         -56.8773        -165.644         -56.8855         -165.73      -0.00847228         149.634
0.523                  -0.355822        -133.311         -56.7019        -167.698         -56.7099        -167.782      -0.00855351         149.567
0.524                  -0.367089        -133.796         -56.5299        -169.745         -56.5377        -169.827      -0.00863499           149.5
0.525                  -0.378554        -134.282         -56.3612        -171.785         -56.3688        -171.865      -0.00871673         149.432
0.526                  -0.390221         -134.77         -56.1955         -173.82         -56.2029        -173.897      -0.00879873         149.365
0.527                  -0.402091        -135.261         -56.0328        -175.849           -56.04        -175.924        -0.008881         149.297
0.528                  -0.414169        -135.753         -55.8727        -177.874         -55.8797        -177.946      -0.00896354          149.23
0.529                  -0.426456        -136.247         -55.7152        -179.895         -55.7219        -179.964      -0.00904636         149.162
0.53                   -0.438957        -136.744         -55.5601         178.088         -55.5665         178.021      -0.00912947         149.094
0.531                  -0.451674        -137.243         -55.4071         176.074         -55.4133          176.01      -0.00921287         149.027
0.532                   -0.46461        -137.743         -55.2563         174.062         -55.2622         174.001      -0.00929657         148.959
0.533                  -0.477769        -138.246         -55.1074         172.053         -55.1131         171.995      -0.00938059         148.891
0.534                  -0.491156        -138.752         -54.9603         170.046         -54.9657          169.99      -0.00946493         148.822
0.535                  -0.504772        -139.259         -54.8149         168.041         -54.8201         167.987      -0.00954961         148.754
0.536                  -0.518623        -139.769         -54.6711         166.037          -54.676         165.986      -0.00963465         148.686
0.537                  -0.532713        -140.281         -54.5287         164.033         -54.5334         163.985      -0.00972006         148.617
0.538                  -0.547045        -140.795         -54.3876         162.031         -54.3921         161.985      -0.00980586         148.549
0.539                  -0.561624        -141.312         -54.2478         160.028          -54.252         159.985      -0.00989208          148.48
0.54                   -0.576454        -141.831         -54.1092         158.026         -54.1131         157.986      -0.00997872         148.411
0.541                  -0.591541        -142.353         -53.9716         156.024         -53.9753         155.986       -0.0100658         148.342
0.542                  -0.606888        -142.877          -53.835         154.021         -53.8384         153.986       -0.0101534         148.273
0.543                  -0.622502        -143.403         -53.6992         152.018         -53.7024         151.985       -0.0102415         148.204
0.544                  -0.638388        -143.932         -53.5642         150.013         -53.5673         149.983       -0.0103301         148.135
0.545                   -0.65455        -144.463           -53.43         148.008         -53.4328          147.98       -0.0104193         148.066
0.546                  -0.670996        -144.997         -53.2964         146.002          -53.299         145.976       -0.0105092         147.996
0.547                  -0.687729        -145.534         -53.1634         143.994         -53.1658          143.97       -0.0105996         147.927
0.548                  -0.704758        -146.073         -53.0309         141.985         -53.0331         141.963       -0.0106908         147.857
0.549                  -0.722088        -146.615         -52.8989         139.974         -52.9009         139.954       -0.0107827         147.787
0.55                   -0.739725         -147.16         -52.7672         137.961          -52.769         137.943       -0.0108753         147.717
0.551                  -0.757677        -147.707         -52.6359         135.946         -52.6375         135.931       -0.0109688         147.647
0.552                  -0.775951        -148.257         -52.5049          133.93         -52.5063         133.916       -0.0110632         147.577
0.553                  -0.794554         -148.81         -52.3742         131.911         -52.3754         131.898       -0.0111584         147.507
0.554                  -0.813495        -149.366         -52.2436         129.889         -52.2447         129.879       -0.0112547         147.437
0.555                   -0.83278        -149.924         -52.1132         127.866         -52.1141         127.856        -0.011352         147.366
0.556                  -0.852418        -150.486         -51.9829         125.839         -51.9836         125.832       -0.0114505         147.295
0.557                  -0.872418         -151.05         -51.8526         123.811         -51.8533         123.804       -0.0115501         147.225
0.558                  -0.892789        -151.617         -51.7225         121.779         -51.7229         121.774       -0.0116509         147.154
0.559                   -0.91354        -152.188         -51.5923         119.745         -51.5926         119.741       -0.0117531         147.083
0.56                   -0.934681        -152.761         -51.4621         117.708         -51.4623         117.705       -0.0118566         147.012
0.561                  -0.956221        -153.337         -51.3319         115.668          -51.332         115.667       -0.0119617          146.94
0.562                   -0.97817        -153.917         -51.2016         113.625         -51.2016         113.625       -0.0120683         146.869
0.563                   -1.00054        -154.499         -51.0712         111.579         -51.0711          111.58       -0.0121765         146.797
0.564                   -1.02334        -155.085         -50.9407          109.53         -50.9405         109.532       -0.0122865         146.725
0.565                   -1.04659        -155.673         -50.8101         107.478         -50.8098         107.481       -0.0123983         146.654
0.566                   -1.07029        -156.265         -50.6794         105.423          -50.679         105.427       -0.0125119         146.582
0.567                   -1.09445         -156.86         -50.5485         103.365          -50.548         103.369       -0.0126276         146.509
0.568                    -1.1191        -157.459         -50.4174         101.303         -50.4169         101.308       -0.0127454         146.437
0.569                   -1.14424        -158.061         -50.2862         99.2386         -50.2856         99.2442       -0.0128654         146.365
0.57                    -1.16988        -158.665         -50.1548         97.1707         -50.1541         97.1769       -0.0129877         146.292
0.571                   -1.19604        -159.274         -50.0232         95.0996         -50.0225         95.1063       -0.0131124         146.219
0.572                   -1.22274        -159.885         -49.8915         93.0252         -49.8907         93.0324       -0.0132396         146.146
0.573                   -1.24998          -160.5         -49.7595         90.9476         -49.7587         90.9551       -0.0133694         146.073
0.574                   -1.27779        -161.118         -49.6274         88.8666         -49.6265         88.8745       -0.0135019             146
0.575                   -1.30618         -161.74         -49.4951         86.7825         -49.4942         86.7907       -0.0136372         145.927
0.576                   -1.33517        -162.365         -49.3626          84.695         -49.3617         84.7035       -0.0137754         145.853
0.577                   -1.36476        -162.993           -49.23         82.6044          -49.229          82.613       -0.0139166          145.78
0.578                   -1.39498        -163.625         -49.0972         80.5104         -49.0962         80.5192       -0.0140609         145.706
0.579                   -1.42585         -164.26         -48.9642         78.4132         -48.9632         78.4221       -0.0142085         145.632
0.58                    -1.45738        -164.898         -48.8311         76.3129         -48.8301         76.3218       -0.0143593         145.558
0.581                    -1.4896         -165.54         -48.6979         74.2093         -48.6968         74.2183       -0.0145135         145.483
0.582                   -1.52251        -166.185         -48.5645         72.1025         -48.5634         72.1115       -0.0146712         145.409
0.583                   -1.55614        -166.833         -48.4311         69.9926           -48.43         70.0015       -0.0148324         145.334
0.584                   -1.59051        -167.485         -48.2975         67.8796         -48.2964         67.8884       -0.0149973         145.259
0.585                   -1.62563         -168.14         -48.1639         65.7635         -48.1628         65.7722       -0.0151659         145.184
0.586                   -1.66153        -168.798         -48.0302         63.6443         -48.0291          63.653       -0.0153383         145.109
0.587                   -1.69823         -169.46         -47.8965         61.5221         -47.8953         61.5306       -0.0155146         145.034
0.588                   -1.73575        -170.125         -47.7627          59.397         -47.7616         59.4053       -0.0156947         144.959
0.589                    -1.7741        -170.793         -47.6289         57.2689         -47.6278         57.2771       -0.0158789         144.883
0.59                    -1.81331        -171.464         -47.4951          55.138          -47.494          55.146        -0.016067         144.807
0.591                   -1.85339        -172.137         -47.3614         53.0043         -47.3603          53.012       -0.0162592         144.731
0.592                   -1.89438        -172.814         -47.2276         50.8678         -47.2266         50.8753       -0.0164555         144.655
0.593                   -1.93629        -173.494          -47.094         48.7286          -47.093         48.7358       -0.0166559         144.579
0.594                   -1.97913        -174.177         -46.9604         46.5868         -46.9594         46.5937       -0.0168604         144.502
0.595                   -2.02294        -174.862          -46.827         44.4424          -46.826          44.449       -0.0170691         144.425
0.596                   -2.06773         -175.55         -46.6936         42.2955         -46.6927         42.3019        -0.017282         144.348
0.597                   -2.11352        -176.241         -46.5604         40.1462         -46.5595         40.1523       -0.0174991         144.271
0.598                   -2.16034        -176.934         -46.4274         37.9945         -46.4265         38.0003       -0.0177203         144.194
0.599                   -2.20819         -177.63         -46.2945         35.8406         -46.2937          35.846       -0.0179457         144.117
0.6                     -2.25711        -178.327         -46.1619         33.6844          -46.161         33.6896       -0.0181752         144.039
0.601                    -2.3071        -179.027         -46.0294         31.5262         -46.0286         31.5311       -0.0184088         143.961
0.602                   -2.35819        -179.729         -45.8972         29.3659         -45.8964         29.3705       -0.0186466         143.883
0.603                    -2.4104         179.568         -45.7653         27.2037         -45.7645          27.208       -0.0188885         143.805
0.604                   -2.46373         178.863         -45.6336         25.0396         -45.6329         25.0437       -0.0191344         143.727
0.605                   -2.51821         178.156         -45.5022         22.8738         -45.5015         22.8776       -0.0193843         143.648
0.606                   -2.57385         177.448         -45.3711         20.7064         -45.3705         20.7098       -0.0196382         143.569
0.607                   -2.63066         176.739         -45.2403         18.5374         -45.2397         18.5405       -0.0198961          143.49
0.608                   -2.68865         176.029         -45.1099         16.3669         -45.1093         16.3698        -0.020158         143.411
0.609                   -2.74784         175.318         -44.9798          14.195         -44.9793         14.1977       -0.0204237         143.332
0.61                    -2.80823         174.606         -44.8501         12.0219         -44.8496         12.0243       -0.0206932         143.252
0.611                   -2.86984         173.894         -44.7207         9.84766         -44.7202         9.84984       -0.0209666         143.173
0.612                   -2.93266         173.181         -44.5917         7.67232         -44.5913         7.67428       -0.0212438         143.093
0.613                    -2.9967         172.469         -44.4631         5.49603         -44.4627         5.49777       -0.0215247         143.012
0.614                   -3.06196         171.756         -44.3349         3.31887         -44.3346         3.32041       -0.0218094         142.932
0.615                   -3.12845         171.044         -44.2072         1.14096         -44.2068          1.1423       -0.0220977         142.851
0.616                   -3.19617         170.332         -44.0798        -1.03762         -44.0795        -1.03645       -0.0223898          142.77
0.617                    -3.2651         169.621         -43.9529        -3.21676         -43.9526        -3.21576       -0.0226855         142.689
0.618                   -3.33526         168.911         -43.8263        -5.39636         -43.8261        -5.39552       -0.0229849         142.608
0.619                   -3.40662         168.202         -43.7002        -7.57634            -43.7        -7.57564        -0.023288         142.526
0.62                    -3.47918         167.494         -43.5746         -9.7566         -43.5744        -9.75603       -0.0235947         142.444
0.621                   -3.55294         166.787         -43.4493         -11.937         -43.4492        -11.9366       -0.0239052         142.362
0.622                   -3.62787         166.082         -43.3245        -14.1176         -43.3244        -14.1173       -0.0242193          142.28
0.623                   -3.70397         165.379         -43.2002        -16.2982         -43.2001        -16.2979       -0.0245371         142.197
0.624                   -3.78123         164.677         -43.0762        -18.4787         -43.0761        -18.4785       -0.0248587         142.115
0.625                   -3.85961         163.978         -42.9527         -20.659         -42.9526         -20.659        -0.025184         142.032
0.626                   -3.93911          163.28         -42.8296        -22.8392         -42.8296        -22.8392       -0.0255132         141.948
0.627                   -4.01971         162.585         -42.7069        -25.0191         -42.7069        -25.0191       -0.0258463         141.865
0.628                   -4.10138         161.892         -42.5846        -27.1986         -42.5846        -27.1987       -0.0261834         141.781
0.629                   -4.18411         161.202         -42.4628        -29.3778         -42.4628        -29.3779       -0.0265245         141.697
