! TOUCHSTONE file generated by CST MICROWAVE STUDIO
! Date and time: Mon Sep 28 14:14:25 2020
! Project name: Scenario_1_Free_SPace.cst
! Parameters = {dx1=710.2; L_HA=400; MT=2.54; Rad_Dielectric=30; Rad_Lower=7.3; Rad_Upper=30; a_HA=580; a_WG=246; b_HA=500; b_WG=121; c_HA=0; c_WG=187; d_feed=85; h_feed=15; h_lower=18; h_upper=40}
! Header version: 2018
! Port assignment regex: !\s*Touchstone port\s*([0-9]+)\s*=\s*(CST MWS port|CST DS port)\s*([0-9]+|Zmin|Zmax)\s*\(\"(.*)\"\)(\s*mode\s*([0-9]+))?.*
! Touchstone port assignment:
! Touchstone port 1 = CST MWS port 1 ("")
! Touchstone port 2 = CST MWS port 2 ("")
# GHz S DB R 50
0.5                    -0.147323        -122.656         -62.2992        -125.946         -62.2992        -125.946      -0.00676836         151.126
0.501                  -0.154422        -123.095         -62.1705        -128.795         -62.1714          -128.8      -0.00683343          151.06
0.502                  -0.161659        -123.536         -62.0342        -131.608         -62.0358        -131.618      -0.00689913         150.995
0.503                  -0.169036        -123.978         -61.8908        -134.384         -61.8931        -134.399      -0.00696547          150.93
0.504                  -0.176555        -124.422         -61.7409        -137.122         -61.7437        -137.142      -0.00703245         150.864
0.505                  -0.184218        -124.868         -61.5851        -139.821         -61.5884        -139.846      -0.00710006         150.798
0.506                  -0.192027        -125.316          -61.424         -142.48         -61.4277        -142.511       -0.0071683         150.733
0.507                  -0.199983        -125.765         -61.2581          -145.1         -61.2621        -145.135      -0.00723718         150.667
0.508                  -0.208088        -126.216         -61.0879        -147.681         -61.0923         -147.72      -0.00730668         150.601
0.509                  -0.216346        -126.669          -60.914        -150.222         -60.9185        -150.265      -0.00737682         150.535
0.51                   -0.224757        -127.124         -60.7368        -152.725         -60.7415        -152.772      -0.00744758         150.469
0.511                  -0.233324         -127.58         -60.5568        -155.191         -60.5615        -155.241      -0.00751897         150.403
0.512                   -0.24205        -128.039         -60.3743         -157.62          -60.379        -157.673      -0.00759098         150.337
0.513                  -0.250936        -128.499         -60.1897        -160.014         -60.1945         -160.07      -0.00766361          150.27
0.514                  -0.259986        -128.962         -60.0034        -162.373         -60.0081        -162.432      -0.00773686         150.204
0.515                  -0.269201        -129.426         -59.8157          -164.7         -59.8204         -164.76      -0.00781073         150.138
0.516                  -0.278585        -129.892         -59.6269        -166.995         -59.6315        -167.057      -0.00788521         150.071
0.517                   -0.28814         -130.36         -59.4372         -169.26         -59.4417        -169.324      -0.00796031         150.005
0.518                  -0.297869        -130.831         -59.2469        -171.497         -59.2512        -171.562      -0.00803602         149.938
0.519                  -0.307775        -131.303         -59.0562        -173.706         -59.0604        -173.772      -0.00811233         149.871
0.52                    -0.31786        -131.777         -58.8653         -175.89         -58.8693        -175.957      -0.00818926         149.804
0.521                  -0.328129        -132.254         -58.6743        -178.049         -58.6781        -178.116      -0.00826679         149.737
0.522                  -0.338583        -132.732         -58.4834         179.814         -58.4871         179.747      -0.00834492          149.67
0.523                  -0.349227        -133.213         -58.2927         177.699         -58.2963         177.632      -0.00842365         149.603
0.524                  -0.360064        -133.696         -58.1025         175.605         -58.1058         175.537      -0.00850299         149.536
0.525                  -0.371097        -134.181         -57.9126         173.529         -57.9158         173.461      -0.00858291         149.469
0.526                  -0.382331        -134.668         -57.7233          171.47         -57.7263         171.403      -0.00866344         149.401
0.527                  -0.393768        -135.157         -57.5347         169.428         -57.5375         169.361      -0.00874456         149.334
0.528                  -0.405413        -135.649         -57.3467           167.4         -57.3494         167.335      -0.00882627         149.266
0.529                  -0.417269        -136.143         -57.1595         165.387          -57.162         165.322      -0.00890857         149.198
0.53                   -0.429342        -136.639         -56.9731         163.386         -56.9754         163.322      -0.00899145         149.131
0.531                  -0.441635        -137.137         -56.7875         161.397         -56.7897         161.334      -0.00907493         149.063
0.532                  -0.454153        -137.638         -56.6028         159.418         -56.6048         159.357        -0.009159         148.995
0.533                  -0.466901        -138.141          -56.419         157.449         -56.4209         157.389      -0.00924365         148.927
0.534                  -0.479882        -138.647         -56.2361         155.489         -56.2379          155.43       -0.0093289         148.859
0.535                  -0.493103        -139.155         -56.0542         153.536         -56.0558         153.479      -0.00941473          148.79
0.536                  -0.506568        -139.666         -55.8732          151.59         -55.8747         151.534      -0.00950116         148.722
0.537                  -0.520283        -140.179         -55.6932          149.65         -55.6946         149.596      -0.00958817         148.654
0.538                  -0.534253        -140.694         -55.5142         147.715         -55.5154         147.663      -0.00967579         148.585
0.539                  -0.548483        -141.212         -55.3361         145.784         -55.3373         145.734        -0.009764         148.516
0.54                    -0.56298        -141.733         -55.1591         143.858         -55.1601         143.809      -0.00985283         148.447
0.541                  -0.577749        -142.256          -54.983         141.934         -54.9839         141.887      -0.00994226         148.379
0.542                  -0.592798        -142.782         -54.8078         140.012         -54.8086         139.967       -0.0100323          148.31
0.543                  -0.608131        -143.311         -54.6337         138.092         -54.6344         138.049        -0.010123          148.24
0.544                  -0.623756        -143.842         -54.4605         136.173         -54.4611         136.132       -0.0102143         148.171
0.545                   -0.63968        -144.375         -54.2882         134.255         -54.2888         134.215       -0.0103063         148.102
0.546                   -0.65591        -144.912         -54.1169         132.336         -54.1174         132.298       -0.0103989         148.032
0.547                  -0.672453        -145.451         -53.9465         130.417         -53.9469         130.381       -0.0104923         147.963
0.548                  -0.689316        -145.993         -53.7771         128.497         -53.7774         128.462       -0.0105863         147.893
0.549                  -0.706508        -146.538         -53.6085         126.575         -53.6088         126.542        -0.010681         147.823
0.55                   -0.724036        -147.086         -53.4409         124.651         -53.4411          124.62       -0.0107765         147.754
0.551                  -0.741908        -147.637         -53.2741         122.724         -53.2743         122.696       -0.0108728         147.684
0.552                  -0.760134         -148.19         -53.1083         120.795         -53.1084         120.768       -0.0109699         147.613
0.553                  -0.778722        -148.746         -52.9433         118.863         -52.9434         118.838       -0.0110679         147.543
0.554                   -0.79768        -149.306         -52.7792         116.927         -52.7792         116.903       -0.0111667         147.473
0.555                  -0.817019        -149.868         -52.6159         114.987         -52.6159         114.965       -0.0112665         147.402
0.556                  -0.836748        -150.433         -52.4535         113.042         -52.4535         113.023       -0.0113672         147.331
0.557                  -0.856876        -151.001         -52.2919         111.094         -52.2918         111.076        -0.011469         147.261
0.558                  -0.877414        -151.572         -52.1311          109.14          -52.131         109.124       -0.0115719          147.19
0.559                  -0.898373        -152.146         -51.9712         107.182          -51.971         107.167        -0.011676         147.119
0.56                   -0.919762        -152.723          -51.812         105.218         -51.8119         105.205       -0.0117813         147.048
0.561                  -0.941593        -153.304         -51.6537         103.249         -51.6535         103.237       -0.0118879         146.976
0.562                  -0.963877        -153.887         -51.4961         101.274         -51.4959         101.264        -0.011996         146.905
0.563                  -0.986626        -154.473         -51.3393         99.2935         -51.3391         99.2848       -0.0121056         146.833
0.564                   -1.00985        -155.063         -51.1833         97.3068         -51.1831         97.2996       -0.0122167         146.761
0.565                   -1.03357        -155.656         -51.0281          95.314         -51.0279         95.3081       -0.0123296          146.69
0.566                   -1.05778        -156.251         -50.8736          93.315         -50.8734         93.3104       -0.0124444         146.617
0.567                   -1.08251         -156.85         -50.7199         91.3095         -50.7197         91.3062       -0.0125611         146.545
0.568                   -1.10777        -157.452          -50.567         89.2976         -50.5668         89.2955       -0.0126799         146.473
0.569                   -1.13356        -158.057         -50.4148         87.2791         -50.4146         87.2782        -0.012801           146.4
0.57                    -1.15991        -158.666         -50.2634          85.254         -50.2631         85.2542       -0.0129244         146.328
0.571                   -1.18683        -159.277         -50.1127         83.2223         -50.1124         83.2236       -0.0130504         146.255
0.572                   -1.21433        -159.891         -49.9628         81.1838         -49.9625         81.1861       -0.0131791         146.182
0.573                   -1.24242        -160.509         -49.8136         79.1387         -49.8133          79.142       -0.0133107         146.109
0.574                   -1.27113         -161.13         -49.6651         77.0869         -49.6648         77.0911       -0.0134453         146.036
0.575                   -1.30046        -161.754         -49.5174         75.0283         -49.5171         75.0334       -0.0135831         145.962
0.576                   -1.33043         -162.38         -49.3704         72.9631         -49.3701          72.969       -0.0137242         145.889
0.577                   -1.36105         -163.01         -49.2242         70.8913         -49.2239         70.8979       -0.0138689         145.815
0.578                   -1.39234        -163.643         -49.0787         68.8128         -49.0783         68.8202       -0.0140173         145.741
0.579                   -1.42433        -164.279         -48.9339         66.7279         -48.9336         66.7359       -0.0141696         145.667
0.58                    -1.45701        -164.918         -48.7899         64.6365         -48.7895         64.6451       -0.0143259         145.593
0.581                   -1.49041         -165.56         -48.6466         62.5387         -48.6462         62.5479       -0.0144864         145.519
0.582                   -1.52454        -166.205          -48.504         60.4347         -48.5037         60.4444       -0.0146511         145.444
0.583                   -1.55942        -166.853         -48.3621         58.3246         -48.3618         58.3347       -0.0148203         145.369
0.584                   -1.59506        -167.503          -48.221         56.2084         -48.2207         56.2189       -0.0149939         145.294
0.585                   -1.63149        -168.157         -48.0807         54.0863         -48.0803         54.0972       -0.0151722         145.219
0.586                   -1.66871        -168.813          -47.941         51.9585         -47.9407         51.9697       -0.0153551         145.144
0.587                   -1.70674        -169.471         -47.8021         49.8251         -47.8018         49.8366       -0.0155428         145.069
0.588                    -1.7456        -170.132         -47.6639         47.6862         -47.6636         47.6979       -0.0157352         144.993
0.589                    -1.7853        -170.796         -47.5265          45.542         -47.5261         45.5539       -0.0159324         144.918
0.59                    -1.82585        -171.462         -47.3897         43.3928         -47.3894         43.4048       -0.0161344         144.842
0.591                   -1.86728        -172.131         -47.2537         41.2386         -47.2534         41.2507        -0.016341         144.766
0.592                   -1.90959        -172.802         -47.1184         39.0797         -47.1181         39.0919       -0.0165524          144.69
0.593                   -1.95281        -173.475         -46.9838         36.9162         -46.9835         36.9284       -0.0167683         144.613
0.594                   -1.99693         -174.15         -46.8499         34.7484         -46.8496         34.7606       -0.0169888         144.537
0.595                   -2.04198        -174.827         -46.7168         32.5765         -46.7164         32.5886       -0.0172137          144.46
0.596                   -2.08797        -175.506         -46.5843         30.4006         -46.5839         30.4127       -0.0174429         144.383
0.597                   -2.13491        -176.187         -46.4525          28.221         -46.4521         28.2329       -0.0176762         144.306
0.598                   -2.18281         -176.87         -46.3214         26.0378         -46.3211         26.0497       -0.0179137         144.229
0.599                   -2.23169        -177.554          -46.191         23.8514         -46.1906         23.8631        -0.018155         144.151
0.6                     -2.28154         -178.24         -46.0612         21.6619         -46.0609         21.6734       -0.0184002         144.074
0.601                   -2.33238        -178.927         -45.9321         19.4695         -45.9318         19.4808       -0.0186489         143.996
0.602                   -2.38422        -179.615         -45.8037         17.2745         -45.8034         17.2855       -0.0189012         143.918
0.603                   -2.43706         179.695         -45.6759          15.077         -45.6756         15.0877       -0.0191569          143.84
0.604                   -2.49092         179.005         -45.5488         12.8772         -45.5484         12.8877       -0.0194158         143.761
0.605                   -2.54578         178.314         -45.4222         10.6755         -45.4219         10.6857       -0.0196779         143.683
0.606                   -2.60167         177.622         -45.2963         8.47192          -45.296         8.48179       -0.0199429         143.604
0.607                   -2.65858         176.929          -45.171         6.26675         -45.1706          6.2763        -0.020211         143.525
0.608                   -2.71651         176.236         -45.0462         4.06017         -45.0459         4.06938       -0.0204818         143.446
0.609                   -2.77546         175.542          -44.922         1.85238         -44.9217         1.86124       -0.0207555         143.367
0.61                    -2.83543         174.848         -44.7984        -0.35644         -44.7981       -0.347934       -0.0210318         143.287
0.611                   -2.89643         174.154         -44.6753         -2.5661          -44.675        -2.55795       -0.0213109         143.207
0.612                   -2.95844          173.46         -44.5527        -4.77642         -44.5524        -4.76864       -0.0215926         143.127
0.613                   -3.02146         172.766         -44.4306        -6.98723         -44.4303        -6.97982       -0.0218769         143.047
0.614                   -3.08549         172.072          -44.309        -9.19836         -44.3088        -9.19132       -0.0221639         142.967
0.615                   -3.15052         171.378         -44.1879        -11.4097         -44.1876         -11.403       -0.0224535         142.886
0.616                   -3.21654         170.685         -44.0672         -13.621          -44.067        -13.6147       -0.0227458         142.805
0.617                   -3.28356         169.992          -43.947        -15.8322         -43.9467        -15.8263       -0.0230408         142.724
0.618                   -3.35154           169.3         -43.8271        -18.0431         -43.8269        -18.0376       -0.0233386         142.643
0.619                    -3.4205         168.608         -43.7077        -20.2537         -43.7075        -20.2485       -0.0236392         142.561
0.62                    -3.49041         167.917         -43.5886        -22.4638         -43.5884        -22.4589       -0.0239427         142.479
0.621                   -3.56126         167.227         -43.4699        -24.6732         -43.4698        -24.6687       -0.0242493         142.397
0.622                   -3.63305         166.537         -43.3516         -26.882         -43.3514        -26.8779       -0.0245588         142.315
0.623                   -3.70577         165.848         -43.2335          -29.09         -43.2333        -29.0862       -0.0248716         142.232
0.624                   -3.77939         165.159         -43.1158        -31.2972         -43.1156        -31.2937       -0.0251877          142.15
0.625                   -3.85392         164.471         -42.9983        -33.5034         -42.9981        -33.5002       -0.0255072         142.066
0.626                   -3.92934         163.784          -42.881        -35.7087         -42.8809        -35.7058       -0.0258303         141.983
0.627                   -4.00564         163.098         -42.7641        -37.9129         -42.7639        -37.9103       -0.0261571         141.899
0.628                   -4.08281         162.412         -42.6473        -40.1161         -42.6472        -40.1138       -0.0264877         141.816
0.629                   -4.16085         161.727         -42.5307        -42.3182         -42.5306        -42.3162       -0.0268223         141.731
