! TOUCHSTONE file generated by CST MICROWAVE STUDIO
! Date and time: Mon Sep 28 14:14:35 2020
! Project name: Scenario_1_Free_SPace.cst
! Parameters = {dx1=727.5; L_HA=400; MT=2.54; Rad_Dielectric=30; Rad_Lower=7.3; Rad_Upper=30; a_HA=580; a_WG=246; b_HA=500; b_WG=121; c_HA=0; c_WG=187; d_feed=85; h_feed=15; h_lower=18; h_upper=40}
! Header version: 2018
! Port assignment regex: !\s*Touchstone port\s*([0-9]+)\s*=\s*(CST MWS port|CST DS port)\s*([0-9]+|Zmin|Zmax)\s*\(\"(.*)\"\)(\s*mode\s*([0-9]+))?.*
! Touchstone port assignment:
! Touchstone port 1 = CST MWS port 1 ("")
! Touchstone port 2 = CST MWS port 2 ("")
# GHz S DB R 50
0.5                    -0.148145        -122.639         -62.3855        -135.974         -62.3855        -135.974      -0.00677451         151.139
0.501                  -0.151995        -123.061         -62.3003        -138.293         -62.3005        -138.293      -0.00684032         151.074
0.502                  -0.156047        -123.485         -62.2093        -140.618         -62.2095        -140.618      -0.00690671         151.009
0.503                  -0.160306        -123.911         -62.1124        -142.947         -62.1128        -142.947      -0.00697366         150.943
0.504                  -0.164774         -124.34         -62.0099        -145.278         -62.0104        -145.279      -0.00704119         150.878
0.505                  -0.169456        -124.772         -61.9017         -147.61         -61.9024        -147.611      -0.00710928         150.812
0.506                  -0.174356        -125.206         -61.7881        -149.941         -61.7888        -149.943      -0.00717792         150.746
0.507                  -0.179476        -125.643          -61.669        -152.271         -61.6699        -152.272      -0.00724711         150.681
0.508                  -0.184822        -126.083         -61.5448        -154.597         -61.5457        -154.599      -0.00731685         150.615
0.509                  -0.190396        -126.525         -61.4154        -156.918         -61.4164         -156.92      -0.00738713         150.549
0.51                   -0.196203         -126.97         -61.2812        -159.234         -61.2822        -159.236      -0.00745794         150.483
0.511                  -0.202248        -127.417         -61.1422        -161.542         -61.1433        -161.545      -0.00752928         150.417
0.512                  -0.208533        -127.867         -60.9987        -163.843         -60.9999        -163.846      -0.00760114         150.351
0.513                  -0.215064         -128.32         -60.8508        -166.135         -60.8521        -166.139      -0.00767352         150.285
0.514                  -0.221844        -128.776         -60.6988        -168.418         -60.7001        -168.422      -0.00774641         150.218
0.515                  -0.228878        -129.234         -60.5429        -170.691         -60.5442        -170.695      -0.00781981         150.152
0.516                   -0.23617        -129.695         -60.3833        -172.954         -60.3846        -172.958       -0.0078937         150.085
0.517                  -0.243724        -130.159         -60.2202        -175.206         -60.2215         -175.21      -0.00796809         150.019
0.518                  -0.251545        -130.625         -60.0538        -177.446         -60.0551        -177.451      -0.00804297         149.952
0.519                  -0.259637        -131.094         -59.8842        -179.675         -59.8856        -179.681      -0.00811833         149.886
0.52                   -0.268005        -131.566         -59.7118         178.107         -59.7132         178.101      -0.00819417         149.819
0.521                  -0.276653         -132.04         -59.5368         175.901         -59.5382         175.895      -0.00827049         149.752
0.522                  -0.285586        -132.518         -59.3592         173.706         -59.3606           173.7      -0.00834727         149.685
0.523                  -0.294808        -132.998         -59.1794         171.523         -59.1808         171.517      -0.00842452         149.618
0.524                  -0.304325        -133.481         -58.9975          169.35         -58.9988         169.344      -0.00850224         149.551
0.525                   -0.31414        -133.966         -58.8136         167.189          -58.815         167.183      -0.00858041         149.483
0.526                   -0.32426        -134.455         -58.6281         165.039         -58.6294         165.032      -0.00865904         149.416
0.527                  -0.334688        -134.946          -58.441         162.898         -58.4423         162.892      -0.00873813         149.349
0.528                  -0.345429         -135.44         -58.2525         160.768         -58.2537         160.761      -0.00881767         149.281
0.529                  -0.356489        -135.937         -58.0627         158.647         -58.0639          158.64      -0.00889766         149.214
0.53                   -0.367873        -136.437         -57.8719         156.535         -57.8731         156.529      -0.00897812         149.146
0.531                  -0.379585        -136.939         -57.6801         154.432         -57.6813         154.425      -0.00905903         149.078
0.532                  -0.391631        -137.444         -57.4875         152.337         -57.4887          152.33       -0.0091404          149.01
0.533                  -0.404016        -137.952         -57.2943         150.249         -57.2954         150.242      -0.00922224         148.942
0.534                  -0.416745        -138.463         -57.1005         148.168         -57.1016         148.162      -0.00930454         148.874
0.535                  -0.429823        -138.977         -56.9063         146.094         -56.9073         146.088      -0.00938734         148.806
0.536                  -0.443256        -139.493         -56.7118         144.026         -56.7128         144.019      -0.00947062         148.738
0.537                  -0.457049        -140.013         -56.5171         141.963         -56.5181         141.956       -0.0095544         148.669
0.538                  -0.471207        -140.535         -56.3223         139.904         -56.3232         139.898       -0.0096387         148.601
0.539                  -0.485736         -141.06         -56.1275          137.85         -56.1284         137.844      -0.00972353         148.532
0.54                   -0.500641        -141.588         -55.9329           135.8         -55.9337         135.794      -0.00980892         148.463
0.541                  -0.515928        -142.118         -55.7384         133.753         -55.7391         133.747      -0.00989488         148.394
0.542                  -0.531602        -142.652         -55.5442         131.708         -55.5449         131.702      -0.00998144         148.326
0.543                   -0.54767        -143.188         -55.3503         129.665          -55.351          129.66       -0.0100686         148.256
0.544                  -0.564135        -143.727         -55.1569         127.624         -55.1575         127.619       -0.0101565         148.187
0.545                  -0.581005        -144.269          -54.964         125.584         -54.9646         125.579        -0.010245         148.118
0.546                  -0.598285        -144.814         -54.7717         123.545         -54.7722          123.54       -0.0103343         148.049
0.547                   -0.61598        -145.361           -54.58         121.505         -54.5805           121.5       -0.0104244         147.979
0.548                  -0.634097        -145.912          -54.389         119.465         -54.3895         119.461       -0.0105153         147.909
0.549                  -0.652641        -146.465         -54.1988         117.425         -54.1993          117.42       -0.0106071          147.84
0.55                   -0.671618        -147.021         -54.0095         115.383         -54.0099         115.379       -0.0106999          147.77
0.551                  -0.691034        -147.579          -53.821         113.339         -53.8214         113.335       -0.0107937           147.7
0.552                  -0.710895        -148.141         -53.6335         111.294         -53.6339          111.29       -0.0108886          147.63
0.553                  -0.731207        -148.705          -53.447         109.246         -53.4473         109.243       -0.0109846          147.56
0.554                  -0.751976        -149.272         -53.2616         107.196         -53.2618         107.192       -0.0110819         147.489
0.555                  -0.773207        -149.842         -53.0772         105.142         -53.0774         105.139       -0.0111805         147.419
0.556                  -0.794908        -150.415          -52.894         103.086         -52.8941         103.083       -0.0112806         147.348
0.557                  -0.817083         -150.99         -52.7119         101.025         -52.7121         101.023       -0.0113822         147.277
0.558                   -0.83974        -151.568         -52.5311         98.9614         -52.5312         98.9589       -0.0114854         147.206
0.559                  -0.862884        -152.149         -52.3515         96.8934         -52.3516         96.8911       -0.0115904         147.135
0.56                   -0.886521        -152.732         -52.1733         94.8212         -52.1733         94.8191       -0.0116973         147.064
0.561                  -0.910658        -153.319         -51.9964         92.7446         -51.9964         92.7427       -0.0118061         146.993
0.562                  -0.935301        -153.908         -51.8208         90.6635         -51.8208         90.6618       -0.0119171         146.922
0.563                  -0.960455        -154.499         -51.6467         88.5777         -51.6466         88.5763       -0.0120304          146.85
0.564                  -0.986128        -155.094         -51.4739         86.4872         -51.4738         86.4859        -0.012146         146.778
0.565                   -1.01233         -155.69         -51.3027         84.3918         -51.3026         84.3907       -0.0122642         146.706
0.566                   -1.03905         -156.29         -51.1329         82.2916         -51.1327         82.2906        -0.012385         146.634
0.567                   -1.06632        -156.892         -50.9646         80.1863         -50.9644         80.1856       -0.0125086         146.562
0.568                   -1.09413        -157.497         -50.7979         78.0761         -50.7977         78.0756       -0.0126351          146.49
0.569                   -1.12249        -158.104         -50.6327          75.961         -50.6324         75.9605       -0.0127648         146.418
0.57                     -1.1514        -158.714          -50.469         73.8408         -50.4688         73.8406       -0.0128976         146.345
0.571                   -1.18088        -159.327         -50.3069         71.7158         -50.3067         71.7157       -0.0130337         146.272
0.572                   -1.21092        -159.942         -50.1464         69.5859         -50.1462         69.5859       -0.0131733           146.2
0.573                   -1.24155         -160.56         -49.9875         67.4512         -49.9872         67.4513       -0.0133164         146.127
0.574                   -1.27275         -161.18         -49.8303         65.3118         -49.8299          65.312       -0.0134631         146.053
0.575                   -1.30454        -161.803         -49.6746         63.1677         -49.6742         63.1681       -0.0136136          145.98
0.576                   -1.33693        -162.428         -49.5205         61.0193         -49.5201         61.0197        -0.013768         145.907
0.577                   -1.36992        -163.056          -49.368         58.8664         -49.3676          58.867       -0.0139262         145.833
0.578                   -1.40351        -163.686         -49.2171         56.7094         -49.2167           56.71       -0.0140883         145.759
0.579                   -1.43772        -164.318         -49.0678         54.5483         -49.0674          54.549       -0.0142544         145.685
0.58                    -1.47255        -164.953         -48.9201         52.3833         -48.9197         52.3841       -0.0144245         145.611
0.581                   -1.50801         -165.59          -48.774         50.2147         -48.7736         50.2155       -0.0145987         145.537
0.582                   -1.54411         -166.23         -48.6294         48.0425          -48.629         48.0434       -0.0147768         145.463
0.583                   -1.58084        -166.872         -48.4864          45.867          -48.486          45.868       -0.0149589         145.388
0.584                   -1.61822        -167.516         -48.3449         43.6883         -48.3444         43.6894        -0.015145         145.313
0.585                   -1.65626        -168.163         -48.2049         41.5068         -48.2044         41.5079        -0.015335         145.239
0.586                   -1.69496        -168.812         -48.0664         39.3225         -48.0659         39.3236       -0.0155289         145.164
0.587                   -1.73433        -169.463         -47.9293         37.1357         -47.9288         37.1368       -0.0157265         145.088
0.588                   -1.77437        -170.116         -47.7936         34.9466         -47.7931         34.9477       -0.0159279         145.013
0.589                   -1.81509        -170.772         -47.6593         32.7554         -47.6588         32.7566       -0.0161329         144.938
0.59                     -1.8565         -171.43         -47.5264         30.5623         -47.5259         30.5635       -0.0163414         144.862
0.591                   -1.89861         -172.09         -47.3948         28.3675         -47.3943         28.3687       -0.0165533         144.786
0.592                   -1.94142        -172.752         -47.2644         26.1712          -47.264         26.1724       -0.0167686          144.71
0.593                   -1.98494        -173.416         -47.1353         23.9736         -47.1348         23.9748       -0.0169871         144.634
0.594                   -2.02918        -174.083         -47.0074          21.775         -47.0069         21.7762       -0.0172087         144.558
0.595                   -2.07414        -174.751         -46.8806         19.5754         -46.8802         19.5766       -0.0174334         144.481
0.596                   -2.11983        -175.421          -46.755         17.3751         -46.7545         17.3763        -0.017661         144.405
0.597                   -2.16627        -176.094         -46.6304         15.1742         -46.6299         15.1754       -0.0178914         144.328
0.598                   -2.21345        -176.769         -46.5068          12.973         -46.5064         12.9741       -0.0181246         144.251
0.599                   -2.26138        -177.445         -46.3842         10.7715         -46.3837         10.7726       -0.0183604         144.174
0.6                     -2.31007        -178.124         -46.2625         8.56994          -46.262         8.57101       -0.0185989         144.096
0.601                   -2.35954        -178.804         -46.1416         6.36842         -46.1412         6.36946       -0.0188398         144.019
0.602                   -2.40978        -179.486         -46.0216         4.16709         -46.0212         4.16809       -0.0190832         143.941
0.603                   -2.46081         179.829         -45.9023         1.96605         -45.9019         1.96702        -0.019329         143.863
0.604                   -2.51263         179.143         -45.7838       -0.234588         -45.7834       -0.233656       -0.0195772         143.785
0.605                   -2.56526         178.455         -45.6659        -2.43472         -45.6655        -2.43383       -0.0198277         143.707
0.606                   -2.61869         177.766         -45.5486        -4.63427         -45.5482        -4.63342       -0.0200806         143.628
0.607                   -2.67295         177.074         -45.4318        -6.83317         -45.4315        -6.83235       -0.0203358         143.549
0.608                   -2.72803         176.381         -45.3156        -9.03134         -45.3153        -9.03056       -0.0205933          143.47
0.609                   -2.78395         175.686         -45.1998        -11.2287         -45.1995         -11.228       -0.0208531         143.391
0.61                    -2.84071         174.989         -45.0845        -13.4253         -45.0842        -13.4246       -0.0211153         143.312
0.611                   -2.89833          174.29         -44.9695         -15.621         -44.9692        -15.6204       -0.0213798         143.232
0.612                   -2.95682          173.59         -44.8548        -17.8159         -44.8545        -17.8153       -0.0216468         143.153
0.613                   -3.01618         172.888         -44.7403        -20.0099         -44.7401        -20.0094       -0.0219163         143.073
0.614                   -3.07643         172.184         -44.6261        -22.2031         -44.6259        -22.2025       -0.0221883         142.992
0.615                   -3.13757         171.479         -44.5121        -24.3953         -44.5118        -24.3948       -0.0224629         142.912
0.616                   -3.19962         170.772         -44.3981        -26.5868         -44.3979        -26.5863       -0.0227402         142.831
0.617                   -3.26259         170.064         -44.2843        -28.7774         -44.2841         -28.777       -0.0230203          142.75
0.618                   -3.32649         169.354         -44.1705        -30.9673         -44.1703        -30.9669       -0.0233033         142.669
0.619                   -3.39133         168.642         -44.0567        -33.1565         -44.0565        -33.1561       -0.0235893         142.588
0.62                    -3.45712         167.929         -43.9429         -35.345         -43.9427        -35.3447       -0.0238783         142.506
0.621                   -3.52388         167.214          -43.829         -37.533         -43.8288        -37.5327       -0.0241706         142.424
0.622                   -3.59162         166.498          -43.715        -39.7204         -43.7149        -39.7202       -0.0244662         142.342
0.623                   -3.66035         165.781         -43.6009        -41.9075         -43.6008        -41.9073       -0.0247653          142.26
0.624                   -3.73008         165.062         -43.4866        -44.0942         -43.4865         -44.094        -0.025068         142.177
0.625                   -3.80084         164.341         -43.3721        -46.2807          -43.372        -46.2805       -0.0253745         142.094
0.626                   -3.87263         163.619         -43.2574         -48.467         -43.2573        -48.4669        -0.025685         142.011
0.627                   -3.94548         162.896         -43.1425        -50.6534         -43.1424        -50.6533       -0.0259995         141.927
0.628                   -4.01939         162.171         -43.0273        -52.8399         -43.0272        -52.8398       -0.0263183         141.844
0.629                   -4.09438         161.445         -42.9118        -55.0266         -42.9118        -55.0266       -0.0266415          141.76
