! TOUCHSTONE file generated by CST MICROWAVE STUDIO
! Date and time: Mon Sep 28 14:15:30 2020
! Project name: Scenario_1_Free_SPace.cst
! Parameters = {dx1=744.8; L_HA=400; MT=2.54; Rad_Dielectric=30; Rad_Lower=7.3; Rad_Upper=30; a_HA=580; a_WG=246; b_HA=500; b_WG=121; c_HA=0; c_WG=187; d_feed=85; h_feed=15; h_lower=18; h_upper=40}
! Header version: 2018
! Port assignment regex: !\s*Touchstone port\s*([0-9]+)\s*=\s*(CST MWS port|CST DS port)\s*([0-9]+|Zmin|Zmax)\s*\(\"(.*)\"\)(\s*mode\s*([0-9]+))?.*
! Touchstone port assignment:
! Touchstone port 1 = CST MWS port 1 ("")
! Touchstone port 2 = CST MWS port 2 ("")
# GHz S DB R 50
0.5                    -0.148333        -122.452         -62.5281         -145.99         -62.5281         -145.99      -0.00672668         151.145
0.501                  -0.155543        -122.847         -62.4321        -147.864          -62.432        -147.864      -0.00675794         151.079
0.502                   -0.16266        -123.246         -62.3331        -149.755         -62.3328        -149.754      -0.00679068         151.014
0.503                  -0.169698        -123.649         -62.2309        -151.662         -62.2304         -151.66      -0.00682491         150.949
0.504                  -0.176674        -124.056         -62.1255        -153.585         -62.1249        -153.582      -0.00686063         150.883
0.505                  -0.183603        -124.466          -62.017        -155.523         -62.0163        -155.519      -0.00689784         150.818
0.506                  -0.190502        -124.881         -61.9052        -157.475         -61.9044         -157.47      -0.00693656         150.752
0.507                  -0.197384        -125.299         -61.7902        -159.442         -61.7893        -159.436      -0.00697676         150.687
0.508                  -0.204265        -125.721          -61.672        -161.422         -61.6709        -161.415      -0.00701848         150.621
0.509                   -0.21116        -126.147         -61.5505        -163.415         -61.5493        -163.408      -0.00706169         150.555
0.51                   -0.218084        -126.576         -61.4257        -165.421         -61.4244        -165.413      -0.00710642         150.489
0.511                  -0.225051         -127.01         -61.2976        -167.439         -61.2962         -167.43      -0.00715265         150.423
0.512                  -0.232077        -127.447         -61.1663        -169.469         -61.1648        -169.459       -0.0072004         150.357
0.513                  -0.239174        -127.888         -61.0317        -171.509         -61.0302        -171.499      -0.00724967         150.291
0.514                  -0.246358        -128.333          -60.894        -173.561         -60.8923         -173.55      -0.00730045         150.225
0.515                  -0.253642        -128.782          -60.753        -175.622         -60.7513        -175.611      -0.00735276         150.158
0.516                  -0.261041        -129.234         -60.6089        -177.693         -60.6072        -177.681       -0.0074066         150.092
0.517                  -0.268567         -129.69         -60.4617        -179.773         -60.4599         -179.76      -0.00746197         150.025
0.518                  -0.276236         -130.15         -60.3114         178.139         -60.3096         178.152      -0.00751888         149.959
0.519                   -0.28406        -130.614         -60.1582         176.042         -60.1563         176.056      -0.00757733         149.892
0.52                   -0.292053        -131.081          -60.002         173.938              -60         173.952      -0.00763732         149.825
0.521                  -0.300228        -131.552         -59.8429         171.827         -59.8409         171.841      -0.00769886         149.759
0.522                  -0.308598        -132.027          -59.681         169.708          -59.679         169.723      -0.00776196         149.692
0.523                  -0.317176        -132.505         -59.5164         167.584         -59.5144         167.599      -0.00782661         149.625
0.524                  -0.325975        -132.987         -59.3492         165.453         -59.3471         165.468      -0.00789283         149.558
0.525                  -0.335007        -133.473         -59.1794         163.316         -59.1773         163.332      -0.00796062          149.49
0.526                  -0.344285        -133.962         -59.0071         161.174          -59.005          161.19      -0.00802998         149.423
0.527                  -0.353822        -134.455         -58.8325         159.027         -58.8304         159.043      -0.00810092         149.356
0.528                  -0.363629        -134.952         -58.6556         156.874         -58.6535         156.891      -0.00817345         149.288
0.529                  -0.373719        -135.452         -58.4766         154.717         -58.4745         154.734      -0.00824757         149.221
0.53                   -0.384103        -135.955         -58.2955         152.556         -58.2934         152.573      -0.00832329         149.153
0.531                  -0.394794        -136.462         -58.1124          150.39         -58.1103         150.407      -0.00840061         149.086
0.532                  -0.405802        -136.973         -57.9275          148.22         -57.9254         148.237      -0.00847954         149.018
0.533                   -0.41714        -137.486         -57.7409         146.046         -57.7388         146.063      -0.00856008          148.95
0.534                  -0.428818        -138.003         -57.5527         143.869         -57.5506         143.885      -0.00864225         148.882
0.535                  -0.440847        -138.524          -57.363         141.687         -57.3609         141.704      -0.00872606         148.814
0.536                  -0.453238        -139.048         -57.1719         139.502         -57.1699         139.518      -0.00881149         148.745
0.537                  -0.466002        -139.575         -56.9796         137.313         -56.9776         137.329      -0.00889858         148.677
0.538                   -0.47915        -140.105         -56.7861          135.12         -56.7841         135.136      -0.00898732         148.609
0.539                  -0.492691        -140.639         -56.5916         132.924         -56.5896          132.94      -0.00907772          148.54
0.54                   -0.506636        -141.176         -56.3963         130.724         -56.3943         130.739      -0.00916979         148.472
0.541                  -0.520994        -141.716         -56.2001          128.52         -56.1981         128.536      -0.00926353         148.403
0.542                  -0.535775        -142.258         -56.0033         126.313         -56.0013         126.328      -0.00935896         148.334
0.543                  -0.550989        -142.805         -55.8059         124.102          -55.804         124.117      -0.00945609         148.265
0.544                  -0.566645        -143.354         -55.6081         121.888         -55.6063         121.902      -0.00955492         148.196
0.545                  -0.582752        -143.906         -55.4101          119.67         -55.4082         119.684      -0.00965547         148.127
0.546                  -0.599319         -144.46         -55.2118         117.448           -55.21         117.462      -0.00975774         148.058
0.547                  -0.616354        -145.018         -55.0135         115.222         -55.0117         115.236      -0.00986174         147.989
0.548                  -0.633865        -145.579         -54.8152         112.993         -54.8134         113.006      -0.00996749         147.919
0.549                  -0.651861        -146.142         -54.6171          110.76         -54.6153         110.772        -0.010075          147.85
0.55                    -0.67035        -146.709         -54.4193         108.523         -54.4175         108.535       -0.0101843          147.78
0.551                  -0.689339        -147.278         -54.2218         106.282         -54.2201         106.294       -0.0102953          147.71
0.552                  -0.708836        -147.849         -54.0248         104.038         -54.0231         104.049       -0.0104081          147.64
0.553                  -0.728848        -148.423         -53.8284          101.79         -53.8268           101.8       -0.0105228          147.57
0.554                  -0.749382            -149         -53.6327         99.5376         -53.6311         99.5474       -0.0106392           147.5
0.555                  -0.770444        -149.579         -53.4378         97.2818         -53.4362         97.2911       -0.0107575          147.43
0.556                  -0.792041        -150.161         -53.2438         95.0224         -53.2422         95.0311       -0.0108776         147.359
0.557                  -0.814179        -150.745         -53.0507         92.7593         -53.0492         92.7675       -0.0109995         147.289
0.558                  -0.836865        -151.332         -52.8587         90.4926         -52.8573         90.5003       -0.0111233         147.218
0.559                  -0.860103        -151.921         -52.6679         88.2225         -52.6665         88.2297        -0.011249         147.148
0.56                     -0.8839        -152.512         -52.4783         85.9491         -52.4769         85.9558       -0.0113766         147.077
0.561                   -0.90826        -153.105         -52.2901         83.6724         -52.2887         83.6786        -0.011506         147.006
0.562                  -0.933189        -153.701         -52.1032         81.3927         -52.1019         81.3984       -0.0116374         146.935
0.563                  -0.958692        -154.299         -51.9178           79.11         -51.9165         79.1152       -0.0117708         146.864
0.564                  -0.984772        -154.899         -51.7339         76.8246         -51.7327         76.8293       -0.0119061         146.792
0.565                   -1.01143        -155.501         -51.5516         74.5366         -51.5504         74.5408       -0.0120433         146.721
0.566                   -1.03868        -156.105          -51.371         72.2463         -51.3698           72.25       -0.0121825         146.649
0.567                   -1.06652        -156.711         -51.1921         69.9538          -51.191          69.957       -0.0123238         146.577
0.568                   -1.09496        -157.318         -51.0149         67.6593         -51.0138         67.6621        -0.012467         146.506
0.569                   -1.12399        -157.928         -50.8396         65.3632         -50.8385         65.3656       -0.0126123         146.434
0.57                    -1.15362         -158.54         -50.6661         63.0657          -50.665         63.0676       -0.0127596         146.361
0.571                   -1.18385        -159.153         -50.4944          60.767         -50.4934         60.7684        -0.012909         146.289
0.572                   -1.21469        -159.768         -50.3247         58.4673         -50.3237         58.4684       -0.0130605         146.217
0.573                   -1.24614        -160.385         -50.1568         56.1671         -50.1559         56.1678       -0.0132141         146.144
0.574                    -1.2782        -161.004         -49.9909         53.8665         -49.9901         53.8668       -0.0133698         146.071
0.575                   -1.31087        -161.624          -49.827         51.5658         -49.8262         51.5658       -0.0135277         145.999
0.576                   -1.34416        -162.246          -49.665         49.2653         -49.6642          49.265       -0.0136878         145.926
0.577                   -1.37806         -162.87          -49.505         46.9654         -49.5043         46.9647         -0.01385         145.853
0.578                   -1.41259        -163.495          -49.347         44.6662         -49.3463         44.6653       -0.0140145         145.779
0.579                   -1.44773        -164.121         -49.1909         42.3681         -49.1903         42.3669       -0.0141812         145.706
0.58                     -1.4835        -164.749         -49.0368         40.0713         -49.0362         40.0699       -0.0143502         145.632
0.581                   -1.51989        -165.379         -48.8846         37.7762          -48.884         37.7745       -0.0145214         145.559
0.582                   -1.55691         -166.01         -48.7343         35.4829         -48.7338          35.481        -0.014695         145.485
0.583                   -1.59455        -166.642          -48.586         33.1918         -48.5854         33.1896       -0.0148709         145.411
0.584                   -1.63282        -167.276         -48.4394          30.903         -48.4389         30.9007       -0.0150491         145.336
0.585                   -1.67172        -167.911         -48.2947         28.6168         -48.2943         28.6144       -0.0152298         145.262
0.586                   -1.71124        -168.548         -48.1518         26.3335         -48.1514         26.3309       -0.0154129         145.188
0.587                    -1.7514        -169.186         -48.0107         24.0532         -48.0103         24.0504       -0.0155984         145.113
0.588                   -1.79219        -169.825         -47.8712          21.776         -47.8708         21.7732       -0.0157864         145.038
0.589                   -1.83361        -170.466         -47.7334         19.5023         -47.7331         19.4993       -0.0159769         144.963
0.59                    -1.87566        -171.108         -47.5973         17.2321          -47.597         17.2291       -0.0161699         144.888
0.591                   -1.91835        -171.751         -47.4627         14.9656         -47.4624         14.9625       -0.0163655         144.813
0.592                   -1.96168        -172.395         -47.3296         12.7029         -47.3294         12.6997       -0.0165637         144.737
0.593                   -2.00564        -173.041          -47.198         10.4441         -47.1978         10.4409       -0.0167645         144.662
0.594                   -2.05023        -173.689         -47.0678         8.18927         -47.0676         8.18603        -0.016968         144.586
0.595                   -2.09547        -174.337          -46.939          5.9385         -46.9388         5.93525       -0.0171742          144.51
0.596                   -2.14135        -174.987         -46.8114         3.69183         -46.8112         3.68858       -0.0173831         144.434
0.597                   -2.18787        -175.638         -46.6851          1.4493         -46.6849         1.44606       -0.0175948         144.357
0.598                   -2.23503        -176.291         -46.5599         -0.7891         -46.5598       -0.792314       -0.0178093         144.281
0.599                   -2.28285        -176.945         -46.4359        -3.02336         -46.4358        -3.02654       -0.0180266         144.204
0.6                     -2.33131          -177.6         -46.3129        -5.25351         -46.3128        -5.25665       -0.0182468         144.127
0.601                   -2.38042        -178.256          -46.191        -7.47958         -46.1909        -7.48268         -0.01847          144.05
0.602                   -2.43019        -178.915         -46.0699        -9.70165         -46.0698        -9.70468       -0.0186961         143.973
0.603                   -2.48061        -179.574         -45.9497        -11.9198         -45.9497        -11.9227       -0.0189253         143.895
0.604                    -2.5317         179.765         -45.8304        -14.1341         -45.8303         -14.137       -0.0191575         143.817
0.605                   -2.58345         179.102         -45.7118        -16.3446         -45.7117        -16.3474       -0.0193928         143.739
0.606                   -2.63588         178.438         -45.5939        -18.5515         -45.5939        -18.5542       -0.0196312         143.661
0.607                   -2.68898         177.772         -45.4767        -20.7549         -45.4766        -20.7576       -0.0198728         143.583
0.608                   -2.74276         177.105           -45.36         -22.955           -45.36        -22.9575       -0.0201177         143.505
0.609                   -2.79723         176.436          -45.244        -25.1518         -45.2439        -25.1543       -0.0203659         143.426
0.61                    -2.85239         175.765         -45.1283        -27.3456         -45.1283         -27.348       -0.0206174         143.347
0.611                   -2.90825         175.093         -45.0132        -29.5366         -45.0131        -29.5389       -0.0208723         143.268
0.612                   -2.96482         174.418         -44.8984        -31.7249         -44.8984        -31.7271       -0.0211306         143.189
0.613                   -3.02211         173.742          -44.784        -33.9108         -44.7839        -33.9128       -0.0213924         143.109
0.614                   -3.08013         173.064         -44.6699        -36.0943         -44.6698        -36.0963       -0.0216579         143.029
0.615                   -3.13888         172.384          -44.556        -38.2758          -44.556        -38.2777       -0.0219269         142.949
0.616                   -3.19839         171.702         -44.4424        -40.4554         -44.4423        -40.4572       -0.0221996         142.869
0.617                   -3.25865         171.017         -44.3289        -42.6335         -44.3289        -42.6351        -0.022476         142.789
0.618                   -3.31969         170.331         -44.2156        -44.8101         -44.2156        -44.8116       -0.0227563         142.708
0.619                   -3.38151         169.642         -44.1024        -46.9855         -44.1024        -46.9869       -0.0230404         142.627
0.62                    -3.44414          168.95         -43.9893        -49.1599         -43.9892        -49.1613       -0.0233284         142.546
0.621                   -3.50759         168.257         -43.8762        -51.3337         -43.8762        -51.3349       -0.0236205         142.464
0.622                   -3.57188         167.561         -43.7632         -53.507         -43.7631        -53.5081       -0.0239166         142.383
0.623                   -3.63702         166.862         -43.6502          -55.68         -43.6501         -55.681       -0.0242168         142.301
0.624                   -3.70304          166.16         -43.5371        -57.8529          -43.537        -57.8539       -0.0245213         142.219
0.625                   -3.76996         165.456          -43.424        -60.0261         -43.4239         -60.027       -0.0248301         142.137
0.626                    -3.8378         164.749         -43.3108        -62.1998         -43.3107        -62.2006       -0.0251432         142.054
0.627                   -3.90658         164.039         -43.1976        -64.3741         -43.1974        -64.3748       -0.0254608         141.971
0.628                   -3.97635         163.326         -43.0842        -66.5493         -43.0841        -66.5499       -0.0257829         141.888
0.629                   -4.04711          162.61         -42.9707        -68.7256         -42.9706        -68.7261       -0.0261097         141.805
