! TOUCHSTONE file generated by CST MICROWAVE STUDIO
! Date and time: Mon Sep 28 14:16:01 2020
! Project name: Scenario_1_Free_SPace.cst
! Parameters = {dx1=762.1; L_HA=400; MT=2.54; Rad_Dielectric=30; Rad_Lower=7.3; Rad_Upper=30; a_HA=580; a_WG=246; b_HA=500; b_WG=121; c_HA=0; c_WG=187; d_feed=85; h_feed=15; h_lower=18; h_upper=40}
! Header version: 2018
! Port assignment regex: !\s*Touchstone port\s*([0-9]+)\s*=\s*(CST MWS port|CST DS port)\s*([0-9]+|Zmin|Zmax)\s*\(\"(.*)\"\)(\s*mode\s*([0-9]+))?.*
! Touchstone port assignment:
! Touchstone port 1 = CST MWS port 1 ("")
! Touchstone port 2 = CST MWS port 2 ("")
# GHz S DB R 50
0.5                        -0.15        -122.663         -62.5288        -156.148         -62.5288        -156.148      -0.00680986         151.128
0.501                  -0.156008        -123.103         -62.2945        -158.422         -62.2946        -158.421      -0.00687477         151.063
0.502                  -0.162178        -123.546         -62.0642        -160.672         -62.0644         -160.67      -0.00693997         150.998
0.503                  -0.168511         -123.99         -61.8378          -162.9         -61.8381        -162.897      -0.00700543         150.932
0.504                  -0.175009        -124.436         -61.6151         -165.11         -61.6154        -165.106      -0.00707114         150.867
0.505                  -0.181676        -124.884         -61.3959        -167.303         -61.3964        -167.299      -0.00713709         150.801
0.506                  -0.188513        -125.334         -61.1803        -169.481         -61.1807        -169.476      -0.00720324         150.735
0.507                  -0.195523        -125.786         -60.9679        -171.646         -60.9684        -171.641      -0.00726959          150.67
0.508                  -0.202709         -126.24         -60.7587          -173.8         -60.7592        -173.795      -0.00733612         150.604
0.509                  -0.210073        -126.696         -60.5525        -175.944          -60.553        -175.939      -0.00740282         150.538
0.51                   -0.217618        -127.154         -60.3492         -178.08         -60.3497        -178.075      -0.00746967         150.472
0.511                  -0.225348        -127.614         -60.1487         179.792         -60.1492         179.797      -0.00753666         150.406
0.512                  -0.233264        -128.076         -59.9508         177.669         -59.9513         177.674      -0.00760378          150.34
0.513                  -0.241369         -128.54         -59.7554         175.551         -59.7559         175.556      -0.00767102         150.273
0.514                  -0.249668        -129.006         -59.5624         173.438         -59.5629         173.442      -0.00773838         150.207
0.515                  -0.258162        -129.474         -59.3717         171.327         -59.3722         171.331      -0.00780585         150.141
0.516                  -0.266855        -129.944         -59.1832         169.218         -59.1836         169.223      -0.00787342         150.074
0.517                  -0.275751        -130.416         -58.9967         167.111         -58.9971         167.115       -0.0079411         150.008
0.518                  -0.284852         -130.89         -58.8122         165.005         -58.8126         165.009       -0.0080089         149.941
0.519                  -0.294162        -131.367         -58.6296         162.899         -58.6299         162.902      -0.00807682         149.874
0.52                   -0.303686        -131.845         -58.4488         160.792          -58.449         160.796      -0.00814487         149.807
0.521                  -0.313425        -132.326         -58.2696         158.685         -58.2698         158.688      -0.00821307         149.741
0.522                  -0.323385        -132.809         -58.0921         156.576         -58.0922         156.579      -0.00828144         149.673
0.523                   -0.33357        -133.295          -57.916         154.465         -57.9161         154.468         -0.00835         149.606
0.524                  -0.343982        -133.782         -57.7414         152.353         -57.7415         152.355      -0.00841879         149.539
0.525                  -0.354627        -134.272         -57.5682         150.237         -57.5682          150.24      -0.00848783         149.472
0.526                  -0.365508        -134.764         -57.3963         148.119         -57.3962         148.122      -0.00855717         149.404
0.527                   -0.37663        -135.258         -57.2256         145.998         -57.2254             146      -0.00862686         149.337
0.528                  -0.387998        -135.755          -57.056         143.874         -57.0558         143.875      -0.00869694         149.269
0.529                  -0.399616        -136.253         -56.8876         141.746         -56.8874         141.747      -0.00876748         149.202
0.53                   -0.411488        -136.755         -56.7202         139.614         -56.7199         139.615      -0.00883854         149.134
0.531                  -0.423621        -137.258         -56.5538         137.478         -56.5535         137.479      -0.00891018         149.066
0.532                  -0.436019        -137.764         -56.3883         135.338          -56.388         135.339      -0.00898249         148.998
0.533                  -0.448687        -138.273         -56.2238         133.195         -56.2234         133.195      -0.00905553          148.93
0.534                   -0.46163        -138.784         -56.0601         131.047         -56.0597         131.047      -0.00912941         148.862
0.535                  -0.474855        -139.297         -55.8972         128.894         -55.8968         128.895       -0.0092042         148.793
0.536                  -0.488367        -139.813         -55.7351         126.737         -55.7346         126.738      -0.00928002         148.725
0.537                  -0.502172        -140.331         -55.5737         124.576         -55.5732         124.576      -0.00935694         148.656
0.538                  -0.516276        -140.852          -55.413         122.411         -55.4125         122.411      -0.00943509         148.588
0.539                  -0.530685        -141.375          -55.253          120.24         -55.2525         120.241      -0.00951456         148.519
0.54                   -0.545406        -141.901         -55.0937         118.066         -55.0931         118.066      -0.00959547          148.45
0.541                  -0.560446         -142.43         -54.9349         115.887         -54.9344         115.887      -0.00967792         148.381
0.542                  -0.575811        -142.961         -54.7768         113.704         -54.7762         113.704      -0.00976203         148.312
0.543                  -0.591509        -143.494         -54.6192         111.516         -54.6186         111.516      -0.00984792         148.243
0.544                  -0.607547         -144.03         -54.4622         109.324         -54.4616         109.324      -0.00993568         148.173
0.545                  -0.623932        -144.569         -54.3057         107.128         -54.3051         107.128       -0.0100254         148.104
0.546                  -0.640672        -145.111         -54.1497         104.928         -54.1491         104.928       -0.0101173         148.034
0.547                  -0.657776        -145.655         -53.9942         102.724         -53.9936         102.724       -0.0102113         147.965
0.548                  -0.675251        -146.202         -53.8393         100.516         -53.8387         100.515       -0.0103077         147.895
0.549                  -0.693105        -146.751         -53.6848         98.3035         -53.6842         98.3032       -0.0104064         147.825
0.55                   -0.711348        -147.304         -53.5308         96.0876         -53.5302         96.0873       -0.0105076         147.755
0.551                  -0.729989        -147.859         -53.3772          93.868         -53.3766         93.8677       -0.0106114         147.685
0.552                  -0.749036        -148.416         -53.2241         91.6448         -53.2236         91.6445       -0.0107179         147.614
0.553                  -0.768498        -148.977         -53.0715         89.4182          -53.071          89.418        -0.010827         147.544
0.554                  -0.788387         -149.54         -52.9194         87.1883         -52.9188         87.1881       -0.0109389         147.473
0.555                   -0.80871        -150.106         -52.7677         84.9552         -52.7672          84.955       -0.0110536         147.403
0.556                  -0.829479        -150.674         -52.6164          82.719         -52.6159         82.7188       -0.0111712         147.332
0.557                  -0.850703        -151.246         -52.4656         80.4798         -52.4652         80.4796       -0.0112917         147.261
0.558                  -0.872393         -151.82         -52.3153         78.2378         -52.3148         78.2377       -0.0114151          147.19
0.559                  -0.894559        -152.397         -52.1654         75.9932          -52.165         75.9931       -0.0115415         147.119
0.56                   -0.917213        -152.976          -52.016          73.746         -52.0156         73.7459       -0.0116709         147.047
0.561                  -0.940366        -153.558         -51.8671         71.4963         -51.8667         71.4963       -0.0118032         146.976
0.562                  -0.964028        -154.143         -51.7186         69.2444         -51.7182         69.2444       -0.0119385         146.904
0.563                   -0.98821        -154.731         -51.5706         66.9903         -51.5703         66.9904       -0.0120768         146.833
0.564                   -1.01293        -155.322         -51.4231         64.7342         -51.4228         64.7343        -0.012218         146.761
0.565                   -1.03818        -155.915         -51.2761         62.4763         -51.2758         62.4764       -0.0123622         146.689
0.566                     -1.064         -156.51         -51.1295         60.2166         -51.1293         60.2167       -0.0125093         146.617
0.567                   -1.09038        -157.109         -50.9835         57.9552         -50.9833         57.9554       -0.0126592         146.545
0.568                   -1.11734         -157.71          -50.838         55.6924         -50.8377         55.6926       -0.0128121         146.472
0.569                   -1.14489        -158.313         -50.6929         53.4283         -50.6927         53.4285       -0.0129677           146.4
0.57                    -1.17304        -158.919         -50.5484         51.1629         -50.5483         51.1631       -0.0131261         146.327
0.571                    -1.2018        -159.527         -50.4044         48.8964         -50.4043         48.8967       -0.0132873         146.255
0.572                   -1.23118        -160.138          -50.261         46.6289         -50.2608         46.6292       -0.0134512         146.182
0.573                    -1.2612        -160.751         -50.1181         44.3606         -50.1179         44.3609       -0.0136178         146.109
0.574                   -1.29187        -161.367         -49.9757         42.0915         -49.9756         42.0919       -0.0137869         146.035
0.575                   -1.32319        -161.985         -49.8338         39.8219         -49.8337         39.8223       -0.0139587         145.962
0.576                   -1.35517        -162.605         -49.6925         37.5517         -49.6925         37.5521        -0.014133         145.889
0.577                   -1.38782        -163.227         -49.5518         35.2811         -49.5517         35.2815       -0.0143098         145.815
0.578                   -1.42116        -163.851         -49.4116         33.0102         -49.4116         33.0106       -0.0144891         145.741
0.579                   -1.45519        -164.477         -49.2719         30.7391         -49.2719         30.7396       -0.0146708         145.668
0.58                    -1.48991        -165.105         -49.1329          28.468         -49.1329         28.4684       -0.0148549         145.594
0.581                   -1.52534        -165.735         -48.9944         26.1968         -48.9944         26.1973       -0.0150413         145.519
0.582                   -1.56147        -166.367         -48.8564         23.9257         -48.8565         23.9262         -0.01523         145.445
0.583                   -1.59832            -167         -48.7191         21.6548         -48.7191         21.6553       -0.0154211         145.371
0.584                   -1.63588        -167.635         -48.5823         19.3842         -48.5823         19.3846       -0.0156144         145.296
0.585                   -1.67416        -168.272          -48.446         17.1139         -48.4461         17.1143       -0.0158099         145.221
0.586                   -1.71315         -168.91         -48.3104          14.844         -48.3104         14.8445       -0.0160077         145.146
0.587                   -1.75287        -169.549         -48.1753         12.5746         -48.1754          12.575       -0.0162076         145.071
0.588                    -1.7933        -170.189         -48.0407         10.3057         -48.0408         10.3062       -0.0164097         144.996
0.589                   -1.83444        -170.831         -47.9068         8.03748         -47.9069         8.03792        -0.016614          144.92
0.59                    -1.87629        -171.474         -47.7734          5.7699         -47.7735         5.77032       -0.0168205         144.845
0.591                   -1.91884        -172.118         -47.6405         3.50304         -47.6406         3.50344        -0.017029         144.769
0.592                   -1.96209        -172.762         -47.5082         1.23693         -47.5083         1.23731       -0.0172398         144.693
0.593                   -2.00603        -173.408         -47.3765        -1.02837         -47.3766        -1.02801       -0.0174526         144.617
0.594                   -2.05065        -174.054         -47.2453        -3.29282         -47.2454        -3.29249       -0.0176676         144.541
0.595                   -2.09593        -174.702         -47.1147         -5.5564         -47.1147         -5.5561       -0.0178847         144.464
0.596                   -2.14187         -175.35         -46.9845        -7.81908         -46.9846        -7.81881        -0.018104         144.388
0.597                   -2.18845        -175.998          -46.855        -10.0808          -46.855        -10.0806       -0.0183254         144.311
0.598                   -2.23567        -176.648         -46.7259        -12.3416          -46.726        -12.3414        -0.018549         144.234
0.599                    -2.2835        -177.298         -46.5973        -14.6015         -46.5974        -14.6013       -0.0187748         144.157
0.6                     -2.33194         -177.95         -46.4693        -16.8604         -46.4693        -16.8602       -0.0190028         144.079
0.601                   -2.38096        -178.602         -46.3417        -19.1183         -46.3418        -19.1182        -0.019233         144.002
0.602                   -2.43057        -179.255         -46.2146        -21.3752         -46.2147        -21.3752       -0.0194654         143.924
0.603                   -2.48074        -179.909         -46.0881        -23.6312         -46.0881        -23.6312       -0.0197001         143.846
0.604                   -2.53146         179.436         -45.9619        -25.8862          -45.962        -25.8862       -0.0199372         143.768
0.605                   -2.58272          178.78         -45.8363        -28.1403         -45.8363        -28.1403       -0.0201765         143.689
0.606                   -2.63451         178.123         -45.7111        -30.3934         -45.7111        -30.3935       -0.0204183         143.611
0.607                   -2.68683         177.464         -45.5863        -32.6456         -45.5863        -32.6458       -0.0206625         143.532
0.608                   -2.73967         176.803          -45.462        -34.8969          -45.462        -34.8972       -0.0209091         143.453
0.609                   -2.79302         176.141         -45.3381        -37.1474         -45.3381        -37.1477       -0.0211583         143.374
0.61                    -2.84689         175.476         -45.2146        -39.3971         -45.2146        -39.3974       -0.0214101         143.294
0.611                   -2.90128          174.81         -45.0915         -41.646         -45.0915        -41.6463       -0.0216645         143.215
0.612                   -2.95619         174.141         -44.9688        -43.8941         -44.9688        -43.8945       -0.0219216         143.135
0.613                   -3.01163         173.469         -44.8465        -46.1416         -44.8464         -46.142       -0.0221814         143.055
0.614                   -3.06762         172.795         -44.7246        -48.3883         -44.7245        -48.3888       -0.0224441         142.974
0.615                   -3.12416         172.118          -44.603        -50.6345         -44.6029        -50.6351       -0.0227097         142.894
0.616                   -3.18129         171.437         -44.4817        -52.8802         -44.4816        -52.8808       -0.0229783         142.813
0.617                   -3.23902         170.753         -44.3609        -55.1253         -44.3608        -55.1259         -0.02325         142.732
0.618                   -3.29738         170.065         -44.2403          -57.37         -44.2402        -57.3707       -0.0235248         142.651
0.619                    -3.3564         169.373         -44.1201        -59.6144         -44.1199        -59.6151       -0.0238029         142.569
0.62                    -3.41611         168.677         -44.0001        -61.8584              -44        -61.8591       -0.0240844         142.487
0.621                   -3.47656         167.977         -43.8805        -64.1022         -43.8804         -64.103       -0.0243693         142.405
0.622                   -3.53779         167.272         -43.7612        -66.3458         -43.7611        -66.3466       -0.0246578         142.323
0.623                   -3.59984         166.562         -43.6422        -68.5893          -43.642        -68.5901       -0.0249501          142.24
0.624                   -3.66276         165.848         -43.5234        -70.8327         -43.5233        -70.8336       -0.0252462         142.158
0.625                    -3.7266         165.128          -43.405        -73.0762         -43.4048        -73.0771       -0.0255462         142.074
0.626                   -3.79142         164.403         -43.2868        -75.3198         -43.2866        -75.3208       -0.0258504         141.991
0.627                   -3.85727         163.673         -43.1688        -77.5636         -43.1686        -77.5646       -0.0261588         141.907
0.628                   -3.92422         162.937         -43.0511        -79.8076         -43.0509        -79.8086       -0.0264717         141.824
0.629                   -3.99233         162.196         -42.9337         -82.052         -42.9335         -82.053       -0.0267891         141.739
