! TOUCHSTONE file generated by CST MICROWAVE STUDIO
! Date and time: Mon Sep 28 14:16:16 2020
! Project name: Scenario_1_Free_SPace.cst
! Parameters = {dx1=780; L_HA=400; MT=2.54; Rad_Dielectric=30; Rad_Lower=7.3; Rad_Upper=30; a_HA=580; a_WG=246; b_HA=500; b_WG=121; c_HA=0; c_WG=187; d_feed=85; h_feed=15; h_lower=18; h_upper=40}
! Header version: 2018
! Port assignment regex: !\s*Touchstone port\s*([0-9]+)\s*=\s*(CST MWS port|CST DS port)\s*([0-9]+|Zmin|Zmax)\s*\(\"(.*)\"\)(\s*mode\s*([0-9]+))?.*
! Touchstone port assignment:
! Touchstone port 1 = CST MWS port 1 ("")
! Touchstone port 2 = CST MWS port 2 ("")
# GHz S DB R 50
0.5                    -0.150807        -122.681         -62.5973        -166.606         -62.5973        -166.606      -0.00678166         151.145
0.501                  -0.156638        -123.119         -62.4545        -168.842         -62.4544        -168.843      -0.00682367          151.08
0.502                  -0.162621         -123.56         -62.3086        -171.075         -62.3084        -171.077      -0.00686691         151.014
0.503                  -0.168759        -124.003         -62.1598        -173.305         -62.1595        -173.307      -0.00691138         150.949
0.504                  -0.175055        -124.447         -62.0082        -175.531         -62.0078        -175.533      -0.00695709         150.883
0.505                  -0.181511        -124.894         -61.8539        -177.752         -61.8534        -177.755      -0.00700406         150.817
0.506                  -0.188131        -125.342         -61.6971        -179.969         -61.6964        -179.973      -0.00705227         150.752
0.507                  -0.194918        -125.793         -61.5378         177.818         -61.5371         177.814      -0.00710175         150.686
0.508                  -0.201875        -126.246         -61.3762         175.609         -61.3754         175.605       -0.0071525          150.62
0.509                  -0.209005          -126.7         -61.2125         173.405         -61.2115         173.401      -0.00720452         150.554
0.51                   -0.216312        -127.157         -61.0466         171.206         -61.0456         171.201      -0.00725782         150.488
0.511                  -0.223799        -127.616         -60.8788         169.011         -60.8778         169.006      -0.00731241         150.422
0.512                   -0.23147        -128.078         -60.7092          166.82         -60.7081         166.815       -0.0073683         150.355
0.513                  -0.239329        -128.541         -60.5379         164.634         -60.5367         164.628       -0.0074255         150.289
0.514                   -0.24738        -129.006         -60.3649         162.452         -60.3637         162.446        -0.007484         150.223
0.515                  -0.255626        -129.474         -60.1905         160.273         -60.1892         160.267      -0.00754383         150.156
0.516                  -0.264071        -129.944         -60.0147         158.099         -60.0133         158.093      -0.00760498          150.09
0.517                   -0.27272        -130.416         -59.8376         155.927         -59.8362         155.922      -0.00766747         150.023
0.518                  -0.281577         -130.89         -59.6593         153.759         -59.6578         153.754       -0.0077313         149.956
0.519                  -0.290647        -131.367         -59.4799         151.595         -59.4784         151.589      -0.00779649         149.889
0.52                   -0.299933        -131.846         -59.2995         149.432         -59.2981         149.427      -0.00786303         149.823
0.521                  -0.309441        -132.327         -59.1183         147.273         -59.1168         147.267      -0.00793095         149.756
0.522                  -0.319175        -132.811         -58.9362         145.115         -58.9347         145.109      -0.00800025         149.688
0.523                   -0.32914        -133.297         -58.7534         142.959          -58.752         142.954      -0.00807093         149.621
0.524                  -0.339342        -133.785         -58.5701         140.805         -58.5686           140.8      -0.00814301         149.554
0.525                  -0.349785        -134.276         -58.3861         138.652         -58.3846         138.647       -0.0082165         149.487
0.526                  -0.360475        -134.769         -58.2017           136.5         -58.2003         136.495       -0.0082914         149.419
0.527                  -0.371417        -135.264         -58.0169         134.349         -58.0155         134.343      -0.00836773         149.352
0.528                  -0.382617        -135.762         -57.8319         132.197         -57.8304         132.192       -0.0084455         149.284
0.529                  -0.394081        -136.263         -57.6465         130.046         -57.6451         130.041      -0.00852471         149.216
0.53                   -0.405815        -136.765          -57.461         127.894         -57.4597          127.89      -0.00860538         149.149
0.531                  -0.417824        -137.271         -57.2755         125.742         -57.2741         125.738      -0.00868752         149.081
0.532                  -0.430115        -137.779         -57.0899         123.589         -57.0885         123.584      -0.00877114         149.013
0.533                  -0.442695        -138.289         -56.9043         121.434          -56.903          121.43      -0.00885625         148.945
0.534                  -0.455569        -138.802         -56.7188         119.278         -56.7176         119.274      -0.00894286         148.876
0.535                  -0.468746        -139.317         -56.5335          117.12         -56.5323         117.116      -0.00903099         148.808
0.536                  -0.482231        -139.835         -56.3485          114.96         -56.3473         114.956      -0.00912064          148.74
0.537                  -0.496031        -140.355         -56.1637         112.797         -56.1625         112.794      -0.00921183         148.671
0.538                  -0.510155        -140.879         -55.9792         110.632         -55.9781         110.629      -0.00930457         148.603
0.539                  -0.524609        -141.404         -55.7952         108.464         -55.7941         108.461      -0.00939888         148.534
0.54                   -0.539401        -141.932         -55.6115         106.293         -55.6105          106.29      -0.00949477         148.465
0.541                  -0.554538        -142.463         -55.4284         104.118         -55.4275         104.115      -0.00959224         148.396
0.542                  -0.570028        -142.997         -55.2459          101.94          -55.245         101.937      -0.00969133         148.327
0.543                  -0.585881        -143.533         -55.0639         99.7583         -55.0631         99.7558      -0.00979204         148.258
0.544                  -0.602102        -144.072         -54.8826         97.5726         -54.8818         97.5703      -0.00989438         148.189
0.545                  -0.618702        -144.613          -54.702         95.3829         -54.7013         95.3807      -0.00999837         148.119
0.546                  -0.635689        -145.157         -54.5221          93.189         -54.5214          93.187        -0.010104          148.05
0.547                   -0.65307        -145.704         -54.3431         90.9908         -54.3424          90.989       -0.0102114          147.98
0.548                  -0.670855        -146.253         -54.1648         88.7882         -54.1642         88.7865       -0.0103204         147.911
0.549                  -0.689053        -146.805         -53.9874         86.5811         -53.9869         86.5796       -0.0104312         147.841
0.55                   -0.707672        -147.359          -53.811         84.3694         -53.8104         84.3681       -0.0105437         147.771
0.551                  -0.726722        -147.916         -53.6354         82.1531          -53.635         82.1519       -0.0106579         147.701
0.552                  -0.746212        -148.476         -53.4609         79.9321         -53.4605         79.9311        -0.010774         147.631
0.553                  -0.766151        -149.038         -53.2874         77.7065          -53.287         77.7056       -0.0108918         147.561
0.554                  -0.786549        -149.603         -53.1149         75.4761         -53.1146         75.4754       -0.0110114          147.49
0.555                  -0.807413        -150.171         -52.9435         73.2411         -52.9433         73.2405       -0.0111329          147.42
0.556                  -0.828755        -150.741         -52.7733         71.0013          -52.773         71.0009       -0.0112562         147.349
0.557                  -0.850583        -151.313         -52.6042          68.757          -52.604         68.7567       -0.0113814         147.279
0.558                  -0.872906        -151.888         -52.4362         66.5081         -52.4361          66.508       -0.0115085         147.208
0.559                  -0.895733        -152.466         -52.2695         64.2547         -52.2694         64.2547       -0.0116375         147.137
0.56                   -0.919074        -153.046          -52.104         61.9969         -52.1039          61.997       -0.0117684         147.066
0.561                  -0.942938        -153.628         -51.9397         59.7348         -51.9396         59.7351       -0.0119014         146.995
0.562                  -0.967333        -154.213         -51.7767         57.4685         -51.7766         57.4689       -0.0120363         146.923
0.563                  -0.992268          -154.8         -51.6149         55.1981         -51.6149         55.1986       -0.0121732         146.852
0.564                   -1.01775         -155.39         -51.4545         52.9238         -51.4545         52.9244       -0.0123122          146.78
0.565                   -1.04379        -155.982         -51.2954         50.6457         -51.2954         50.6464       -0.0124533         146.709
0.566                    -1.0704        -156.576         -51.1375          48.364         -51.1376         48.3648       -0.0125964         146.637
0.567                   -1.09757        -157.172          -50.981         46.0788         -50.9812         46.0797       -0.0127417         146.565
0.568                   -1.12533         -157.77         -50.8259         43.7904          -50.826         43.7914       -0.0128892         146.493
0.569                   -1.15367        -158.371         -50.6721         41.4989         -50.6722         41.4999       -0.0130388          146.42
0.57                     -1.1826        -158.974         -50.5196         39.2044         -50.5198         39.2056       -0.0131906         146.348
0.571                   -1.21213        -159.578         -50.3685         36.9073         -50.3687         36.9085       -0.0133447         146.275
0.572                   -1.24226        -160.185         -50.2187         34.6077         -50.2189          34.609       -0.0135011         146.203
0.573                     -1.273        -160.793         -50.0702         32.3058         -50.0704         32.3072       -0.0136598          146.13
0.574                   -1.30435        -161.403         -49.9231         30.0019         -49.9233         30.0032       -0.0138208         146.057
0.575                   -1.33631        -162.015         -49.7772          27.696         -49.7775         27.6975       -0.0139841         145.984
0.576                   -1.36889        -162.629         -49.6327         25.3886          -49.633           25.39       -0.0141499         145.911
0.577                   -1.40208        -163.244         -49.4895         23.0797         -49.4897         23.0812       -0.0143181         145.837
0.578                   -1.43589        -163.861         -49.3475         20.7696         -49.3478         20.7711       -0.0144887         145.764
0.579                   -1.47032         -164.48         -49.2068         18.4585         -49.2071           18.46       -0.0146618          145.69
0.58                    -1.50537          -165.1         -49.0674         16.1466         -49.0676         16.1481       -0.0148374         145.616
0.581                   -1.54104        -165.721         -48.9291         13.8342         -48.9294         13.8357       -0.0150156         145.542
0.582                   -1.57731        -166.344         -48.7921         11.5213         -48.7923         11.5228       -0.0151963         145.468
0.583                    -1.6142        -166.968         -48.6562         9.20827         -48.6564         9.20976       -0.0153795         145.394
0.584                   -1.65169        -167.594         -48.5214         6.89525         -48.5217         6.89671       -0.0155654         145.319
0.585                   -1.68978         -168.22         -48.3878         4.58241          -48.388         4.58385       -0.0157538         145.245
0.586                   -1.72846        -168.848         -48.2553         2.26994         -48.2555         2.27135       -0.0159449          145.17
0.587                   -1.76773        -169.477         -48.1238       -0.041985          -48.124      -0.0406261       -0.0161386         145.095
0.588                   -1.80758        -170.108         -47.9933        -2.35322         -47.9935         -2.3519        -0.016335          145.02
0.589                   -1.84801        -170.739         -47.8638         -4.6636          -47.864        -4.66234        -0.016534         144.944
0.59                      -1.889        -171.372         -47.7353        -6.97298         -47.7355        -6.97178       -0.0167356         144.869
0.591                   -1.93054        -172.006         -47.6077        -9.28125         -47.6079        -9.28011       -0.0169399         144.793
0.592                   -1.97263        -172.641         -47.4809        -11.5883         -47.4811        -11.5872       -0.0171469         144.717
0.593                   -2.01526        -173.278         -47.3551        -13.8939         -47.3552        -13.8929       -0.0173565         144.641
0.594                   -2.05842        -173.915           -47.23        -16.1981         -47.2302        -16.1972       -0.0175688         144.565
0.595                    -2.1021        -174.555         -47.1057        -18.5007         -47.1059        -18.4999       -0.0177837         144.489
0.596                    -2.1463        -175.195         -46.9822        -20.8017         -46.9823         -20.801       -0.0180012         144.412
0.597                     -2.191        -175.837         -46.8593         -23.101         -46.8595        -23.1004       -0.0182213         144.335
0.598                    -2.2362        -176.481         -46.7372        -25.3986         -46.7373         -25.398       -0.0184441         144.258
0.599                   -2.28189        -177.126         -46.6156        -27.6943         -46.6157        -27.6938       -0.0186694         144.181
0.6                     -2.32807        -177.773         -46.4947        -29.9882         -46.4948        -29.9878       -0.0188973         144.104
0.601                   -2.37474        -178.423         -46.3743        -32.2802         -46.3744        -32.2799       -0.0191278         144.026
0.602                    -2.4219        -179.074         -46.2544        -34.5703         -46.2545        -34.5701       -0.0193609         143.948
0.603                   -2.46954        -179.727         -46.1351        -36.8586         -46.1351        -36.8585       -0.0195966         143.871
0.604                   -2.51767         179.617         -46.0161        -39.1449         -46.0162        -39.1449       -0.0198348         143.792
0.605                   -2.56629         178.958         -45.8977        -41.4294         -45.8977        -41.4295       -0.0200757         143.714
0.606                   -2.61541         178.297         -45.7796         -43.712         -45.7796        -43.7122       -0.0203191         143.635
0.607                   -2.66505         177.633         -45.6618        -45.9928         -45.6619        -45.9931       -0.0205651         143.557
0.608                    -2.7152         176.966         -45.5444        -48.2718         -45.5444        -48.2722       -0.0208137         143.478
0.609                    -2.7659         176.295         -45.4273        -50.5492         -45.4273        -50.5496       -0.0210651         143.398
0.61                    -2.81715         175.621         -45.3105        -52.8248         -45.3105        -52.8253       -0.0213191         143.319
0.611                   -2.86898         174.944         -45.1939        -55.0988         -45.1939        -55.0995       -0.0215758         143.239
0.612                   -2.92141         174.262         -45.0775        -57.3714         -45.0775        -57.3721       -0.0218353         143.159
0.613                   -2.97447         173.576         -44.9613        -59.6424         -44.9613        -59.6432       -0.0220976         143.079
0.614                   -3.02819         172.886         -44.8453        -61.9121         -44.8453         -61.913       -0.0223629         142.999
0.615                    -3.0826         172.192         -44.7295        -64.1806         -44.7295        -64.1815        -0.022631         142.918
0.616                   -3.13774         171.493         -44.6138        -66.4479         -44.6138        -66.4489       -0.0229022         142.838
0.617                   -3.19365         170.789         -44.4982        -68.7141         -44.4982        -68.7151       -0.0231765         142.757
0.618                   -3.25037          170.08         -44.3827        -70.9793         -44.3827        -70.9804       -0.0234539         142.675
0.619                   -3.30795         169.366         -44.2673        -73.2437         -44.2672        -73.2449       -0.0237347         142.594
0.62                    -3.36643         168.647         -44.1519        -75.5074         -44.1519        -75.5086       -0.0240187         142.512
0.621                   -3.42588         167.923         -44.0366        -77.7704         -44.0366        -77.7716       -0.0243063          142.43
0.622                   -3.48633         167.193         -43.9214        -80.0329         -43.9213        -80.0342       -0.0245974         142.348
0.623                   -3.54786         166.457         -43.8061        -82.2951         -43.8061        -82.2964       -0.0248921         142.265
0.624                   -3.61051         165.716         -43.6909         -84.557         -43.6909        -84.5583       -0.0251907         142.182
0.625                   -3.67435         164.969         -43.5758        -86.8187         -43.5758        -86.8201       -0.0254931         142.099
0.626                   -3.73944         164.217         -43.4606        -89.0805         -43.4606        -89.0819       -0.0257996         142.016
0.627                   -3.80585         163.459         -43.3455        -91.3424         -43.3455        -91.3438       -0.0261102         141.932
0.628                   -3.87365         162.695         -43.2304        -93.6045         -43.2304        -93.6059       -0.0264252         141.849
0.629                    -3.9429         161.925         -43.1152        -95.8669         -43.1152        -95.8683       -0.0267445         141.764
