! TOUCHSTONE file generated by CST MICROWAVE STUDIO
! Date and time: Mon Sep 28 14:16:26 2020
! Project name: Scenario_1_Free_SPace.cst
! Parameters = {dx1=796.8; L_HA=400; MT=2.54; Rad_Dielectric=30; Rad_Lower=7.3; Rad_Upper=30; a_HA=580; a_WG=246; b_HA=500; b_WG=121; c_HA=0; c_WG=187; d_feed=85; h_feed=15; h_lower=18; h_upper=40}
! Header version: 2018
! Port assignment regex: !\s*Touchstone port\s*([0-9]+)\s*=\s*(CST MWS port|CST DS port)\s*([0-9]+|Zmin|Zmax)\s*\(\"(.*)\"\)(\s*mode\s*([0-9]+))?.*
! Touchstone port assignment:
! Touchstone port 1 = CST MWS port 1 ("")
! Touchstone port 2 = CST MWS port 2 ("")
# GHz S DB R 50
0.5                    -0.150947         -122.67         -62.6785        -176.362         -62.6785        -176.362      -0.00675855         151.135
0.501                  -0.156721        -123.108         -62.4781        -178.721         -62.4778        -178.717      -0.00681503          151.07
0.502                  -0.162641        -123.548         -62.2782         178.944         -62.2778          178.95      -0.00687191         151.004
0.503                  -0.168709         -123.99         -62.0789         176.631         -62.0783         176.639      -0.00692921         150.939
0.504                  -0.174929        -124.434         -61.8804         174.337         -61.8796         174.348      -0.00698693         150.873
0.505                  -0.181305         -124.88         -61.6826         172.062         -61.6817         172.075      -0.00704508         150.808
0.506                  -0.187839        -125.328         -61.4857         169.803         -61.4846         169.818      -0.00710367         150.742
0.507                  -0.194536        -125.778         -61.2896          167.56         -61.2885         167.577      -0.00716271         150.676
0.508                  -0.201398        -126.231         -61.0945         165.332         -61.0933          165.35      -0.00722221          150.61
0.509                  -0.208431        -126.685         -60.9003         163.116          -60.899         163.135      -0.00728219         150.544
0.51                   -0.215637        -127.142          -60.707         160.912         -60.7057         160.932      -0.00734265         150.478
0.511                  -0.223021        -127.601         -60.5148         158.719         -60.5134         158.739      -0.00740361         150.412
0.512                  -0.230587        -128.062         -60.3236         156.534         -60.3222         156.556       -0.0074651         150.346
0.513                   -0.23834        -128.526         -60.1333         154.359         -60.1319         154.381      -0.00752712          150.28
0.514                  -0.246283        -128.991         -59.9441          152.19         -59.9426         152.213       -0.0075897         150.214
0.515                  -0.254422        -129.459         -59.7558         150.028         -59.7543         150.051      -0.00765287         150.147
0.516                  -0.262761         -129.93         -59.5686         147.872         -59.5671         147.895      -0.00771664         150.081
0.517                  -0.271304        -130.402         -59.3823          145.72         -59.3808         145.743      -0.00778104         150.014
0.518                  -0.280058        -130.877          -59.197         143.572         -59.1954         143.595      -0.00784611         149.947
0.519                  -0.289027        -131.354         -59.0126         141.428          -59.011          141.45      -0.00791186         149.881
0.52                   -0.298216        -131.834         -58.8292         139.286         -58.8276         139.308      -0.00797834         149.814
0.521                   -0.30763        -132.316         -58.6466         137.145         -58.6451         137.167      -0.00804558         149.747
0.522                  -0.317276          -132.8          -58.465         135.006         -58.4634         135.028      -0.00811361          149.68
0.523                   -0.32716        -133.287         -58.2843         132.868         -58.2827         132.889      -0.00818248         149.613
0.524                  -0.337286        -133.776         -58.1044         130.729         -58.1029          130.75      -0.00825224         149.545
0.525                  -0.347661        -134.268         -57.9254          128.59         -57.9238          128.61      -0.00832292         149.478
0.526                  -0.358292        -134.762         -57.7472          126.45         -57.7457          126.47      -0.00839458         149.411
0.527                  -0.369184        -135.259         -57.5698         124.309         -57.5683         124.327      -0.00846726         149.343
0.528                  -0.380345        -135.758         -57.3932         122.165         -57.3917         122.184      -0.00854103         149.275
0.529                  -0.391781        -136.259         -57.2175          120.02          -57.216         120.037      -0.00861595         149.208
0.53                   -0.403498        -136.764         -57.0424         117.872          -57.041         117.888      -0.00869206          149.14
0.531                  -0.415504         -137.27         -56.8682          115.72         -56.8667         115.736      -0.00876944         149.072
0.532                  -0.427807         -137.78         -56.6946         113.566         -56.6932         113.581      -0.00884814         149.004
0.533                  -0.440413        -138.292         -56.5218         111.408         -56.5204         111.422      -0.00892825         148.936
0.534                   -0.45333        -138.806         -56.3498         109.246         -56.3484          109.26      -0.00900983         148.867
0.535                  -0.466565        -139.323         -56.1784          107.08          -56.177         107.093      -0.00909295         148.799
0.536                  -0.480127        -139.843         -56.0077         104.909         -56.0064         104.922      -0.00917769         148.731
0.537                  -0.494023        -140.365         -55.8377         102.734         -55.8364         102.746      -0.00926412         148.662
0.538                  -0.508262         -140.89         -55.6684         100.554         -55.6671         100.566      -0.00935233         148.593
0.539                  -0.522852        -141.417         -55.4998         98.3696         -55.4985         98.3804      -0.00944239         148.525
0.54                   -0.537801        -141.947         -55.3318         96.1798         -55.3306           96.19      -0.00953437         148.456
0.541                  -0.553118         -142.48         -55.1645          93.985         -55.1633         93.9945      -0.00962836         148.387
0.542                   -0.56881        -143.015         -54.9979         91.7848         -54.9967         91.7938      -0.00972444         148.318
0.543                  -0.584888        -143.552         -54.8319         89.5793         -54.8308         89.5877      -0.00982267         148.248
0.544                  -0.601359        -144.093         -54.6666         87.3683         -54.6655         87.3762      -0.00992314         148.179
0.545                  -0.618232        -144.636          -54.502         85.1519         -54.5009         85.1592       -0.0100259          148.11
0.546                  -0.635516        -145.181          -54.338         82.9299          -54.337         82.9367       -0.0101311          148.04
0.547                  -0.653221        -145.729         -54.1747         80.7023         -54.1738         80.7087       -0.0102387          147.97
0.548                  -0.671354         -146.28         -54.0121         78.4692         -54.0112         78.4751       -0.0103487         147.901
0.549                  -0.689925        -146.833         -53.8501         76.2306         -53.8493          76.236       -0.0104614         147.831
0.55                   -0.708942        -147.389         -53.6889         73.9864          -53.688         73.9914       -0.0105766         147.761
0.551                  -0.728415        -147.947         -53.5283         71.7367         -53.5275         71.7413       -0.0106945         147.691
0.552                  -0.748351        -148.507         -53.3684         69.4815         -53.3677         69.4858        -0.010815          147.62
0.553                   -0.76876         -149.07         -53.2093         67.2209         -53.2086         67.2249       -0.0109382          147.55
0.554                  -0.789649        -149.636         -53.0508         64.9551         -53.0501         64.9587       -0.0110642          147.48
0.555                  -0.811027        -150.203         -52.8931          62.684         -52.8924         62.6873       -0.0111928         147.409
0.556                  -0.832902        -150.773          -52.736         60.4078         -52.7355         60.4109       -0.0113242         147.338
0.557                  -0.855281        -151.346         -52.5798         58.1265         -52.5792         58.1294       -0.0114583         147.267
0.558                  -0.878171         -151.92         -52.4243         55.8404         -52.4238          55.843       -0.0115951         147.196
0.559                   -0.90158        -152.497         -52.2695         53.5495          -52.269         53.5519       -0.0117345         147.125
0.56                   -0.925514        -153.076         -52.1155          51.254         -52.1151         51.2562       -0.0118766         147.054
0.561                  -0.949979        -153.657         -51.9623          48.954         -51.9619          48.956       -0.0120213         146.983
0.562                  -0.974981         -154.24         -51.8099         46.6497         -51.8095         46.6516       -0.0121685         146.911
0.563                   -1.00053        -154.825         -51.6582         44.3412         -51.6579          44.343       -0.0123182          146.84
0.564                   -1.02662        -155.413         -51.5074         42.0287         -51.5071         42.0304       -0.0124703         146.768
0.565                   -1.05326        -156.002         -51.3574         39.7125         -51.3572         39.7141       -0.0126247         146.696
0.566                   -1.08045        -156.593         -51.2082         37.3926          -51.208         37.3942       -0.0127814         146.624
0.567                    -1.1082        -157.185         -51.0599         35.0694         -51.0597         35.0708       -0.0129403         146.552
0.568                   -1.13652         -157.78         -50.9124         32.7429         -50.9122         32.7443       -0.0131014          146.48
0.569                   -1.16539        -158.376         -50.7657         30.4134         -50.7656         30.4148       -0.0132644         146.408
0.57                    -1.19482        -158.974         -50.6199         28.0811         -50.6198         28.0825       -0.0134294         146.335
0.571                   -1.22481        -159.573         -50.4749         25.7462         -50.4749         25.7476       -0.0135963         146.263
0.572                   -1.25536        -160.174         -50.3308         23.4089         -50.3308         23.4103        -0.013765          146.19
0.573                   -1.28646        -160.776         -50.1876         21.0695         -50.1876         21.0708       -0.0139354         146.117
0.574                   -1.31813         -161.38         -50.0453         18.7281         -50.0453         18.7295       -0.0141074         146.044
0.575                   -1.35034        -161.985         -49.9038          16.385         -49.9038         16.3863        -0.014281         145.971
0.576                    -1.3831        -162.592         -49.7632         14.0403         -49.7632         14.0417        -0.014456         145.898
0.577                    -1.4164          -163.2         -49.6234         11.6944         -49.6235         11.6958       -0.0146325         145.824
0.578                   -1.45023        -163.809         -49.4845         9.34731         -49.4846         9.34875       -0.0148104         145.751
0.579                    -1.4846         -164.42         -49.3465          6.9994         -49.3466         7.00085       -0.0149896         145.677
0.58                    -1.51949        -165.032         -49.2094         4.65081         -49.2095         4.65228       -0.0151701         145.603
0.581                   -1.55489        -165.645         -49.0731         2.30176         -49.0732         2.30325       -0.0153519         145.529
0.582                    -1.5908        -166.259         -48.9376       -0.047559         -48.9377      -0.0460444       -0.0155348         145.455
0.583                    -1.6272        -166.875          -48.803        -2.39694         -48.8031        -2.39541        -0.015719         145.381
0.584                    -1.6641        -167.491         -48.6692        -4.74619         -48.6693        -4.74465       -0.0159043         145.306
0.585                   -1.70148         -168.11         -48.5363        -7.09514         -48.5364        -7.09358       -0.0160907         145.232
0.586                   -1.73933        -168.729         -48.4041        -9.44359         -48.4042        -9.44203       -0.0162784         145.157
0.587                   -1.77764         -169.35         -48.2728        -11.7914         -48.2729        -11.7898       -0.0164672         145.082
0.588                   -1.81641        -169.972         -48.1422        -14.1383         -48.1424        -14.1368       -0.0166571         145.007
0.589                   -1.85562        -170.596         -48.0125        -16.4843         -48.0126        -16.4828       -0.0168483         144.932
0.59                    -1.89528        -171.222         -47.8834        -18.8292         -47.8835        -18.8276       -0.0170407         144.856
0.591                   -1.93537        -171.849         -47.7552        -21.1727         -47.7553        -21.1712       -0.0172344         144.781
0.592                   -1.97589        -172.478         -47.6276        -23.5149         -47.6277        -23.5134       -0.0174293         144.705
0.593                   -2.01683        -173.109         -47.5008        -25.8555         -47.5009         -25.854       -0.0176256         144.629
0.594                    -2.0582        -173.742         -47.3746        -28.1945         -47.3747        -28.1931       -0.0178233         144.553
0.595                   -2.09998        -174.377         -47.2492        -30.5317         -47.2492        -30.5303       -0.0180224         144.476
0.596                   -2.14218        -175.015         -47.1244        -32.8671         -47.1244        -32.8658        -0.018223           144.4
0.597                   -2.18481        -175.654         -47.0002        -35.2005         -47.0002        -35.1993       -0.0184252         144.323
0.598                   -2.22786        -176.297         -46.8766         -37.532         -46.8766        -37.5308        -0.018629         144.246
0.599                   -2.27135        -176.942         -46.7536        -39.8614         -46.7536        -39.8603       -0.0188346         144.169
0.6                     -2.31527        -177.591         -46.6312        -42.1887         -46.6312        -42.1876        -0.019042         144.092
0.601                   -2.35965        -178.242         -46.5093        -44.5138         -46.5093        -44.5128       -0.0192513         144.015
0.602                   -2.40449        -178.897          -46.388        -46.8367          -46.388        -46.8358       -0.0194626         143.937
0.603                   -2.44981        -179.555         -46.2672        -49.1574         -46.2672        -49.1566       -0.0196759         143.859
0.604                   -2.49563         179.783         -46.1468        -51.4759         -46.1468        -51.4752       -0.0198915         143.781
0.605                   -2.54197         179.117          -46.027        -53.7921         -46.0269        -53.7915       -0.0201094         143.703
0.606                   -2.58885         178.447         -45.9075        -56.1061         -45.9075        -56.1056       -0.0203296         143.624
0.607                    -2.6363         177.773         -45.7885        -58.4179         -45.7884        -58.4174       -0.0205524         143.545
0.608                   -2.68435         177.095         -45.6699        -60.7274         -45.6698        -60.7271       -0.0207779         143.466
0.609                   -2.73303         176.412         -45.5516        -63.0349         -45.5516        -63.0346       -0.0210061         143.387
0.61                    -2.78238         175.724         -45.4338        -65.3402         -45.4337        -65.3401       -0.0212372         143.308
0.611                   -2.83242         175.031         -45.3162        -67.6434         -45.3161        -67.6434       -0.0214714         143.228
0.612                   -2.88321         174.334          -45.199        -69.9447         -45.1989        -69.9448       -0.0217087         143.148
0.613                   -2.93479         173.631          -45.082         -72.244         -45.0819        -72.2442       -0.0219493         143.068
0.614                   -2.98719         172.922         -44.9654        -74.5414         -44.9653        -74.5417       -0.0221934         142.988
0.615                   -3.04048         172.209          -44.849        -76.8371         -44.8489        -76.8374        -0.022441         142.907
0.616                   -3.09468          171.49         -44.7329        -79.1311         -44.7327        -79.1315       -0.0226924         142.826
0.617                   -3.14987         170.765          -44.617        -81.4234         -44.6168        -81.4239       -0.0229477         142.745
0.618                   -3.20609         170.035         -44.5013        -83.7143         -44.5011        -83.7149        -0.023207         142.664
0.619                   -3.26339         169.299         -44.3858        -86.0037         -44.3856        -86.0044       -0.0234705         142.583
0.62                    -3.32185         168.557         -44.2705        -88.2919         -44.2703        -88.2926       -0.0237384         142.501
0.621                    -3.3815          167.81         -44.1553        -90.5789         -44.1552        -90.5797       -0.0240108         142.419
0.622                   -3.44243         167.057         -44.0404        -92.8648         -44.0402        -92.8657       -0.0242879         142.336
0.623                   -3.50468         166.298         -43.9255        -95.1499         -43.9254        -95.1508       -0.0245698         142.254
0.624                   -3.56833         165.533         -43.8109        -97.4341         -43.8107         -97.435       -0.0248567         142.171
0.625                   -3.63343         164.763         -43.6963        -99.7176         -43.6962        -99.7185       -0.0251487         142.088
0.626                   -3.70006         163.987         -43.5819        -102.001         -43.5818        -102.002       -0.0254461         142.005
0.627                   -3.76828         163.206         -43.4677        -104.283         -43.4675        -104.284        -0.025749         141.921
0.628                   -3.83816          162.42         -43.3535        -106.565         -43.3534        -106.566       -0.0260575         141.837
0.629                   -3.90978         161.628         -43.2395        -108.847         -43.2393        -108.848       -0.0263719         141.753
