! TOUCHSTONE file generated by CST MICROWAVE STUDIO
! Date and time: Mon Sep 28 14:16:35 2020
! Project name: Scenario_1_Free_SPace.cst
! Parameters = {dx1=814.1; L_HA=400; MT=2.54; Rad_Dielectric=30; Rad_Lower=7.3; Rad_Upper=30; a_HA=580; a_WG=246; b_HA=500; b_WG=121; c_HA=0; c_WG=187; d_feed=85; h_feed=15; h_lower=18; h_upper=40}
! Header version: 2018
! Port assignment regex: !\s*Touchstone port\s*([0-9]+)\s*=\s*(CST MWS port|CST DS port)\s*([0-9]+|Zmin|Zmax)\s*\(\"(.*)\"\)(\s*mode\s*([0-9]+))?.*
! Touchstone port assignment:
! Touchstone port 1 = CST MWS port 1 ("")
! Touchstone port 2 = CST MWS port 2 ("")
# GHz S DB R 50
0.5                    -0.150613        -122.617         -62.7726          173.61         -62.7726          173.61      -0.00671938         151.121
0.501                  -0.155609        -123.058         -62.6008         171.478         -62.6005         171.483      -0.00675308         151.055
0.502                  -0.160796        -123.501         -62.4278         169.345         -62.4272         169.354      -0.00678859          150.99
0.503                  -0.166175        -123.946         -62.2536         167.211         -62.2528         167.225      -0.00682591         150.925
0.504                  -0.171751        -124.393         -62.0784         165.077         -62.0773         165.095      -0.00686505         150.859
0.505                  -0.177527        -124.843          -61.902         162.941         -61.9009         162.963      -0.00690601         150.793
0.506                  -0.183505        -125.294         -61.7248         160.804         -61.7234          160.83       -0.0069488         150.728
0.507                  -0.189691        -125.748         -61.5465         158.666          -61.545         158.695      -0.00699343         150.662
0.508                  -0.196086        -126.204         -61.3674         156.527         -61.3658         156.558      -0.00703989         150.596
0.509                  -0.202695        -126.661         -61.1875         154.385         -61.1858         154.419       -0.0070882          150.53
0.51                   -0.209521        -127.121         -61.0068         152.242          -61.005         152.278      -0.00713835         150.464
0.511                  -0.216568        -127.584         -60.8254         150.096         -60.8235         150.134      -0.00719035         150.398
0.512                   -0.22384        -128.048         -60.6433         147.949         -60.6413         147.988      -0.00724419         150.331
0.513                   -0.23134        -128.514         -60.4606         145.798         -60.4586         145.839       -0.0072999         150.265
0.514                  -0.239073        -128.983         -60.2773         143.646         -60.2753         143.687      -0.00735745         150.199
0.515                  -0.247042        -129.454         -60.0936          141.49         -60.0915         141.533      -0.00741686         150.132
0.516                  -0.255252        -129.927         -59.9094         139.331         -59.9072         139.374      -0.00747814         150.066
0.517                  -0.263706        -130.402         -59.7247         137.169         -59.7226         137.213      -0.00754127         149.999
0.518                  -0.272409        -130.879         -59.5397         135.004         -59.5376         135.048      -0.00760626         149.932
0.519                  -0.281364        -131.359         -59.3544         132.835         -59.3523         132.879       -0.0076731         149.865
0.52                   -0.290577        -131.841         -59.1689         130.662         -59.1668         130.706      -0.00774181         149.798
0.521                  -0.300052        -132.325         -58.9831         128.485          -58.981         128.529      -0.00781238         149.731
0.522                  -0.309792        -132.811         -58.7972         126.304         -58.7951         126.347      -0.00788481         149.664
0.523                  -0.319804          -133.3         -58.6112         124.119         -58.6091         124.161       -0.0079591         149.597
0.524                   -0.33009        -133.791         -58.4252         121.929         -58.4231         121.971      -0.00803524          149.53
0.525                  -0.340656        -134.284         -58.2391         119.735         -58.2371         119.776      -0.00811323         149.462
0.526                  -0.351507        -134.779         -58.0531         117.536         -58.0511         117.576      -0.00819308         149.395
0.527                  -0.362647        -135.277         -57.8671         115.332         -57.8652         115.371      -0.00827477         149.327
0.528                  -0.374082        -135.777         -57.6814         113.124         -57.6794         113.161      -0.00835832          149.26
0.529                  -0.385816        -136.279         -57.4958          110.91         -57.4939         110.945       -0.0084437         149.192
0.53                   -0.397854        -136.784         -57.3104         108.691         -57.3086         108.725      -0.00853093         149.124
0.531                  -0.410202         -137.29         -57.1254         106.466         -57.1236         106.499      -0.00861999         149.056
0.532                  -0.422864          -137.8         -56.9407         104.236         -56.9389         104.267      -0.00871088         148.988
0.533                  -0.435846        -138.311         -56.7563         102.001         -56.7546          102.03       -0.0088036          148.92
0.534                  -0.449153        -138.825         -56.5725         99.7596         -56.5708          99.787      -0.00889814         148.852
0.535                  -0.462791        -139.341         -56.3891         97.5129         -56.3875         97.5384       -0.0089945         148.784
0.536                  -0.476766        -139.859         -56.2062         95.2605         -56.2047         95.2842      -0.00909266         148.715
0.537                  -0.491081         -140.38         -56.0239         93.0024         -56.0224         93.0242      -0.00919264         148.647
0.538                  -0.505744        -140.903         -55.8422         90.7385         -55.8408         90.7584      -0.00929441         148.578
0.539                   -0.52076        -141.429         -55.6613         88.4689         -55.6599         88.4869      -0.00939797         148.509
0.54                   -0.536135        -141.957          -55.481         86.1936         -55.4797         86.2096      -0.00950332          148.44
0.541                  -0.551874        -142.487         -55.3015         83.9125         -55.3003         83.9265      -0.00961045         148.371
0.542                  -0.567984        -143.019         -55.1228         81.6257         -55.1217         81.6378      -0.00971935         148.302
0.543                  -0.584469        -143.554         -54.9449         79.3333         -54.9439         79.3435      -0.00983001         148.233
0.544                  -0.601337        -144.091          -54.768         77.0353          -54.767         77.0435      -0.00994243         148.164
0.545                  -0.618592         -144.63         -54.5919         74.7318         -54.5911         74.7381       -0.0100566         148.095
0.546                  -0.636242        -145.172         -54.4169         72.4228         -54.4161         72.4273       -0.0101725         148.025
0.547                  -0.654291        -145.716         -54.2428         70.1085         -54.2421         70.1112       -0.0102901         147.956
0.548                  -0.672747        -146.262         -54.0698          67.789         -54.0692         67.7899       -0.0104095         147.886
0.549                  -0.691615        -146.811         -53.8979         65.4644         -53.8973         65.4636       -0.0105306         147.816
0.55                   -0.710901        -147.362         -53.7271         63.1348         -53.7266         63.1323       -0.0106534         147.746
0.551                  -0.730611        -147.915         -53.5574         60.8004          -53.557         60.7963       -0.0107778         147.676
0.552                  -0.750751         -148.47         -53.3889         58.4614         -53.3886         58.4558        -0.010904         147.606
0.553                  -0.771327        -149.028         -53.2216         56.1179         -53.2214         56.1108       -0.0110318         147.536
0.554                  -0.792345        -149.588         -53.0555         53.7702         -53.0555         53.7616       -0.0111613         147.466
0.555                  -0.813811         -150.15         -52.8907         51.4183         -52.8907         51.4085       -0.0112925         147.395
0.556                   -0.83573        -150.714         -52.7272         49.0626         -52.7273         49.0515       -0.0114253         147.325
0.557                  -0.858109         -151.28         -52.5649         46.7032         -52.5652         46.6909       -0.0115597         147.254
0.558                  -0.880952        -151.849          -52.404         44.3404         -52.4043          44.327       -0.0116958         147.183
0.559                  -0.904266         -152.42         -52.2444         41.9744         -52.2448         41.9599       -0.0118335         147.112
0.56                   -0.928055        -152.993         -52.0862         39.6054         -52.0867           39.59       -0.0119728         147.041
0.561                  -0.952325        -153.568         -51.9293         37.2337         -51.9299         37.2174       -0.0121137          146.97
0.562                   -0.97708        -154.145         -51.7737         34.8595         -51.7744         34.8424       -0.0122562         146.898
0.563                   -1.00232        -154.724         -51.6195          32.483         -51.6203         32.4652       -0.0124003         146.827
0.564                   -1.02806        -155.305         -51.4667         30.1046         -51.4676         30.0862        -0.012546         146.755
0.565                    -1.0543        -155.888         -51.3153         27.7245         -51.3162         27.7055       -0.0126932         146.684
0.566                   -1.08104        -156.473         -51.1652         25.3428         -51.1662         25.3234        -0.012842         146.612
0.567                   -1.10829         -157.06         -51.0165           22.96         -51.0176         22.9402       -0.0129923          146.54
0.568                   -1.13604        -157.649         -50.8692         20.5762         -50.8703         20.5561       -0.0131442         146.468
0.569                   -1.16431         -158.24         -50.7232         18.1917         -50.7244         18.1714       -0.0132976         146.396
0.57                    -1.19309        -158.833         -50.5785         15.8068         -50.5798         15.7862       -0.0134526         146.323
0.571                   -1.22239        -159.427         -50.4351         13.4216         -50.4365          13.401        -0.013609         146.251
0.572                    -1.2522        -160.024         -50.2931         11.0365         -50.2945         11.0158        -0.013767         146.178
0.573                   -1.28253        -160.622         -50.1523         8.65157         -50.1538           8.631       -0.0139265         146.105
0.574                   -1.31338        -161.222         -50.0128         6.26717         -50.0143         6.24671       -0.0140875         146.032
0.575                   -1.34475        -161.823         -49.8746         3.88347         -49.8761          3.8632       -0.0142501         145.959
0.576                   -1.37664        -162.427         -49.7375         1.50069         -49.7391         1.48065       -0.0144141         145.886
0.577                   -1.40904        -163.031         -49.6017       -0.880968         -49.6033       -0.900723       -0.0145796         145.813
0.578                   -1.44195        -163.638          -49.467        -3.26132         -49.4686        -3.28074       -0.0147467         145.739
0.579                   -1.47538        -164.246         -49.3335        -5.64018         -49.3351        -5.65921       -0.0149152         145.666
0.58                    -1.50931        -164.856          -49.201        -8.01737         -49.2026        -8.03598       -0.0150853         145.592
0.581                   -1.54375        -165.468         -49.0697        -10.3927         -49.0713        -10.4109       -0.0152569         145.518
0.582                   -1.57869        -166.081         -48.9393        -12.7661         -48.9409        -12.7838         -0.01543         145.444
0.583                   -1.61412        -166.696           -48.81        -15.1374         -48.8116        -15.1545       -0.0156046         145.369
0.584                   -1.65005        -167.313         -48.6816        -17.5065         -48.6833         -17.523       -0.0157807         145.295
0.585                   -1.68645        -167.931         -48.5542        -19.8732         -48.5558        -19.8891       -0.0159585          145.22
0.586                   -1.72334        -168.551         -48.4277        -22.2375         -48.4293        -22.2528       -0.0161377         145.146
0.587                    -1.7607        -169.172         -48.3021        -24.5992         -48.3036        -24.6139       -0.0163186         145.071
0.588                   -1.79852        -169.796         -48.1772        -26.9583         -48.1787        -26.9724        -0.016501         144.996
0.589                    -1.8368        -170.421         -48.0532        -29.3148         -48.0546        -29.3282       -0.0166851          144.92
0.59                    -1.87554        -171.048         -47.9299        -31.6685         -47.9313        -31.6813       -0.0168708         144.845
0.591                   -1.91472        -171.677         -47.8073        -34.0195         -47.8087        -34.0316       -0.0170582         144.769
0.592                   -1.95434        -172.309         -47.6854        -36.3677         -47.6867        -36.3791       -0.0172473         144.694
0.593                    -1.9944        -172.942         -47.5641        -38.7131         -47.5654        -38.7238       -0.0174381         144.618
0.594                   -2.03489        -173.578         -47.4435        -41.0557         -47.4447        -41.0658       -0.0176307         144.542
0.595                   -2.07582        -174.216         -47.3234        -43.3956         -47.3246         -43.405        -0.017825         144.465
0.596                   -2.11717        -174.857         -47.2038        -45.7326         -47.2049        -45.7414       -0.0180213         144.389
0.597                   -2.15895        -175.501         -47.0848         -48.067         -47.0858        -48.0751       -0.0182194         144.312
0.598                   -2.20117        -176.147         -46.9662        -50.3986         -46.9672        -50.4061       -0.0184195         144.235
0.599                   -2.24383        -176.797          -46.848        -52.7276         -46.8489        -52.7345       -0.0186215         144.158
0.6                     -2.28693         -177.45         -46.7303         -55.054         -46.7311        -55.0603       -0.0188257         144.081
0.601                   -2.33049        -178.107         -46.6129        -57.3779         -46.6136        -57.3836        -0.019032         144.003
0.602                   -2.37452        -178.767         -46.4958        -59.6994         -46.4965        -59.7046       -0.0192404         143.926
0.603                   -2.41904        -179.431         -46.3791        -62.0186         -46.3797        -62.0232       -0.0194512         143.848
0.604                   -2.46407         179.901         -46.2626        -64.3355         -46.2632        -64.3396       -0.0196643          143.77
0.605                   -2.50964         179.228         -46.1465        -66.6502         -46.1469        -66.6538       -0.0198799         143.692
0.606                   -2.55577          178.55         -46.0305        -68.9629         -46.0309        -68.9661        -0.020098         143.613
0.607                   -2.60249         177.868         -45.9147        -71.2737         -45.9151        -71.2764       -0.0203188         143.534
0.608                   -2.64985         177.181         -45.7992        -73.5827         -45.7994         -73.585       -0.0205422         143.455
0.609                   -2.69788         176.488         -45.6838          -75.89          -45.684        -75.8919       -0.0207686         143.376
0.61                    -2.74663          175.79         -45.5686        -78.1957         -45.5687        -78.1972       -0.0209979         143.297
0.611                   -2.79615         175.087         -45.4535           -80.5         -45.4535        -80.5012       -0.0212303         143.217
0.612                   -2.84649         174.377         -45.3385         -82.803         -45.3385        -82.8039        -0.021466         143.138
0.613                   -2.89771         173.662         -45.2236        -85.1049         -45.2235        -85.1054        -0.021705         143.058
0.614                   -2.94987          172.94         -45.1088        -87.4057         -45.1087         -87.406       -0.0219475         142.977
0.615                   -3.00303         172.213         -44.9941        -89.7057         -44.9939        -89.7057       -0.0221936         142.897
0.616                   -3.05726         171.479         -44.8795        -92.0049         -44.8792        -92.0047       -0.0224435         142.816
0.617                   -3.11262         170.739         -44.7649        -94.3035         -44.7646        -94.3031       -0.0226974         142.735
0.618                    -3.1692         169.992         -44.6504        -96.6016         -44.6501         -96.601       -0.0229553         142.654
0.619                   -3.22706          169.24          -44.536        -98.8994         -44.5355        -98.8987       -0.0232175         142.572
0.62                    -3.28627         168.481         -44.4216        -101.197         -44.4211        -101.196       -0.0234841         142.491
0.621                   -3.34691         167.716         -44.3072        -103.495         -44.3067        -103.494       -0.0237553         142.409
0.622                   -3.40906         166.945         -44.1929        -105.792         -44.1923        -105.791       -0.0240313         142.326
0.623                   -3.47278         166.168         -44.0786         -108.09          -44.078        -108.089       -0.0243121         142.244
0.624                   -3.53817         165.386         -43.9644        -110.388         -43.9638        -110.387       -0.0245981         142.161
0.625                   -3.60528         164.598         -43.8502        -112.687         -43.8496        -112.686       -0.0248893         142.078
0.626                    -3.6742         163.805         -43.7362        -114.986         -43.7355        -114.985       -0.0251859         141.995
0.627                   -3.74499         163.007         -43.6221        -117.286         -43.6214        -117.285       -0.0254881         141.911
0.628                   -3.81774         162.204         -43.5082        -119.587         -43.5075        -119.585        -0.025796         141.827
0.629                    -3.8925         161.397         -43.3943        -121.888         -43.3936        -121.887       -0.0261098         141.743
