! TOUCHSTONE file generated by CST MICROWAVE STUDIO
! Date and time: Mon Sep 28 14:06:03 2020
! Project name: Scenario_1_Free_SPace.cst
! Parameters = {dx1=225.2; L_HA=400; MT=2.54; Rad_Dielectric=30; Rad_Lower=7.3; Rad_Upper=30; a_HA=580; a_WG=246; b_HA=500; b_WG=121; c_HA=0; c_WG=187; d_feed=85; h_feed=15; h_lower=18; h_upper=40}
! Header version: 2018
! Port assignment regex: !\s*Touchstone port\s*([0-9]+)\s*=\s*(CST MWS port|CST DS port)\s*([0-9]+|Zmin|Zmax)\s*\(\"(.*)\"\)(\s*mode\s*([0-9]+))?.*
! Touchstone port assignment:
! Touchstone port 1 = CST MWS port 1 ("")
! Touchstone port 2 = CST MWS port 2 ("")
# GHz S DB R 50
0.5                    -0.150913        -122.671         -56.9706         143.237         -56.9706         143.237      -0.00654635         151.168
0.501                  -0.156321        -123.109         -56.7689         141.864         -56.7689         141.864      -0.00659044         151.103
0.502                  -0.161847        -123.549         -56.5683         140.491         -56.5683         140.491      -0.00663504         151.037
0.503                  -0.167494        -123.991         -56.3687         139.118         -56.3687         139.118       -0.0066802         150.972
0.504                  -0.173265        -124.435         -56.1701         137.745         -56.1701         137.745      -0.00672595         150.906
0.505                  -0.179163        -124.881         -55.9726         136.372         -55.9725         136.372      -0.00677233         150.841
0.506                  -0.185191         -125.33         -55.7759         134.998         -55.7759         134.998      -0.00681937         150.775
0.507                  -0.191354         -125.78         -55.5802         133.623         -55.5802         133.623      -0.00686713         150.709
0.508                  -0.197655        -126.233         -55.3854         132.247         -55.3854         132.247      -0.00691563         150.643
0.509                  -0.204097        -126.688         -55.1914          130.87         -55.1914          130.87      -0.00696493         150.577
0.51                   -0.210686        -127.145         -54.9983         129.492         -54.9983         129.493      -0.00701507         150.511
0.511                  -0.217425        -127.605         -54.8059         128.113         -54.8059         128.113      -0.00706608         150.445
0.512                  -0.224318        -128.066         -54.6143         126.733         -54.6143         126.733      -0.00711803         150.379
0.513                   -0.23137        -128.531         -54.4235          125.35         -54.4235         125.351      -0.00717095         150.313
0.514                  -0.238586        -128.997         -54.2333         123.967         -54.2333         123.967      -0.00722489         150.246
0.515                  -0.245971        -129.466         -54.0439         122.581         -54.0438         122.581      -0.00727991          150.18
0.516                  -0.253529        -129.938         -53.8551         121.193          -53.855         121.194      -0.00733606         150.113
0.517                  -0.261267        -130.412         -53.6669         119.804         -53.6668         119.804      -0.00739339         150.047
0.518                   -0.26919        -130.888         -53.4793         118.412         -53.4793         118.412      -0.00745195          149.98
0.519                  -0.277303        -131.367         -53.2923         117.018         -53.2923         117.018       -0.0075118         149.913
0.52                   -0.285613        -131.849         -53.1059         115.622         -53.1059         115.622        -0.007573         149.846
0.521                  -0.294125        -132.333           -52.92         114.223           -52.92         114.223       -0.0076356         149.779
0.522                  -0.302847         -132.82         -52.7347         112.822         -52.7346         112.822      -0.00769967         149.712
0.523                  -0.311784        -133.309         -52.5498         111.418         -52.5498         111.418      -0.00776526         149.645
0.524                  -0.320944        -133.801         -52.3655         110.011         -52.3654         110.011      -0.00783245         149.577
0.525                  -0.330334        -134.296         -52.1816         108.601         -52.1816         108.602      -0.00790128          149.51
0.526                  -0.339961        -134.794         -51.9981         107.189         -51.9981         107.189      -0.00797183         149.442
0.527                  -0.349833        -135.294         -51.8151         105.773         -51.8151         105.774      -0.00804417         149.375
0.528                  -0.359958        -135.798         -51.6326         104.355         -51.6325         104.355      -0.00811835         149.307
0.529                  -0.370343        -136.304         -51.4504         102.933         -51.4504         102.933      -0.00819446         149.239
0.53                   -0.380999        -136.813         -51.2686         101.508         -51.2686         101.508      -0.00827255         149.171
0.531                  -0.391933        -137.325         -51.0872         100.079         -51.0872          100.08       -0.0083527         149.103
0.532                  -0.403154         -137.84         -50.9062         98.6475         -50.9062          98.648      -0.00843498         149.035
0.533                  -0.414672        -138.358         -50.7255          97.212         -50.7255         97.2125      -0.00851946         148.967
0.534                  -0.426497        -138.879         -50.5452         95.7728         -50.5452         95.7733      -0.00860622         148.898
0.535                  -0.438638        -139.403         -50.3652         94.3299         -50.3652         94.3304      -0.00869532          148.83
0.536                  -0.451106        -139.929         -50.1856         92.8832         -50.1856         92.8837      -0.00878685         148.761
0.537                  -0.463912        -140.459         -50.0062         91.4326         -50.0062         91.4331      -0.00888087         148.693
0.538                  -0.477065        -140.993         -49.8272          89.978         -49.8272         89.9785      -0.00897747         148.624
0.539                  -0.490579        -141.529         -49.6485         88.5193         -49.6485         88.5198      -0.00907671         148.555
0.54                   -0.504463        -142.068         -49.4701         87.0564         -49.4701         87.0569      -0.00917868         148.486
0.541                  -0.518731         -142.61          -49.292         85.5893          -49.292         85.5898      -0.00928345         148.417
0.542                  -0.533394        -143.156         -49.1142         84.1179         -49.1141         84.1184      -0.00939108         148.348
0.543                  -0.548465        -143.705         -48.9366          82.642         -48.9366         82.6425      -0.00950167         148.278
0.544                  -0.563957        -144.257         -48.7594         81.1616         -48.7594         81.1621      -0.00961527         148.209
0.545                  -0.579883        -144.812         -48.5824         79.6767         -48.5824         79.6772      -0.00973197         148.139
0.546                  -0.596257         -145.37         -48.4057         78.1871         -48.4057         78.1875      -0.00985183          148.07
0.547                  -0.613092        -145.932         -48.2294         76.6927         -48.2293         76.6932      -0.00997492             148
0.548                  -0.630403        -146.496         -48.0533         75.1934         -48.0532         75.1939       -0.0101013          147.93
0.549                  -0.648203        -147.064         -47.8774         73.6893         -47.8774         73.6898       -0.0102311          147.86
0.55                   -0.666509        -147.635         -47.7019         72.1801         -47.7019         72.1806       -0.0103643          147.79
0.551                  -0.685334        -148.209         -47.5267         70.6659         -47.5267         70.6664        -0.010501          147.72
0.552                  -0.704695        -148.787         -47.3518         69.1465         -47.3517          69.147       -0.0106412         147.649
0.553                  -0.724606        -149.367         -47.1771         67.6219         -47.1771         67.6223       -0.0107851         147.579
0.554                  -0.745084        -149.951         -47.0028         66.0919         -47.0028         66.0924       -0.0109326         147.508
0.555                  -0.766144        -150.537         -46.8288         64.5566         -46.8288          64.557       -0.0110838         147.438
0.556                  -0.787803        -151.127         -46.6552         63.0158         -46.6552         63.0162       -0.0112388         147.367
0.557                  -0.810078         -151.72         -46.4818         61.4695         -46.4818         61.4699       -0.0113975         147.296
0.558                  -0.832984        -152.316         -46.3089         59.9175         -46.3089         59.9179       -0.0115601         147.225
0.559                  -0.856538        -152.914         -46.1362         58.3599         -46.1362         58.3603       -0.0117266         147.154
0.56                   -0.880758        -153.516          -45.964         56.7966          -45.964          56.797       -0.0118969         147.082
0.561                  -0.905659        -154.121         -45.7921         55.2275         -45.7921         55.2279       -0.0120711         147.011
0.562                  -0.931259        -154.728         -45.6207         53.6525         -45.6207         53.6529       -0.0122492         146.939
0.563                  -0.957574        -155.338         -45.4496         52.0716         -45.4496          52.072       -0.0124313         146.868
0.564                  -0.984622        -155.951          -45.279         50.4848          -45.279         50.4851       -0.0126172         146.796
0.565                   -1.01242        -156.566         -45.1088          48.892         -45.1088         48.8923       -0.0128071         146.724
0.566                   -1.04098        -157.184         -44.9391         47.2931         -44.9391         47.2934       -0.0130008         146.652
0.567                   -1.07032        -157.804         -44.7699         45.6881         -44.7699         45.6884       -0.0131984          146.58
0.568                   -1.10046        -158.426         -44.6012         44.0771         -44.6012         44.0774       -0.0133999         146.507
0.569                   -1.13141        -159.051          -44.433         42.4599          -44.433         42.4602       -0.0136051         146.435
0.57                    -1.16319        -159.678         -44.2653         40.8365         -44.2653         40.8368        -0.013814         146.363
0.571                   -1.19581        -160.307         -44.0982          39.207         -44.0983         39.2072       -0.0140266          146.29
0.572                   -1.22929        -160.937         -43.9318         37.5713         -43.9318         37.5715       -0.0142429         146.217
0.573                   -1.26363         -161.57         -43.7659         35.9294         -43.7659         35.9296       -0.0144627         146.144
0.574                   -1.29886        -162.204         -43.6006         34.2813         -43.6006         34.2815       -0.0146859         146.071
0.575                   -1.33498        -162.839         -43.4361          32.627         -43.4361         32.6273       -0.0149125         145.998
0.576                     -1.372        -163.476         -43.2722         30.9667         -43.2722         30.9669       -0.0151423         145.925
0.577                   -1.40994        -164.114          -43.109         29.3002          -43.109         29.3004       -0.0153753         145.851
0.578                    -1.4488        -164.753         -42.9465         27.6276         -42.9466         27.6278       -0.0156113         145.778
0.579                   -1.48859        -165.393         -42.7849          25.949         -42.7849         25.9492       -0.0158502         145.704
0.58                    -1.52932        -166.033          -42.624         24.2644          -42.624         24.2646       -0.0160919          145.63
0.581                   -1.57098        -166.674         -42.4639         22.5739         -42.4639         22.5741       -0.0163362         145.556
0.582                    -1.6136        -167.316         -42.3047         20.8776         -42.3047         20.8778        -0.016583         145.482
0.583                   -1.65715        -167.957         -42.1464         19.1755         -42.1464         19.1757       -0.0168321         145.408
0.584                   -1.70166        -168.598          -41.989         17.4678          -41.989         17.4679       -0.0170834         145.334
0.585                   -1.74711         -169.24         -41.8325         15.7545         -41.8325         15.7546       -0.0173368         145.259
0.586                    -1.7935         -169.88         -41.6769         14.0357         -41.6769         14.0359       -0.0175919         145.185
0.587                   -1.84083         -170.52         -41.5224         12.3117         -41.5224         12.3118       -0.0178487          145.11
0.588                   -1.88909         -171.16         -41.3688         10.5825         -41.3688         10.5826       -0.0181071         145.035
0.589                   -1.93827        -171.798         -41.2163         8.84821         -41.2163         8.84835       -0.0183667          144.96
0.59                    -1.98836        -172.435         -41.0649         7.10907         -41.0649         7.10921       -0.0186276         144.885
0.591                   -2.03934         -173.07         -40.9145         5.36523         -40.9146         5.36537       -0.0188894         144.809
0.592                   -2.09121        -173.704         -40.7653         3.61686         -40.7653         3.61699        -0.019152         144.734
0.593                   -2.14393        -174.337         -40.6172         1.86414         -40.6172         1.86427       -0.0194153         144.658
0.594                    -2.1975        -174.967         -40.4703        0.107275         -40.4703        0.107398        -0.019679         144.582
0.595                    -2.2519        -175.595         -40.3245        -1.65353         -40.3245        -1.65341       -0.0199431         144.506
0.596                   -2.30709        -176.221         -40.1799        -3.41807         -40.1799        -3.41795       -0.0202074          144.43
0.597                   -2.36305        -176.844         -40.0366         -5.1861         -40.0366        -5.18599       -0.0204717         144.354
0.598                   -2.41975        -177.465         -39.8945        -6.95741         -39.8944         -6.9573       -0.0207358         144.277
0.599                   -2.47716        -178.083         -39.7536        -8.73175         -39.7536        -8.73164       -0.0209997         144.201
0.6                     -2.53526        -178.699          -39.614        -10.5089          -39.614        -10.5088       -0.0212633         144.124
0.601                     -2.594        -179.311         -39.4756        -12.2885         -39.4756        -12.2884       -0.0215263         144.047
0.602                   -2.65335         -179.92         -39.3386        -14.0704         -39.3386        -14.0703       -0.0217888          143.97
0.603                   -2.71327         179.473         -39.2028        -15.8543         -39.2028        -15.8542       -0.0220507         143.892
0.604                   -2.77372          178.87         -39.0683          -17.64         -39.0683        -17.6399       -0.0223117         143.815
0.605                   -2.83467         178.271         -38.9352        -19.4271         -38.9352         -19.427        -0.022572         143.737
0.606                   -2.89607         177.674         -38.8033        -21.2154         -38.8033        -21.2153       -0.0228315         143.659
0.607                   -2.95787          177.08         -38.6727        -23.0046         -38.6727        -23.0045         -0.02309         143.581
0.608                   -3.02005          176.49         -38.5435        -24.7944         -38.5435        -24.7944       -0.0233477         143.503
0.609                   -3.08255         175.903         -38.4155        -26.5846         -38.4155        -26.5846       -0.0236044         143.424
0.61                    -3.14532         175.319         -38.2888        -28.3749         -38.2888        -28.3748       -0.0238603         143.345
0.611                   -3.20834         174.738         -38.1634        -30.1649         -38.1634        -30.1649       -0.0241153         143.266
0.612                   -3.27155          174.16         -38.0393        -31.9545         -38.0393        -31.9545       -0.0243695         143.187
0.613                   -3.33491         173.584         -37.9164        -33.7433         -37.9164        -33.7433       -0.0246229         143.108
0.614                   -3.39837         173.011         -37.7948        -35.5312         -37.7947        -35.5311       -0.0248756         143.028
0.615                   -3.46191          172.44         -37.6743        -37.3177         -37.6743        -37.3177       -0.0251277         142.948
0.616                   -3.52548         171.872         -37.5551        -39.1027         -37.5551        -39.1027       -0.0253794         142.868
0.617                   -3.58904         171.305          -37.437         -40.886          -37.437        -40.8859       -0.0256307         142.788
0.618                   -3.65256          170.74         -37.3202        -42.6672         -37.3201        -42.6672       -0.0258817         142.707
0.619                   -3.71601         170.176         -37.2044        -44.4462         -37.2044        -44.4462       -0.0261327         142.626
0.62                    -3.77935         169.614         -37.0897        -46.2228         -37.0897        -46.2227       -0.0263837         142.545
0.621                   -3.84255         169.052         -36.9761        -47.9967         -36.9761        -47.9966        -0.026635         142.464
0.622                   -3.90561          168.49         -36.8636        -49.7677         -36.8635        -49.7677       -0.0268867         142.382
0.623                   -3.96848         167.928          -36.752        -51.5357          -36.752        -51.5356       -0.0271391           142.3
0.624                   -4.03116         167.366         -36.6414        -53.3004         -36.6414        -53.3004       -0.0273924         142.218
0.625                   -4.09363         166.804         -36.5318        -55.0618         -36.5317        -55.0618       -0.0276468         142.136
0.626                   -4.15588          166.24          -36.423        -56.8196          -36.423        -56.8196       -0.0279025         142.053
0.627                    -4.2179         165.674         -36.3152        -58.5738         -36.3151        -58.5738       -0.0281598          141.97
0.628                    -4.2797         165.106         -36.2081        -60.3242         -36.2081        -60.3242       -0.0284189         141.886
0.629                   -4.34127         164.536         -36.1019        -62.0707         -36.1018        -62.0707       -0.0286802         141.803
