! TOUCHSTONE file generated by CST MICROWAVE STUDIO
! Date and time: Mon Sep 28 15:30:22 2020
! Project name: Scenario_1_Free_SPace.cst
! Parameters = {dx1=848.7; L_HA=400; MT=2.54; Rad_Dielectric=30; Rad_Lower=7.3; Rad_Upper=30; a_HA=580; a_WG=246; b_HA=500; b_WG=121; c_HA=0; c_WG=187; d_feed=85; h_feed=15; h_lower=18; h_upper=40}
! Header version: 2018
! Port assignment regex: !\s*Touchstone port\s*([0-9]+)\s*=\s*(CST MWS port|CST DS port)\s*([0-9]+|Zmin|Zmax)\s*\(\"(.*)\"\)(\s*mode\s*([0-9]+))?.*
! Touchstone port assignment:
! Touchstone port 1 = CST MWS port 1 ("")
! Touchstone port 2 = CST MWS port 2 ("")
# GHz S DB R 50
0.5                    -0.149992        -122.618         -62.8995         153.819         -62.8995         153.819      -0.00662566         151.146
0.501                  -0.155245        -123.057          -62.725         151.645         -62.7249         151.646      -0.00667883         151.081
0.502                  -0.160658        -123.498         -62.5489         149.471         -62.5487         149.474      -0.00673299         151.016
0.503                  -0.166237        -123.942         -62.3714         147.299         -62.3711         147.302      -0.00678817          150.95
0.504                  -0.171985        -124.387         -62.1925         145.127         -62.1921         145.131      -0.00684436         150.884
0.505                  -0.177907        -124.835         -62.0123         142.954         -62.0118          142.96      -0.00690159         150.819
0.506                  -0.184007        -125.285         -61.8308         140.782         -61.8302         140.789      -0.00695987         150.753
0.507                   -0.19029        -125.738         -61.6482          138.61         -61.6476         138.617      -0.00701921         150.687
0.508                  -0.196761        -126.192         -61.4646         136.436         -61.4639         136.444      -0.00707962         150.621
0.509                  -0.203425        -126.649           -61.28         134.262         -61.2793         134.271      -0.00714113         150.555
0.51                   -0.210285        -127.108         -61.0946         132.087         -61.0937         132.096      -0.00720375         150.489
0.511                  -0.217349         -127.57         -60.9083          129.91         -60.9074         129.919      -0.00726749         150.423
0.512                  -0.224621        -128.033         -60.7213         127.731         -60.7204         127.741      -0.00733237         150.357
0.513                  -0.232107        -128.499         -60.5336          125.55         -60.5327          125.56       -0.0073984         150.291
0.514                  -0.239812        -128.968         -60.3454         123.367         -60.3444         123.377      -0.00746562         150.224
0.515                  -0.247742        -129.439         -60.1567         121.181         -60.1556         121.191      -0.00753402         150.158
0.516                  -0.255903        -129.912         -59.9675         118.992         -59.9664         119.003      -0.00760364         150.091
0.517                  -0.264302        -130.388          -59.778           116.8         -59.7769          116.81       -0.0076745         150.025
0.518                  -0.272944        -130.866         -59.5881         114.604          -59.587         114.615       -0.0077466         149.958
0.519                  -0.281837        -131.346         -59.3981         112.404          -59.397         112.415      -0.00781999         149.891
0.52                   -0.290986        -131.829         -59.2079           110.2         -59.2067         110.211      -0.00789467         149.824
0.521                  -0.300399        -132.315         -59.0176         107.992         -59.0164         108.002      -0.00797067         149.757
0.522                  -0.310083        -132.802         -58.8273         105.779         -58.8261         105.789      -0.00804801          149.69
0.523                  -0.320044        -133.293          -58.637         103.561         -58.6358         103.571      -0.00812673         149.623
0.524                   -0.33029        -133.785         -58.4468         101.338         -58.4456         101.348      -0.00820684         149.555
0.525                  -0.340828        -134.281         -58.2568         99.1098         -58.2556         99.1192      -0.00828837         149.488
0.526                  -0.351666        -134.778         -58.0671         96.8758         -58.0658         96.8848      -0.00837134         149.421
0.527                  -0.362811        -135.279         -57.8776         94.6358         -57.8763         94.6445       -0.0084558         149.353
0.528                  -0.374272        -135.781         -57.6884         92.3899         -57.6872         92.3983      -0.00854176         149.285
0.529                  -0.386055        -136.286         -57.4997         90.1378         -57.4984         90.1458      -0.00862925         149.218
0.53                   -0.398168        -136.794         -57.3114         87.8793         -57.3102         87.8869      -0.00871831          149.15
0.531                  -0.410621        -137.304         -57.1237         85.6143         -57.1224         85.6215      -0.00880898         149.082
0.532                   -0.42342        -137.816         -56.9365         83.3428         -56.9353         83.3496      -0.00890127         149.014
0.533                  -0.436573        -138.331           -56.75         81.0645         -56.7487         81.0709      -0.00899523         148.946
0.534                   -0.45009        -138.849         -56.5642         78.7794         -56.5629         78.7854      -0.00909089         148.878
0.535                  -0.463977        -139.368         -56.3791         76.4874         -56.3778          76.493      -0.00918829         148.809
0.536                  -0.478242        -139.891         -56.1948         74.1885         -56.1935         74.1937      -0.00928745         148.741
0.537                  -0.492894        -140.415         -56.0114         71.8827         -56.0101         71.8875      -0.00938843         148.672
0.538                   -0.50794        -140.942         -55.8288         69.5699         -55.8275         69.5743      -0.00949124         148.604
0.539                  -0.523388        -141.471         -55.6472         67.2501          -55.646         67.2541      -0.00959594         148.535
0.54                   -0.539245        -142.003         -55.4666         64.9235         -55.4654         64.9271      -0.00970255         148.466
0.541                  -0.555518        -142.536         -55.2871         62.5899         -55.2858         62.5932      -0.00981111         148.397
0.542                  -0.572215        -143.072         -55.1086         60.2496         -55.1074         60.2525      -0.00992166         148.328
0.543                   -0.58934         -143.61         -54.9313         57.9026           -54.93         57.9051       -0.0100342         148.259
0.544                  -0.606902        -144.151         -54.7552         55.5489         -54.7539         55.5512       -0.0101488          148.19
0.545                  -0.624906        -144.693         -54.5802         53.1888          -54.579         53.1908       -0.0102655          148.12
0.546                  -0.643356        -145.237         -54.4065         50.8224         -54.4053         50.8241       -0.0103843         148.051
0.547                  -0.662258        -145.784         -54.2341         48.4498         -54.2329         48.4513       -0.0105051         147.981
0.548                  -0.681616        -146.332          -54.063         46.0713         -54.0618         46.0725       -0.0106281         147.912
0.549                  -0.701433        -146.882         -53.8933         43.6869          -53.892          43.688       -0.0107533         147.842
0.55                   -0.721713        -147.434         -53.7249         41.2971         -53.7237         41.2979       -0.0108805         147.772
0.551                  -0.742457        -147.988         -53.5579         38.9019         -53.5567         38.9026       -0.0110098         147.702
0.552                  -0.763667        -148.544         -53.3924         36.5016         -53.3911         36.5021       -0.0111413         147.632
0.553                  -0.785344        -149.101         -53.2283         34.0965          -53.227         34.0969       -0.0112747         147.562
0.554                  -0.807488         -149.66         -53.0656         31.6868         -53.0644         31.6872       -0.0114102         147.491
0.555                  -0.830096        -150.221         -52.9044         29.2729         -52.9032         29.2732       -0.0115476         147.421
0.556                  -0.853168        -150.783         -52.7447          26.855         -52.7435         26.8552       -0.0116868          147.35
0.557                    -0.8767        -151.346         -52.5865         24.4334         -52.5853         24.4336       -0.0118278          147.28
0.558                  -0.900689        -151.911         -52.4298         22.0084         -52.4286         22.0086       -0.0119704         147.209
0.559                  -0.925128        -152.477         -52.2746         19.5803         -52.2733         19.5806       -0.0121145         147.138
0.56                   -0.950013        -153.045         -52.1208         17.1495         -52.1196         17.1498       -0.0122599         147.067
0.561                  -0.975337        -153.614         -51.9686         14.7163         -51.9674         14.7166       -0.0124065         146.996
0.562                   -1.00109        -154.184         -51.8178         12.2809         -51.8166         12.2813        -0.012554         146.924
0.563                   -1.02727        -154.755         -51.6686         9.84365         -51.6673         9.84417       -0.0127024         146.853
0.564                   -1.05386        -155.328         -51.5207         7.40494         -51.5195         7.40557       -0.0128513         146.782
0.565                   -1.08086        -155.902         -51.3744         4.96504         -51.3731          4.9658       -0.0130006          146.71
0.566                   -1.10825        -156.477         -51.2294         2.52426         -51.2281         2.52515         -0.01315         146.638
0.567                   -1.13602        -157.053         -51.0859       0.0828861         -51.0846       0.0839323       -0.0132995         146.566
0.568                   -1.16416        -157.631         -50.9437        -2.35877         -50.9424        -2.35757       -0.0134487         146.494
0.569                   -1.19266         -158.21         -50.8029        -4.80044         -50.8015        -4.79907       -0.0135976         146.422
0.57                    -1.22151         -158.79         -50.6634        -7.24184          -50.662        -7.24029       -0.0137461          146.35
0.571                   -1.25069        -159.371         -50.5252         -9.6827         -50.5238        -9.68097       -0.0138939         146.278
0.572                    -1.2802        -159.954         -50.3882        -12.1228         -50.3868        -12.1209       -0.0140412         146.205
0.573                   -1.31002        -160.539         -50.2525        -14.5618         -50.2511        -14.5597       -0.0141879         146.133
0.574                   -1.34015        -161.125          -50.118        -16.9996         -50.1165        -16.9973       -0.0143339          146.06
0.575                   -1.37058        -161.713         -49.9846        -19.4359         -49.9831        -19.4334       -0.0144795         145.987
0.576                   -1.40129        -162.302         -49.8524        -21.8705         -49.8509        -21.8678       -0.0146246         145.914
0.577                   -1.43229        -162.894         -49.7212        -24.3033         -49.7196        -24.3004       -0.0147696          145.84
0.578                   -1.46355        -163.488          -49.591         -26.734         -49.5895        -26.7309       -0.0149144         145.767
0.579                    -1.4951        -164.084         -49.4619        -29.1625         -49.4603        -29.1593       -0.0150594         145.693
0.58                    -1.52691        -164.682         -49.3337        -31.5887          -49.332        -31.5853       -0.0152048          145.62
0.581                   -1.55899        -165.283         -49.2064        -34.0124         -49.2047        -34.0088       -0.0153508         145.546
0.582                   -1.59135        -165.886         -49.0799        -36.4335         -49.0782        -36.4298       -0.0154977         145.471
0.583                   -1.62398        -166.493         -48.9543         -38.852         -48.9526        -38.8481       -0.0156457         145.397
0.584                    -1.6569        -167.102         -48.8295        -41.2677         -48.8277        -41.2637       -0.0157952         145.323
0.585                   -1.69011        -167.715         -48.7053        -43.6806         -48.7036        -43.6765       -0.0159462         145.248
0.586                   -1.72364        -168.331         -48.5819        -46.0907         -48.5801        -46.0864       -0.0160992         145.173
0.587                   -1.75748        -168.951         -48.4592        -48.4978         -48.4574        -48.4935       -0.0162543         145.098
0.588                   -1.79166        -169.575          -48.337        -50.9021         -48.3352        -50.8976       -0.0164116         145.023
0.589                    -1.8262        -170.203         -48.2155        -53.3034         -48.2136        -53.2988       -0.0165715         144.948
0.59                    -1.86112        -170.835         -48.0944        -55.7018         -48.0925        -55.6971       -0.0167341         144.872
0.591                   -1.89645        -171.471         -47.9739        -58.0973          -47.972        -58.0926       -0.0168995         144.797
0.592                   -1.93222        -172.112         -47.8538        -60.4899         -47.8519        -60.4852       -0.0170679         144.721
0.593                   -1.96845        -172.758         -47.7342        -62.8797         -47.7322        -62.8749       -0.0172394         144.645
0.594                   -2.00518        -173.408         -47.6149        -65.2667         -47.6129        -65.2619       -0.0174142         144.568
0.595                   -2.04244        -174.063          -47.496        -67.6511          -47.494        -67.6463       -0.0175924         144.492
0.596                   -2.08027        -174.724         -47.3774        -70.0328         -47.3754         -70.028       -0.0177739         144.415
0.597                    -2.1187         -175.39         -47.2591        -72.4119         -47.2571        -72.4072        -0.017959         144.338
0.598                   -2.15779        -176.061         -47.1411        -74.7887         -47.1391        -74.7839       -0.0181478         144.261
0.599                   -2.19757        -176.737         -47.0234         -77.163         -47.0214        -77.1583       -0.0183402         144.184
0.6                     -2.23808         -177.42         -46.9059        -79.5351         -46.9038        -79.5305       -0.0185363         144.106
0.601                   -2.27938        -178.107         -46.7885        -81.9051         -46.7865        -81.9005       -0.0187363         144.029
0.602                    -2.3215          -178.8         -46.6714        -84.2731         -46.6693        -84.2686       -0.0189401         143.951
0.603                    -2.3645        -179.499         -46.5544        -86.6392         -46.5524        -86.6347       -0.0191478         143.873
0.604                   -2.40843         179.796         -46.4375        -89.0035         -46.4355        -88.9991       -0.0193595         143.795
0.605                   -2.45333         179.086         -46.3208        -91.3662         -46.3188        -91.3619       -0.0195753         143.716
0.606                   -2.49925          178.37         -46.2042        -93.7274         -46.2022        -93.7232       -0.0197951         143.637
0.607                   -2.54626         177.649         -46.0877        -96.0873         -46.0857        -96.0831        -0.020019         143.559
0.608                   -2.59439         176.922         -45.9713        -98.4459         -45.9693        -98.4418        -0.020247         143.479
0.609                    -2.6437         176.189          -45.855        -100.803          -45.853        -100.799       -0.0204793           143.4
0.61                    -2.69425         175.451         -45.7387         -103.16         -45.7368        -103.156       -0.0207159         143.321
0.611                   -2.74608         174.708         -45.6226        -105.516         -45.6206        -105.512       -0.0209567         143.241
0.612                   -2.79925          173.96         -45.5065        -107.871         -45.5046        -107.867       -0.0212019         143.161
0.613                   -2.85381         173.207         -45.3904        -110.225         -45.3886        -110.222       -0.0214515         143.081
0.614                   -2.90981         172.449         -45.2745        -112.579         -45.2727        -112.576       -0.0217056             143
0.615                   -2.96731         171.686         -45.1586        -114.933         -45.1568         -114.93       -0.0219642          142.92
0.616                   -3.02635         170.919         -45.0428        -117.287         -45.0411        -117.284       -0.0222273         142.839
0.617                   -3.08699         170.147         -44.9271         -119.64         -44.9254        -119.637       -0.0224951         142.757
0.618                   -3.14927         169.372         -44.8115        -121.994         -44.8098        -121.991       -0.0227675         142.676
0.619                   -3.21325         168.593          -44.696        -124.348         -44.6943        -124.345       -0.0230447         142.594
0.62                    -3.27896          167.81         -44.5805        -126.702         -44.5789        -126.699       -0.0233266         142.513
0.621                   -3.34647         167.024         -44.4652        -129.056         -44.4636        -129.053       -0.0236134         142.431
0.622                    -3.4158         166.236         -44.3501        -131.411         -44.3485        -131.408       -0.0239051         142.348
0.623                   -3.48702         165.444          -44.235        -133.766         -44.2335        -133.764       -0.0242018         142.266
0.624                   -3.56015         164.651         -44.1201        -136.122         -44.1187         -136.12       -0.0245035         142.183
0.625                   -3.63524         163.855         -44.0054        -138.478          -44.004        -138.476       -0.0248102           142.1
0.626                   -3.71234         163.059         -43.8909        -140.836         -43.8895        -140.833       -0.0251221         142.016
0.627                   -3.79146         162.261         -43.7765        -143.194         -43.7752        -143.191       -0.0254392         141.933
0.628                   -3.87266         161.462         -43.6624        -145.552         -43.6611         -145.55       -0.0257616         141.849
0.629                   -3.95596         160.663         -43.5485        -147.912         -43.5472         -147.91       -0.0260892         141.764
