! TOUCHSTONE file generated by CST MICROWAVE STUDIO
! Date and time: Mon Sep 28 15:30:49 2020
! Project name: Scenario_1_Free_SPace.cst
! Parameters = {dx1=866; L_HA=400; MT=2.54; Rad_Dielectric=30; Rad_Lower=7.3; Rad_Upper=30; a_HA=580; a_WG=246; b_HA=500; b_WG=121; c_HA=0; c_WG=187; d_feed=85; h_feed=15; h_lower=18; h_upper=40}
! Header version: 2018
! Port assignment regex: !\s*Touchstone port\s*([0-9]+)\s*=\s*(CST MWS port|CST DS port)\s*([0-9]+|Zmin|Zmax)\s*\(\"(.*)\"\)(\s*mode\s*([0-9]+))?.*
! Touchstone port assignment:
! Touchstone port 1 = CST MWS port 1 ("")
! Touchstone port 2 = CST MWS port 2 ("")
# GHz S DB R 50
0.5                    -0.148905        -122.571         -63.0144         143.748         -63.0144         143.748      -0.00659835         151.139
0.501                  -0.154928        -123.026         -62.8383         141.818         -62.8385         141.819      -0.00666287         151.074
0.502                  -0.161177        -123.483         -62.6608         139.876         -62.6613         139.878      -0.00672821         151.008
0.503                  -0.167656        -123.942          -62.482         137.922         -62.4828         137.925       -0.0067944         150.943
0.504                  -0.174364        -124.402         -62.3019         135.954          -62.303         135.958      -0.00686143         150.877
0.505                  -0.181305        -124.864         -62.1207         133.974          -62.122         133.979      -0.00692932         150.811
0.506                   -0.18848        -125.327         -61.9382         131.981         -61.9398         131.987      -0.00699808         150.746
0.507                  -0.195891        -125.793         -61.7547         129.975         -61.7565         129.982      -0.00706771          150.68
0.508                   -0.20354        -126.259           -61.57         127.956          -61.572         127.963      -0.00713824         150.614
0.509                  -0.211429        -126.728         -61.3844         125.923         -61.3866         125.931      -0.00720967         150.548
0.51                   -0.219559        -127.198         -61.1977         123.877         -61.2001         123.886      -0.00728201         150.482
0.511                  -0.227932        -127.669         -61.0101         121.818         -61.0127         121.828      -0.00735527         150.416
0.512                  -0.236551        -128.143         -60.8217         119.745         -60.8244         119.755      -0.00742947          150.35
0.513                  -0.245416        -128.617         -60.6325         117.659         -60.6353         117.669      -0.00750461         150.283
0.514                   -0.25453        -129.094         -60.4425         115.559         -60.4455          115.57      -0.00758071         150.217
0.515                  -0.263895        -129.572         -60.2518         113.445         -60.2549         113.456      -0.00765777         150.151
0.516                  -0.273511        -130.052         -60.0605         111.317         -60.0637         111.329      -0.00773581         150.084
0.517                  -0.283382        -130.534         -59.8686         109.175         -59.8719         109.188      -0.00781485         150.017
0.518                  -0.293509        -131.017         -59.6762         107.019         -59.6796         107.032      -0.00789488         149.951
0.519                  -0.303894        -131.502         -59.4835          104.85         -59.4869         104.863      -0.00797593         149.884
0.52                   -0.314538        -131.988         -59.2903         102.666         -59.2939         102.679        -0.008058         149.817
0.521                  -0.325443        -132.476         -59.0969         100.468         -59.1005         100.482      -0.00814111          149.75
0.522                  -0.336612        -132.966         -58.9033         98.2558          -58.907         98.2698      -0.00822527         149.683
0.523                  -0.348045        -133.458         -58.7096         96.0298         -58.7133          96.044      -0.00831049         149.616
0.524                  -0.359745        -133.951         -58.5159         93.7898         -58.5196         93.8041      -0.00839678         149.548
0.525                  -0.371714        -134.446         -58.3222         91.5357         -58.3259         91.5502      -0.00848416         149.481
0.526                  -0.383953        -134.943         -58.1286         89.2678         -58.1323         89.2824      -0.00857263         149.414
0.527                  -0.396464        -135.441         -57.9352          86.986         -57.9389         87.0008      -0.00866222         149.346
0.528                  -0.409248        -135.941         -57.7421         84.6906         -57.7458         84.7054      -0.00875292         149.279
0.529                  -0.422309        -136.443         -57.5494         82.3816          -57.553         82.3965      -0.00884476         149.211
0.53                   -0.435647        -136.947         -57.3571         80.0592         -57.3607         80.0741      -0.00893775         149.143
0.531                  -0.449264        -137.452         -57.1654         77.7235         -57.1689         77.7384      -0.00903189         149.075
0.532                  -0.463162        -137.959         -56.9743         75.3748         -56.9778         75.3896      -0.00912721         149.007
0.533                  -0.477343        -138.468         -56.7839         73.0133         -56.7873         73.0281      -0.00922371         148.939
0.534                  -0.491809        -138.978         -56.5943         70.6392         -56.5976         70.6539      -0.00932141         148.871
0.535                  -0.506561         -139.49         -56.4055         68.2529         -56.4088         68.2675      -0.00942032         148.803
0.536                  -0.521601        -140.004         -56.2177         65.8546          -56.221         65.8691      -0.00952045         148.734
0.537                  -0.536932         -140.52          -56.031         63.4447         -56.0341          63.459      -0.00962181         148.666
0.538                  -0.552555        -141.038         -55.8453         61.0235         -55.8484         61.0376      -0.00972443         148.597
0.539                  -0.568472        -141.557         -55.6609         58.5914         -55.6638         58.6053       -0.0098283         148.528
0.54                   -0.584685        -142.078         -55.4777         56.1488         -55.4805         56.1625      -0.00993345          148.46
0.541                  -0.601196        -142.601         -55.2958         53.6962         -55.2985         53.7096       -0.0100399         148.391
0.542                  -0.618007        -143.126         -55.1153          51.234         -55.1179         51.2471       -0.0101476         148.322
0.543                  -0.635119        -143.653         -54.9362         48.7627         -54.9387         48.7754       -0.0102567         148.253
0.544                  -0.652535        -144.182         -54.7587         46.2827         -54.7611         46.2951        -0.010367         148.183
0.545                  -0.670257        -144.712         -54.5828         43.7946          -54.585         43.8067       -0.0104787         148.114
0.546                  -0.688286        -145.245         -54.4084          41.299         -54.4105         41.3107       -0.0105918         148.045
0.547                  -0.706626        -145.779         -54.2357         38.7963         -54.2377         38.8076       -0.0107062         147.975
0.548                  -0.725277        -146.315         -54.0647         36.2872         -54.0666         36.2981       -0.0108219         147.905
0.549                  -0.744243        -146.853         -53.8955         33.7722         -53.8972         33.7826       -0.0109391         147.836
0.55                   -0.763526        -147.393          -53.728         31.2519         -53.7296         31.2619       -0.0110577         147.766
0.551                  -0.783127        -147.935         -53.5622         28.7268         -53.5638         28.7364       -0.0111776         147.696
0.552                  -0.803049        -148.479         -53.3983         26.1977         -53.3997         26.2067        -0.011299         147.626
0.553                  -0.823295        -149.026         -53.2363         23.6649         -53.2375         23.6735       -0.0114218         147.555
0.554                  -0.843867        -149.574          -53.076         21.1293         -53.0772         21.1373        -0.011546         147.485
0.555                  -0.864768        -150.124         -52.9176         18.5913         -52.9187         18.5988       -0.0116716         147.415
0.556                     -0.886        -150.676          -52.761         16.0515          -52.762         16.0585       -0.0117987         147.344
0.557                  -0.907566         -151.23         -52.6062         13.5105         -52.6071          13.517       -0.0119273         147.273
0.558                  -0.929468        -151.787         -52.4533         10.9688          -52.454         10.9748       -0.0120573         147.202
0.559                   -0.95171        -152.346         -52.3021         8.42701         -52.3027         8.43249       -0.0121887         147.132
0.56                   -0.974296        -152.906         -52.1527         5.88565         -52.1532         5.89061       -0.0123216          147.06
0.561                  -0.997227        -153.469          -52.005          3.3452         -52.0054         3.34965        -0.012456         146.989
0.562                   -1.02051        -154.035          -51.859        0.806164         -51.8594        0.810101       -0.0125919         146.918
0.563                   -1.04414        -154.602         -51.7147          -1.731          -51.715        -1.72757       -0.0127292         146.847
0.564                   -1.06813        -155.172          -51.572        -4.26585         -51.5722        -4.26291       -0.0128679         146.775
0.565                   -1.09248        -155.744         -51.4309        -6.79798         -51.4311        -6.79552       -0.0130081         146.703
0.566                   -1.11719        -156.319         -51.2914        -9.32699         -51.2914          -9.325       -0.0131498         146.631
0.567                   -1.14227        -156.896         -51.1533        -11.8525         -51.1533         -11.851       -0.0132928         146.559
0.568                   -1.16773        -157.475         -51.0166        -14.3743         -51.0166        -14.3732       -0.0134373         146.487
0.569                   -1.19356        -158.057         -50.8814        -16.8919         -50.8813        -16.8912       -0.0135831         146.415
0.57                    -1.21977        -158.641         -50.7474        -19.4051         -50.7473        -19.4049       -0.0137303         146.343
0.571                   -1.24637        -159.228         -50.6148        -21.9137         -50.6145        -21.9139       -0.0138788          146.27
0.572                   -1.27336        -159.818         -50.4833        -24.4175          -50.483         -24.418       -0.0140287         146.198
0.573                   -1.30075         -160.41          -50.353        -26.9163         -50.3527        -26.9171       -0.0141797         146.125
0.574                   -1.32855        -161.005         -50.2237        -29.4099         -50.2234         -29.411        -0.014332         146.052
0.575                   -1.35675        -161.603         -50.0955        -31.8981         -50.0952        -31.8996       -0.0144854         145.979
0.576                   -1.38538        -162.203         -49.9683         -34.381         -49.9679        -34.3828       -0.0146399         145.906
0.577                   -1.41442        -162.806          -49.842        -36.8584         -49.8416        -36.8605       -0.0147955         145.832
0.578                    -1.4439        -163.413         -49.7165        -39.3303         -49.7161        -39.3326        -0.014952         145.759
0.579                   -1.47382        -164.022         -49.5918        -41.7967         -49.5914        -41.7992       -0.0151093         145.685
0.58                    -1.50418        -164.634         -49.4678        -44.2575         -49.4674        -44.2602       -0.0152675         145.611
0.581                   -1.53501        -165.249         -49.3446        -46.7128         -49.3441        -46.7157       -0.0154263         145.537
0.582                    -1.5663        -165.868         -49.2219        -49.1627         -49.2215        -49.1657       -0.0155858         145.463
0.583                   -1.59806        -166.489         -49.0999        -51.6072         -49.0994        -51.6103       -0.0157458         145.389
0.584                   -1.63032        -167.114         -48.9783        -54.0464         -48.9779        -54.0496       -0.0159061         145.315
0.585                   -1.66307        -167.742         -48.8573        -56.4804         -48.8568        -56.4837       -0.0160668          145.24
0.586                   -1.69634        -168.374         -48.7366        -58.9093         -48.7362        -58.9127       -0.0162277         145.165
0.587                   -1.73013        -169.009         -48.6164        -61.3334         -48.6159        -61.3368       -0.0163887          145.09
0.588                   -1.76445        -169.648         -48.4965        -63.7526          -48.496        -63.7561       -0.0165498         145.015
0.589                   -1.79933         -170.29         -48.3769        -66.1673         -48.3765        -66.1707        -0.016711          144.94
0.59                    -1.83478        -170.936         -48.2576        -68.5776         -48.2572         -68.581       -0.0168722         144.864
0.591                   -1.87082        -171.585         -48.1385        -70.9836         -48.1381         -70.987       -0.0170335         144.789
0.592                   -1.90746        -172.239         -48.0197        -73.3856         -48.0192        -73.3889       -0.0171949         144.713
0.593                   -1.94471        -172.896          -47.901        -75.7837         -47.9006         -75.787       -0.0173568         144.637
0.594                   -1.98262        -173.557         -47.7824        -78.1782          -47.782        -78.1815       -0.0175191         144.561
0.595                   -2.02118        -174.222          -47.664        -80.5694         -47.6637        -80.5725       -0.0176824         144.484
0.596                   -2.06043        -174.892         -47.5457        -82.9573         -47.5454        -82.9603       -0.0178469         144.408
0.597                   -2.10039        -175.566         -47.4275        -85.3423         -47.4272        -85.3452        -0.018013         144.331
0.598                   -2.14108        -176.243         -47.3094        -87.7245         -47.3091        -87.7273       -0.0181814         144.254
0.599                   -2.18254        -176.926         -47.1913        -90.1042          -47.191        -90.1069       -0.0183526         144.176
0.6                     -2.22478        -177.612         -47.0733        -92.4817          -47.073        -92.4842       -0.0185272         144.099
0.601                   -2.26785        -178.303         -46.9553         -94.857          -46.955        -94.8594       -0.0187058         144.021
0.602                   -2.31176        -178.999         -46.8374        -97.2305         -46.8371        -97.2327       -0.0188891         143.943
0.603                   -2.35657        -179.699         -46.7195        -99.6023         -46.7192        -99.6044       -0.0190775         143.865
0.604                   -2.40229         179.597         -46.6016        -101.973         -46.6013        -101.975       -0.0192717         143.787
0.605                   -2.44897         178.888         -46.4837        -104.342         -46.4835        -104.344       -0.0194721         143.708
0.606                   -2.49665         178.174         -46.3659         -106.71         -46.3657        -106.712       -0.0196789         143.629
0.607                   -2.54536         177.455         -46.2481        -109.077         -46.2479        -109.079       -0.0198925          143.55
0.608                   -2.59516         176.732         -46.1303        -111.444         -46.1301        -111.445        -0.020113         143.471
0.609                   -2.64608         176.004         -46.0126         -113.81         -46.0124        -113.812       -0.0203404         143.392
0.61                    -2.69818         175.271          -45.895        -116.176         -45.8948        -116.177       -0.0205746         143.312
0.611                    -2.7515         174.534         -45.7774        -118.542         -45.7772        -118.543       -0.0208156         143.232
0.612                   -2.80608         173.792         -45.6599        -120.908         -45.6597        -120.909       -0.0210631         143.152
0.613                     -2.862         173.046         -45.5425        -123.274         -45.5423        -123.275       -0.0213169         143.072
0.614                   -2.91929         172.295         -45.4251         -125.64          -45.425        -125.641       -0.0215769         142.991
0.615                   -2.97801          171.54          -45.308        -128.007         -45.3078        -128.007       -0.0218427          142.91
0.616                   -3.03823         170.781         -45.1909        -130.374         -45.1908        -130.374        -0.022114         142.829
0.617                   -3.09999         170.018          -45.074        -132.742         -45.0738        -132.742       -0.0223907         142.748
0.618                   -3.16336         169.251         -44.9572        -135.111         -44.9571        -135.111       -0.0226726         142.666
0.619                   -3.22839         168.481         -44.8407         -137.48         -44.8406         -137.48       -0.0229593         142.585
0.62                    -3.29515         167.707         -44.7243         -139.85         -44.7242         -139.85       -0.0232508         142.503
0.621                   -3.36369          166.93         -44.6082        -142.221         -44.6081        -142.221       -0.0235469         142.421
0.622                   -3.43407         166.151         -44.4923        -144.593         -44.4922        -144.593       -0.0238476         142.338
0.623                   -3.50635         165.369         -44.3767        -146.966         -44.3766        -146.966       -0.0241526         142.256
0.624                   -3.58058         164.585         -44.2614         -149.34         -44.2613         -149.34       -0.0244619         142.173
0.625                   -3.65682           163.8         -44.1463        -151.715         -44.1463        -151.714       -0.0247755          142.09
0.626                    -3.7351         163.013         -44.0316        -154.091         -44.0315         -154.09       -0.0250934         142.006
0.627                   -3.81549         162.227         -43.9172        -156.468         -43.9171        -156.467       -0.0254155         141.923
0.628                   -3.89802          161.44         -43.8032        -158.846         -43.8031        -158.845        -0.025742         141.839
0.629                   -3.98272         160.654         -43.6895        -161.224         -43.6894        -161.223       -0.0260727         141.754
