! TOUCHSTONE file generated by CST MICROWAVE STUDIO
! Date and time: Mon Sep 28 15:31:13 2020
! Project name: Scenario_1_Free_SPace.cst
! Parameters = {dx1=900.7; L_HA=400; MT=2.54; Rad_Dielectric=30; Rad_Lower=7.3; Rad_Upper=30; a_HA=580; a_WG=246; b_HA=500; b_WG=121; c_HA=0; c_WG=187; d_feed=85; h_feed=15; h_lower=18; h_upper=40}
! Header version: 2018
! Port assignment regex: !\s*Touchstone port\s*([0-9]+)\s*=\s*(CST MWS port|CST DS port)\s*([0-9]+|Zmin|Zmax)\s*\(\"(.*)\"\)(\s*mode\s*([0-9]+))?.*
! Touchstone port assignment:
! Touchstone port 1 = CST MWS port 1 ("")
! Touchstone port 2 = CST MWS port 2 ("")
# GHz S DB R 50
0.5                    -0.146828        -122.595         -63.0744         124.111         -63.1556         124.321       -0.0065448         151.136
0.501                  -0.151252        -123.042         -62.8902         122.028         -62.9719         122.268      -0.00660893         151.071
0.502                  -0.155929        -123.491         -62.7049         119.934         -62.7868         120.202      -0.00667417         151.005
0.503                  -0.160862        -123.942         -62.5185          117.83         -62.6005         118.122       -0.0067405          150.94
0.504                  -0.166055        -124.394         -62.3312         115.714         -62.4129         116.029      -0.00680794         150.874
0.505                   -0.17151        -124.849         -62.1431         113.588         -62.2242         113.922      -0.00687648         150.808
0.506                   -0.17723        -125.306          -61.954          111.45         -62.0345         111.801      -0.00694612         150.743
0.507                  -0.183218        -125.765         -61.7642         109.301         -61.8437         109.666      -0.00701687         150.677
0.508                  -0.189477        -126.225         -61.5737         107.141         -61.6519         107.518      -0.00708873         150.611
0.509                  -0.196009        -126.688         -61.3825          104.97         -61.4593         105.357      -0.00716169         150.545
0.51                   -0.202818        -127.153         -61.1907         102.788         -61.2658         103.182      -0.00723576         150.479
0.511                  -0.209906        -127.619         -60.9983         100.595         -61.0717         100.993      -0.00731093         150.412
0.512                  -0.217276        -128.088         -60.8055         98.3902         -60.8768         98.7912      -0.00738722         150.346
0.513                   -0.22493        -128.558         -60.6123         96.1744         -60.6814          96.576      -0.00746462          150.28
0.514                  -0.232873        -129.031         -60.4188         93.9472         -60.4855         94.3476      -0.00754313         150.213
0.515                  -0.241105        -129.505         -60.2249         91.7088         -60.2892         92.1061      -0.00762275         150.147
0.516                  -0.249631        -129.982         -60.0309         89.4592         -60.0926         89.8515      -0.00770348          150.08
0.517                  -0.258452         -130.46         -59.8368         87.1984         -59.8957         87.5839      -0.00778532         150.014
0.518                  -0.267572         -130.94         -59.6426         84.9264         -59.6987         85.3036      -0.00786828         149.947
0.519                  -0.276993        -131.422         -59.4484         82.6433         -59.5015         83.0106      -0.00795235          149.88
0.52                   -0.286717        -131.907         -59.2543         80.3491         -59.3044         80.7051      -0.00803753         149.813
0.521                  -0.296748        -132.393         -59.0604         78.0439         -59.1074         78.3872      -0.00812382         149.746
0.522                  -0.307088        -132.881         -58.8667         75.7278         -58.9106         76.0572      -0.00821123         149.679
0.523                   -0.31774        -133.371         -58.6733          73.401         -58.7141         73.7152      -0.00829975         149.612
0.524                  -0.328705        -133.862         -58.4803         71.0634          -58.518         71.3615      -0.00838938         149.545
0.525                  -0.339987        -134.356         -58.2877         68.7153         -58.3223         68.9963      -0.00848012         149.477
0.526                  -0.351589        -134.852         -58.0957         66.3568         -58.1271         66.6198      -0.00857197          149.41
0.527                  -0.363511         -135.35         -57.9042         63.9881         -57.9326         64.2323      -0.00866492         149.342
0.528                  -0.375758        -135.849         -57.7135         61.6093         -57.7388         61.8342      -0.00875899         149.275
0.529                  -0.388331         -136.35         -57.5234         59.2207         -57.5457         59.4257      -0.00885415         149.207
0.53                   -0.401233        -136.854         -57.3341         56.8225         -57.3536         57.0071      -0.00895042         149.139
0.531                  -0.414465        -137.359         -57.1457         54.4148         -57.1624         54.5788      -0.00904779         149.071
0.532                  -0.428031        -137.866         -56.9582          51.998         -56.9723         52.1412      -0.00914625         149.003
0.533                  -0.441932        -138.375         -56.7717         49.5723         -56.7832         49.6946       -0.0092458         148.935
0.534                  -0.456171        -138.886         -56.5863         47.1381         -56.5953         47.2395      -0.00934645         148.867
0.535                  -0.470749        -139.399         -56.4019         44.6955         -56.4087         44.7762      -0.00944817         148.799
0.536                   -0.48567        -139.913         -56.2187          42.245         -56.2233         42.3052      -0.00955097          148.73
0.537                  -0.500934         -140.43         -56.0368         39.7868         -56.0393         39.8269      -0.00965484         148.662
0.538                  -0.516544        -140.948          -55.856         37.3213         -55.8567         37.3417      -0.00975978         148.593
0.539                  -0.532502        -141.468         -55.6766         34.8488         -55.6756         34.8502      -0.00986577         148.525
0.54                   -0.548809         -141.99         -55.4985         32.3698          -55.496         32.3528      -0.00997282         148.456
0.541                  -0.565468        -142.514         -55.3219         29.8845         -55.3179           29.85       -0.0100809         148.387
0.542                  -0.582481         -143.04         -55.1466         27.3934         -55.1414         27.3423         -0.01019         148.318
0.543                  -0.599848        -143.568         -54.9728         24.8969         -54.9666           24.83       -0.0103001         148.249
0.544                  -0.617572        -144.098         -54.8005         22.3954         -54.7933         22.3139       -0.0104113          148.18
0.545                  -0.635655        -144.629         -54.6296         19.8892         -54.6218         19.7942       -0.0105234          148.11
0.546                  -0.654098        -145.162         -54.4603         17.3788         -54.4519         17.2715       -0.0106365         148.041
0.547                  -0.672902        -145.697         -54.2926         14.8647         -54.2837         14.7463       -0.0107505         147.972
0.548                  -0.692069        -146.234         -54.1264         12.3471         -54.1172         12.2191       -0.0108655         147.902
0.549                  -0.711601        -146.773         -53.9617         9.82653         -53.9524         9.69025       -0.0109814         147.832
0.55                   -0.731499        -147.314         -53.7987         7.30338         -53.7893         7.16027       -0.0110982         147.762
0.551                  -0.751763        -147.857         -53.6372         4.77806         -53.6279         4.62959       -0.0112158         147.692
0.552                  -0.772396        -148.401         -53.4773         2.25095         -53.4681         2.09863       -0.0113343         147.622
0.553                  -0.793399        -148.947         -53.3189       -0.277559         -53.3101       -0.432207       -0.0114536         147.552
0.554                  -0.814772        -149.496         -53.1621        -2.80709         -53.1536        -2.96253       -0.0115737         147.482
0.555                  -0.836518        -150.046         -53.0068        -5.33727         -52.9988        -5.49197       -0.0116945         147.412
0.556                  -0.858636        -150.598          -52.853        -7.86776         -52.8455        -8.02018        -0.011816         147.341
0.557                  -0.881128        -151.152         -52.7008        -10.3982         -52.6938        -10.5468       -0.0119382          147.27
0.558                  -0.903995        -151.708           -52.55        -12.9283         -52.5436        -13.0716       -0.0120609           147.2
0.559                  -0.927237        -152.266         -52.4006        -15.4577         -52.3949        -15.5942       -0.0121842         147.129
0.56                   -0.950856        -152.825         -52.2527        -17.9861         -52.2477        -18.1145        -0.012308         147.058
0.561                  -0.974853        -153.387         -52.1062        -20.5132         -52.1018        -20.6321       -0.0124322         146.987
0.562                  -0.999229        -153.951         -51.9611        -23.0389         -51.9573        -23.1468       -0.0125568         146.916
0.563                   -1.02398        -154.516         -51.8172        -25.5628         -51.8142        -25.6585       -0.0126817         146.844
0.564                   -1.04912        -155.084         -51.6747        -28.0846         -51.6722         -28.167       -0.0128068         146.773
0.565                   -1.07463        -155.654         -51.5334        -30.6043         -51.5316        -30.6722        -0.012932         146.701
0.566                   -1.10053        -156.226         -51.3934        -33.1216          -51.392        -33.1739       -0.0130572         146.629
0.567                   -1.12681        -156.799         -51.2545        -35.6364         -51.2537        -35.6721       -0.0131825         146.557
0.568                   -1.15347        -157.375         -51.1167        -38.1485         -51.1164        -38.1667       -0.0133075         146.485
0.569                   -1.18052        -157.954         -50.9801        -40.6577         -50.9801        -40.6577       -0.0134323         146.413
0.57                    -1.20795        -158.534         -50.8445         -43.164         -50.8448         -43.145       -0.0135568         146.341
0.571                   -1.23577        -159.116         -50.7099        -45.6673         -50.7104        -45.6287       -0.0136808         146.268
0.572                   -1.26397        -159.701         -50.5763        -48.1674          -50.577        -48.1087       -0.0138042         146.196
0.573                   -1.29257        -160.288         -50.4436        -50.6644         -50.4444         -50.585        -0.013927         146.123
0.574                   -1.32155        -160.878         -50.3118        -53.1582         -50.3126        -53.0579        -0.014049          146.05
0.575                   -1.35092         -161.47         -50.1809        -55.6488         -50.1815        -55.5272       -0.0141701         145.977
0.576                   -1.38069        -162.064         -50.0507        -58.1361         -50.0512        -57.9932       -0.0142904         145.904
0.577                   -1.41086        -162.661         -49.9214        -60.6201         -49.9215        -60.4558       -0.0144097         145.831
0.578                   -1.44142         -163.26         -49.7927         -63.101         -49.7925        -62.9153       -0.0145281         145.757
0.579                   -1.47238        -163.862         -49.6648        -65.5786         -49.6641        -65.3717       -0.0146456         145.683
0.58                    -1.50374        -164.467         -49.5375        -68.0531         -49.5363        -67.8251       -0.0147622          145.61
0.581                   -1.53552        -165.074         -49.4109        -70.5245          -49.409        -70.2758       -0.0148782         145.536
0.582                    -1.5677        -165.684         -49.2849        -72.9929         -49.2823        -72.7239       -0.0149937         145.461
0.583                    -1.6003        -166.298         -49.1594        -75.4584          -49.156        -75.1695       -0.0151091         145.387
0.584                   -1.63332        -166.914         -49.0345        -77.9209         -49.0301        -77.6127       -0.0152247         145.312
0.585                   -1.66677        -167.533           -48.91        -80.3807         -48.9047        -80.0539       -0.0153412         145.237
0.586                   -1.70065        -168.156         -48.7861        -82.8379         -48.7797         -82.493       -0.0154591         145.162
0.587                   -1.73498        -168.782         -48.6626        -85.2924         -48.6551        -84.9304       -0.0155793         145.087
0.588                   -1.76975        -169.412         -48.5395        -87.7445         -48.5309        -87.3661       -0.0157025         145.012
0.589                   -1.80499        -170.045         -48.4169        -90.1942         -48.4071        -89.8003       -0.0158298         144.936
0.59                    -1.84071        -170.682         -48.2946        -92.6417         -48.2835        -92.2333       -0.0159621          144.86
0.591                   -1.87691        -171.322         -48.1728        -95.0871         -48.1604        -94.6652       -0.0161006         144.784
0.592                   -1.91361        -171.967         -48.0512        -97.5305         -48.0375        -97.0962       -0.0162462         144.708
0.593                   -1.95084        -172.616         -47.9301         -99.972          -47.915        -99.5263          -0.0164         144.631
0.594                    -1.9886        -173.269         -47.8092        -102.412         -47.7927        -101.956       -0.0165628         144.555
0.595                   -2.02692        -173.926         -47.6887         -104.85         -47.6708        -104.385       -0.0167354         144.478
0.596                   -2.06583        -174.588         -47.5684        -107.286         -47.5492        -106.814       -0.0169182         144.401
0.597                   -2.10536        -175.255         -47.4485        -109.722         -47.4279        -109.242       -0.0171116         144.323
0.598                   -2.14553        -175.927         -47.3289        -112.156         -47.3069        -111.671       -0.0173157         144.246
0.599                   -2.18637        -176.604         -47.2095        -114.588         -47.1862        -114.099       -0.0175303         144.168
0.6                     -2.22793        -177.287         -47.0904         -117.02         -47.0658        -116.528       -0.0177549          144.09
0.601                   -2.27025        -177.974         -46.9716        -119.451         -46.9457        -118.957       -0.0179891         144.012
0.602                   -2.31338        -178.667         -46.8531        -121.881         -46.8259        -121.387       -0.0182322         143.934
0.603                   -2.35735        -179.366         -46.7348         -124.31         -46.7065        -123.817       -0.0184833         143.855
0.604                   -2.40224         179.929         -46.6169        -126.739         -46.5874        -126.247       -0.0187418         143.777
0.605                    -2.4481         179.218         -46.4991        -129.166         -46.4686        -128.678       -0.0190066         143.698
0.606                     -2.495         178.501         -46.3817        -131.594         -46.3502         -131.11       -0.0192771         143.619
0.607                     -2.543         177.778         -46.2645        -134.021         -46.2321        -133.543       -0.0195524          143.54
0.608                   -2.59218         177.049         -46.1476        -136.448         -46.1144        -135.976        -0.019832         143.461
0.609                   -2.64263         176.314          -46.031        -138.874         -45.9971         -138.41       -0.0201151         143.381
0.61                    -2.69442         175.572         -45.9147          -141.3         -45.8801        -140.845       -0.0204014         143.302
0.611                   -2.74764         174.825         -45.7986        -143.726         -45.7635        -143.281       -0.0206904         143.222
0.612                    -2.8024         174.072         -45.6829        -146.152         -45.6474        -145.717       -0.0209818         143.142
0.613                   -2.85877         173.313         -45.5674        -148.577         -45.5316        -148.154       -0.0212753         143.062
0.614                   -2.91687         172.549         -45.4522        -151.003         -45.4163        -150.592       -0.0215707         142.981
0.615                   -2.97677          171.78         -45.3374        -153.428         -45.3014        -153.031        -0.021868         142.901
0.616                   -3.03858         171.007         -45.2228        -155.853         -45.1869        -155.471        -0.022167          142.82
0.617                   -3.10238         170.229         -45.1086        -158.279         -45.0729         -157.91       -0.0224677         142.739
0.618                   -3.16826         169.449         -44.9947        -160.704         -44.9593        -160.351       -0.0227702         142.657
0.619                    -3.2363         168.666         -44.8811        -163.129         -44.8462        -162.792       -0.0230745         142.576
0.62                    -3.30655         167.881         -44.7678        -165.554         -44.7335        -165.233       -0.0233807         142.494
0.621                   -3.37908         167.095         -44.6548        -167.979         -44.6213        -167.675       -0.0236888         142.412
0.622                   -3.45391         166.309         -44.5422        -170.404         -44.5095        -170.117       -0.0239991          142.33
0.623                   -3.53108         165.524         -44.4299        -172.828         -44.3982        -172.559       -0.0243116         142.247
0.624                   -3.61058         164.741          -44.318        -175.253         -44.2874            -175       -0.0246265         142.165
0.625                    -3.6924         163.962         -44.2064        -177.677          -44.177        -177.442       -0.0249439         142.082
0.626                   -3.77651         163.186         -44.0951         179.899          -44.067        -179.884        -0.025264         141.998
0.627                   -3.86284         162.415         -43.9841         177.475         -43.9575         177.675        -0.025587         141.915
0.628                   -3.95132          161.65         -43.8735         175.052         -43.8485         175.234       -0.0259131         141.831
0.629                   -4.04186         160.892         -43.7633         172.629         -43.7399         172.793       -0.0262423         141.747
