! TOUCHSTONE file generated by CST MICROWAVE STUDIO
! Date and time: Mon Sep 28 15:31:25 2020
! Project name: Scenario_1_Free_SPace.cst
! Parameters = {dx1=918; L_HA=400; MT=2.54; Rad_Dielectric=30; Rad_Lower=7.3; Rad_Upper=30; a_HA=580; a_WG=246; b_HA=500; b_WG=121; c_HA=0; c_WG=187; d_feed=85; h_feed=15; h_lower=18; h_upper=40}
! Header version: 2018
! Port assignment regex: !\s*Touchstone port\s*([0-9]+)\s*=\s*(CST MWS port|CST DS port)\s*([0-9]+|Zmin|Zmax)\s*\(\"(.*)\"\)(\s*mode\s*([0-9]+))?.*
! Touchstone port assignment:
! Touchstone port 1 = CST MWS port 1 ("")
! Touchstone port 2 = CST MWS port 2 ("")
# GHz S DB R 50
0.5                     -0.14649        -122.558         -63.2128          114.53         -63.2128          114.53      -0.00654138         151.138
0.501                  -0.150774        -122.999         -63.0231         112.365          -63.023         112.365        -0.006602         151.073
0.502                  -0.155326        -123.442         -62.8323         110.194         -62.8321         110.194      -0.00666404         151.007
0.503                  -0.160151        -123.888         -62.6403         108.017           -62.64         108.017       -0.0067275         150.942
0.504                   -0.16525        -124.336         -62.4473         105.833          -62.447         105.833      -0.00679237         150.876
0.505                  -0.170629        -124.786         -62.2533         103.642          -62.253         103.642      -0.00685865         150.811
0.506                  -0.176289        -125.239         -62.0585         101.445         -62.0581         101.444      -0.00692634         150.745
0.507                  -0.182233        -125.694         -61.8629         99.2393         -61.8624         99.2386      -0.00699543         150.679
0.508                  -0.188466        -126.151         -61.6665         97.0265          -61.666         97.0258      -0.00706592         150.613
0.509                   -0.19499        -126.611         -61.4696         94.8059          -61.469         94.8052       -0.0071378         150.547
0.51                   -0.201808        -127.073          -61.272         92.5773         -61.2715         92.5766      -0.00721107         150.481
0.511                  -0.208922        -127.537          -61.074         90.3405         -61.0735         90.3398      -0.00728572         150.415
0.512                  -0.216336        -128.003         -60.8756         88.0953         -60.8751         88.0945      -0.00736175         150.349
0.513                  -0.224052        -128.471         -60.6769         85.8413         -60.6763         85.8406      -0.00743914         150.282
0.514                  -0.232072        -128.942          -60.478         83.5786         -60.4774         83.5779      -0.00751789         150.216
0.515                    -0.2404        -129.415         -60.2789         81.3068         -60.2783         81.3061        -0.007598          150.15
0.516                  -0.249038         -129.89         -60.0797         79.0258         -60.0791         79.0252      -0.00767944         150.083
0.517                  -0.257988        -130.367         -59.8806         76.7354           -59.88         76.7349      -0.00776221         150.016
0.518                  -0.267252        -130.846         -59.6815         74.4355         -59.6809          74.435       -0.0078463          149.95
0.519                  -0.276832        -131.327         -59.4826          72.126         -59.4821         72.1256      -0.00793169         149.883
0.52                   -0.286731        -131.811          -59.284         69.8067         -59.2835         69.8064      -0.00801838         149.816
0.521                   -0.29695        -132.296         -59.0857         67.4776         -59.0852         67.4773      -0.00810634         149.749
0.522                  -0.307491        -132.784         -58.8878         65.1386         -58.8874         65.1384      -0.00819556         149.682
0.523                  -0.318356        -133.273         -58.6905         62.7896           -58.69         62.7894      -0.00828603         149.615
0.524                  -0.329547        -133.765         -58.4937         60.4306         -58.4933         60.4305      -0.00837772         149.548
0.525                  -0.341064        -134.258         -58.2975         58.0615         -58.2972         58.0616      -0.00847062          149.48
0.526                   -0.35291        -134.754         -58.1022         55.6825         -58.1018         55.6827      -0.00856471         149.413
0.527                  -0.365085        -135.251         -57.9076         53.2936         -57.9073         53.2938      -0.00865996         149.345
0.528                  -0.377591        -135.751         -57.7139         50.8948         -57.7136         50.8951      -0.00875636         149.278
0.529                  -0.390428        -136.252         -57.5212         48.4862         -57.5209         48.4866      -0.00885387          149.21
0.53                   -0.403597        -136.756         -57.3296         46.0679         -57.3293         46.0685      -0.00895248         149.143
0.531                    -0.4171        -137.261          -57.139         43.6402         -57.1388         43.6408      -0.00905214         149.075
0.532                  -0.430936        -137.768         -56.9496         41.2031         -56.9495         41.2038      -0.00915284         149.007
0.533                  -0.445107        -138.277         -56.7615         38.7568         -56.7614         38.7577      -0.00925455         148.939
0.534                  -0.459612        -138.788         -56.5747         36.3017         -56.5746         36.3026      -0.00935723         148.871
0.535                  -0.474451        -139.301         -56.3893         33.8379         -56.3892         33.8389      -0.00946084         148.802
0.536                  -0.489626        -139.816         -56.2053         31.3657         -56.2053         31.3669      -0.00956536         148.734
0.537                  -0.505135        -140.332         -56.0229         28.8855         -56.0228         28.8867      -0.00967074         148.666
0.538                  -0.520978        -140.851         -55.8419         26.3975         -55.8419         26.3989      -0.00977695         148.597
0.539                  -0.537156        -141.371         -55.6625         23.9022         -55.6625         23.9036      -0.00988395         148.529
0.54                   -0.553668        -141.893         -55.4848         21.3998         -55.4848         21.4013      -0.00999169          148.46
0.541                  -0.570512        -142.417         -55.3088         18.8907         -55.3088         18.8923       -0.0101001         148.391
0.542                   -0.58769        -142.943         -55.1344         16.3755         -55.1345         16.3771       -0.0102093         148.322
0.543                  -0.605199         -143.47         -54.9618         13.8544         -54.9619         13.8561        -0.010319         148.253
0.544                  -0.623039            -144          -54.791          11.328         -54.7911         11.3297       -0.0104293         148.184
0.545                  -0.641209        -144.531         -54.6219         8.79659          -54.622         8.79842       -0.0105401         148.115
0.546                  -0.659709        -145.064         -54.4547         6.26075         -54.4548         6.26262       -0.0106514         148.046
0.547                  -0.678536        -145.599         -54.2892         3.72091         -54.2893         3.72281       -0.0107631         147.976
0.548                   -0.69769        -146.136         -54.1256         1.17752         -54.1257         1.17945       -0.0108752         147.907
0.549                  -0.717169        -146.674         -53.9638        -1.36894         -53.9639        -1.36699       -0.0109877         147.837
0.55                   -0.736973        -147.215         -53.8038        -3.91799         -53.8039        -3.91604       -0.0111005         147.767
0.551                  -0.757099        -147.757         -53.6456        -6.46918         -53.6457        -6.46723       -0.0112135         147.697
0.552                  -0.777547        -148.302         -53.4892        -9.02204         -53.4893         -9.0201       -0.0113267         147.627
0.553                  -0.798316        -148.848         -53.3345        -11.5761         -53.3346        -11.5742       -0.0114401         147.557
0.554                  -0.819403        -149.396         -53.1817         -14.131         -53.1818        -14.1291       -0.0115537         147.487
0.555                  -0.840809        -149.946         -53.0305        -16.6861         -53.0306        -16.6843       -0.0116674         147.417
0.556                  -0.862531        -150.498          -52.881        -19.2412         -52.8811        -19.2394       -0.0117812         147.346
0.557                  -0.884569        -151.053         -52.7332        -21.7958         -52.7333        -21.7941       -0.0118951         147.276
0.558                  -0.906922        -151.609          -52.587        -24.3496         -52.5871        -24.3479       -0.0120091         147.205
0.559                  -0.929589        -152.168         -52.4424         -26.902         -52.4424        -26.9004       -0.0121231         147.134
0.56                    -0.95257        -152.728         -52.2993        -29.4529         -52.2993        -29.4514       -0.0122372         147.063
0.561                  -0.975864        -153.291         -52.1576        -32.0019         -52.1577        -32.0004       -0.0123515         146.992
0.562                  -0.999472        -153.856         -52.0174        -34.5486         -52.0175        -34.5473       -0.0124658         146.921
0.563                   -1.02339        -154.424         -51.8786        -37.0929         -51.8786        -37.0916       -0.0125804          146.85
0.564                   -1.04763        -154.993         -51.7411        -39.6344         -51.7411        -39.6332       -0.0126952         146.778
0.565                   -1.07218        -155.566         -51.6049        -42.1729         -51.6049        -42.1718       -0.0128103         146.707
0.566                   -1.09706         -156.14         -51.4698        -44.7082         -51.4698        -44.7072       -0.0129257         146.635
0.567                   -1.12225        -156.718         -51.3359        -47.2401         -51.3359        -47.2393       -0.0130417         146.563
0.568                   -1.14776        -157.298         -51.2031        -49.7685         -51.2031        -49.7678       -0.0131582         146.491
0.569                    -1.1736        -157.881         -51.0714        -52.2933         -51.0713        -52.2927       -0.0132755         146.419
0.57                    -1.19978        -158.466         -50.9406        -54.8143         -50.9405        -54.8138       -0.0133936         146.346
0.571                   -1.22629        -159.055         -50.8107        -57.3314         -50.8106         -57.331       -0.0135126         146.274
0.572                   -1.25314        -159.646         -50.6816        -59.8446         -50.6816        -59.8444       -0.0136329         146.201
0.573                   -1.28035        -160.241         -50.5534         -62.354         -50.5533        -62.3538       -0.0137545         146.128
0.574                   -1.30791        -160.839         -50.4259        -64.8593         -50.4258        -64.8593       -0.0138776         146.055
0.575                   -1.33584         -161.44         -50.2991        -67.3608          -50.299        -67.3609       -0.0140024         145.982
0.576                   -1.36416        -162.044         -50.1729        -69.8583         -50.1728        -69.8585       -0.0141291         145.909
0.577                   -1.39286        -162.652         -50.0473         -72.352         -50.0471        -72.3524        -0.014258         145.835
0.578                   -1.42197        -163.264         -49.9222         -74.842         -49.9221        -74.8424       -0.0143892         145.762
0.579                   -1.45151         -163.88         -49.7976        -77.3282         -49.7975        -77.3287       -0.0145229         145.688
0.58                    -1.48148        -164.499         -49.6734        -79.8109         -49.6733        -79.8115       -0.0146593         145.614
0.581                   -1.51191        -165.122         -49.5496        -82.2901         -49.5495        -82.2908       -0.0147987          145.54
0.582                   -1.54282        -165.749         -49.4262         -84.766         -49.4261        -84.7667       -0.0149413         145.466
0.583                   -1.57424        -166.381         -49.3031        -87.2386          -49.303        -87.2394       -0.0150871         145.391
0.584                   -1.60618        -167.016         -49.1803        -89.7083         -49.1802        -89.7092       -0.0152364         145.316
0.585                   -1.63867        -167.656         -49.0577        -92.1751         -49.0576         -92.176       -0.0153894         145.242
0.586                   -1.67175        -168.301         -48.9354        -94.6392         -48.9353        -94.6401       -0.0155463         145.167
0.587                   -1.70544         -168.95         -48.8132        -97.1007         -48.8131        -97.1017        -0.015707         145.092
0.588                   -1.73979        -169.604         -48.6913          -99.56         -48.6911         -99.561       -0.0158718         145.016
0.589                   -1.77481        -170.262         -48.5694        -102.017         -48.5693        -102.018       -0.0160408         144.941
0.59                    -1.81056        -170.925         -48.4477        -104.472         -48.4476        -104.473        -0.016214         144.865
0.591                   -1.84706        -171.593         -48.3261        -106.926          -48.326        -106.927       -0.0163916         144.789
0.592                   -1.88437        -172.265         -48.2046        -109.377         -48.2045        -109.379       -0.0165735         144.713
0.593                   -1.92252        -172.943         -48.0832        -111.828         -48.0831        -111.829       -0.0167598         144.637
0.594                   -1.96155        -173.625         -47.9619        -114.277         -47.9618        -114.278       -0.0169505          144.56
0.595                   -2.00153        -174.312         -47.8406        -116.726         -47.8405        -116.727       -0.0171457         144.484
0.596                   -2.04248        -175.003         -47.7194        -119.173         -47.7193        -119.174       -0.0173453         144.407
0.597                   -2.08446        -175.699         -47.5983         -121.62         -47.5982        -121.621       -0.0175493          144.33
0.598                   -2.12751          -176.4         -47.4773        -124.067         -47.4772        -124.068       -0.0177576         144.253
0.599                   -2.17168        -177.105         -47.3563        -126.513         -47.3562        -126.514       -0.0179704         144.176
0.6                     -2.21702        -177.814         -47.2354        -128.959         -47.2353         -128.96       -0.0181874         144.098
0.601                   -2.26357        -178.527         -47.1147        -131.405         -47.1146        -131.406       -0.0184087          144.02
0.602                   -2.31138        -179.243          -46.994        -133.852         -46.9939        -133.852       -0.0186342         143.942
0.603                   -2.36048        -179.963         -46.8734        -136.299         -46.8733        -136.299       -0.0188638         143.864
0.604                   -2.41093         179.313          -46.753        -138.746         -46.7529        -138.746       -0.0190975         143.786
0.605                   -2.46274         178.587         -46.6327        -141.194         -46.6326        -141.194       -0.0193353         143.708
0.606                   -2.51596         177.858         -46.5126        -143.642         -46.5125        -143.642        -0.019577         143.629
0.607                   -2.57062         177.127         -46.3927        -146.091         -46.3926        -146.092       -0.0198226          143.55
0.608                   -2.62673         176.393         -46.2729        -148.541         -46.2728        -148.542       -0.0200722         143.471
0.609                   -2.68433         175.659         -46.1534        -150.992         -46.1533        -150.993       -0.0203255         143.392
0.61                    -2.74341         174.923         -46.0341        -153.444          -46.034        -153.444       -0.0205826         143.312
0.611                   -2.80401         174.186          -45.915        -155.897         -45.9149        -155.897       -0.0208434         143.232
0.612                   -2.86611         173.449         -45.7962        -158.351         -45.7961        -158.351        -0.021108         143.152
0.613                   -2.92971         172.712         -45.6777        -160.806         -45.6776        -160.806       -0.0213762         143.072
0.614                   -2.99482         171.975         -45.5596        -163.262         -45.5594        -163.262        -0.021648         142.992
0.615                   -3.06142         171.239         -45.4417        -165.719         -45.4416        -165.719       -0.0219235         142.911
0.616                    -3.1295         170.505         -45.3242        -168.177         -45.3241        -168.177       -0.0222026          142.83
0.617                   -3.19902         169.771         -45.2071        -170.636          -45.207        -170.636       -0.0224853         142.749
0.618                   -3.26998         169.039         -45.0903        -173.096         -45.0902        -173.096       -0.0227716         142.668
0.619                   -3.34234          168.31          -44.974        -175.557         -44.9739        -175.556       -0.0230615         142.587
0.62                    -3.41606         167.582         -44.8581        -178.018         -44.8579        -178.018        -0.023355         142.505
0.621                   -3.49112         166.857         -44.7426          179.52         -44.7424          179.52       -0.0236523         142.423
0.622                   -3.56747         166.135         -44.6275         177.057         -44.6274         177.058       -0.0239532          142.34
0.623                   -3.64508         165.416          -44.513         174.594         -44.5128         174.595       -0.0242578         142.258
0.624                   -3.72391           164.7         -44.3988         172.131         -44.3987         172.131       -0.0245663         142.175
0.625                   -3.80391         163.987         -44.2852         169.667          -44.285         169.668       -0.0248786         142.092
0.626                   -3.88505         163.277          -44.172         167.203         -44.1719         167.204       -0.0251948         142.009
0.627                   -3.96729          162.57         -44.0593         164.739         -44.0592          164.74       -0.0255149         141.925
0.628                   -4.05059         161.867         -43.9471         162.276          -43.947         162.276       -0.0258392         141.842
0.629                   -4.13491         161.167         -43.8354         159.812         -43.8353         159.812       -0.0261676         141.757
