! TOUCHSTONE file generated by CST MICROWAVE STUDIO
! Date and time: Mon Sep 28 15:31:37 2020
! Project name: Scenario_1_Free_SPace.cst
! Parameters = {dx1=935.3; L_HA=400; MT=2.54; Rad_Dielectric=30; Rad_Lower=7.3; Rad_Upper=30; a_HA=580; a_WG=246; b_HA=500; b_WG=121; c_HA=0; c_WG=187; d_feed=85; h_feed=15; h_lower=18; h_upper=40}
! Header version: 2018
! Port assignment regex: !\s*Touchstone port\s*([0-9]+)\s*=\s*(CST MWS port|CST DS port)\s*([0-9]+|Zmin|Zmax)\s*\(\"(.*)\"\)(\s*mode\s*([0-9]+))?.*
! Touchstone port assignment:
! Touchstone port 1 = CST MWS port 1 ("")
! Touchstone port 2 = CST MWS port 2 ("")
# GHz S DB R 50
0.5                    -0.146132        -122.592         -63.2521         104.947         -63.2521         104.947      -0.00656736         151.124
0.501                  -0.150296        -123.035         -63.0532         102.792         -63.0528         102.786      -0.00663238         151.058
0.502                  -0.154759         -123.48          -62.854         100.626         -62.8532         100.615      -0.00669874         150.993
0.503                  -0.159522        -123.927         -62.6544         98.4494         -62.6534         98.4342      -0.00676642         150.927
0.504                  -0.164586        -124.377         -62.4547         96.2618         -62.4534         96.2427      -0.00683542         150.862
0.505                  -0.169954        -124.829         -62.2547         94.0632         -62.2533         94.0408      -0.00690572         150.796
0.506                  -0.175628        -125.283         -62.0546         91.8537          -62.053         91.8285      -0.00697732          150.73
0.507                  -0.181609        -125.739         -61.8543         89.6331         -61.8527         89.6056       -0.0070502         150.664
0.508                  -0.187897        -126.197          -61.654         87.4015         -61.6523         87.3723      -0.00712435         150.599
0.509                  -0.194496        -126.658         -61.4536         85.1589         -61.4519         85.1284      -0.00719976         150.533
0.51                   -0.201405        -127.121         -61.2533         82.9052         -61.2516         82.8739      -0.00727642         150.466
0.511                  -0.208627        -127.586         -61.0531         80.6405         -61.0514         80.6088      -0.00735431           150.4
0.512                  -0.216163        -128.053          -60.853         78.3647         -60.8514         78.3331      -0.00743341         150.334
0.513                  -0.224013        -128.522          -60.653         76.0779         -60.6515         76.0467      -0.00751372         150.268
0.514                  -0.232179        -128.993         -60.4533         73.7801         -60.4519         73.7496      -0.00759522         150.201
0.515                  -0.240661        -129.466         -60.2539         71.4714         -60.2526         71.4419      -0.00767788         150.135
0.516                  -0.249461        -129.942         -60.0548         69.1517         -60.0536         69.1236      -0.00776169         150.068
0.517                  -0.258579        -130.419         -59.8561         66.8211          -59.855         66.7946      -0.00784664         150.002
0.518                  -0.268015        -130.898         -59.6579         64.4797         -59.6568         64.4551       -0.0079327         149.935
0.519                  -0.277771         -131.38         -59.4601         62.1276         -59.4591          62.105      -0.00801985         149.868
0.52                   -0.287847        -131.863         -59.2629         59.7648          -59.262         59.7444      -0.00810807         149.801
0.521                  -0.298244        -132.348         -59.0663         57.3914         -59.0654         57.3734      -0.00819733         149.734
0.522                  -0.308961        -132.836         -58.8704         55.0076         -58.8696         54.9921      -0.00828762         149.667
0.523                  -0.319999        -133.325         -58.6752         52.6134         -58.6744         52.6005      -0.00837891           149.6
0.524                  -0.331358        -133.816         -58.4807         50.2091           -58.48         50.1987      -0.00847117         149.533
0.525                  -0.343038        -134.309         -58.2871         47.7947         -58.2864          47.787      -0.00856437         149.466
0.526                  -0.355039        -134.804         -58.0943         45.3704         -58.0936         45.3653      -0.00865849         149.398
0.527                  -0.367362        -135.301         -57.9025         42.9364         -57.9018          42.934      -0.00875349         149.331
0.528                  -0.380005        -135.799         -57.7117          40.493         -57.7109          40.493      -0.00884936         149.263
0.529                  -0.392969          -136.3          -57.522         38.0402         -57.5211         38.0427      -0.00894605         149.196
0.53                   -0.406253        -136.802         -57.3333         35.5783         -57.3324         35.5832      -0.00904353         149.128
0.531                  -0.419857        -137.307         -57.1457         33.1077         -57.1448         33.1148      -0.00914176          149.06
0.532                   -0.43378        -137.813         -56.9594         30.6284         -56.9583         30.6377      -0.00924072         148.992
0.533                  -0.448022        -138.321         -56.7743         28.1409         -56.7731         28.1521      -0.00934037         148.924
0.534                  -0.462583        -138.831         -56.5905         25.6453         -56.5892         25.6583      -0.00944066         148.856
0.535                  -0.477461        -139.342          -56.408         23.1421         -56.4066         23.1566      -0.00954157         148.788
0.536                  -0.492656        -139.856         -56.2268         20.6314         -56.2253         20.6473      -0.00964305         148.719
0.537                  -0.508167        -140.371         -56.0471         18.1137         -56.0455         18.1308      -0.00974506         148.651
0.538                  -0.523993        -140.888         -55.8688         15.5893         -55.8671         15.6073      -0.00984757         148.583
0.539                  -0.540133        -141.407         -55.6921         13.0585         -55.6902         13.0773      -0.00995052         148.514
0.54                   -0.556588        -141.928         -55.5168         10.5217         -55.5148          10.541       -0.0100539         148.445
0.541                  -0.573355        -142.451          -55.343         7.97928          -55.341         7.99891       -0.0101576         148.376
0.542                  -0.590433        -142.975         -55.1709         5.43164         -55.1687         5.45137       -0.0102617         148.308
0.543                  -0.607823        -143.502         -55.0003         2.87917          -54.998          2.8988       -0.0103661         148.239
0.544                  -0.625523         -144.03         -54.8313        0.322275          -54.829        0.341594       -0.0104707         148.169
0.545                  -0.643531         -144.56         -54.6639        -2.23864         -54.6616        -2.21981       -0.0105756           148.1
0.546                  -0.661849        -145.093         -54.4982        -4.80316         -54.4959        -4.78499       -0.0106806         148.031
0.547                  -0.680473        -145.627         -54.3341        -7.37086         -54.3318        -7.35351       -0.0107858         147.962
0.548                  -0.699405        -146.163         -54.1717        -9.94132         -54.1694        -9.92494       -0.0108911         147.892
0.549                  -0.718643        -146.701         -54.0109        -12.5141         -54.0086        -12.4988       -0.0109965         147.822
0.55                   -0.738187        -147.241         -53.8518        -15.0889         -53.8496        -15.0748        -0.011102         147.753
0.551                  -0.758036        -147.783         -53.6943        -17.6651         -53.6922        -17.6523       -0.0112076         147.683
0.552                   -0.77819        -148.327         -53.5384        -20.2424         -53.5364        -20.2309       -0.0113132         147.613
0.553                  -0.798649        -148.873         -53.3842        -22.8204         -53.3823        -22.8103       -0.0114188         147.543
0.554                  -0.819414        -149.421         -53.2316        -25.3988         -53.2299          -25.39       -0.0115245         147.472
0.555                  -0.840484        -149.972         -53.0805         -27.977          -53.079        -27.9697       -0.0116303         147.402
0.556                   -0.86186        -150.525          -52.931        -30.5547         -52.9297        -30.5488       -0.0117362         147.331
0.557                  -0.883543        -151.079          -52.783        -33.1316          -52.782         -33.127       -0.0118421         147.261
0.558                  -0.905534        -151.637         -52.6365        -35.7073         -52.6358         -35.704       -0.0119482          147.19
0.559                  -0.927835        -152.196         -52.4915        -38.2815         -52.4911        -38.2793       -0.0120545         147.119
0.56                   -0.950448        -152.758         -52.3479        -40.8538         -52.3478        -40.8527       -0.0121611         147.048
0.561                  -0.973375        -153.323         -52.2057        -43.4239         -52.2059        -43.4238       -0.0122681         146.977
0.562                  -0.996619         -153.89         -52.0649        -45.9917         -52.0654        -45.9924       -0.0123754         146.906
0.563                   -1.02018        -154.459         -51.9253        -48.5567         -51.9261        -48.5581       -0.0124833         146.834
0.564                   -1.04407        -155.031          -51.787        -51.1188         -51.7882        -51.1208       -0.0125918         146.763
0.565                   -1.06829        -155.606         -51.6499        -53.6777         -51.6514        -53.6801       -0.0127012         146.691
0.566                   -1.09284        -156.184          -51.514        -56.2332         -51.5158        -56.2359       -0.0128114         146.619
0.567                   -1.11773        -156.764         -51.3791        -58.7852         -51.3814         -58.788       -0.0129227         146.547
0.568                   -1.14296        -157.348         -51.2454        -61.3335         -51.2479        -61.3362       -0.0130352         146.475
0.569                   -1.16855        -157.934         -51.1126         -63.878         -51.1155        -63.8804       -0.0131491         146.403
0.57                    -1.19451        -158.524         -50.9808        -66.4185          -50.984        -66.4205       -0.0132646          146.33
0.571                   -1.22083        -159.116         -50.8498        -68.9551         -50.8533        -68.9565       -0.0133819         146.258
0.572                   -1.24754        -159.712         -50.7197        -71.4875         -50.7235        -71.4882       -0.0135012         146.185
0.573                   -1.27464        -160.311         -50.5904        -74.0159         -50.5945        -74.0157       -0.0136227         146.112
0.574                   -1.30214        -160.914         -50.4619        -76.5401         -50.4661         -76.539       -0.0137466         146.039
0.575                   -1.33007         -161.52          -50.334        -79.0602         -50.3385         -79.058        -0.013873         145.966
0.576                   -1.35843         -162.13         -50.2067        -81.5762         -50.2114        -81.5729       -0.0140023         145.892
0.577                   -1.38725        -162.743           -50.08        -84.0882         -50.0849        -84.0836       -0.0141346         145.819
0.578                   -1.41654        -163.361         -49.9539        -86.5963         -49.9588        -86.5904       -0.0142701         145.745
0.579                   -1.44631        -163.982         -49.8282        -89.1005         -49.8333        -89.0933        -0.014409         145.671
0.58                     -1.4766        -164.607          -49.703         -91.601         -49.7081        -91.5923       -0.0145514         145.597
0.581                   -1.50742        -165.235         -49.5781        -94.0978         -49.5833        -94.0878       -0.0146975         145.523
0.582                    -1.5388        -165.868         -49.4536        -96.5912         -49.4588        -96.5799       -0.0148475         145.448
0.583                   -1.57077        -166.505         -49.3295        -99.0813         -49.3346        -99.0687       -0.0150015         145.374
0.584                   -1.60334        -167.147         -49.2056        -101.568         -49.2106        -101.554       -0.0151597         145.299
0.585                   -1.63656        -167.792         -49.0819        -104.052         -49.0868        -104.037        -0.015322         145.224
0.586                   -1.67044        -168.442         -48.9584        -106.534         -48.9633        -106.517       -0.0154886         145.149
0.587                   -1.70503        -169.096         -48.8352        -109.013         -48.8399        -108.995       -0.0156595         145.074
0.588                   -1.74036        -169.754         -48.7121        -111.489         -48.7166        -111.471       -0.0158348         144.999
0.589                   -1.77646        -170.417         -48.5891        -113.964         -48.5934        -113.945       -0.0160145         144.923
0.59                    -1.81337        -171.084         -48.4662        -116.436         -48.4703        -116.417       -0.0161986         144.847
0.591                   -1.85112        -171.755         -48.3434        -118.908         -48.3473        -118.887       -0.0163871         144.771
0.592                   -1.88976        -172.431         -48.2208        -121.378         -48.2244        -121.357         -0.01658         144.695
0.593                   -1.92932        -173.111         -48.0982        -123.846         -48.1016        -123.826       -0.0167773         144.619
0.594                   -1.96984        -173.794         -47.9756        -126.314         -47.9788        -126.293       -0.0169788         144.543
0.595                   -2.01136        -174.482         -47.8532        -128.781          -47.856        -128.761       -0.0171845         144.466
0.596                   -2.05393        -175.174         -47.7308        -131.248         -47.7334        -131.228       -0.0173945         144.389
0.597                   -2.09757        -175.869         -47.6084        -133.715         -47.6108        -133.695       -0.0176085         144.312
0.598                   -2.14233        -176.568         -47.4862        -136.182         -47.4883        -136.163       -0.0178265         144.235
0.599                   -2.18824         -177.27          -47.364        -138.649         -47.3658        -138.631       -0.0180485         144.158
0.6                     -2.23534        -177.976         -47.2419        -141.117         -47.2435        -141.099       -0.0182744          144.08
0.601                   -2.28367        -178.684           -47.12        -143.585         -47.1213        -143.568        -0.018504         144.002
0.602                   -2.33324        -179.395         -46.9981        -146.054         -46.9993        -146.039       -0.0187373         143.925
0.603                   -2.38409         179.892         -46.8764        -148.525         -46.8774         -148.51       -0.0189742         143.846
0.604                   -2.43624         179.176         -46.7549        -150.996         -46.7556        -150.983       -0.0192147         143.768
0.605                   -2.48971         178.459         -46.6336        -153.468         -46.6341        -153.457       -0.0194587          143.69
0.606                   -2.54452          177.74         -46.5124        -155.942         -46.5129        -155.932       -0.0197061         143.611
0.607                   -2.60068         177.021         -46.3916        -158.418         -46.3918        -158.409       -0.0199568         143.532
0.608                   -2.65819           176.3         -46.2709        -160.895         -46.2711        -160.887       -0.0202109         143.453
0.609                   -2.71706         175.579         -46.1506        -163.373         -46.1507        -163.367       -0.0204682         143.374
0.61                    -2.77729         174.858         -46.0306        -165.853         -46.0306        -165.849       -0.0207287         143.294
0.611                   -2.83886         174.137         -45.9109        -168.335         -45.9108        -168.332       -0.0209924         143.215
0.612                   -2.90176         173.417         -45.7916        -170.818         -45.7915        -170.817       -0.0212592         143.135
0.613                   -2.96599         172.697         -45.6726        -173.303         -45.6725        -173.303       -0.0215292         143.054
0.614                   -3.03151         171.979         -45.5541         -175.79          -45.554         -175.79       -0.0218024         142.974
0.615                    -3.0983         171.262         -45.4361        -178.277          -45.436        -178.279       -0.0220787         142.894
0.616                   -3.16633         170.546         -45.3185         179.233         -45.3184          179.23       -0.0223582         142.813
0.617                   -3.23557         169.832         -45.2014         176.743         -45.2013         176.739       -0.0226409         142.732
0.618                   -3.30599         169.121         -45.0848         174.252         -45.0848         174.247       -0.0229268          142.65
0.619                   -3.37755         168.411         -44.9687         171.759         -44.9687         171.753        -0.023216         142.569
0.62                     -3.4502         167.704         -44.8531         169.266         -44.8532         169.259       -0.0235084         142.487
0.621                   -3.52391         166.999         -44.7381         166.772         -44.7383         166.765       -0.0238043         142.405
0.622                   -3.59864         166.297         -44.6237         164.277         -44.6239          164.27       -0.0241035         142.323
0.623                   -3.67435         165.597         -44.5098         161.782         -44.5101         161.775       -0.0244063          142.24
0.624                   -3.75101         164.899         -44.3964         159.287         -44.3969          159.28       -0.0247127         142.157
0.625                   -3.82857         164.204         -44.2837         156.792         -44.2842         156.784       -0.0250227         142.074
0.626                   -3.90701         163.511         -44.1715         154.298          -44.172          154.29       -0.0253366         141.991
0.627                   -3.98628         162.819         -44.0598         151.803         -44.0605         151.795       -0.0256543         141.908
0.628                   -4.06637          162.13         -43.9488         149.309         -43.9494         149.302       -0.0259761         141.824
0.629                   -4.14725         161.443         -43.8382         146.816         -43.8389         146.809       -0.0263021          141.74
