! TOUCHSTONE file generated by CST MICROWAVE STUDIO
! Date and time: Mon Sep 28 15:35:43 2020
! Project name: Scenario_1_Free_SPace.cst
! Parameters = {dx1=953; L_HA=400; MT=2.54; Rad_Dielectric=30; Rad_Lower=7.3; Rad_Upper=30; a_HA=580; a_WG=246; b_HA=500; b_WG=121; c_HA=0; c_WG=187; d_feed=85; h_feed=15; h_lower=18; h_upper=40}
! Header version: 2018
! Port assignment regex: !\s*Touchstone port\s*([0-9]+)\s*=\s*(CST MWS port|CST DS port)\s*([0-9]+|Zmin|Zmax)\s*\(\"(.*)\"\)(\s*mode\s*([0-9]+))?.*
! Touchstone port assignment:
! Touchstone port 1 = CST MWS port 1 ("")
! Touchstone port 2 = CST MWS port 2 ("")
# GHz S DB R 50
0.5                    -0.145495        -122.561         -63.3472         94.7439         -63.3472         94.7439      -0.00656712         151.134
0.501                  -0.152166        -122.991         -63.2346         92.0653         -63.2347         92.0652       -0.0066443         151.069
0.502                  -0.158929        -123.423         -63.1142         89.3912         -63.1143          89.391      -0.00672178         151.003
0.503                  -0.165792        -123.858         -62.9862          86.724         -62.9864         86.7238      -0.00679959         150.938
0.504                  -0.172762        -124.295         -62.8509         84.0661         -62.8511         84.0658      -0.00687774         150.872
0.505                  -0.179846        -124.735         -62.7085         81.4195         -62.7087          81.419      -0.00695622         150.807
0.506                  -0.187053        -125.178         -62.5593          78.786         -62.5596         78.7855      -0.00703507         150.741
0.507                  -0.194389        -125.624         -62.4037         76.1674          -62.404         76.1667      -0.00711429         150.675
0.508                  -0.201862        -126.073          -62.242          73.565         -62.2423         73.5642      -0.00719389         150.609
0.509                  -0.209479        -126.524         -62.0746         70.9801         -62.0749         70.9791      -0.00727389         150.544
0.51                   -0.217248        -126.978         -61.9017         68.4135          -61.902         68.4125       -0.0073543         150.478
0.511                  -0.225177        -127.435         -61.7238         65.8661         -61.7241          65.865      -0.00743513         150.411
0.512                  -0.233272        -127.894         -61.5412         63.3383         -61.5415         63.3371       -0.0075164         150.345
0.513                  -0.241541        -128.357         -61.3543         60.8306         -61.3546         60.8293      -0.00759812         150.279
0.514                  -0.249992        -128.822         -61.1634          58.343         -61.1636         58.3417      -0.00768031         150.213
0.515                  -0.258633         -129.29         -60.9688         55.8755          -60.969         55.8742      -0.00776297         150.146
0.516                  -0.267469         -129.76         -60.7708          53.428          -60.771         53.4267      -0.00784613          150.08
0.517                   -0.27651        -130.234         -60.5698         51.0002           -60.57         50.9989      -0.00792979         150.013
0.518                  -0.285762         -130.71         -60.3661         48.5915         -60.3662         48.5903      -0.00801397         149.947
0.519                  -0.295233        -131.189           -60.16         46.2014         -60.1601         46.2003      -0.00809869          149.88
0.52                    -0.30493        -131.671         -59.9517         43.8293         -59.9517         43.8283      -0.00818396         149.813
0.521                  -0.314861        -132.155         -59.7415         41.4744         -59.7414         41.4734       -0.0082698         149.746
0.522                  -0.325034        -132.642         -59.5296         39.1358         -59.5295          39.135      -0.00835623         149.679
0.523                  -0.335454        -133.132         -59.3162         36.8127         -59.3161          36.812      -0.00844325         149.612
0.524                   -0.34613        -133.625         -59.1017         34.5041         -59.1015         34.5036      -0.00853088         149.545
0.525                   -0.35707         -134.12         -58.8861          32.209         -58.8859         32.2087      -0.00861915         149.478
0.526                   -0.36828        -134.619         -58.6697         29.9265         -58.6695         29.9264      -0.00870806          149.41
0.527                  -0.379767         -135.12         -58.4527         27.6554         -58.4524         27.6556      -0.00879764         149.343
0.528                   -0.39154        -135.623         -58.2352         25.3948         -58.2348         25.3952      -0.00888789         149.275
0.529                  -0.403605         -136.13         -58.0173         23.1434         -58.0169         23.1441      -0.00897885         149.207
0.53                   -0.415969        -136.639         -57.7993         20.9004         -57.7988         20.9013      -0.00907052          149.14
0.531                   -0.42864         -137.15         -57.5812         18.6645         -57.5807         18.6657      -0.00916292         149.072
0.532                  -0.441625        -137.665         -57.3632         16.4347         -57.3626         16.4363      -0.00925608         149.004
0.533                  -0.454931        -138.182         -57.1455           14.21         -57.1448         14.2119         -0.00935         148.936
0.534                  -0.468565        -138.702          -56.928         11.9893         -56.9273         11.9915      -0.00944472         148.868
0.535                  -0.482533        -139.224         -56.7109         9.77151         -56.7102         9.77404      -0.00954023         148.799
0.536                  -0.496844        -139.749         -56.4944         7.55568         -56.4936         7.55856      -0.00963658         148.731
0.537                  -0.511504        -140.277         -56.2784         5.34079         -56.2776         5.34403      -0.00973377         148.663
0.538                  -0.526519        -140.807         -56.0632         3.12587         -56.0623         3.12946      -0.00983182         148.594
0.539                  -0.541897         -141.34         -55.8487        0.909957         -55.8477        0.913913      -0.00993076         148.525
0.54                   -0.557645        -141.876         -55.6351        -1.30787         -55.6341        -1.30355       -0.0100306         148.457
0.541                  -0.573769        -142.414         -55.4225        -3.52852         -55.4214        -3.52383       -0.0101314         148.388
0.542                  -0.590276        -142.954         -55.2108        -5.75287         -55.2097         -5.7478       -0.0102331         148.319
0.543                  -0.607172        -143.497         -55.0002        -7.98174          -54.999        -7.97631       -0.0103358          148.25
0.544                  -0.624464        -144.043         -54.7908         -10.216         -54.7896        -10.2102       -0.0104394         148.181
0.545                  -0.642159        -144.591         -54.5826        -12.4563         -54.5813        -12.4501       -0.0105441         148.111
0.546                  -0.660263        -145.142         -54.3757        -14.7035         -54.3743         -14.697       -0.0106498         148.042
0.547                  -0.678783        -145.695         -54.1701        -16.9584         -54.1687        -16.9515       -0.0107566         147.972
0.548                  -0.697724        -146.251         -53.9659        -19.2214         -53.9645        -19.2142       -0.0108645         147.903
0.549                  -0.717094        -146.809         -53.7632        -21.4935         -53.7617        -21.4858       -0.0109734         147.833
0.55                   -0.736897        -147.369         -53.5621         -23.775         -53.5605         -23.767       -0.0110835         147.763
0.551                  -0.757141        -147.932         -53.3625        -26.0666         -53.3609        -26.0583       -0.0111947         147.693
0.552                  -0.777832        -148.497         -53.1646        -28.3688          -53.163        -28.3602       -0.0113071         147.623
0.553                  -0.798975        -149.064         -52.9684        -30.6822         -52.9668        -30.6732       -0.0114207         147.553
0.554                  -0.820576        -149.634          -52.774        -33.0071         -52.7723        -32.9979       -0.0115355         147.482
0.555                  -0.842641        -150.207         -52.5814         -35.344         -52.5797        -35.3345       -0.0116516         147.412
0.556                  -0.865176        -150.781         -52.3907        -37.6932          -52.389        -37.6834       -0.0117689         147.341
0.557                  -0.888187        -151.358          -52.202        -40.0552         -52.2002        -40.0451       -0.0118875         147.271
0.558                  -0.911679        -151.937         -52.0153          -42.43         -52.0135        -42.4197       -0.0120075           147.2
0.559                  -0.935658        -152.518         -51.8307        -44.8181         -51.8288        -44.8075       -0.0121288         147.129
0.56                   -0.960129        -153.101         -51.6482        -47.2195         -51.6463        -47.2087       -0.0122514         147.058
0.561                  -0.985098        -153.687         -51.4679        -49.6345         -51.4659        -49.6234       -0.0123755         146.986
0.562                   -1.01057        -154.275         -51.2898         -52.063         -51.2878        -52.0518       -0.0125011         146.915
0.563                   -1.03655        -154.865          -51.114        -54.5053          -51.112        -54.4939        -0.012628         146.844
0.564                   -1.06304        -155.457         -50.9406        -56.9612         -50.9386        -56.9496       -0.0127565         146.772
0.565                   -1.09005        -156.051         -50.7696        -59.4308         -50.7675        -59.4191       -0.0128865           146.7
0.566                   -1.11759        -156.647          -50.601        -61.9139         -50.5989        -61.9021       -0.0130181         146.628
0.567                   -1.14565        -157.245         -50.4348        -64.4105         -50.4328        -64.3985       -0.0131512         146.556
0.568                   -1.17425        -157.846         -50.2713        -66.9203         -50.2691        -66.9082        -0.013286         146.484
0.569                   -1.20339        -158.448         -50.1102        -69.4431         -50.1081        -69.4309       -0.0134223         146.412
0.57                    -1.23307        -159.053         -49.9518        -71.9786         -49.9497        -71.9665       -0.0135604         146.339
0.571                   -1.26329        -159.659          -49.796        -74.5266         -49.7938        -74.5144       -0.0137002         146.267
0.572                   -1.29407        -160.267         -49.6428        -77.0867         -49.6407        -77.0745       -0.0138417         146.194
0.573                   -1.32541        -160.877         -49.4924        -79.6585         -49.4902        -79.6463        -0.013985         146.121
0.574                   -1.35731         -161.49         -49.3446        -82.2416         -49.3424        -82.2294       -0.0141301         146.048
0.575                   -1.38977        -162.104         -49.1995        -84.8354         -49.1973        -84.8233        -0.014277         145.975
0.576                   -1.42281         -162.72         -49.0571        -87.4396         -49.0549        -87.4276       -0.0144258         145.902
0.577                   -1.45642        -163.338         -48.9174        -90.0537         -48.9152        -90.0416       -0.0145765         145.828
0.578                   -1.49061        -163.957         -48.7804        -92.6769         -48.7782         -92.665       -0.0147292         145.755
0.579                   -1.52538        -164.579         -48.6461        -95.3088         -48.6439         -95.297       -0.0148839         145.681
0.58                    -1.56075        -165.202         -48.5145        -97.9489         -48.5123        -97.9372       -0.0150406         145.607
0.581                    -1.5967        -165.827         -48.3855        -100.596         -48.3833        -100.585       -0.0151993         145.533
0.582                   -1.63326        -166.454         -48.2591        -103.251          -48.257        -103.239       -0.0153601         145.459
0.583                   -1.67042        -167.083         -48.1353        -105.911         -48.1332          -105.9       -0.0155231         145.384
0.584                   -1.70818        -167.714          -48.014        -108.577         -48.0119        -108.566       -0.0156883          145.31
0.585                   -1.74655        -168.346         -47.8952        -111.249         -47.8931        -111.238       -0.0158557         145.235
0.586                   -1.78554         -168.98         -47.7788        -113.924         -47.7767        -113.913       -0.0160253          145.16
0.587                   -1.82515        -169.615         -47.6647        -116.603         -47.6627        -116.593       -0.0161973         145.085
0.588                   -1.86539        -170.253          -47.553        -119.285          -47.551        -119.275       -0.0163716          145.01
0.589                   -1.90625        -170.892         -47.4435        -121.969         -47.4416         -121.96       -0.0165483         144.934
0.59                    -1.94775        -171.533         -47.3361        -124.656         -47.3342        -124.646       -0.0167274         144.859
0.591                   -1.98989        -172.176         -47.2308        -127.343          -47.229        -127.334        -0.016909         144.783
0.592                   -2.03267         -172.82         -47.1275        -130.031         -47.1257        -130.022       -0.0170932         144.707
0.593                   -2.07609        -173.466         -47.0261        -132.719         -47.0243         -132.71       -0.0172799         144.631
0.594                   -2.12018        -174.113         -46.9265        -135.406         -46.9247        -135.398       -0.0174692         144.555
0.595                   -2.16492        -174.763         -46.8286        -138.093         -46.8269        -138.085       -0.0176613         144.478
0.596                   -2.21033        -175.414         -46.7323        -140.778         -46.7306         -140.77        -0.017856         144.401
0.597                    -2.2564        -176.066         -46.6375        -143.461         -46.6358        -143.453       -0.0180535         144.325
0.598                   -2.30315        -176.721         -46.5441        -146.141         -46.5425        -146.134       -0.0182539         144.247
0.599                   -2.35059        -177.377          -46.452        -148.819         -46.4505        -148.811       -0.0184572          144.17
0.6                     -2.39871        -178.035         -46.3611        -151.493         -46.3597        -151.486       -0.0186633         144.093
0.601                   -2.44753        -178.694         -46.2714        -154.164         -46.2699        -154.157       -0.0188725         144.015
0.602                   -2.49704        -179.355         -46.1826         -156.83         -46.1812        -156.824       -0.0190848         143.937
0.603                   -2.54727         179.982         -46.0948        -159.493         -46.0934        -159.487       -0.0193001         143.859
0.604                    -2.5982         179.317         -46.0077        -162.151         -46.0064        -162.145       -0.0195187         143.781
0.605                   -2.64987         178.651         -45.9214        -164.804         -45.9201        -164.799       -0.0197404         143.703
0.606                   -2.70226         177.983         -45.8356        -167.453         -45.8344        -167.447       -0.0199655         143.624
0.607                   -2.75539         177.313         -45.7504        -170.096         -45.7492        -170.091       -0.0201939         143.545
0.608                   -2.80926         176.642         -45.6656        -172.733         -45.6645        -172.729       -0.0204258         143.466
0.609                   -2.86389         175.968         -45.5811        -175.366         -45.5801        -175.361       -0.0206611         143.387
0.61                    -2.91929         175.293         -45.4969        -177.992         -45.4959        -177.988          -0.0209         143.307
0.611                   -2.97546         174.616         -45.4128         179.387         -45.4119         179.391       -0.0211426         143.228
0.612                   -3.03242         173.938         -45.3288         176.771         -45.3279         176.775       -0.0213888         143.148
0.613                   -3.09017         173.257         -45.2448         174.162          -45.244         174.165       -0.0216389         143.067
0.614                   -3.14872         172.575         -45.1608         171.558           -45.16         171.562       -0.0218928         142.987
0.615                    -3.2081          171.89         -45.0766         168.961         -45.0758         168.964       -0.0221506         142.906
0.616                   -3.26831         171.204         -44.9922         166.369         -44.9915         166.371       -0.0224124         142.825
0.617                   -3.32936         170.516         -44.9075         163.783         -44.9068         163.785       -0.0226784         142.744
0.618                   -3.39126         169.826         -44.8225         161.202         -44.8219         161.204       -0.0229485         142.663
0.619                   -3.45405         169.134         -44.7371         158.627         -44.7365         158.629       -0.0232229         142.581
0.62                    -3.51771          168.44         -44.6513         156.058         -44.6508          156.06       -0.0235017           142.5
0.621                   -3.58228         167.743          -44.565         153.495         -44.5645         153.496       -0.0237849         142.417
0.622                   -3.64778         167.045         -44.4782         150.936         -44.4778         150.938       -0.0240727         142.335
0.623                    -3.7142         166.345         -44.3908         148.383         -44.3904         148.384       -0.0243651         142.253
0.624                   -3.78159         165.643         -44.3029         145.835         -44.3025         145.836       -0.0246623          142.17
0.625                   -3.84995         164.938         -44.2143         143.292         -44.2139         143.293       -0.0249643         142.087
0.626                   -3.91931         164.231         -44.1251         140.754         -44.1247         140.755       -0.0252712         142.003
0.627                   -3.98968         163.523         -44.0351         138.221         -44.0348         138.221       -0.0255832         141.919
0.628                    -4.0611         162.811         -43.9445         135.692         -43.9443         135.692       -0.0259004         141.836
0.629                   -4.13358         162.098         -43.8532         133.167         -43.8529         133.168       -0.0262229         141.751
