! TOUCHSTONE file generated by CST MICROWAVE STUDIO
! Date and time: Mon Sep 28 14:06:15 2020
! Project name: Scenario_1_Free_SPace.cst
! Parameters = {dx1=242.5; L_HA=400; MT=2.54; Rad_Dielectric=30; Rad_Lower=7.3; Rad_Upper=30; a_HA=580; a_WG=246; b_HA=500; b_WG=121; c_HA=0; c_WG=187; d_feed=85; h_feed=15; h_lower=18; h_upper=40}
! Header version: 2018
! Port assignment regex: !\s*Touchstone port\s*([0-9]+)\s*=\s*(CST MWS port|CST DS port)\s*([0-9]+|Zmin|Zmax)\s*\(\"(.*)\"\)(\s*mode\s*([0-9]+))?.*
! Touchstone port assignment:
! Touchstone port 1 = CST MWS port 1 ("")
! Touchstone port 2 = CST MWS port 2 ("")
# GHz S DB R 50
0.5                    -0.147922        -122.645         -57.3271         134.419         -57.3112         134.392      -0.00649575         151.103
0.501                   -0.15232        -123.129         -57.2611         133.464         -57.3027         133.432      -0.00658959         151.037
0.502                  -0.157012        -123.615         -57.1926           132.5         -57.2922          132.46      -0.00668409         150.972
0.503                     -0.162        -124.102         -57.1216         131.525         -57.2798         131.477      -0.00677924         150.906
0.504                  -0.167285        -124.591         -57.0478          130.54         -57.2654         130.483      -0.00687505          150.84
0.505                   -0.17287        -125.081         -56.9714         129.544         -57.2487         129.477      -0.00697151         150.774
0.506                  -0.178756        -125.573         -56.8921         128.537         -57.2297         128.459      -0.00706862         150.708
0.507                  -0.184945        -126.066           -56.81          127.52         -57.2082          127.43      -0.00716639         150.641
0.508                  -0.191439        -126.561          -56.725         126.493         -57.1843         126.391      -0.00726481         150.575
0.509                   -0.19824        -127.057         -56.6369         125.454         -57.1576          125.34      -0.00736388         150.509
0.51                    -0.20535        -127.554         -56.5458         124.406         -57.1282         124.277      -0.00746361         150.442
0.511                  -0.212771        -128.053         -56.4516         123.346         -57.0958         123.204      -0.00756399         150.376
0.512                  -0.220504        -128.553         -56.3541         122.276         -57.0604         122.121      -0.00766502         150.309
0.513                  -0.228551        -129.055         -56.2534         121.196         -57.0218         121.026       -0.0077667         150.243
0.514                  -0.236914        -129.558         -56.1493         120.104         -56.9799         119.922      -0.00786904         150.176
0.515                  -0.245595        -130.063         -56.0419         119.002         -56.9345         118.807      -0.00797204         150.109
0.516                  -0.254595        -130.569          -55.931          117.89         -56.8855         117.682       -0.0080757         150.042
0.517                  -0.263917        -131.076         -55.8166         116.766         -56.8328         116.548      -0.00818002         149.976
0.518                  -0.273561        -131.585         -55.6986         115.632         -56.7762         115.404        -0.008285         149.909
0.519                   -0.28353        -132.095          -55.577         114.488         -56.7155         114.251      -0.00839064         149.841
0.52                   -0.293825        -132.607         -55.4518         113.332         -56.6506          113.09      -0.00849695         149.774
0.521                  -0.304447         -133.12         -55.3228         112.166         -56.5814          111.92      -0.00860393         149.707
0.522                    -0.3154        -133.634           -55.19         110.988         -56.5077         110.742      -0.00871159          149.64
0.523                  -0.326683         -134.15         -55.0534           109.8         -56.4294         109.556      -0.00881992         149.572
0.524                  -0.338299        -134.667          -54.913           108.6         -56.3463         108.363      -0.00892893         149.505
0.525                  -0.350249        -135.186         -54.7686          107.39         -56.2582         107.163      -0.00903862         149.437
0.526                  -0.362535        -135.705         -54.6204         106.168          -56.165         105.956        -0.009149          149.37
0.527                  -0.375158        -136.227         -54.4681         104.934         -56.0666         104.743      -0.00926007         149.302
0.528                  -0.388121        -136.749         -54.3119         103.689         -55.9627         103.524      -0.00937183         149.234
0.529                  -0.401423        -137.273         -54.1516         102.433         -55.8533         102.299       -0.0094843         149.166
0.53                   -0.415067        -137.798         -53.9874         101.164         -55.7382         101.069      -0.00959747         149.098
0.531                  -0.429055        -138.325         -53.8191         99.8832         -55.6172         99.8344      -0.00971136          149.03
0.532                  -0.443388        -138.853         -53.6467         98.5899         -55.4903         98.5947      -0.00982596         148.962
0.533                  -0.458066        -139.382         -53.4703         97.2838         -55.3571         97.3504      -0.00994129         148.894
0.534                  -0.473093        -139.912         -53.2898         95.9647         -55.2177         96.1017       -0.0100573         148.826
0.535                  -0.488469        -140.444         -53.1053         94.6321         -55.0719         94.8487       -0.0101741         148.757
0.536                  -0.504195        -140.977         -52.9167         93.2859         -54.9195         93.5914       -0.0102917         148.689
0.537                  -0.520273        -141.512         -52.7242         91.9254         -54.7603         92.3298       -0.0104099          148.62
0.538                  -0.536705        -142.048         -52.5276         90.5503         -54.5944         91.0638        -0.010529         148.551
0.539                  -0.553491        -142.585         -52.3271           89.16         -54.4214          89.793       -0.0106488         148.483
0.54                   -0.570634        -143.123         -52.1228         87.7542         -54.2414         88.5173       -0.0107694         148.414
0.541                  -0.588134        -143.663         -51.9145         86.3321         -54.0541          87.236       -0.0108907         148.345
0.542                  -0.605993        -144.204         -51.7025         84.8933         -53.8596         85.9487       -0.0110129         148.276
0.543                  -0.624213        -144.746         -51.4867          83.437         -53.6575         84.6546       -0.0111359         148.206
0.544                  -0.642794         -145.29         -51.2673         81.9627          -53.448         83.3529       -0.0112596         148.137
0.545                  -0.661738        -145.835         -51.0444         80.4696         -53.2308         82.0424       -0.0113842         148.068
0.546                  -0.681047        -146.381          -50.818         78.9569         -53.0058          80.722       -0.0115097         147.998
0.547                  -0.700721        -146.929         -50.5882         77.4239         -52.7731         79.3902       -0.0116359         147.929
0.548                  -0.720763        -147.478         -50.3552         75.8699         -52.5325         78.0456        -0.011763         147.859
0.549                  -0.741173        -148.028         -50.1191         74.2939          -52.284         76.6861        -0.011891         147.789
0.55                   -0.761953        -148.579         -49.8801         72.6951         -52.0275         75.3098       -0.0120199         147.719
0.551                  -0.783105        -149.132         -49.6383         71.0727         -51.7631         73.9144       -0.0121496         147.649
0.552                  -0.804629        -149.686         -49.3939         69.4258         -51.4907         72.4973       -0.0122803         147.579
0.553                  -0.826528        -150.242         -49.1471         67.7535         -51.2104         71.0558       -0.0124119         147.509
0.554                  -0.848802        -150.799         -48.8981         66.0549         -50.9223         69.5869       -0.0125444         147.439
0.555                  -0.871453        -151.357         -48.6471         64.3292         -50.6265         68.0871       -0.0126778         147.368
0.556                  -0.894482        -151.916         -48.3943         62.5755         -50.3231         66.5531       -0.0128122         147.298
0.557                  -0.917891        -152.477         -48.1401          60.793         -50.0124         64.9808       -0.0129476         147.227
0.558                  -0.941682        -153.039         -47.8847          58.981         -49.6945         63.3664        -0.013084         147.156
0.559                  -0.965856        -153.602         -47.6285         57.1386         -49.3699         61.7054       -0.0132213         147.085
0.56                   -0.990414        -154.167         -47.3716         55.2654         -49.0389         59.9934       -0.0133597         147.014
0.561                   -1.01536        -154.733         -47.1145         53.3607          -48.702         58.2257       -0.0134992         146.943
0.562                   -1.04069          -155.3         -46.8574         51.4242         -48.3598         56.3976       -0.0136397         146.872
0.563                   -1.06641        -155.869         -46.6009         49.4554          -48.013         54.5043       -0.0137812           146.8
0.564                   -1.09252        -156.439         -46.3452         47.4543         -47.6624          52.541       -0.0139239         146.729
0.565                   -1.11903        -157.011         -46.0907         45.4208         -47.3088         50.5031       -0.0140677         146.657
0.566                   -1.14593        -157.583          -45.838         43.3551         -46.9534         48.3862       -0.0142126         146.585
0.567                   -1.17322        -158.158         -45.5872         41.2575         -46.5973         46.1866       -0.0143586         146.513
0.568                   -1.20092        -158.733          -45.339         39.1286         -46.2419         43.9008       -0.0145059         146.441
0.569                   -1.22901         -159.31         -45.0937         36.9692         -45.8885         41.5264       -0.0146543         146.369
0.57                     -1.2575        -159.889         -44.8517         34.7803         -45.5389         39.0619       -0.0148039         146.297
0.571                    -1.2864        -160.469         -44.6135         32.5633         -45.1946          36.507       -0.0149548         146.224
0.572                   -1.31571         -161.05         -44.3794         30.3196         -44.8575         33.8631       -0.0151069         146.151
0.573                   -1.34542        -161.633           -44.15          28.051         -44.5293         31.1328       -0.0152604         146.079
0.574                   -1.37554        -162.217         -43.9254         25.7596         -44.2119         28.3208       -0.0154151         146.006
0.575                   -1.40607        -162.803         -43.7062         23.4475          -43.907         25.4336       -0.0155712         145.933
0.576                   -1.43702         -163.39         -43.4925         21.1174         -43.6163         22.4796       -0.0157286          145.86
0.577                   -1.46839        -163.979         -43.2848         18.7719         -43.3413         19.4691       -0.0158874         145.786
0.578                   -1.50017        -164.569         -43.0832         16.4138         -43.0832         16.4138       -0.0160476         145.713
0.579                   -1.53238        -165.161         -42.8879         14.0462         -42.8429         13.3269       -0.0162093         145.639
0.58                    -1.56501        -165.754          -42.699         11.6721         -42.6211         10.2225       -0.0163725         145.565
0.581                   -1.59807        -166.349         -42.5168         9.29493         -42.4181         7.11512       -0.0165371         145.492
0.582                   -1.63156        -166.945         -42.3412         6.91774         -42.2339         4.01938       -0.0167033         145.417
0.583                   -1.66548        -167.543         -42.1723         4.54382         -42.0678         0.94931       -0.0168711         145.343
0.584                   -1.69983        -168.143           -42.01         2.17636         -41.9193        -2.08198       -0.0170405         145.269
0.585                   -1.73463        -168.744         -41.8542        -0.18156         -41.7872        -5.06271       -0.0172115         145.194
0.586                   -1.76987        -169.347         -41.7047        -2.52695         -41.6704        -7.98266       -0.0173842          145.12
0.587                   -1.80555        -169.952         -41.5615        -4.85699         -41.5673        -10.8334       -0.0175586         145.045
0.588                   -1.84168        -170.559         -41.4242        -7.16905         -41.4765        -13.6084       -0.0177348          144.97
0.589                   -1.87827        -171.167         -41.2927        -9.46071         -41.3963        -16.3027       -0.0179127         144.895
0.59                    -1.91531        -171.777         -41.1665        -11.7298         -41.3252        -18.9134       -0.0180925         144.819
0.591                   -1.95281        -172.388         -41.0455        -13.9743         -41.2616        -21.4388       -0.0182742         144.744
0.592                   -1.99078        -173.002         -40.9293        -16.1926         -41.2042        -23.8789       -0.0184577         144.668
0.593                   -2.02922        -173.617         -40.8176        -18.3832         -41.1515        -26.2346       -0.0186432         144.592
0.594                   -2.06812        -174.234         -40.7099        -20.5449         -41.1023        -28.5078       -0.0188306         144.516
0.595                   -2.10751        -174.854          -40.606        -22.6768         -41.0555        -30.7012       -0.0190201          144.44
0.596                   -2.14738        -175.475         -40.5055        -24.7782           -41.01        -32.8181       -0.0192117         144.363
0.597                   -2.18774        -176.098         -40.4081        -26.8486         -40.9651        -34.8621       -0.0194053         144.287
0.598                   -2.22859        -176.723         -40.3133        -28.8878         -40.9199        -36.8372       -0.0196012          144.21
0.599                   -2.26994         -177.35         -40.2209        -30.8958         -40.8738        -38.7474       -0.0197992         144.133
0.6                     -2.31179        -177.979         -40.1305        -32.8725         -40.8263        -40.5969       -0.0199995         144.056
0.601                   -2.35415         -178.61         -40.0418        -34.8184         -40.7769        -42.3897       -0.0202022         143.978
0.602                   -2.39703        -179.243         -39.9545        -36.7338         -40.7252        -44.1301       -0.0204071         143.901
0.603                   -2.44043        -179.878         -39.8684        -38.6194          -40.671        -45.8218       -0.0206145         143.823
0.604                   -2.48436         179.484         -39.7831        -40.4757         -40.6139        -47.4688       -0.0208244         143.745
0.605                   -2.52883         178.844         -39.6985        -42.3036         -40.5538        -49.0746       -0.0210368         143.667
0.606                   -2.57383         178.202         -39.6142         -44.104         -40.4906        -50.6428       -0.0212517         143.589
0.607                   -2.61939         177.558         -39.5301        -45.8777         -40.4241        -52.1766       -0.0214693          143.51
0.608                   -2.66551         176.911          -39.446        -47.6257         -40.3544        -53.6791       -0.0216896         143.431
0.609                   -2.71219         176.262         -39.3617        -49.3491         -40.2813        -55.1532       -0.0219127         143.352
0.61                    -2.75945          175.61          -39.277        -51.0489         -40.2049        -56.6017       -0.0221386         143.273
0.611                   -2.80729         174.956         -39.1918        -52.7261         -40.1251        -58.0272       -0.0223673         143.194
0.612                   -2.85572         174.299         -39.1059         -54.382         -40.0421        -59.4319        -0.022599         143.114
0.613                   -2.90475          173.64         -39.0193        -56.0175         -39.9558        -60.8182       -0.0228338         143.034
0.614                    -2.9544         172.978         -38.9317        -57.6338         -39.8663        -62.1882       -0.0230716         142.954
0.615                   -3.00467         172.313         -38.8432        -59.2319         -39.7736        -63.5437       -0.0233126         142.874
0.616                   -3.05557         171.646         -38.7536        -60.8131          -39.678        -64.8867       -0.0235569         142.793
0.617                   -3.10712         170.976         -38.6629        -62.3782         -39.5793        -66.2188       -0.0238044         142.712
0.618                   -3.15932         170.303         -38.5709        -63.9285         -39.4777        -67.5416       -0.0240554         142.631
0.619                   -3.21219         169.627         -38.4777         -65.465         -39.3734        -68.8565       -0.0243098          142.55
0.62                    -3.26574         168.948         -38.3832        -66.9886         -39.2663         -70.165       -0.0245678         142.469
0.621                   -3.31998         168.266         -38.2874        -68.5004         -39.1565        -71.4683       -0.0248294         142.387
0.622                   -3.37494         167.581         -38.1902        -70.0014         -39.0443        -72.7677       -0.0250948         142.305
0.623                   -3.43061         166.893         -38.0916        -71.4925         -38.9296        -74.0642        -0.025364         142.223
0.624                   -3.48703         166.202         -37.9915        -72.9747         -38.8125         -75.359        -0.025637          142.14
0.625                    -3.5442         165.508         -37.8901        -74.4489         -38.6932        -76.6529       -0.0259141         142.057
0.626                   -3.60213          164.81         -37.7872        -75.9159         -38.5718         -77.947       -0.0261953         141.974
0.627                   -3.66086         164.109          -37.683        -77.3766         -38.4482        -79.2421       -0.0264807         141.891
0.628                   -3.72039         163.404         -37.5773        -78.8319         -38.3227         -80.539       -0.0267704         141.807
0.629                   -3.78074         162.696         -37.4702        -80.2825         -38.1953        -81.8384       -0.0270645         141.724
