! TOUCHSTONE file generated by CST MICROWAVE STUDIO
! Date and time: Mon Sep 28 15:36:47 2020
! Project name: Scenario_1_Free_SPace.cst
! Parameters = {dx1=1039; L_HA=400; MT=2.54; Rad_Dielectric=30; Rad_Lower=7.3; Rad_Upper=30; a_HA=580; a_WG=246; b_HA=500; b_WG=121; c_HA=0; c_WG=187; d_feed=85; h_feed=15; h_lower=18; h_upper=40}
! Header version: 2018
! Port assignment regex: !\s*Touchstone port\s*([0-9]+)\s*=\s*(CST MWS port|CST DS port)\s*([0-9]+|Zmin|Zmax)\s*\(\"(.*)\"\)(\s*mode\s*([0-9]+))?.*
! Touchstone port assignment:
! Touchstone port 1 = CST MWS port 1 ("")
! Touchstone port 2 = CST MWS port 2 ("")
# GHz S DB R 50
0.5                    -0.147502        -122.543         -63.4877         46.6987         -63.4877         46.6987      -0.00673497         151.118
0.501                  -0.152073        -122.977         -63.3609         44.0521         -63.3567         44.0609      -0.00677762         151.053
0.502                  -0.156859        -123.413         -63.2284         41.4058         -63.2203         41.4238      -0.00682168         150.988
0.503                  -0.161866        -123.852         -63.0904         38.7609         -63.0788         38.7885      -0.00686713         150.922
0.504                  -0.167096        -124.293         -62.9472         36.1187         -62.9323          36.156      -0.00691398         150.857
0.505                  -0.172552        -124.736         -62.7989         33.4801          -62.781         33.5272      -0.00696222         150.791
0.506                   -0.17824        -125.182         -62.6458         30.8462         -62.6252          30.903      -0.00701186         150.726
0.507                  -0.184163         -125.63          -62.488         28.2177         -62.4651          28.284      -0.00706289          150.66
0.508                  -0.190324         -126.08         -62.3258         25.5953         -62.3008         25.6709      -0.00711532         150.594
0.509                  -0.196728        -126.533         -62.1595         22.9797         -62.1327         23.0641      -0.00716913         150.528
0.51                   -0.203378        -126.988         -61.9892         20.3711         -61.9608          20.464      -0.00722434         150.462
0.511                  -0.210278        -127.445         -61.8152         17.7701         -61.7855         17.8708      -0.00728095         150.396
0.512                  -0.217433        -127.905         -61.6377         15.1768          -61.607         15.2847      -0.00733895          150.33
0.513                  -0.224845        -128.367          -61.457         12.5913         -61.4255         12.7058      -0.00739835         150.264
0.514                  -0.232521        -128.832         -61.2733         10.0137         -61.2412         10.1341      -0.00745915         150.198
0.515                  -0.240462        -129.299         -61.0869         7.44395         -61.0543         7.56942      -0.00752134         150.131
0.516                  -0.248674        -129.768         -60.8979         4.88183         -60.8651         5.01168      -0.00758494         150.065
0.517                   -0.25716         -130.24         -60.7066         2.32715         -60.6737          2.4606      -0.00764994         149.998
0.518                  -0.265925        -130.714         -60.5131       -0.220388         -60.4804      -0.0841085      -0.00771635         149.932
0.519                  -0.274973         -131.19         -60.3178        -2.76112         -60.2853         -2.6228      -0.00778416         149.865
0.52                   -0.284307        -131.669         -60.1207        -5.29547         -60.0886        -5.15588      -0.00785339         149.798
0.521                  -0.293932        -132.151         -59.9221        -7.82389         -59.8905        -7.68378      -0.00792403         149.731
0.522                  -0.303853        -132.634         -59.7222        -10.3469         -59.6913         -10.207      -0.00799608         149.664
0.523                  -0.314073        -133.121         -59.5212        -12.8649          -59.491         -12.726      -0.00806956         149.597
0.524                  -0.324597        -133.609         -59.3192        -15.3787         -59.2898        -15.2414      -0.00814447          149.53
0.525                  -0.335428          -134.1         -59.1164        -17.8886         -59.0879        -17.7536      -0.00822081         149.462
0.526                  -0.346571        -134.593         -58.9129        -20.3954         -58.8854        -20.2633      -0.00829858         149.395
0.527                  -0.358031        -135.089          -58.709        -22.8996         -58.6825         -22.771      -0.00837779         149.327
0.528                  -0.369811        -135.587         -58.5047        -25.4018         -58.4794        -25.2773      -0.00845844          149.26
0.529                  -0.381916        -136.088         -58.3002        -27.9028          -58.276        -27.7827      -0.00854055         149.192
0.53                    -0.39435        -136.591         -58.0957         -30.403         -58.0727        -30.2879      -0.00862411         149.124
0.531                  -0.407118        -137.096         -57.8912         -32.903         -57.8695        -32.7934      -0.00870913         149.056
0.532                  -0.420222        -137.604         -57.6869        -35.4036         -57.6665        -35.2998      -0.00879563         148.988
0.533                  -0.433669        -138.114         -57.4829        -37.9052         -57.4638        -37.8075       -0.0088836          148.92
0.534                  -0.447462        -138.626         -57.2793        -40.4085         -57.2616        -40.3172      -0.00897305         148.852
0.535                  -0.461605        -139.141         -57.0763        -42.9139           -57.06        -42.8293      -0.00906399         148.784
0.536                  -0.476102        -139.658         -56.8739        -45.4221          -56.859        -45.3442      -0.00915643         148.715
0.537                  -0.490958        -140.178         -56.6723        -47.9334         -56.6588        -47.8626      -0.00925037         148.647
0.538                  -0.506178          -140.7         -56.4715        -50.4485         -56.4594        -50.3847      -0.00934583         148.578
0.539                  -0.521764        -141.224         -56.2717        -52.9677         -56.2609        -52.9111      -0.00944281          148.51
0.54                   -0.537722        -141.751         -56.0729        -55.4915         -56.0635         -55.442      -0.00954132         148.441
0.541                  -0.554056         -142.28         -55.8752        -58.0202         -55.8673        -57.9779      -0.00964137         148.372
0.542                  -0.570769        -142.811         -55.6787        -60.5542         -55.6722        -60.5191      -0.00974297         148.303
0.543                  -0.587866        -143.345         -55.4835        -63.0939         -55.4783        -63.0658      -0.00984613         148.234
0.544                  -0.605351        -143.881         -55.2897        -65.6395         -55.2858        -65.6183      -0.00995086         148.164
0.545                  -0.623228        -144.419         -55.0973        -68.1913         -55.0948        -68.1769       -0.0100572         148.095
0.546                  -0.641501         -144.96         -54.9064        -70.7495         -54.9052        -70.7417       -0.0101651         148.026
0.547                  -0.660175        -145.503         -54.7171        -73.3143         -54.7172        -73.3128       -0.0102746         147.956
0.548                  -0.679253        -146.048         -54.5294        -75.8858         -54.5307        -75.8905       -0.0103857         147.886
0.549                  -0.698739        -146.596         -54.3434        -78.4642          -54.346        -78.4748       -0.0104984         147.816
0.55                   -0.718637        -147.146         -54.1591        -81.0496         -54.1629        -81.0658       -0.0106128         147.746
0.551                  -0.738951        -147.698         -53.9767        -83.6419         -53.9816        -83.6634       -0.0107288         147.676
0.552                  -0.759685        -148.252         -53.7961        -86.2413         -53.8022        -86.2677       -0.0108465         147.606
0.553                  -0.780843        -148.809         -53.6174        -88.8476         -53.6246        -88.8786       -0.0109659         147.536
0.554                  -0.802428        -149.368         -53.4407        -91.4608         -53.4489        -91.4961       -0.0110869         147.466
0.555                  -0.824445        -149.929         -53.2659        -94.0808         -53.2751        -94.1201       -0.0112096         147.395
0.556                  -0.846897        -150.492         -53.0932        -96.7075         -53.1032        -96.7504       -0.0113341         147.324
0.557                  -0.869787        -151.058         -52.9225        -99.3407         -52.9334        -99.3869       -0.0114603         147.254
0.558                   -0.89312        -151.626         -52.7538         -101.98         -52.7656        -102.029       -0.0115882         147.183
0.559                  -0.916899        -152.196         -52.5872        -104.626         -52.5997        -104.678       -0.0117179         147.112
0.56                   -0.941127        -152.768         -52.4228        -107.278          -52.436        -107.331       -0.0118493          147.04
0.561                  -0.965807        -153.342         -52.2604        -109.935         -52.2742        -109.991       -0.0119826         146.969
0.562                  -0.990944        -153.919         -52.1001        -112.598         -52.1145        -112.655       -0.0121176         146.898
0.563                   -1.01654        -154.498          -51.942        -115.266         -51.9569        -115.324       -0.0122544         146.826
0.564                    -1.0426        -155.079         -51.7859        -117.939         -51.8013        -117.997       -0.0123931         146.755
0.565                   -1.06913        -155.662          -51.632        -120.616         -51.6478        -120.675       -0.0125336         146.683
0.566                   -1.09612        -156.247         -51.4801        -123.297         -51.4962        -123.356        -0.012676         146.611
0.567                   -1.12359        -156.834         -51.3303        -125.982         -51.3467        -126.041       -0.0128203         146.539
0.568                   -1.15153        -157.424         -51.1825        -128.671         -51.1991        -128.729       -0.0129664         146.467
0.569                   -1.17996        -158.016         -51.0368        -131.363         -51.0535         -131.42       -0.0131145         146.394
0.57                    -1.20886        -158.609          -50.893        -134.057         -50.9098        -134.114       -0.0132645         146.322
0.571                   -1.23825        -159.205         -50.7512        -136.754          -50.768        -136.809       -0.0134165         146.249
0.572                   -1.26813        -159.803         -50.6113        -139.453          -50.628        -139.507       -0.0135704         146.176
0.573                   -1.29849        -160.403         -50.4732        -142.153         -50.4899        -142.206       -0.0137263         146.103
0.574                   -1.32935        -161.006          -50.337        -144.855         -50.3535        -144.906       -0.0138842          146.03
0.575                   -1.36071         -161.61         -50.2025        -147.558         -50.2188        -147.607       -0.0140441         145.957
0.576                   -1.39257        -162.216         -50.0697        -150.261         -50.0858        -150.308       -0.0142061         145.884
0.577                   -1.42493        -162.825         -49.9386        -152.965         -49.9543         -153.01       -0.0143701          145.81
0.578                   -1.45779        -163.436         -49.8091        -155.669         -49.8245        -155.712       -0.0145362         145.737
0.579                   -1.49116        -164.048         -49.6811        -158.373         -49.6961        -158.414       -0.0147044         145.663
0.58                    -1.52504        -164.663         -49.5546        -161.076         -49.5691        -161.115       -0.0148747         145.589
0.581                   -1.55943         -165.28         -49.4295        -163.779         -49.4435        -163.815       -0.0150471         145.515
0.582                   -1.59434          -165.9         -49.3057         -166.48         -49.3192        -166.514       -0.0152217         145.441
0.583                   -1.62976        -166.521         -49.1832         -169.18         -49.1962        -169.212       -0.0153985         145.366
0.584                   -1.66571        -167.144         -49.0619        -171.879         -49.0743        -171.908       -0.0155774         145.292
0.585                   -1.70218         -167.77         -48.9418        -174.576         -48.9536        -174.603       -0.0157586         145.217
0.586                   -1.73918        -168.398         -48.8227        -177.272         -48.8339        -177.297        -0.015942         145.142
0.587                    -1.7767        -169.028         -48.7046        -179.965         -48.7152        -179.988       -0.0161276         145.067
0.588                   -1.81476         -169.66         -48.5875         177.343         -48.5974         177.323       -0.0163155         144.992
0.589                   -1.85336        -170.294         -48.4712         174.654         -48.4804         174.635       -0.0165057         144.916
0.59                    -1.89249        -170.931         -48.3557         171.967         -48.3643          171.95       -0.0166982         144.841
0.591                   -1.93216         -171.57          -48.241         169.282         -48.2489         169.267        -0.016893         144.765
0.592                   -1.97238        -172.211         -48.1269           166.6         -48.1342         166.587       -0.0170902         144.689
0.593                   -2.01315        -172.855         -48.0134          163.92           -48.02         163.908       -0.0172898         144.613
0.594                   -2.05448        -173.501         -47.9005         161.242         -47.9065         161.232       -0.0174917         144.537
0.595                   -2.09636        -174.149         -47.7881         158.567         -47.7934         158.559        -0.017696          144.46
0.596                    -2.1388          -174.8         -47.6762         155.894         -47.6808         155.887       -0.0179027         144.384
0.597                   -2.18181        -175.453         -47.5646         153.224         -47.5687         153.218       -0.0181119         144.307
0.598                   -2.22539        -176.109         -47.4534         150.556         -47.4568         150.551       -0.0183235          144.23
0.599                   -2.26954        -176.768         -47.3424          147.89         -47.3453         147.887       -0.0185376         144.153
0.6                     -2.31429        -177.429         -47.2317         145.227          -47.234         145.224       -0.0187542         144.075
0.601                   -2.35962        -178.093         -47.1212         142.566          -47.123         142.564       -0.0189732         143.998
0.602                   -2.40554        -178.759         -47.0109         139.906         -47.0122         139.905       -0.0191948          143.92
0.603                   -2.45208        -179.429         -46.9007         137.249         -46.9015         137.249       -0.0194189         143.842
0.604                   -2.49922         179.899         -46.7906         134.594         -46.7909         134.594       -0.0196455         143.764
0.605                   -2.54699         179.223         -46.6805          131.94         -46.6805         131.941       -0.0198747         143.685
0.606                   -2.59539         178.545         -46.5705         129.288         -46.5701         129.289       -0.0201064         143.607
0.607                   -2.64443         177.863         -46.4605         126.638         -46.4597         126.639       -0.0203407         143.528
0.608                   -2.69413         177.178         -46.3505         123.989         -46.3494          123.99       -0.0205775         143.449
0.609                    -2.7445          176.49         -46.2405         121.341         -46.2391         121.342        -0.020817          143.37
0.61                    -2.79555         175.798         -46.1304         118.694         -46.1287         118.695        -0.021059          143.29
0.611                   -2.84731         175.102         -46.0203         116.049         -46.0184          116.05       -0.0213036         143.211
0.612                   -2.89978         174.403         -45.9101         113.404          -45.908         113.405       -0.0215508         143.131
0.613                   -2.95298           173.7         -45.7998          110.76         -45.7976          110.76       -0.0218006         143.051
0.614                   -3.00695         172.993         -45.6894         108.116         -45.6871         108.117        -0.022053         142.971
0.615                    -3.0617         172.282          -45.579         105.473         -45.5766         105.473        -0.022308          142.89
0.616                   -3.11725         171.566         -45.4685          102.83         -45.4661          102.83       -0.0225657         142.809
0.617                   -3.17364         170.847          -45.358         100.187         -45.3555         100.187       -0.0228261         142.728
0.618                    -3.2309         170.122         -45.2474         97.5444         -45.2449         97.5445       -0.0230892         142.647
0.619                   -3.28906         169.393         -45.1367         94.9016         -45.1343         94.9015       -0.0233551         142.565
0.62                    -3.34815          168.66          -45.026         92.2585         -45.0236         92.2583       -0.0236239         142.484
0.621                   -3.40822         167.921         -44.9152         89.6152          -44.913         89.6148       -0.0238957         142.402
0.622                   -3.46932         167.177         -44.8045         86.9714         -44.8023         86.9709       -0.0241706         142.319
0.623                   -3.53148         166.428         -44.6937         84.3272         -44.6917         84.3265       -0.0244488         142.237
0.624                   -3.59477         165.673          -44.583         81.6823         -44.5811         81.6815       -0.0247307         142.154
0.625                   -3.65923         164.912         -44.4723         79.0367         -44.4706         79.0358       -0.0250166         142.071
0.626                   -3.72494         164.146         -44.3617         76.3903         -44.3602         76.3895        -0.025307         141.987
0.627                   -3.79196         163.374         -44.2512         73.7431         -44.2499         73.7423       -0.0256023         141.904
0.628                   -3.86035         162.597         -44.1408          71.095         -44.1397         71.0943       -0.0259035          141.82
0.629                   -3.93021         161.813         -44.0305          68.446         -44.0297         68.4454       -0.0262113         141.735
