! TOUCHSTONE file generated by CST MICROWAVE STUDIO
! Date and time: Mon Sep 28 14:06:26 2020
! Project name: Scenario_1_Free_SPace.cst
! Parameters = {dx1=260; L_HA=400; MT=2.54; Rad_Dielectric=30; Rad_Lower=7.3; Rad_Upper=30; a_HA=580; a_WG=246; b_HA=500; b_WG=121; c_HA=0; c_WG=187; d_feed=85; h_feed=15; h_lower=18; h_upper=40}
! Header version: 2018
! Port assignment regex: !\s*Touchstone port\s*([0-9]+)\s*=\s*(CST MWS port|CST DS port)\s*([0-9]+|Zmin|Zmax)\s*\(\"(.*)\"\)(\s*mode\s*([0-9]+))?.*
! Touchstone port assignment:
! Touchstone port 1 = CST MWS port 1 ("")
! Touchstone port 2 = CST MWS port 2 ("")
# GHz S DB R 50
0.5                     -0.14366        -122.472         -57.6961         125.811         -57.6961         125.811      -0.00638876         151.141
0.501                  -0.149111        -122.913         -57.5082         124.153         -57.5062         124.156      -0.00643309         151.076
0.502                  -0.154703        -123.356         -57.3194         122.515         -57.3155         122.522      -0.00647904          151.01
0.503                  -0.160441        -123.801         -57.1297         120.896         -57.1241         120.907      -0.00652665         150.945
0.504                  -0.166327        -124.249         -56.9393         119.295         -56.9323          119.31      -0.00657594         150.879
0.505                  -0.172367        -124.698         -56.7483         117.711         -56.7399          117.73      -0.00662692         150.813
0.506                  -0.178564         -125.15         -56.5568         116.144         -56.5472         116.166      -0.00667962         150.748
0.507                  -0.184923        -125.604         -56.3649         114.592         -56.3542         114.617      -0.00673406         150.682
0.508                  -0.191447         -126.06         -56.1726         113.053          -56.161         113.082      -0.00679026         150.616
0.509                  -0.198142        -126.518           -55.98         111.528         -55.9677          111.56      -0.00684826          150.55
0.51                   -0.205012        -126.979         -55.7872         110.016         -55.7742         110.051      -0.00690807         150.484
0.511                  -0.212061        -127.442         -55.5942         108.515         -55.5807         108.552      -0.00696971         150.418
0.512                  -0.219297        -127.908         -55.4012         107.024         -55.3871         107.064      -0.00703321         150.351
0.513                  -0.226722        -128.375          -55.208         105.543         -55.1936         105.586      -0.00709859         150.285
0.514                  -0.234344        -128.845         -55.0148         104.071         -55.0001         104.116      -0.00716588         150.219
0.515                  -0.242168        -129.318         -54.8216         102.607         -54.8066         102.654       -0.0072351         150.152
0.516                  -0.250199        -129.793         -54.6284          101.15         -54.6133         101.199      -0.00730627         150.086
0.517                  -0.258444         -130.27         -54.4353         99.6996         -54.4201         99.7499      -0.00737942         150.019
0.518                  -0.266909         -130.75         -54.2422         98.2552         -54.2269         98.3067      -0.00745458         149.952
0.519                  -0.275602        -131.233         -54.0492         96.8158          -54.034         96.8684      -0.00753177         149.885
0.52                   -0.284528        -131.717         -53.8563         95.3808         -53.8411         95.4343        -0.007611         149.818
0.521                  -0.293694        -132.205         -53.6636         93.9496         -53.6485         94.0037      -0.00769232         149.751
0.522                  -0.303109        -132.695         -53.4709         92.5214          -53.456          92.576      -0.00777573         149.684
0.523                   -0.31278        -133.188         -53.2784         91.0958         -53.2637         91.1506      -0.00786127         149.617
0.524                  -0.322714        -133.683         -53.0861          89.672         -53.0715         89.7269      -0.00794896          149.55
0.525                  -0.332919        -134.181         -52.8939         88.2494         -52.8795         88.3043      -0.00803882         149.483
0.526                  -0.343404        -134.681         -52.7019         86.8277         -52.6878         86.8823      -0.00813088         149.415
0.527                  -0.354178        -135.185           -52.51         85.4061         -52.4962         85.4603      -0.00822515         149.348
0.528                  -0.365249         -135.69         -52.3183         83.9841         -52.3048         84.0379      -0.00832167          149.28
0.529                  -0.376626        -136.199         -52.1268         82.5613         -52.1136         82.6144      -0.00842045         149.212
0.53                   -0.388319         -136.71         -51.9355         81.1372         -51.9226         81.1895      -0.00852151         149.144
0.531                  -0.400338        -137.224         -51.7444         79.7113         -51.7318         79.7627      -0.00862488         149.077
0.532                  -0.412691        -137.741         -51.5535         78.2831         -51.5412         78.3335      -0.00873057         149.009
0.533                   -0.42539        -138.261         -51.3628         76.8521         -51.3509         76.9015      -0.00883861         148.941
0.534                  -0.438445        -138.783         -51.1723         75.4181         -51.1608         75.4662        -0.008949         148.872
0.535                  -0.451866        -139.308          -50.982         73.9804         -50.9709         74.0273      -0.00906178         148.804
0.536                  -0.465664        -139.836          -50.792         72.5389         -50.7812         72.5844      -0.00917696         148.736
0.537                  -0.479851        -140.367         -50.6022          71.093         -50.5918         71.1372      -0.00929454         148.667
0.538                  -0.494437          -140.9         -50.4126         69.6424         -50.4026         69.6851      -0.00941455         148.599
0.539                  -0.509435        -141.436         -50.2233         68.1867         -50.2137          68.228        -0.009537          148.53
0.54                   -0.524855        -141.975         -50.0343         66.7256          -50.025         66.7654      -0.00966189         148.461
0.541                  -0.540711        -142.517         -49.8456         65.2588         -49.8367          65.297      -0.00978925         148.392
0.542                  -0.557013        -143.061         -49.6572          63.786         -49.6487         63.8226      -0.00991906         148.324
0.543                  -0.573775        -143.608         -49.4691         62.3068         -49.4609         62.3418       -0.0100513         148.254
0.544                  -0.591008        -144.158         -49.2814          60.821         -49.2735         60.8544       -0.0101861         148.185
0.545                  -0.608726         -144.71          -49.094         59.3283         -49.0865         59.3601       -0.0103233         148.116
0.546                   -0.62694        -145.265         -48.9069         57.8285         -48.8998         57.8586        -0.010463         148.047
0.547                  -0.645663        -145.823         -48.7203         56.3212         -48.7136         56.3498       -0.0106052         147.977
0.548                  -0.664909        -146.383         -48.5341         54.8063         -48.5277         54.8333       -0.0107498         147.908
0.549                  -0.684688        -146.945         -48.3484         53.2836         -48.3423          53.309       -0.0108969         147.838
0.55                   -0.705014         -147.51         -48.1631         51.7528         -48.1573         51.7766       -0.0110465         147.768
0.551                    -0.7259        -148.078         -47.9783         50.2138         -47.9728         50.2361       -0.0111984         147.699
0.552                  -0.747357        -148.648          -47.794         48.6664         -47.7889         48.6872       -0.0113528         147.629
0.553                  -0.769397         -149.22         -47.6103         47.1104         -47.6055         47.1297       -0.0115095         147.559
0.554                  -0.792032        -149.794         -47.4272         45.5457         -47.4227         45.5636       -0.0116686         147.488
0.555                  -0.815274        -150.371         -47.2447         43.9723         -47.2405         43.9887         -0.01183         147.418
0.556                  -0.839133         -150.95         -47.0628         42.3899         -47.0589          42.405       -0.0119937         147.348
0.557                  -0.863621        -151.531         -46.8817         40.7985          -46.878         40.8122       -0.0121597         147.277
0.558                  -0.888746        -152.113         -46.7012          39.198         -46.6978         39.2105       -0.0123279         147.207
0.559                   -0.91452        -152.698         -46.5215         37.5884         -46.5184         37.5997       -0.0124982         147.136
0.56                    -0.94095        -153.284         -46.3426         35.9696         -46.3398         35.9797       -0.0126707         147.065
0.561                  -0.968044        -153.872         -46.1646         34.3417          -46.162         34.3507       -0.0128452         146.994
0.562                  -0.995811        -154.461         -45.9874         32.7046         -45.9851         32.7125       -0.0130217         146.923
0.563                   -1.02426        -155.052         -45.8112         31.0583          -45.809         31.0652       -0.0132002         146.852
0.564                   -1.05339        -155.644         -45.6359          29.403         -45.6339         29.4089       -0.0133806         146.781
0.565                    -1.0832        -156.238         -45.4615         27.7386         -45.4598         27.7436       -0.0135627         146.709
0.566                   -1.11371        -156.832         -45.2883         26.0652         -45.2868         26.0694       -0.0137465         146.638
0.567                   -1.14492        -157.427         -45.1161         24.3831         -45.1148         24.3864        -0.013932         146.566
0.568                   -1.17682        -158.024          -44.945         22.6922         -44.9439         22.6948       -0.0141191         146.495
0.569                   -1.20941        -158.621         -44.7751         20.9927         -44.7742         20.9946       -0.0143076         146.423
0.57                     -1.2427        -159.218         -44.6064         19.2848         -44.6056         19.2861       -0.0144974         146.351
0.571                   -1.27668        -159.816         -44.4389         17.5687         -44.4383         17.5694       -0.0146886         146.279
0.572                   -1.31134        -160.415         -44.2727         15.8445         -44.2722         15.8447       -0.0148809         146.207
0.573                   -1.34669        -161.013         -44.1078         14.1126         -44.1075         14.1123       -0.0150742         146.134
0.574                    -1.3827        -161.612         -43.9443         12.3731         -43.9441         12.3723       -0.0152685         146.062
0.575                   -1.41938         -162.21         -43.7821         10.6263          -43.782         10.6252       -0.0154637         145.989
0.576                   -1.45671        -162.809         -43.6214         8.87256         -43.6214         8.87105       -0.0156595         145.916
0.577                   -1.49469        -163.407         -43.4621         7.11208         -43.4622         7.11026        -0.015856         145.844
0.578                   -1.53328        -164.005         -43.3043          5.3452         -43.3045         5.34312        -0.016053         145.771
0.579                   -1.57249        -164.602          -43.148         3.57226         -43.1483         3.56996       -0.0162503         145.698
0.58                    -1.61229        -165.199         -42.9932         1.79361         -42.9936         1.79112       -0.0164479         145.624
0.581                   -1.65267        -165.795         -42.8399        0.009598         -42.8404      0.00696075       -0.0166457         145.551
0.582                    -1.6936         -166.39         -42.6883         -1.7794         -42.6888        -1.78216       -0.0168435         145.477
0.583                   -1.73507        -166.984         -42.5382        -3.57301         -42.5388        -3.57585       -0.0170412         145.404
0.584                   -1.77705        -167.578         -42.3897        -5.37084         -42.3903        -5.37373       -0.0172387          145.33
0.585                   -1.81951         -168.17         -42.2428        -7.17248         -42.2435        -7.17541       -0.0174358         145.256
0.586                   -1.86244        -168.762         -42.0975        -8.97753         -42.0983        -8.98047       -0.0176326         145.182
0.587                    -1.9058        -169.352         -41.9539        -10.7856         -41.9547        -10.7885       -0.0178289         145.108
0.588                   -1.94957        -169.942         -41.8118        -12.5962         -41.8126        -12.5991       -0.0180246         145.033
0.589                   -1.99373         -170.53         -41.6714        -14.4091         -41.6723        -14.4119       -0.0182197         144.959
0.59                    -2.03824        -171.118         -41.5326        -16.2236         -41.5335        -16.2264       -0.0184139         144.884
0.591                   -2.08308        -171.705         -41.3954        -18.0396         -41.3963        -18.0423       -0.0186074         144.809
0.592                   -2.12822        -172.291         -41.2598        -19.8564         -41.2606         -19.859          -0.0188         144.734
0.593                   -2.17363        -172.876         -41.1258        -21.6738         -41.1266        -21.6763       -0.0189916         144.659
0.594                   -2.21929         -173.46         -40.9933        -23.4913         -40.9941        -23.4937       -0.0191823         144.584
0.595                   -2.26517        -174.044         -40.8623        -25.3086         -40.8631        -25.3108       -0.0193721         144.508
0.596                   -2.31124        -174.627         -40.7328        -27.1252         -40.7337        -27.1273       -0.0195608         144.432
0.597                   -2.35748         -175.21         -40.6049        -28.9408         -40.6057        -28.9428       -0.0197485         144.357
0.598                   -2.40386        -175.792         -40.4783         -30.755         -40.4791        -30.7569       -0.0199352          144.28
0.599                   -2.45036        -176.375         -40.3532        -32.5675          -40.354        -32.5693       -0.0201209         144.204
0.6                     -2.49697        -176.958         -40.2295        -34.3779         -40.2302        -34.3796       -0.0203057         144.128
0.601                   -2.54365        -177.542          -40.107         -36.186         -40.1077        -36.1875       -0.0204897         144.051
0.602                    -2.5904        -178.126         -39.9859        -37.9914         -39.9866        -37.9928       -0.0206728         143.974
0.603                    -2.6372        -178.711         -39.8661        -39.7939         -39.8667        -39.7952       -0.0208552         143.897
0.604                   -2.68404        -179.297         -39.7474        -41.5931          -39.748        -41.5943       -0.0210369          143.82
0.605                   -2.73091        -179.884         -39.6299        -43.3889         -39.6305          -43.39       -0.0212182         143.742
0.606                   -2.77779         179.527         -39.5135         -45.181          -39.514         -45.182        -0.021399         143.665
0.607                   -2.82469         178.936         -39.3982        -46.9692         -39.3987        -46.9701       -0.0215795         143.587
0.608                    -2.8716         178.343         -39.2839        -48.7534         -39.2843        -48.7542         -0.02176         143.509
0.609                   -2.91852         177.747         -39.1705        -50.5333         -39.1709         -50.534       -0.0219405         143.431
0.61                    -2.96545         177.149         -39.0581        -52.3088         -39.0585        -52.3094       -0.0221212         143.352
0.611                   -3.01241         176.547         -38.9465        -54.0798         -38.9469        -54.0804       -0.0223023         143.273
0.612                    -3.0594         175.942         -38.8358        -55.8462         -38.8361        -55.8467        -0.022484         143.194
0.613                   -3.10643         175.334         -38.7258        -57.6079          -38.726        -57.6083       -0.0226665         143.115
0.614                   -3.15351         174.721         -38.6165        -59.3648         -38.6167        -59.3652       -0.0228501         143.035
0.615                   -3.20068         174.104         -38.5078        -61.1169          -38.508        -61.1173       -0.0230349         142.956
0.616                   -3.24794         173.482         -38.3998        -62.8642         -38.3999        -62.8645       -0.0232213         142.876
0.617                   -3.29532         172.855         -38.2923        -64.6067         -38.2924        -64.6069       -0.0234093         142.796
0.618                   -3.34285         172.223         -38.1853        -66.3443         -38.1854        -66.3445       -0.0235994         142.715
0.619                   -3.39056         171.586         -38.0787        -68.0771         -38.0788        -68.0773       -0.0237918         142.634
0.62                    -3.43848         170.942         -37.9726        -69.8052         -37.9726        -69.8053       -0.0239866         142.553
0.621                   -3.48664         170.293         -37.8668        -71.5285         -37.8668        -71.5287       -0.0241843         142.472
0.622                   -3.53509         169.637         -37.7613        -73.2473         -37.7613        -73.2474        -0.024385         142.391
0.623                   -3.58386         168.974         -37.6561        -74.9615         -37.6561        -74.9616        -0.024589         142.309
0.624                   -3.63301         168.304         -37.5512        -76.6713         -37.5511        -76.6715       -0.0247967         142.227
0.625                   -3.68257         167.627         -37.4464        -78.3768         -37.4463         -78.377       -0.0250083         142.144
0.626                   -3.73259         166.942         -37.3417        -80.0782         -37.3416        -80.0783       -0.0252241         142.062
0.627                   -3.78313          166.25         -37.2372        -81.7755         -37.2371        -81.7757       -0.0254444         141.979
0.628                   -3.83423         165.549         -37.1327         -83.469         -37.1326        -83.4692       -0.0256695         141.896
0.629                   -3.88596         164.841         -37.0283        -85.1588         -37.0282         -85.159       -0.0258996         141.812
