! TOUCHSTONE file generated by CST MICROWAVE STUDIO
! Date and time: Mon Sep 28 14:06:37 2020
! Project name: Scenario_1_Free_SPace.cst
! Parameters = {dx1=277.1; L_HA=400; MT=2.54; Rad_Dielectric=30; Rad_Lower=7.3; Rad_Upper=30; a_HA=580; a_WG=246; b_HA=500; b_WG=121; c_HA=0; c_WG=187; d_feed=85; h_feed=15; h_lower=18; h_upper=40}
! Header version: 2018
! Port assignment regex: !\s*Touchstone port\s*([0-9]+)\s*=\s*(CST MWS port|CST DS port)\s*([0-9]+|Zmin|Zmax)\s*\(\"(.*)\"\)(\s*mode\s*([0-9]+))?.*
! Touchstone port assignment:
! Touchstone port 1 = CST MWS port 1 ("")
! Touchstone port 2 = CST MWS port 2 ("")
# GHz S DB R 50
0.5                    -0.142096         -122.52         -57.9467         117.099         -57.9467         117.099      -0.00636189         151.156
0.501                  -0.146089         -122.95         -57.7552         115.745         -57.7553         115.746      -0.00641118          151.09
0.502                  -0.150226        -123.383         -57.5631          114.39         -57.5632         114.391      -0.00646211         151.025
0.503                  -0.154519        -123.819         -57.3703         113.033         -57.3705         113.034      -0.00651471          150.96
0.504                  -0.158978        -124.259          -57.177         111.673         -57.1773         111.674      -0.00656899         150.894
0.505                  -0.163613        -124.701         -56.9831         110.311         -56.9834         110.312      -0.00662497         150.828
0.506                  -0.168435        -125.147         -56.7887         108.946          -56.789         108.947      -0.00668269         150.763
0.507                  -0.173455        -125.595         -56.5937         107.578         -56.5941         107.579      -0.00674214         150.697
0.508                  -0.178683        -126.047         -56.3983         106.206         -56.3987         106.207      -0.00680337         150.631
0.509                  -0.184132        -126.502         -56.2023         104.831         -56.2028         104.833      -0.00686638         150.565
0.51                   -0.189811         -126.96         -56.0059         103.453         -56.0064         103.454       -0.0069312         150.499
0.511                  -0.195734        -127.422         -55.8091          102.07         -55.8096         102.071      -0.00699784         150.433
0.512                   -0.20191        -127.886         -55.6119         100.683         -55.6124         100.685      -0.00706634         150.367
0.513                  -0.208352        -128.354         -55.4143         99.2921         -55.4148         99.2937       -0.0071367           150.3
0.514                  -0.215071        -128.825         -55.2163         97.8964         -55.2168          97.898      -0.00720895         150.234
0.515                   -0.22208        -129.299          -55.018         96.4958         -55.0185         96.4975      -0.00728311         150.167
0.516                  -0.229388        -129.776         -54.8194         95.0903         -54.8199         95.0919      -0.00735919         150.101
0.517                   -0.23701        -130.256         -54.6205         93.6795          -54.621         93.6811      -0.00743721         150.034
0.518                  -0.244955         -130.74         -54.4213         92.2632         -54.4218         92.2648       -0.0075172         149.968
0.519                  -0.253236        -131.226         -54.2219         90.8412         -54.2224         90.8428      -0.00759917         149.901
0.52                   -0.261864        -131.716         -54.0223         89.4134         -54.0228         89.4149      -0.00768313         149.834
0.521                  -0.270851        -132.208         -53.8225         87.9794          -53.823         87.9809      -0.00776911         149.767
0.522                  -0.280209        -132.704         -53.6226         86.5391         -53.6231         86.5406      -0.00785711           149.7
0.523                  -0.289948        -133.202         -53.4226         85.0923          -53.423         85.0938      -0.00794716         149.633
0.524                   -0.30008        -133.704         -53.2224         83.6388         -53.2229         83.6402      -0.00803927         149.566
0.525                  -0.310616        -134.208         -53.0222         82.1784         -53.0226         82.1797      -0.00813345         149.498
0.526                  -0.321566        -134.715          -52.822         80.7109         -52.8224         80.7121      -0.00822972         149.431
0.527                  -0.332941        -135.225         -52.6218         79.2361         -52.6221         79.2372      -0.00832809         149.363
0.528                  -0.344752        -135.738         -52.4216         77.7538         -52.4219         77.7548      -0.00842857         149.296
0.529                  -0.357008        -136.253         -52.2215         76.2638         -52.2218         76.2648      -0.00853117         149.228
0.53                   -0.369719        -136.771         -52.0215         74.7661         -52.0218         74.7669      -0.00863589          149.16
0.531                  -0.382894        -137.292         -51.8216         73.2603         -51.8219          73.261      -0.00874276         149.093
0.532                  -0.396543        -137.815         -51.6219         71.7464         -51.6222          71.747      -0.00885176         149.025
0.533                  -0.410673        -138.341         -51.4225         70.2243         -51.4227         70.2247      -0.00896292         148.957
0.534                  -0.425293        -138.869         -51.2233         68.6936         -51.2234         68.6939      -0.00907623         148.888
0.535                  -0.440411          -139.4         -51.0244         67.1545         -51.0245         67.1546       -0.0091917          148.82
0.536                  -0.456034        -139.932         -50.8258         65.6066         -50.8259         65.6066      -0.00930933         148.752
0.537                  -0.472168        -140.467         -50.6277         64.0499         -50.6277         64.0498      -0.00942911         148.684
0.538                   -0.48882        -141.005         -50.4299         62.4843           -50.43          62.484      -0.00955105         148.615
0.539                  -0.505995        -141.544         -50.2327         60.9098         -50.2327         60.9093      -0.00967514         148.546
0.54                   -0.523698        -142.085         -50.0359         59.3261         -50.0359         59.3255      -0.00980138         148.478
0.541                  -0.541934        -142.628         -49.8397         57.7333         -49.8396         57.7325      -0.00992975         148.409
0.542                  -0.560706        -143.173         -49.6442         56.1313          -49.644         56.1303       -0.0100603          148.34
0.543                  -0.580018        -143.719         -49.4492         54.5201         -49.4491         54.5189       -0.0101929         148.271
0.544                  -0.599872        -144.268          -49.255         52.8996         -49.2548         52.8982       -0.0103276         148.202
0.545                   -0.62027        -144.818         -49.0615         51.2698         -49.0613         51.2682       -0.0104644         148.133
0.546                  -0.641214        -145.369         -48.8689         49.6307         -48.8686          49.629       -0.0106033         148.064
0.547                  -0.662702        -145.922         -48.6771         47.9824         -48.6768         47.9805       -0.0107442         147.994
0.548                  -0.684737        -146.476         -48.4861         46.3249         -48.4858         46.3227       -0.0108871         147.925
0.549                  -0.707316        -147.032         -48.2962         44.6582         -48.2958         44.6558        -0.011032         147.855
0.55                   -0.730438        -147.588         -48.1072         42.9824         -48.1068         42.9798       -0.0111789         147.785
0.551                    -0.7541        -148.146         -47.9193         41.2975         -47.9189         41.2948       -0.0113277         147.716
0.552                  -0.778301        -148.705         -47.7325         39.6038          -47.732         39.6009       -0.0114784         147.646
0.553                  -0.803035        -149.265         -47.5468         37.9012         -47.5463         37.8981       -0.0116309         147.576
0.554                    -0.8283        -149.826         -47.3623         36.1901         -47.3618         36.1867       -0.0117853         147.506
0.555                  -0.854089        -150.387         -47.1791         34.4704         -47.1786         34.4669       -0.0119414         147.435
0.556                  -0.880398         -150.95         -46.9971         32.7424         -46.9966         32.7387       -0.0120993         147.365
0.557                  -0.907219        -151.513         -46.8165         31.0063          -46.816         31.0024       -0.0122588         147.295
0.558                  -0.934548        -152.076         -46.6372         29.2623         -46.6367         29.2582       -0.0124199         147.224
0.559                  -0.962374        -152.641         -46.4594         27.5106         -46.4589         27.5063       -0.0125826         147.154
0.56                   -0.990692        -153.206          -46.283         25.7514         -46.2825          25.747       -0.0127468         147.083
0.561                   -1.01949        -153.771         -46.1082         23.9852         -46.1076         23.9805       -0.0129124         147.012
0.562                   -1.04877        -154.337         -45.9348          22.212         -45.9343         22.2072       -0.0130793         146.941
0.563                    -1.0785        -154.903         -45.7631         20.4322         -45.7625         20.4273       -0.0132476          146.87
0.564                    -1.1087         -155.47         -45.5929         18.6462         -45.5924         18.6411        -0.013417         146.799
0.565                   -1.13933        -156.037         -45.4244         16.8542         -45.4238          16.849       -0.0135876         146.727
0.566                    -1.1704        -156.604         -45.2576         15.0567          -45.257         15.0513       -0.0137593         146.656
0.567                   -1.20189        -157.172         -45.0924         13.2539         -45.0918         13.2484        -0.013932         146.584
0.568                    -1.2338         -157.74          -44.929         11.4462         -44.9284         11.4406       -0.0141055         146.513
0.569                    -1.2661        -158.308         -44.7672         9.63397         -44.7667         9.62825       -0.0142799         146.441
0.57                     -1.2988        -158.877         -44.6073         7.81764         -44.6067         7.81182        -0.014455         146.369
0.571                   -1.33187        -159.446          -44.449         5.99757         -44.4485         5.99167       -0.0146307         146.297
0.572                    -1.3653        -160.015         -44.2926         4.17417          -44.292         4.16819        -0.014807         146.225
0.573                   -1.39909        -160.585         -44.1379         2.34784         -44.1374         2.34179       -0.0149837         146.152
0.574                   -1.43322        -161.155          -43.985        0.518971         -43.9845        0.512865       -0.0151608          146.08
0.575                   -1.46769        -161.725         -43.8339        -1.31202         -43.8334        -1.31817       -0.0153382         146.007
0.576                   -1.50247        -162.296         -43.6845        -3.14473          -43.684        -3.15091       -0.0155157         145.935
0.577                   -1.53756        -162.867         -43.5369        -4.97874         -43.5365        -4.98494       -0.0156934         145.862
0.578                   -1.57294        -163.439         -43.3911        -6.81367         -43.3906        -6.81988        -0.015871         145.789
0.579                   -1.60862        -164.011          -43.247        -8.64911         -43.2466        -8.65531       -0.0160486         145.716
0.58                    -1.64457        -164.584         -43.1046        -10.4847         -43.1042        -10.4909        -0.016226         145.642
0.581                   -1.68078        -165.158         -42.9639          -12.32         -42.9635        -12.3261       -0.0164031         145.569
0.582                   -1.71725        -165.733         -42.8249        -14.1546         -42.8246        -14.1607         -0.01658         145.495
0.583                   -1.75397        -166.308         -42.6876        -15.9883         -42.6872        -15.9943       -0.0167564         145.422
0.584                   -1.79093        -166.884         -42.5518        -17.8205         -42.5515        -17.8265       -0.0169323         145.348
0.585                   -1.82812        -167.462         -42.4177        -19.6511         -42.4174         -19.657       -0.0171077         145.274
0.586                   -1.86553         -168.04         -42.2851        -21.4796         -42.2848        -21.4855       -0.0172825           145.2
0.587                   -1.90316         -168.62          -42.154        -23.3058         -42.1537        -23.3116       -0.0174567         145.125
0.588                     -1.941        -169.201         -42.0244        -25.1294         -42.0241         -25.135       -0.0176302         145.051
0.589                   -1.97904        -169.784         -41.8962          -26.95         -41.8959        -26.9555        -0.017803         144.976
0.59                    -2.01729        -170.368         -41.7694        -28.7674         -41.7691        -28.7728        -0.017975         144.902
0.591                   -2.05573        -170.954         -41.6439        -30.5813         -41.6437        -30.5866       -0.0181462         144.827
0.592                   -2.09437        -171.541         -41.5197        -32.3916         -41.5195        -32.3968       -0.0183167         144.751
0.593                    -2.1332        -172.131         -41.3968         -34.198         -41.3966         -34.203       -0.0184864         144.676
0.594                   -2.17223        -172.723          -41.275        -36.0003         -41.2749        -36.0052       -0.0186554         144.601
0.595                   -2.21144        -173.317         -41.1544        -37.7984         -41.1543        -37.8031       -0.0188236         144.525
0.596                   -2.25086        -173.914         -41.0349         -39.592         -41.0348        -39.5965       -0.0189911         144.449
0.597                   -2.29046        -174.513         -40.9164        -41.3811         -40.9163        -41.3854        -0.019158         144.373
0.598                   -2.33027        -175.114          -40.799        -43.1655         -40.7989        -43.1697       -0.0193242         144.297
0.599                   -2.37028        -175.719         -40.6824        -44.9451         -40.6823        -44.9491         -0.01949          144.22
0.6                      -2.4105        -176.327         -40.5667        -46.7199         -40.5666        -46.7237       -0.0196553         144.144
0.601                   -2.45094        -176.938         -40.4519        -48.4898         -40.4518        -48.4934       -0.0198203         144.067
0.602                    -2.4916        -177.552         -40.3378        -50.2547         -40.3377        -50.2582       -0.0199851          143.99
0.603                   -2.53249         -178.17         -40.2244        -52.0147         -40.2244        -52.0179       -0.0201498         143.913
0.604                   -2.57363        -178.791         -40.1118        -53.7696         -40.1117        -53.7727       -0.0203145         143.835
0.605                   -2.61502        -179.417         -39.9997        -55.5196         -39.9997        -55.5225       -0.0204794         143.758
0.606                   -2.65669         179.954         -39.8882        -57.2646         -39.8882        -57.2673       -0.0206447          143.68
0.607                   -2.69864          179.32         -39.7772        -59.0047         -39.7772        -59.0072       -0.0208105         143.602
0.608                   -2.74089         178.682         -39.6667        -60.7399         -39.6667        -60.7422        -0.020977         143.523
0.609                   -2.78346         178.039         -39.5566        -62.4703         -39.5566        -62.4724       -0.0211445         143.445
0.61                    -2.82636         177.392         -39.4469        -64.1959         -39.4469        -64.1979        -0.021313         143.366
0.611                   -2.86963         176.739         -39.3376         -65.917         -39.3376        -65.9188       -0.0214829         143.287
0.612                   -2.91327         176.081         -39.2285        -67.6335         -39.2285        -67.6351       -0.0216544         143.208
0.613                   -2.95732         175.418         -39.1197        -69.3456         -39.1197        -69.3471       -0.0218276         143.128
0.614                    -3.0018         174.749         -39.0111        -71.0535         -39.0111        -71.0548       -0.0220029         143.049
0.615                   -3.04674         174.075         -38.9026        -72.7572         -38.9026        -72.7584       -0.0221806         142.969
0.616                   -3.09216         173.394         -38.7943         -74.457         -38.7943         -74.458       -0.0223607         142.888
0.617                    -3.1381         172.708         -38.6861        -76.1529         -38.6861        -76.1537       -0.0225437         142.808
0.618                   -3.18458         172.015          -38.578        -77.8452         -38.5779        -77.8459       -0.0227298         142.727
0.619                   -3.23165         171.316         -38.4699         -79.534         -38.4698        -79.5345       -0.0229193         142.646
0.62                    -3.27934          170.61         -38.3618        -81.2195         -38.3617        -81.2199       -0.0231125         142.565
0.621                   -3.32769         169.897         -38.2536        -82.9018         -38.2536        -82.9021       -0.0233095         142.483
0.622                   -3.37674         169.177         -38.1455        -84.5813         -38.1454        -84.5815       -0.0235108         142.401
0.623                   -3.42652          168.45         -38.0372        -86.2581         -38.0372        -86.2582       -0.0237167         142.319
0.624                   -3.47709         167.715         -37.9289        -87.9324         -37.9288        -87.9323       -0.0239273         142.237
0.625                    -3.5285         166.973         -37.8204        -89.6043         -37.8204        -89.6042        -0.024143         142.154
0.626                   -3.58078         166.223         -37.7118        -91.2742         -37.7118         -91.274       -0.0243641         142.072
0.627                     -3.634         165.465          -37.603        -92.9422          -37.603        -92.9419       -0.0245909         141.988
0.628                    -3.6882         164.699         -37.4941        -94.6086         -37.4941        -94.6082       -0.0248236         141.905
0.629                   -3.74344         163.925          -37.385        -96.2736          -37.385        -96.2731       -0.0250625         141.821
