! TOUCHSTONE file generated by CST MICROWAVE STUDIO
! Date and time: Fri Oct  2 18:47:41 2020
! Project name: Scenario_1_Free_Space_out_of_line.cst
! Parameters = {Lambda=346.42; Step_1=17.321; dy1=191.571; dx1=173; L_HA=400; MT=2.54; Rad_Dielectric=30; Rad_Lower=7.3; Rad_Upper=30; a_HA=580; a_WG=246; b_HA=500; b_WG=121; c_HA=0; c_WG=187; d_feed=85; h_feed=15; h_lower=18; h_upper=40}
! Header version: 2018
! Port assignment regex: !\s*Touchstone port\s*([0-9]+)\s*=\s*(CST MWS port|CST DS port)\s*([0-9]+|Zmin|Zmax)\s*\(\"(.*)\"\)(\s*mode\s*([0-9]+))?.*
! Touchstone port assignment:
! Touchstone port 1 = CST MWS port 1 ("")
! Touchstone port 2 = CST MWS port 2 ("")
# GHz S DB R 50
0.5                    -0.149719        -122.744         -59.3811         148.267         -59.3811         148.267      -0.00633802         151.111
0.501                  -0.154756        -123.187         -59.1841         146.875         -59.1841         146.875      -0.00640697         151.046
0.502                  -0.159983        -123.632         -58.9885         145.484         -58.9885         145.484      -0.00647615          150.98
0.503                    -0.1654         -124.08         -58.7943         144.092         -58.7943         144.092      -0.00654548         150.915
0.504                  -0.171013        -124.529         -58.6014           142.7         -58.6014           142.7      -0.00661486         150.849
0.505                  -0.176825        -124.981         -58.4098         141.308         -58.4098         141.308      -0.00668418         150.784
0.506                  -0.182839        -125.435         -58.2195         139.914         -58.2195         139.914      -0.00675336         150.718
0.507                  -0.189058        -125.891         -58.0304          138.52         -58.0304          138.52      -0.00682226         150.652
0.508                  -0.195486        -126.349         -57.8425         137.125         -57.8425         137.125      -0.00689079         150.586
0.509                  -0.202127        -126.809         -57.6557         135.727         -57.6557         135.727      -0.00695881          150.52
0.51                   -0.208985        -127.271         -57.4701         134.329         -57.4701         134.329      -0.00702622         150.454
0.511                  -0.216062        -127.736         -57.2856         132.928         -57.2856         132.928      -0.00709288         150.388
0.512                  -0.223364        -128.202         -57.1021         131.526         -57.1021         131.526      -0.00715867         150.322
0.513                  -0.230894        -128.671         -56.9197         130.121         -56.9197         130.121      -0.00722348         150.256
0.514                  -0.238655        -129.142         -56.7383         128.714         -56.7383         128.714      -0.00728719         150.189
0.515                  -0.246652        -129.616         -56.5579         127.304         -56.5579         127.304       -0.0073497         150.123
0.516                  -0.254889        -130.091         -56.3785         125.892         -56.3785         125.892      -0.00741091         150.056
0.517                   -0.26337        -130.569         -56.2001         124.477         -56.2001         124.477      -0.00747073          149.99
0.518                  -0.272099        -131.049         -56.0226         123.059         -56.0226         123.059       -0.0075291         149.923
0.519                  -0.281081        -131.531          -55.846         121.639          -55.846         121.639      -0.00758598         149.856
0.52                   -0.290318        -132.016         -55.6703         120.215         -55.6703         120.215      -0.00764135         149.789
0.521                  -0.299817        -132.503         -55.4955         118.788         -55.4955         118.788      -0.00769522         149.722
0.522                  -0.309581        -132.992         -55.3216         117.358         -55.3216         117.358      -0.00774763         149.655
0.523                  -0.319614        -133.483         -55.1485         115.924         -55.1485         115.924      -0.00779863         149.588
0.524                  -0.329922        -133.977         -54.9763         114.487         -54.9763         114.487      -0.00784835         149.521
0.525                  -0.340508        -134.473         -54.8049         113.047         -54.8049         113.047      -0.00789692         149.454
0.526                  -0.351378        -134.971         -54.6343         111.603         -54.6343         111.603      -0.00794452         149.386
0.527                  -0.362537        -135.471         -54.4645         110.156         -54.4645         110.156      -0.00799135         149.319
0.528                  -0.373988        -135.974         -54.2955         108.705         -54.2955         108.705      -0.00803765         149.251
0.529                  -0.385736         -136.48         -54.1272          107.25         -54.1272          107.25      -0.00808369         149.183
0.53                   -0.397788        -136.987         -53.9598         105.792         -53.9598         105.792      -0.00812976         149.115
0.531                  -0.410147        -137.497         -53.7931          104.33         -53.7931          104.33      -0.00817617         149.047
0.532                  -0.422818        -138.009         -53.6272         102.864         -53.6272         102.864      -0.00822323         148.979
0.533                  -0.435807        -138.524          -53.462         101.395          -53.462         101.395      -0.00827127         148.911
0.534                  -0.449119        -139.041         -53.2976         99.9215         -53.2976         99.9215      -0.00832062         148.842
0.535                   -0.46276         -139.56         -53.1338         98.4445         -53.1338         98.4444      -0.00837158         148.774
0.536                  -0.476733        -140.082         -52.9709         96.9636         -52.9709         96.9636      -0.00842446         148.705
0.537                  -0.491045        -140.606         -52.8086         95.4791         -52.8086         95.4791      -0.00847953         148.637
0.538                  -0.505702        -141.133         -52.6471         93.9907         -52.6471         93.9907      -0.00853707         148.568
0.539                  -0.520708        -141.662         -52.4862         92.4986         -52.4862         92.4986      -0.00859729         148.499
0.54                   -0.536069        -142.193         -52.3261         91.0027         -52.3261         91.0027       -0.0086604          148.43
0.541                   -0.55179        -142.727         -52.1667         89.5031         -52.1667         89.5031      -0.00872656          148.36
0.542                  -0.567879        -143.263          -52.008         87.9997          -52.008         87.9997      -0.00879593         148.291
0.543                  -0.584339        -143.801           -51.85         86.4927           -51.85         86.4927       -0.0088686         148.222
0.544                  -0.601178        -144.342         -51.6926          84.982         -51.6926          84.982      -0.00894465         148.152
0.545                    -0.6184        -144.886          -51.536         83.4677          -51.536         83.4677      -0.00902414         148.082
0.546                  -0.636012        -145.431         -51.3801         81.9498         -51.3801         81.9497      -0.00910709         148.013
0.547                   -0.65402         -145.98         -51.2248         80.4283         -51.2248         80.4283      -0.00919351         147.943
0.548                   -0.67243         -146.53         -51.0703         78.9033         -51.0703         78.9033      -0.00928336         147.873
0.549                  -0.691249        -147.083         -50.9164         77.3748         -50.9164         77.3748      -0.00937663         147.803
0.55                   -0.710481        -147.639         -50.7632         75.8429         -50.7632         75.8429      -0.00947326         147.732
0.551                  -0.730134        -148.196         -50.6107         74.3077         -50.6107         74.3077      -0.00957319         147.662
0.552                  -0.750214        -148.757         -50.4589         72.7691         -50.4589         72.7691      -0.00967636         147.591
0.553                  -0.770727        -149.319         -50.3078         71.2273         -50.3078         71.2273      -0.00978269         147.521
0.554                   -0.79168        -149.884         -50.1573         69.6822         -50.1573         69.6822       -0.0098921          147.45
0.555                  -0.813079        -150.452         -50.0075         68.1341         -50.0075         68.1341       -0.0100045         147.379
0.556                  -0.834931        -151.022         -49.8584         66.5829         -49.8584         66.5829       -0.0101198         147.308
0.557                  -0.857243        -151.594           -49.71         65.0286           -49.71         65.0286        -0.010238         147.237
0.558                  -0.880021        -152.169         -49.5623         63.4715         -49.5623         63.4715       -0.0103589         147.166
0.559                  -0.903272        -152.746         -49.4152         61.9114         -49.4152         61.9114       -0.0104825         147.095
0.56                   -0.927003        -153.325         -49.2688         60.3486         -49.2688         60.3486       -0.0106087         147.023
0.561                  -0.951221        -153.907         -49.1231         58.7831         -49.1231         58.7831       -0.0107374         146.952
0.562                  -0.975932        -154.491          -48.978         57.2149          -48.978         57.2149       -0.0108686          146.88
0.563                   -1.00114        -155.078         -48.8337         55.6441         -48.8337         55.6441       -0.0110022         146.808
0.564                   -1.02686        -155.667         -48.6899         54.0709         -48.6899         54.0709       -0.0111382         146.736
0.565                    -1.0531        -156.258         -48.5469         52.4953         -48.5469         52.4953       -0.0112764         146.664
0.566                   -1.07986        -156.852         -48.4045         50.9173         -48.4045         50.9173       -0.0114169         146.592
0.567                   -1.10714        -157.448         -48.2628         49.3371         -48.2628         49.3371       -0.0115596          146.52
0.568                   -1.13497        -158.046         -48.1218         47.7548         -48.1218         47.7548       -0.0117045         146.447
0.569                   -1.16334        -158.647         -47.9814         46.1703         -47.9814         46.1703       -0.0118516         146.375
0.57                    -1.19226         -159.25         -47.8416         44.5839         -47.8416         44.5839       -0.0120007         146.302
0.571                   -1.22173        -159.855         -47.7025         42.9955         -47.7025         42.9955       -0.0121519         146.229
0.572                   -1.25178        -160.463         -47.5641         41.4053         -47.5641         41.4053       -0.0123052         146.156
0.573                    -1.2824        -161.073         -47.4263         39.8134         -47.4263         39.8134       -0.0124606         146.083
0.574                    -1.3136        -161.685         -47.2891         38.2197         -47.2891         38.2197        -0.012618          146.01
0.575                   -1.34539        -162.299         -47.1526         36.6245         -47.1526         36.6245       -0.0127775         145.936
0.576                   -1.37778        -162.916         -47.0167         35.0278         -47.0167         35.0278        -0.012939         145.863
0.577                   -1.41077        -163.534         -46.8814         33.4297         -46.8814         33.4297       -0.0131025         145.789
0.578                   -1.44437        -164.156         -46.7468         31.8302         -46.7468         31.8302       -0.0132681         145.715
0.579                    -1.4786        -164.779         -46.6128         30.2294         -46.6128         30.2294       -0.0134357         145.641
0.58                    -1.51345        -165.404         -46.4793         28.6275         -46.4793         28.6275       -0.0136054         145.567
0.581                   -1.54894        -166.032         -46.3465         27.0244         -46.3465         27.0244       -0.0137772         145.492
0.582                   -1.58507        -166.661         -46.2143         25.4203         -46.2143         25.4203        -0.013951         145.418
0.583                   -1.62186        -167.293         -46.0827         23.8152         -46.0827         23.8152        -0.014127         145.343
0.584                   -1.65931        -167.927         -45.9517         22.2092         -45.9517         22.2092       -0.0143051         145.268
0.585                   -1.69742        -168.563         -45.8212         20.6023         -45.8212         20.6023       -0.0144853         145.193
0.586                   -1.73621        -169.201         -45.6913         18.9947         -45.6913         18.9947       -0.0146677         145.118
0.587                   -1.77569        -169.841          -45.562         17.3864          -45.562         17.3864       -0.0148524         145.043
0.588                   -1.81585        -170.483         -45.4333         15.7775         -45.4333         15.7775       -0.0150393         144.968
0.589                   -1.85672        -171.127         -45.3051         14.1679         -45.3051         14.1679       -0.0152284         144.892
0.59                     -1.8983        -171.773         -45.1774         12.5579         -45.1774         12.5579       -0.0154199         144.816
0.591                    -1.9406        -172.421         -45.0503         10.9474         -45.0503         10.9474       -0.0156138          144.74
0.592                   -1.98362        -173.071         -44.9237          9.3364         -44.9237          9.3364         -0.01581         144.664
0.593                   -2.02737        -173.723         -44.7976         7.72507         -44.7976         7.72507       -0.0160087         144.588
0.594                   -2.07187        -174.376          -44.672         6.11342          -44.672         6.11342       -0.0162099         144.511
0.595                   -2.11712        -175.032         -44.5469         4.50148         -44.5469         4.50148       -0.0164136         144.434
0.596                   -2.16312        -175.689         -44.4223          2.8893         -44.4223          2.8893       -0.0166199         144.357
0.597                    -2.2099        -176.348         -44.2982         1.27692         -44.2982         1.27692       -0.0168289          144.28
0.598                   -2.25745        -177.008         -44.1745       -0.335635         -44.1745       -0.335635       -0.0170406         144.203
0.599                   -2.30578        -177.671         -44.0514        -1.94833         -44.0514        -1.94833        -0.017255         144.126
0.6                     -2.35491        -178.335         -43.9286        -3.56114         -43.9286        -3.56114       -0.0174723         144.048
0.601                   -2.40484        -179.001         -43.8063        -5.17404         -43.8063        -5.17404       -0.0176925          143.97
0.602                   -2.45558        -179.668         -43.6845          -6.787         -43.6845          -6.787       -0.0179156         143.892
0.603                   -2.50713         179.663          -43.563        -8.40001          -43.563        -8.40001       -0.0181418         143.814
0.604                   -2.55952         178.993          -43.442        -10.0131          -43.442        -10.0131        -0.018371         143.735
0.605                   -2.61273         178.321         -43.3214        -11.6261         -43.3214        -11.6261       -0.0186035         143.656
0.606                    -2.6668         177.648         -43.2012        -13.2392         -43.2012        -13.2392       -0.0188392         143.577
0.607                   -2.72171         176.973         -43.0813        -14.8523         -43.0813        -14.8523       -0.0190783         143.498
0.608                   -2.77749         176.297         -42.9619        -16.4654         -42.9619        -16.4654       -0.0193208         143.419
0.609                   -2.83414         175.619         -42.8428        -18.0785         -42.8428        -18.0785       -0.0195669         143.339
0.61                    -2.89167          174.94          -42.724        -19.6916          -42.724        -19.6916       -0.0198165          143.26
0.611                   -2.95008          174.26         -42.6056        -21.3048         -42.6056        -21.3048       -0.0200699          143.18
0.612                   -3.00939         173.578         -42.4876        -22.9179         -42.4876        -22.9179       -0.0203271         143.099
0.613                   -3.06961         172.896         -42.3698        -24.5312         -42.3698        -24.5312       -0.0205882         143.019
0.614                   -3.13074         172.212         -42.2524        -26.1445         -42.2524        -26.1445       -0.0208533         142.938
0.615                   -3.19279         171.527         -42.1353        -27.7578         -42.1353        -27.7578       -0.0211226         142.857
0.616                   -3.25578         170.841         -42.0185        -29.3713         -42.0185        -29.3713       -0.0213961         142.776
0.617                   -3.31971         170.154          -41.902        -30.9849          -41.902        -30.9849       -0.0216739         142.695
0.618                   -3.38459         169.466         -41.7858        -32.5987         -41.7858        -32.5987       -0.0219563         142.613
0.619                   -3.45043         168.777         -41.6699        -34.2126         -41.6699        -34.2126       -0.0222433         142.531
0.62                    -3.51725         168.087         -41.5543        -35.8268         -41.5543        -35.8268        -0.022535         142.449
0.621                   -3.58504         167.396         -41.4389        -37.4413         -41.4389        -37.4413       -0.0228316         142.367
0.622                   -3.65382         166.704         -41.3237        -39.0561         -41.3237        -39.0561       -0.0231332         142.284
0.623                   -3.72359         166.012         -41.2089        -40.6712         -41.2089        -40.6712         -0.02344         142.201
0.624                   -3.79438         165.319         -41.0942        -42.2867         -41.0942        -42.2867       -0.0237521         142.118
0.625                   -3.86619         164.625         -40.9798        -43.9026         -40.9798        -43.9026       -0.0240696         142.034
0.626                   -3.93902          163.93         -40.8657         -45.519         -40.8657         -45.519       -0.0243928          141.95
0.627                    -4.0129         163.235         -40.7518         -47.136         -40.7518         -47.136       -0.0247218         141.866
0.628                   -4.08782         162.539         -40.6381        -48.7535         -40.6381        -48.7535       -0.0250567         141.782
0.629                   -4.16381         161.842         -40.5246        -50.3717         -40.5246        -50.3717       -0.0253977         141.697
