! TOUCHSTONE file generated by CST MICROWAVE STUDIO
! Date and time: Fri Oct  2 16:31:46 2020
! Project name: Scenario_1_Free_Space_out_of_line.cst
! Parameters = {Lambda=346.42; Step_1=17.321; dy1=191.571; dx1=346; L_HA=400; MT=2.54; Rad_Dielectric=30; Rad_Lower=7.3; Rad_Upper=30; a_HA=580; a_WG=246; b_HA=500; b_WG=121; c_HA=0; c_WG=187; d_feed=85; h_feed=15; h_lower=18; h_upper=40}
! Header version: 2018
! Port assignment regex: !\s*Touchstone port\s*([0-9]+)\s*=\s*(CST MWS port|CST DS port)\s*([0-9]+|Zmin|Zmax)\s*\(\"(.*)\"\)(\s*mode\s*([0-9]+))?.*
! Touchstone port assignment:
! Touchstone port 1 = CST MWS port 1 ("")
! Touchstone port 2 = CST MWS port 2 ("")
# GHz S DB R 50
0.5                    -0.147221        -122.777         -60.5753         66.2362         -60.5753         66.2362      -0.00666514         151.106
0.501                  -0.153074        -123.236         -60.3731         64.1139         -60.3735         64.1137      -0.00674519         151.041
0.502                  -0.159194        -123.697           -60.17           62.02         -60.1707         62.0195      -0.00682603         150.975
0.503                  -0.165582        -124.159          -59.966         59.9533         -59.9671         59.9526      -0.00690767          150.91
0.504                   -0.17224        -124.623         -59.7614         57.9128         -59.7629         57.9117      -0.00699009         150.844
0.505                   -0.17917        -125.088         -59.5564         55.8973         -59.5582         55.8959       -0.0070733         150.779
0.506                  -0.186375        -125.555         -59.3512         53.9059         -59.3532         53.9041      -0.00715729         150.713
0.507                  -0.193855        -126.024         -59.1459         51.9373         -59.1482         51.9351      -0.00724207         150.647
0.508                  -0.201613        -126.494         -58.9407         49.9905         -58.9432         49.9879      -0.00732764         150.581
0.509                  -0.209649        -126.966         -58.7356         48.0644         -58.7384         48.0613      -0.00741398         150.515
0.51                   -0.217967        -127.439         -58.5309         46.1579         -58.5338         46.1544       -0.0075011         150.449
0.511                  -0.226566        -127.914         -58.3266         44.2699         -58.3297          44.266        -0.007589         150.383
0.512                  -0.235448         -128.39         -58.1228         42.3995          -58.126         42.3952      -0.00767768         150.317
0.513                  -0.244613        -128.867         -57.9196         40.5456         -57.9229         40.5408      -0.00776713          150.25
0.514                  -0.254064        -129.346          -57.717         38.7072         -57.7205         38.7021      -0.00785734         150.184
0.515                    -0.2638        -129.827         -57.5152         36.8834         -57.5188         36.8779      -0.00794832         150.117
0.516                  -0.273822        -130.309         -57.3142         35.0732         -57.3179         35.0674      -0.00804007         150.051
0.517                   -0.28413        -130.792          -57.114         33.2759         -57.1177         33.2698      -0.00813258         149.984
0.518                  -0.294724        -131.277         -56.9147         31.4904         -56.9185          31.484      -0.00822585         149.918
0.519                  -0.305605        -131.764         -56.7163         29.7161         -56.7202         29.7094      -0.00831987         149.851
0.52                   -0.316772        -132.251         -56.5189         27.9521         -56.5228         27.9452      -0.00841464         149.784
0.521                  -0.328225         -132.74         -56.3225         26.1975         -56.3264         26.1904      -0.00851017         149.717
0.522                  -0.339963         -133.23         -56.1271         24.4518          -56.131         24.4445      -0.00860643          149.65
0.523                  -0.351985        -133.722         -55.9327         22.7142         -55.9366         22.7068      -0.00870344         149.583
0.524                   -0.36429        -134.215         -55.7394          20.984         -55.7433         20.9764      -0.00880118         149.516
0.525                  -0.376877         -134.71         -55.5471         19.2605          -55.551         19.2528      -0.00889965         149.448
0.526                  -0.389745        -135.205         -55.3559         17.5432         -55.3598         17.5354      -0.00899885         149.381
0.527                  -0.402891        -135.702         -55.1658         15.8314         -55.1697         15.8236      -0.00909878         149.313
0.528                  -0.416313        -136.201         -54.9768         14.1246         -54.9806         14.1168      -0.00919942         149.246
0.529                   -0.43001          -136.7         -54.7889         12.4222         -54.7927         12.4144      -0.00930077         149.178
0.53                   -0.443979        -137.201         -54.6022         10.7238         -54.6058         10.7159      -0.00940283          149.11
0.531                  -0.458217        -137.703         -54.4165         9.02874         -54.4201         9.02093      -0.00950559         149.043
0.532                  -0.472721        -138.207         -54.2319         7.33664         -54.2354         7.32888      -0.00960905         148.975
0.533                  -0.487489        -138.712         -54.0484         5.64703         -54.0519         5.63934       -0.0097132         148.907
0.534                  -0.502517        -139.218          -53.866         3.95949         -53.8694         3.95187      -0.00981803         148.839
0.535                  -0.517801        -139.725         -53.6848         2.27359         -53.6881         2.26607      -0.00992354          148.77
0.536                  -0.533337        -140.234         -53.5046        0.588947         -53.5079        0.581547       -0.0100297         148.702
0.537                  -0.549122        -140.744         -53.3256         -1.0948         -53.3287        -1.10208       -0.0101366         148.634
0.538                  -0.565152        -141.256         -53.1476        -2.77802         -53.1507        -2.78515       -0.0102441         148.565
0.539                  -0.581423        -141.768         -52.9707        -4.46103         -52.9737        -4.46801       -0.0103522         148.496
0.54                   -0.597929        -142.283         -52.7949        -6.14416         -52.7978        -6.15098        -0.010461         148.428
0.541                  -0.614668        -142.798         -52.6202         -7.8277          -52.623        -7.83435       -0.0105705         148.359
0.542                  -0.631633        -143.315         -52.4466        -9.51194         -52.4493        -9.51842       -0.0106805          148.29
0.543                  -0.648821        -143.834          -52.274        -11.1972         -52.2766        -11.2034       -0.0107912         148.221
0.544                  -0.666228        -144.354         -52.1025        -12.8836          -52.105        -12.8897       -0.0109026         148.152
0.545                  -0.683848        -144.875         -51.9321        -14.5715         -51.9344        -14.5774       -0.0110145         148.083
0.546                  -0.701677        -145.398         -51.7627        -16.2611         -51.7649        -16.2668        -0.011127         148.013
0.547                  -0.719712        -145.923         -51.5944        -17.9526         -51.5965        -17.9581       -0.0112401         147.944
0.548                  -0.737948         -146.45         -51.4271        -19.6461         -51.4291        -19.6515       -0.0113538         147.874
0.549                  -0.756381        -146.978         -51.2608         -21.342         -51.2627        -21.3471       -0.0114681         147.805
0.55                   -0.775008        -147.508         -51.0956        -23.0403         -51.0974        -23.0453        -0.011583         147.735
0.551                  -0.793826         -148.04         -50.9314        -24.7413         -50.9331         -24.746       -0.0116984         147.665
0.552                  -0.812831        -148.574         -50.7682         -26.445         -50.7697        -26.4495       -0.0118145         147.595
0.553                  -0.832023         -149.11          -50.606        -28.1516         -50.6075        -28.1559        -0.011931         147.525
0.554                    -0.8514        -149.648         -50.4448        -29.8613         -50.4462        -29.8654       -0.0120482         147.454
0.555                   -0.87096        -150.188         -50.2847        -31.5741         -50.2859         -31.578       -0.0121659         147.384
0.556                  -0.890704        -150.731         -50.1255        -33.2901         -50.1266        -33.2939       -0.0122842         147.314
0.557                  -0.910632        -151.276         -49.9673        -35.0096         -49.9683        -35.0131        -0.012403         147.243
0.558                  -0.930745        -151.824         -49.8101        -36.7324          -49.811        -36.7358       -0.0125224         147.172
0.559                  -0.951048        -152.374         -49.6538        -38.4588         -49.6546         -38.462       -0.0126424         147.101
0.56                   -0.971542        -152.927         -49.4986        -40.1887         -49.4993        -40.1918       -0.0127629          147.03
0.561                  -0.992234        -153.483         -49.3443        -41.9223         -49.3449        -41.9252        -0.012884         146.959
0.562                   -1.01313        -154.042          -49.191        -43.6596         -49.1914        -43.6624       -0.0130058         146.888
0.563                   -1.03423        -154.604         -49.0386        -45.4007          -49.039        -45.4033       -0.0131281         146.817
0.564                   -1.05556        -155.169         -48.8871        -47.1455         -48.8874        -47.1479       -0.0132511         146.745
0.565                   -1.07711        -155.738         -48.7367        -48.8941         -48.7369        -48.8964       -0.0133747         146.673
0.566                   -1.09891         -156.31         -48.5871        -50.6465         -48.5872        -50.6487        -0.013499         146.602
0.567                   -1.12096        -156.885         -48.4385        -52.4027         -48.4385        -52.4049        -0.013624          146.53
0.568                   -1.14328        -157.465         -48.2908        -54.1628         -48.2907        -54.1648       -0.0137497         146.458
0.569                   -1.16588        -158.048          -48.144        -55.9267         -48.1439        -55.9287       -0.0138762         146.386
0.57                    -1.18879        -158.636         -47.9982        -57.6944          -47.998        -57.6963       -0.0140036         146.313
0.571                   -1.21202        -159.227         -47.8533         -59.466         -47.8529        -59.4678       -0.0141317         146.241
0.572                   -1.23559        -159.823         -47.7092        -61.2413         -47.7088         -61.243       -0.0142609         146.168
0.573                   -1.25954        -160.423         -47.5661        -63.0204         -47.5656        -63.0221        -0.014391         146.095
0.574                   -1.28387        -161.027         -47.4238        -64.8032         -47.4233        -64.8048       -0.0145221         146.022
0.575                   -1.30862        -161.636         -47.2824        -66.5897         -47.2819        -66.5913       -0.0146544         145.949
0.576                   -1.33381        -162.249          -47.142        -68.3799         -47.1413        -68.3814       -0.0147879         145.876
0.577                   -1.35948        -162.868         -47.0023        -70.1736         -47.0016        -70.1752       -0.0149227         145.803
0.578                   -1.38564        -163.491         -46.8636        -71.9709         -46.8628        -71.9725       -0.0150588         145.729
0.579                   -1.41234        -164.118         -46.7257        -73.7717         -46.7249        -73.7733       -0.0151965         145.655
0.58                    -1.43961        -164.751         -46.5886         -75.576         -46.5878        -75.5775       -0.0153358         145.581
0.581                   -1.46747        -165.389         -46.4524        -77.3836         -46.4515        -77.3851       -0.0154768         145.507
0.582                   -1.49596        -166.031         -46.3171        -79.1945         -46.3161         -79.196       -0.0156196         145.433
0.583                   -1.52512        -166.678         -46.1825        -81.0087         -46.1816        -81.0102       -0.0157645         145.359
0.584                   -1.55497        -167.331         -46.0488         -82.826         -46.0478        -82.8275       -0.0159114         145.284
0.585                   -1.58555        -167.988         -45.9159        -84.6464         -45.9149        -84.6479       -0.0160606         145.209
0.586                   -1.61691         -168.65         -45.7838        -86.4698         -45.7828        -86.4714       -0.0162123         145.134
0.587                   -1.64906        -169.317         -45.6525        -88.2961         -45.6514        -88.2977       -0.0163664         145.059
0.588                   -1.68206        -169.989          -45.522        -90.1253         -45.5209        -90.1269       -0.0165233         144.984
0.589                   -1.71592        -170.666         -45.3923        -91.9572         -45.3912        -91.9589       -0.0166831         144.909
0.59                    -1.75068        -171.347         -45.2634        -93.7918         -45.2622        -93.7935       -0.0168459         144.833
0.591                   -1.78639        -172.033         -45.1352         -95.629          -45.134        -95.6308       -0.0170118         144.757
0.592                   -1.82306        -172.724         -45.0077        -97.4687         -45.0066        -97.4705       -0.0171811         144.681
0.593                   -1.86074        -173.419         -44.8811        -99.3108         -44.8799        -99.3126       -0.0173539         144.605
0.594                   -1.89944        -174.118         -44.7551        -101.155          -44.754        -101.157       -0.0175303         144.529
0.595                   -1.93921        -174.821         -44.6299        -103.002         -44.6287        -103.004       -0.0177105         144.452
0.596                   -1.98007        -175.529         -44.5054        -104.851         -44.5042        -104.853       -0.0178945         144.375
0.597                   -2.02205         -176.24         -44.3816        -106.701         -44.3805        -106.703       -0.0180826         144.299
0.598                   -2.06516        -176.955         -44.2585        -108.554         -44.2574        -108.556       -0.0182747         144.221
0.599                   -2.10945        -177.674         -44.1361        -110.409          -44.135        -110.411       -0.0184711         144.144
0.6                     -2.15493        -178.396         -44.0144        -112.265         -44.0133        -112.267       -0.0186718         144.067
0.601                   -2.20163        -179.121         -43.8933        -114.123         -43.8923        -114.125       -0.0188768         143.989
0.602                   -2.24956         -179.85         -43.7729        -115.983         -43.7719        -115.985       -0.0190863         143.911
0.603                   -2.29875         179.419         -43.6532        -117.844         -43.6522        -117.846       -0.0193002         143.833
0.604                   -2.34922         178.685         -43.5341        -119.706         -43.5331        -119.708       -0.0195186         143.755
0.605                   -2.40098         177.948         -43.4156         -121.57         -43.4147        -121.572       -0.0197415         143.676
0.606                   -2.45405         177.208         -43.2978        -123.435         -43.2969        -123.437        -0.019969         143.597
0.607                   -2.50845         176.467         -43.1805        -125.301         -43.1797        -125.304        -0.020201         143.518
0.608                   -2.56419         175.723         -43.0639        -127.169         -43.0631        -127.171       -0.0204374         143.439
0.609                   -2.62129         174.977         -42.9479        -129.037         -42.9471        -129.039       -0.0206783          143.36
0.61                    -2.67976         174.229         -42.8324        -130.906         -42.8317        -130.908       -0.0209236          143.28
0.611                   -2.73962          173.48         -42.7175        -132.776         -42.7169        -132.778       -0.0211733         143.201
0.612                   -2.80087         172.729         -42.6032        -134.647         -42.6026        -134.649       -0.0214273         143.121
0.613                   -2.86353         171.977         -42.4895        -136.518         -42.4889         -136.52       -0.0216856         143.041
0.614                   -2.92762         171.224         -42.3763         -138.39         -42.3757        -138.392       -0.0219481          142.96
0.615                   -2.99314          170.47         -42.2636        -140.262         -42.2631        -140.264       -0.0222147          142.88
0.616                    -3.0601         169.714         -42.1515        -142.135          -42.151        -142.137       -0.0224854         142.799
0.617                   -3.12852         168.959         -42.0399        -144.008         -42.0394         -144.01         -0.02276         142.718
0.618                    -3.1984         168.202         -41.9287        -145.882         -41.9284        -145.883       -0.0230387         142.636
0.619                   -3.26977         167.445         -41.8181        -147.756         -41.8178        -147.757       -0.0233212         142.555
0.62                    -3.34262         166.688          -41.708         -149.63         -41.7078        -149.631       -0.0236075         142.473
0.621                   -3.41698         165.931         -41.5984        -151.504         -41.5982        -151.505       -0.0238975         142.391
0.622                   -3.49285         165.174         -41.4893        -153.378         -41.4891        -153.379       -0.0241913         142.309
0.623                   -3.57026         164.417         -41.3806        -155.252         -41.3805        -155.252       -0.0244888         142.226
0.624                    -3.6492          163.66         -41.2724        -157.126         -41.2723        -157.126       -0.0247899         142.144
0.625                    -3.7297         162.904         -41.1647        -158.999         -41.1646            -159       -0.0250947         142.061
0.626                   -3.81176         162.148         -41.0574        -160.873         -41.0574        -160.873        -0.025403         141.977
0.627                   -3.89542         161.393         -40.9505        -162.746         -40.9505        -162.746        -0.025715         141.894
0.628                   -3.98067          160.64         -40.8441        -164.619         -40.8442        -164.619       -0.0260305          141.81
0.629                   -4.06754         159.887         -40.7381        -166.492         -40.7382        -166.492       -0.0263496         141.726
