! TOUCHSTONE file generated by CST MICROWAVE STUDIO
! Date and time: Fri Oct  2 16:39:41 2020
! Project name: Scenario_1_Free_Space_out_of_line.cst
! Parameters = {Lambda=346.42; Step_1=17.321; dy1=191.571; dx1=520; L_HA=400; MT=2.54; Rad_Dielectric=30; Rad_Lower=7.3; Rad_Upper=30; a_HA=580; a_WG=246; b_HA=500; b_WG=121; c_HA=0; c_WG=187; d_feed=85; h_feed=15; h_lower=18; h_upper=40}
! Header version: 2018
! Port assignment regex: !\s*Touchstone port\s*([0-9]+)\s*=\s*(CST MWS port|CST DS port)\s*([0-9]+|Zmin|Zmax)\s*\(\"(.*)\"\)(\s*mode\s*([0-9]+))?.*
! Touchstone port assignment:
! Touchstone port 1 = CST MWS port 1 ("")
! Touchstone port 2 = CST MWS port 2 ("")
# GHz S DB R 50
0.5                     -0.14946        -122.602         -62.0288        -29.2546         -62.0288        -29.2546      -0.00665946         151.134
0.501                  -0.153007        -123.058         -61.8429        -30.9574         -61.8436        -30.9585      -0.00670443         151.068
0.502                  -0.156839        -123.515         -61.6566        -32.6644         -61.6579        -32.6665      -0.00675065         151.003
0.503                  -0.160958        -123.974           -61.47        -34.3757         -61.4719        -34.3788      -0.00679813         150.937
0.504                  -0.165368        -124.436          -61.283        -36.0915         -61.2856        -36.0956      -0.00684688         150.872
0.505                  -0.170071        -124.899         -61.0958         -37.812         -61.0989         -37.817      -0.00689689         150.806
0.506                   -0.17507        -125.364         -60.9084        -39.5372          -60.912         -39.543      -0.00694818          150.74
0.507                  -0.180367        -125.831         -60.7207        -41.2673         -60.7248        -41.2739      -0.00700075         150.674
0.508                  -0.185966        -126.299         -60.5328        -43.0024         -60.5373        -43.0098      -0.00705461         150.608
0.509                  -0.191867         -126.77         -60.3446        -44.7427         -60.3495        -44.7507      -0.00710976         150.542
0.51                   -0.198075        -127.243         -60.1563        -46.4883         -60.1616        -46.4969       -0.0071662         150.476
0.511                  -0.204592        -127.717         -59.9679        -48.2393         -59.9735        -48.2484      -0.00722394          150.41
0.512                   -0.21142        -128.193         -59.7793        -49.9957         -59.7852        -50.0054      -0.00728299         150.344
0.513                  -0.218562        -128.671         -59.5906        -51.7579         -59.5968        -51.7679      -0.00734335         150.278
0.514                   -0.22602        -129.151         -59.4018        -53.5257         -59.4082        -53.5361      -0.00740503         150.211
0.515                  -0.233797        -129.633          -59.213        -55.2994         -59.2196        -55.3101      -0.00746804         150.145
0.516                  -0.241894        -130.117         -59.0242         -57.079         -59.0309          -57.09      -0.00753237         150.078
0.517                  -0.250315        -130.602         -58.8353        -58.8647         -58.8422        -58.8759      -0.00759804         150.011
0.518                  -0.259062        -131.089         -58.6464        -60.6565         -58.6535        -60.6678      -0.00766505         149.945
0.519                  -0.268137        -131.578         -58.4576        -62.4545         -58.4648        -62.4659       -0.0077334         149.878
0.52                   -0.277542        -132.069         -58.2689        -64.2588         -58.2761        -64.2703      -0.00780311         149.811
0.521                  -0.287279        -132.562         -58.0802        -66.0695         -58.0876        -66.0809      -0.00787418         149.744
0.522                  -0.297351        -133.056         -57.8917        -67.8866         -57.8991         -67.898      -0.00794662         149.677
0.523                   -0.30776        -133.553         -57.7033        -69.7101         -57.7107        -69.7214      -0.00802043          149.61
0.524                  -0.318508        -134.051         -57.5151        -71.5403         -57.5225        -71.5514      -0.00809561         149.542
0.525                  -0.329597         -134.55         -57.3272         -73.377         -57.3345         -73.388      -0.00817219         149.475
0.526                  -0.341029        -135.052         -57.1394        -75.2203         -57.1468        -75.2311      -0.00825015         149.408
0.527                  -0.352806        -135.555         -56.9519        -77.0704         -56.9592        -77.0808      -0.00832951          149.34
0.528                   -0.36493         -136.06         -56.7648        -78.9271          -56.772        -78.9373      -0.00841028         149.272
0.529                  -0.377404        -136.567         -56.5779        -80.7905         -56.5851        -80.8004      -0.00849247         149.205
0.53                   -0.390228        -137.076         -56.3914        -82.6607         -56.3985        -82.6702      -0.00857607         149.137
0.531                  -0.403404        -137.586         -56.2053        -84.5376         -56.2123        -84.5467       -0.0086611         149.069
0.532                  -0.416936        -138.099         -56.0196        -86.4212         -56.0265        -86.4299      -0.00874757         149.001
0.533                  -0.430824        -138.613         -55.8344        -88.3115         -55.8411        -88.3198      -0.00883547         148.933
0.534                   -0.44507        -139.128         -55.6496        -90.2085         -55.6562        -90.2164      -0.00892483         148.865
0.535                  -0.459676        -139.646         -55.4654        -92.1122         -55.4718        -92.1196      -0.00901565         148.796
0.536                  -0.474643        -140.165         -55.2817        -94.0224         -55.2879        -94.0294      -0.00910793         148.728
0.537                  -0.489974        -140.686         -55.0986        -95.9393         -55.1046        -95.9458      -0.00920168         148.659
0.538                   -0.50567        -141.208          -54.916        -97.8626         -54.9219        -97.8687      -0.00929692         148.591
0.539                  -0.521732        -141.732         -54.7341        -99.7925         -54.7398         -99.798      -0.00939365         148.522
0.54                   -0.538162        -142.258         -54.5529        -101.729         -54.5584        -101.734      -0.00949187         148.453
0.541                  -0.554962        -142.786         -54.3724        -103.671         -54.3776        -103.676       -0.0095916         148.384
0.542                  -0.572133        -143.316         -54.1925         -105.62         -54.1976        -105.624      -0.00969285         148.315
0.543                  -0.589677        -143.847         -54.0134        -107.575         -54.0183        -107.578      -0.00979562         148.246
0.544                  -0.607596         -144.38         -53.8351        -109.535         -53.8398        -109.539      -0.00989993         148.177
0.545                  -0.625889        -144.914         -53.6576        -111.502          -53.662        -111.505       -0.0100058         148.108
0.546                   -0.64456        -145.451         -53.4809        -113.474         -53.4851        -113.477       -0.0101132         148.038
0.547                   -0.66361        -145.989         -53.3051        -115.452          -53.309        -115.454       -0.0102221         147.969
0.548                   -0.68304        -146.529         -53.1301        -117.436         -53.1339        -117.437       -0.0103327         147.899
0.549                  -0.702851         -147.07         -52.9561        -119.424         -52.9596        -119.426       -0.0104448         147.829
0.55                   -0.723045        -147.613         -52.7829        -121.418         -52.7862        -121.419       -0.0105585         147.759
0.551                  -0.743623        -148.159         -52.6107        -123.417         -52.6138        -123.418       -0.0106738         147.689
0.552                  -0.764587        -148.705         -52.4395        -125.421         -52.4423        -125.421       -0.0107907         147.619
0.553                  -0.785939        -149.254         -52.2692        -127.429         -52.2718        -127.429       -0.0109093         147.549
0.554                  -0.807679        -149.804         -52.0999        -129.442         -52.1023        -129.442       -0.0110295         147.479
0.555                  -0.829809        -150.356         -51.9317        -131.459         -51.9338        -131.459       -0.0111513         147.408
0.556                   -0.85233         -150.91         -51.7644         -133.48         -51.7664         -133.48       -0.0112748         147.338
0.557                  -0.875245        -151.466         -51.5982        -135.505            -51.6        -135.504       -0.0113999         147.267
0.558                  -0.898555        -152.023         -51.4331        -137.534         -51.4346        -137.533       -0.0115268         147.196
0.559                   -0.92226        -152.582          -51.269        -139.566         -51.2703        -139.565       -0.0116553         147.125
0.56                   -0.946363        -153.143          -51.106        -141.602         -51.1071          -141.6       -0.0117855         147.054
0.561                  -0.970866        -153.706          -50.944         -143.64          -50.945        -143.639       -0.0119175         146.983
0.562                   -0.99577        -154.271         -50.7831        -145.682         -50.7839         -145.68       -0.0120512         146.912
0.563                   -1.02108        -154.837         -50.6234        -147.726         -50.6239        -147.724       -0.0121866          146.84
0.564                   -1.04679        -155.406         -50.4646        -149.772          -50.465         -149.77       -0.0123238         146.769
0.565                   -1.07291        -155.976          -50.307        -151.821         -50.3072        -151.819       -0.0124628         146.697
0.566                   -1.09943        -156.548         -50.1504        -153.871         -50.1505         -153.87       -0.0126035         146.625
0.567                   -1.12637        -157.122          -49.995        -155.924         -49.9949        -155.922       -0.0127461         146.553
0.568                   -1.15372        -157.698         -49.8405        -157.978         -49.8403        -157.976       -0.0128905         146.481
0.569                   -1.18149        -158.276         -49.6872        -160.033         -49.6868        -160.032       -0.0130367         146.409
0.57                    -1.20967        -158.856         -49.5349         -162.09         -49.5344        -162.088       -0.0131848         146.336
0.571                   -1.23828        -159.438         -49.3836        -164.147          -49.383        -164.146       -0.0133347         146.264
0.572                    -1.2673        -160.023         -49.2334        -166.205         -49.2327        -166.204       -0.0134865         146.191
0.573                   -1.29675        -160.609         -49.0842        -168.264         -49.0834        -168.264       -0.0136403         146.118
0.574                   -1.32664        -161.197          -48.936        -170.324         -48.9351        -170.323       -0.0137959         146.045
0.575                   -1.35695        -161.787         -48.7888        -172.384         -48.7878        -172.383       -0.0139536         145.972
0.576                    -1.3877         -162.38         -48.6426        -174.443         -48.6414        -174.443       -0.0141131         145.899
0.577                   -1.41888        -162.975         -48.4973        -176.503         -48.4961        -176.503       -0.0142747         145.826
0.578                   -1.45051        -163.572          -48.353        -178.563         -48.3517        -178.563       -0.0144383         145.752
0.579                   -1.48258        -164.171         -48.2096         179.378         -48.2082         179.378       -0.0146039         145.678
0.58                    -1.51511        -164.772          -48.067         177.319         -48.0656         177.319       -0.0147715         145.605
0.581                   -1.54809        -165.376         -47.9254         175.261         -47.9239          175.26       -0.0149412         145.531
0.582                   -1.58153        -165.982         -47.7846         173.204         -47.7831         173.203       -0.0151131         145.456
0.583                   -1.61543        -166.591         -47.6446         171.147         -47.6431         171.146        -0.015287         145.382
0.584                   -1.64981        -167.202         -47.5054         169.091         -47.5039          169.09       -0.0154631         145.308
0.585                   -1.68466        -167.816          -47.367         167.036         -47.3654         167.035       -0.0156414         145.233
0.586                   -1.71999        -168.432         -47.2294         164.982         -47.2278         164.981       -0.0158219         145.158
0.587                   -1.75581         -169.05         -47.0925          162.93         -47.0909         162.928       -0.0160046         145.083
0.588                   -1.79212        -169.672         -46.9563         160.878         -46.9547         160.876       -0.0161896         145.008
0.589                   -1.82893        -170.296         -46.8207         158.828         -46.8191         158.826        -0.016377         144.933
0.59                    -1.86626        -170.923         -46.6858         156.779         -46.6843         156.777       -0.0165666         144.857
0.591                    -1.9041        -171.552         -46.5516         154.732           -46.55         154.729       -0.0167586         144.782
0.592                   -1.94247        -172.185         -46.4179         152.685         -46.4164         152.683       -0.0169531         144.706
0.593                   -1.98137         -172.82         -46.2849          150.64         -46.2833         150.638         -0.01715          144.63
0.594                   -2.02082        -173.458         -46.1523         148.597         -46.1508         148.594       -0.0173493         144.554
0.595                   -2.06082          -174.1         -46.0203         146.554         -46.0189         146.551       -0.0175512         144.477
0.596                   -2.10138        -174.744         -45.8888         144.513         -45.8874          144.51       -0.0177557         144.401
0.597                   -2.14253        -175.392         -45.7578         142.473         -45.7564          142.47       -0.0179628         144.324
0.598                   -2.18426        -176.042         -45.6273         140.434         -45.6259         140.431       -0.0181726         144.247
0.599                   -2.22659        -176.697         -45.4971         138.397         -45.4958         138.394       -0.0183851          144.17
0.6                     -2.26954        -177.354         -45.3674         136.361         -45.3661         136.358       -0.0186004         144.093
0.601                   -2.31312        -178.015          -45.238         134.325         -45.2368         134.322       -0.0188185         144.015
0.602                   -2.35734        -178.679         -45.1091         132.291         -45.1079         132.288       -0.0190395         143.937
0.603                   -2.40222        -179.347         -44.9805         130.258         -44.9793         130.255       -0.0192635          143.86
0.604                   -2.44778         179.981         -44.8522         128.225         -44.8511         128.222       -0.0194905         143.781
0.605                   -2.49403         179.306         -44.7242         126.193         -44.7231          126.19       -0.0197206         143.703
0.606                   -2.54099         178.627         -44.5965         124.162         -44.5955         124.159       -0.0199538         143.625
0.607                   -2.58869         177.944         -44.4691         122.132         -44.4681         122.129       -0.0201903         143.546
0.608                   -2.63714         177.258         -44.3419         120.102          -44.341         120.099       -0.0204301         143.467
0.609                   -2.68637         176.567          -44.215         118.072         -44.2142         118.069       -0.0206733         143.388
0.61                    -2.73639         175.872         -44.0883         116.042         -44.0876          116.04       -0.0209199         143.308
0.611                   -2.78724         175.174         -43.9619         114.013         -43.9612         114.011       -0.0211702         143.229
0.612                   -2.83893          174.47         -43.8357         111.984          -43.835         111.982       -0.0214241         143.149
0.613                    -2.8915         173.763         -43.7096         109.954          -43.709         109.952       -0.0216818         143.069
0.614                   -2.94497         173.052         -43.5838         107.925         -43.5833         107.923       -0.0219434         142.989
0.615                   -2.99938         172.336         -43.4582         105.895         -43.4577         105.893       -0.0222089         142.908
0.616                   -3.05474         171.615         -43.3327         103.864         -43.3323         103.862       -0.0224786         142.828
0.617                   -3.11111          170.89         -43.2074         101.833          -43.207         101.831       -0.0227525         142.747
0.618                    -3.1685         170.161         -43.0823         99.8011          -43.082         99.7997       -0.0230307         142.665
0.619                   -3.22696         169.427         -42.9574         97.7683         -42.9571         97.7671       -0.0233135         142.584
0.62                    -3.28653         168.688         -42.8327         95.7346         -42.8324         95.7335       -0.0236008         142.502
0.621                   -3.34723         167.944         -42.7081         93.6997         -42.7079         93.6988       -0.0238929          142.42
0.622                   -3.40913         167.196         -42.5837         91.6636         -42.5835         91.6629         -0.02419         142.338
0.623                   -3.47224         166.443         -42.4595          89.626         -42.4593         89.6255        -0.024492         142.256
0.624                   -3.53663         165.685         -42.3355          87.587         -42.3354         87.5866       -0.0247993         142.173
0.625                   -3.60234         164.923         -42.2116         85.5463         -42.2115         85.5461        -0.025112          142.09
0.626                   -3.66942         164.156          -42.088         83.5039         -42.0879         83.5039       -0.0254303         142.007
0.627                   -3.73792         163.383         -41.9646         81.4597         -41.9645         81.4598       -0.0257543         141.923
0.628                   -3.80789         162.606         -41.8414         79.4134         -41.8413         79.4137       -0.0260842         141.839
0.629                   -3.87939         161.825         -41.7184         77.3651         -41.7184         77.3656       -0.0264202         141.755
