! TOUCHSTONE file generated by CST MICROWAVE STUDIO
! Date and time: Fri Oct  2 16:55:05 2020
! Project name: Scenario_1_Free_Space_out_of_line.cst
! Parameters = {Lambda=346.42; Step_1=17.321; dy1=191.571; dx1=693; L_HA=400; MT=2.54; Rad_Dielectric=30; Rad_Lower=7.3; Rad_Upper=30; a_HA=580; a_WG=246; b_HA=500; b_WG=121; c_HA=0; c_WG=187; d_feed=85; h_feed=15; h_lower=18; h_upper=40}
! Header version: 2018
! Port assignment regex: !\s*Touchstone port\s*([0-9]+)\s*=\s*(CST MWS port|CST DS port)\s*([0-9]+|Zmin|Zmax)\s*\(\"(.*)\"\)(\s*mode\s*([0-9]+))?.*
! Touchstone port assignment:
! Touchstone port 1 = CST MWS port 1 ("")
! Touchstone port 2 = CST MWS port 2 ("")
# GHz S DB R 50
0.5                    -0.147083        -122.614          -63.348        -123.974          -63.348        -123.974      -0.00666692         151.134
0.501                  -0.153881        -123.047         -63.2245        -126.127         -63.2178        -126.124      -0.00673457         151.069
0.502                  -0.160806        -123.483         -63.0972        -128.283          -63.084        -128.276      -0.00680252         151.004
0.503                   -0.16786        -123.921         -62.9662        -130.441         -62.9467        -130.428       -0.0068708         150.939
0.504                  -0.175045         -124.36         -62.8314        -132.601          -62.806        -132.582      -0.00693941         150.873
0.505                  -0.182365        -124.802         -62.6931        -134.761         -62.6619        -134.735      -0.00700838         150.808
0.506                  -0.189823        -125.245         -62.5512        -136.922         -62.5146        -136.888      -0.00707771         150.742
0.507                  -0.197421         -125.69         -62.4059        -139.083         -62.3642         -139.04      -0.00714743         150.676
0.508                  -0.205164        -126.138         -62.2572        -141.244         -62.2106         -141.19      -0.00721755         150.611
0.509                  -0.213052        -126.587         -62.1052        -143.403         -62.0541        -143.339      -0.00728808         150.545
0.51                   -0.221091        -127.039         -61.9501         -145.56         -61.8948        -145.486      -0.00735905         150.479
0.511                  -0.229284        -127.493          -61.792        -147.716         -61.7326         -147.63      -0.00743047         150.413
0.512                  -0.237633        -127.949         -61.6308        -149.869         -61.5678        -149.772      -0.00750236         150.347
0.513                  -0.246143        -128.406         -61.4669        -152.019         -61.4005        -151.912      -0.00757474         150.281
0.514                  -0.254816        -128.866         -61.3002        -154.167         -61.2307        -154.048      -0.00764762         150.214
0.515                  -0.263657        -129.329         -61.1308        -156.311         -61.0585        -156.181      -0.00772102         150.148
0.516                  -0.272669        -129.793          -60.959        -158.452         -60.8842        -158.311      -0.00779496         150.082
0.517                  -0.281856         -130.26         -60.7848         -160.59         -60.7077        -160.438      -0.00786946         150.015
0.518                  -0.291222        -130.728         -60.6083        -162.724         -60.5292        -162.562      -0.00794454         149.948
0.519                  -0.300771        -131.199         -60.4296        -164.855         -60.3487        -164.683      -0.00802022         149.882
0.52                   -0.310507        -131.673         -60.2489        -166.982         -60.1665          -166.8      -0.00809651         149.815
0.521                  -0.320435        -132.148         -60.0663        -169.106         -59.9826        -168.915      -0.00817343         149.748
0.522                  -0.330558        -132.626         -59.8818        -171.226         -59.7971        -171.026      -0.00825102         149.681
0.523                  -0.340881        -133.106         -59.6956        -173.343         -59.6101        -173.135      -0.00832928         149.614
0.524                  -0.351408        -133.589         -59.5078        -175.456         -59.4217        -175.241      -0.00840823         149.547
0.525                  -0.362145        -134.074         -59.3186        -177.567         -59.2321        -177.345      -0.00848791          149.48
0.526                  -0.373095        -134.561         -59.1279        -179.674         -59.0412        -179.446      -0.00856832         149.412
0.527                  -0.384264        -135.051         -58.9359         178.221         -58.8492         178.454      -0.00864949         149.345
0.528                  -0.395657        -135.543         -58.7428         176.119         -58.6563         176.357      -0.00873145         149.277
0.529                  -0.407278        -136.037         -58.5485         174.019         -58.4624         174.261      -0.00881421          149.21
0.53                   -0.419134        -136.534         -58.3533         171.921         -58.2677         172.166       -0.0088978         149.142
0.531                  -0.431228        -137.033         -58.1572         169.825         -58.0723         170.073      -0.00898223         149.074
0.532                  -0.443567        -137.535         -57.9603         167.731         -57.8762          167.98      -0.00906754         149.006
0.533                  -0.456156         -138.04         -57.7627         165.637         -57.6796         165.887      -0.00915374         148.938
0.534                  -0.469001        -138.547         -57.5645         163.545         -57.4825         163.795      -0.00924086          148.87
0.535                  -0.482108        -139.056         -57.3657         161.453          -57.285         161.703      -0.00932892         148.802
0.536                  -0.495482        -139.568         -57.1665         159.362         -57.0872          159.61      -0.00941795         148.734
0.537                   -0.50913        -140.083          -56.967          157.27         -56.8891         157.517      -0.00950797         148.665
0.538                  -0.523058          -140.6         -56.7672         155.178         -56.6909         155.423      -0.00959901         148.597
0.539                  -0.537272         -141.12         -56.5671         153.086         -56.4926         153.327      -0.00969109         148.528
0.54                    -0.55178        -141.642          -56.367         150.993         -56.2942          151.23      -0.00978423         148.459
0.541                  -0.566586        -142.168         -56.1668         148.898         -56.0959         149.132      -0.00987847         148.391
0.542                  -0.581699        -142.695         -55.9667         146.802         -55.8978         147.031      -0.00997382         148.322
0.543                  -0.597125        -143.226         -55.7667         144.705         -55.6998         144.927       -0.0100703         148.253
0.544                  -0.612872        -143.759         -55.5668         142.605         -55.5021         142.821        -0.010168         148.183
0.545                  -0.628946        -144.295         -55.3672         140.502         -55.3047         140.713       -0.0102668         148.114
0.546                  -0.645355        -144.834         -55.1679         138.397         -55.1077         138.601       -0.0103669         148.045
0.547                  -0.662108        -145.375         -54.9691         136.289         -54.9111         136.486       -0.0104683         147.975
0.548                   -0.67921        -145.919         -54.7706         134.178         -54.7151         134.367       -0.0105709         147.906
0.549                  -0.696671        -146.466         -54.5727         132.064         -54.5196         132.244       -0.0106748         147.836
0.55                   -0.714498        -147.016         -54.3754         129.946         -54.3248         130.118       -0.0107801         147.766
0.551                    -0.7327        -147.569         -54.1787         127.824         -54.1306         127.987       -0.0108867         147.696
0.552                  -0.751285        -148.124         -53.9828         125.698         -53.9372         125.852       -0.0109947         147.626
0.553                  -0.770262        -148.682         -53.7876         123.568         -53.7446         123.713       -0.0111042         147.556
0.554                  -0.789639        -149.243         -53.5932         121.433         -53.5529         121.569       -0.0112151         147.485
0.555                  -0.809426        -149.807         -53.3998         119.294         -53.3621         119.421       -0.0113274         147.415
0.556                  -0.829631        -150.374         -53.2072          117.15         -53.1722         117.267       -0.0114413         147.344
0.557                  -0.850263        -150.943         -53.0157         115.001         -52.9834         115.109       -0.0115567         147.274
0.558                  -0.871333        -151.516         -52.8252         112.848         -52.7956         112.946       -0.0116737         147.203
0.559                   -0.89285        -152.091         -52.6359         110.689          -52.609         110.778       -0.0117923         147.132
0.56                   -0.914824        -152.669         -52.4477         108.525         -52.4235         108.605       -0.0119126         147.061
0.561                  -0.937263        -153.251         -52.2607         106.357         -52.2392         106.426       -0.0120345          146.99
0.562                   -0.96018        -153.835         -52.0749         104.183         -52.0562         104.243       -0.0121581         146.918
0.563                  -0.983583        -154.421         -51.8905         102.004         -51.8744         102.055       -0.0122834         146.847
0.564                   -1.00748        -155.011         -51.7074         99.8199          -51.694         99.8618       -0.0124105         146.775
0.565                   -1.03189        -155.604         -51.5256         97.6307          -51.515         97.6637       -0.0125393         146.703
0.566                   -1.05682        -156.199         -51.3453         95.4365         -51.3374         95.4608         -0.01267         146.632
0.567                   -1.08228        -156.798         -51.1665         93.2374         -51.1612         93.2532       -0.0128026          146.56
0.568                   -1.10828        -157.399         -50.9892         91.0333         -50.9865         91.0409        -0.012937         146.487
0.569                   -1.13483        -158.003         -50.8134         88.8244         -50.8133         88.8241       -0.0130734         146.415
0.57                    -1.16194         -158.61         -50.6392         86.6109         -50.6416         86.6029       -0.0132117         146.343
0.571                   -1.18963         -159.22         -50.4665         84.3928         -50.4714         84.3775        -0.013352          146.27
0.572                    -1.2179        -159.832         -50.2955         82.1703         -50.3029          82.148       -0.0134943         146.197
0.573                   -1.24677        -160.448         -50.1262         79.9436         -50.1359         79.9147       -0.0136387         146.125
0.574                   -1.27625        -161.066         -49.9585         77.7128         -49.9706         77.6776       -0.0137851         146.051
0.575                   -1.30636        -161.687         -49.7925         75.4782         -49.8069          75.437       -0.0139337         145.978
0.576                   -1.33709        -162.311         -49.6282         73.2399         -49.6448         73.1932       -0.0140844         145.905
0.577                   -1.36848        -162.937         -49.4656         70.9981         -49.4843         70.9462       -0.0142373         145.832
0.578                   -1.40052        -163.566         -49.3047         68.7531         -49.3255         68.6964       -0.0143924         145.758
0.579                   -1.43322        -164.198         -49.1455         66.5051         -49.1684          66.444       -0.0145498         145.684
0.58                    -1.46662        -164.832         -48.9881         64.2543         -49.0129         64.1891       -0.0147095          145.61
0.581                    -1.5007        -165.469         -48.8324         62.0009         -48.8591         61.9322       -0.0148715         145.536
0.582                   -1.53549        -166.109         -48.6785         59.7453         -48.7069         59.6733       -0.0150358         145.462
0.583                     -1.571        -166.751         -48.5262         57.4876         -48.5564         57.4128       -0.0152026         145.388
0.584                   -1.60724        -167.395         -48.3757         55.2282         -48.4074         55.1508       -0.0153717         145.313
0.585                   -1.64422        -168.042         -48.2269         52.9672         -48.2601         52.8877       -0.0155433         145.238
0.586                   -1.68195        -168.691         -48.0797          50.705         -48.1144         50.6237       -0.0157174         145.163
0.587                   -1.72045        -169.343         -47.9343         48.4417         -47.9702          48.359        -0.015894         145.088
0.588                   -1.75973        -169.997         -47.7905         46.1777         -47.8276         46.0938       -0.0160732         145.013
0.589                    -1.7998        -170.653         -47.6483         43.9131         -47.6866         43.8285        -0.016255         144.938
0.59                    -1.84066        -171.311         -47.5077         41.6482          -47.547         41.5631       -0.0164393         144.862
0.591                   -1.88233        -171.972         -47.3687         39.3833         -47.4089          39.298       -0.0166264         144.786
0.592                   -1.92483        -172.634         -47.2312         37.1186         -47.2722         37.0334       -0.0168161         144.711
0.593                   -1.96815        -173.299         -47.0953         34.8542         -47.1369         34.7694       -0.0170085         144.635
0.594                   -2.01232        -173.965         -46.9608         32.5905         -47.0031         32.5062       -0.0172037         144.558
0.595                   -2.05733        -174.633         -46.8277         30.3276         -46.8705         30.2441       -0.0174017         144.482
0.596                   -2.10321        -175.303         -46.6961         28.0656         -46.7392         27.9833       -0.0176025         144.405
0.597                   -2.14995        -175.974         -46.5658         25.8049         -46.6092         25.7238       -0.0178062         144.328
0.598                   -2.19757        -176.647         -46.4368         23.5455         -46.4804         23.4658       -0.0180127         144.251
0.599                   -2.24608        -177.322         -46.3091         21.2876         -46.3528         21.2095       -0.0182222         144.174
0.6                     -2.29547        -177.998         -46.1826         19.0314         -46.2263          18.955       -0.0184346         144.097
0.601                   -2.34577        -178.676         -46.0573          16.777         -46.1008         16.7024         -0.01865         144.019
0.602                   -2.39696        -179.354         -45.9331         14.5244         -45.9765         14.4518       -0.0188684         143.941
0.603                   -2.44907         179.966           -45.81         12.2739         -45.8531         12.2034       -0.0190899         143.863
0.604                   -2.50208         179.285         -45.6879         10.0255         -45.7306         9.95711       -0.0193145         143.785
0.605                   -2.55602         178.603         -45.5669         7.77922          -45.609         7.71309       -0.0195421         143.707
0.606                   -2.61088          177.92         -45.4467          5.5352         -45.4883         5.47136        -0.019773         143.628
0.607                   -2.66666         177.236         -45.3275         3.29348         -45.3684         3.23198        -0.020007          143.55
0.608                   -2.72336         176.551         -45.2091         1.05408         -45.2493        0.994948       -0.0202442         143.471
0.609                   -2.78099         175.866         -45.0915        -1.18297         -45.1309        -1.23971       -0.0204847         143.391
0.61                    -2.83955          175.18         -44.9746        -3.41767         -45.0131        -3.47198       -0.0207285         143.312
0.611                   -2.89903         174.494         -44.8584           -5.65          -44.896         -5.7019       -0.0209757         143.232
0.612                   -2.95944         173.807         -44.7429        -7.87999         -44.7794        -7.92948       -0.0212262         143.152
0.613                   -3.02077         173.119          -44.628        -10.1077         -44.6634        -10.1548       -0.0214801         143.072
0.614                   -3.08302         172.432         -44.5136        -12.3331         -44.5479        -12.3778       -0.0217375         142.992
0.615                   -3.14618         171.744         -44.3997        -14.5563         -44.4328        -14.5986       -0.0219984         142.911
0.616                   -3.21026         171.055         -44.2863        -16.7773         -44.3181        -16.8173       -0.0222628         142.831
0.617                   -3.27525         170.367         -44.1733        -18.9962         -44.2038        -19.0339       -0.0225309          142.75
0.618                   -3.34114         169.678         -44.0607        -21.2132         -44.0899        -21.2486       -0.0228026         142.668
0.619                   -3.40794         168.989         -43.9484        -23.4282         -43.9762        -23.4614        -0.023078         142.587
0.62                    -3.47562           168.3         -43.8365        -25.6414         -43.8628        -25.6724       -0.0233572         142.505
0.621                    -3.5442         167.611         -43.7248        -27.8529         -43.7496        -27.8818       -0.0236402         142.423
0.622                   -3.61366         166.922         -43.6133        -30.0628         -43.6366        -30.0896       -0.0239271         142.341
0.623                   -3.68399         166.233         -43.5019        -32.2713         -43.5238         -32.296       -0.0242179         142.259
0.624                    -3.7552         165.543         -43.3908        -34.4785         -43.4111        -34.5012       -0.0245128         142.176
0.625                   -3.82728         164.853         -43.2798        -36.6845         -43.2985        -36.7051       -0.0248119         142.093
0.626                   -3.90023         164.163         -43.1688        -38.8894          -43.186        -38.9081       -0.0251151         142.009
0.627                   -3.97403         163.473         -43.0579        -41.0934         -43.0735        -41.1103       -0.0254227         141.926
0.628                    -4.0487         162.782         -42.9471        -43.2968         -42.9611        -43.3117       -0.0257346         141.842
0.629                   -4.12423         162.091         -42.8362        -45.4995         -42.8486        -45.5126       -0.0260511         141.758
