! TOUCHSTONE file generated by CST MICROWAVE STUDIO
! Date and time: Fri Oct  2 19:09:28 2020
! Project name: Scenario_1_Free_Space_out_of_line.cst
! Parameters = {Lambda=346.42; Step_1=17.321; dy1=191.571; dx1=866; L_HA=400; MT=2.54; Rad_Dielectric=30; Rad_Lower=7.3; Rad_Upper=30; a_HA=580; a_WG=246; b_HA=500; b_WG=121; c_HA=0; c_WG=187; d_feed=85; h_feed=15; h_lower=18; h_upper=40}
! Header version: 2018
! Port assignment regex: !\s*Touchstone port\s*([0-9]+)\s*=\s*(CST MWS port|CST DS port)\s*([0-9]+|Zmin|Zmax)\s*\(\"(.*)\"\)(\s*mode\s*([0-9]+))?.*
! Touchstone port assignment:
! Touchstone port 1 = CST MWS port 1 ("")
! Touchstone port 2 = CST MWS port 2 ("")
# GHz S DB R 50
0.5                    -0.148118        -122.561         -64.1362         137.975         -64.1362         137.975      -0.00661672         151.137
0.501                  -0.154153        -123.017         -64.0113         136.161         -63.9983         136.225      -0.00668175         151.072
0.502                   -0.16042        -123.474         -63.8831         134.328         -63.8576         134.454      -0.00674762         151.007
0.503                   -0.16692        -123.932         -63.7518         132.476         -63.7141         132.663      -0.00681432         150.941
0.504                  -0.173654        -124.393         -63.6173         130.606         -63.5678         130.851      -0.00688186         150.875
0.505                  -0.180624        -124.854         -63.4796         128.716         -63.4186         129.018      -0.00695025          150.81
0.506                  -0.187832        -125.318         -63.3386         126.808         -63.2667         127.165      -0.00701948         150.744
0.507                  -0.195278        -125.783         -63.1944         124.881         -63.1121         125.292      -0.00708956         150.678
0.508                  -0.202964        -126.249         -63.0471         122.936         -62.9546         123.398       -0.0071605         150.612
0.509                  -0.210892        -126.717         -62.8965         120.973         -62.7944         121.483      -0.00723229         150.546
0.51                   -0.219063        -127.187         -62.7428         118.992         -62.6315         119.549      -0.00730494          150.48
0.511                  -0.227478        -127.658         -62.5859         116.994          -62.466         117.594      -0.00737846         150.414
0.512                  -0.236138        -128.131          -62.426         114.977         -62.2977         115.618      -0.00745284         150.348
0.513                  -0.245046        -128.605          -62.263         112.943         -62.1269         113.623      -0.00752809         150.282
0.514                  -0.254201        -129.081         -62.0969         110.892         -61.9535         111.608      -0.00760422         150.215
0.515                  -0.263607        -129.559          -61.928         108.824         -61.7776         109.572      -0.00768122         150.149
0.516                  -0.273263        -130.038         -61.7561         106.738         -61.5993         107.517      -0.00775911         150.082
0.517                  -0.283171        -130.519         -61.5814         104.636         -61.4186         105.442      -0.00783789         150.016
0.518                  -0.293333        -131.001         -61.4039         102.517         -61.2356         103.347      -0.00791755         149.949
0.519                   -0.30375        -131.485         -61.2238         100.381         -61.0504         101.232      -0.00799812         149.882
0.52                   -0.314423        -131.971          -61.041         98.2292          -60.863         99.0978      -0.00807958         149.815
0.521                  -0.325354        -132.458         -60.8558         96.0607         -60.6737         96.9441      -0.00816195         149.748
0.522                  -0.336543        -132.947         -60.6682         93.8761         -60.4823          94.771      -0.00824523         149.681
0.523                  -0.347993        -133.438         -60.4782         91.6753         -60.2892         92.5786      -0.00832943         149.614
0.524                  -0.359704         -133.93         -60.2861         89.4585         -60.0943         90.3671      -0.00841455         149.547
0.525                  -0.371677        -134.424         -60.0919         87.2257         -59.8977         88.1366      -0.00850059          149.48
0.526                  -0.383915        -134.919         -59.8958         84.9772         -59.6997         85.8873      -0.00858757         149.412
0.527                  -0.396418        -135.417         -59.6979         82.7129         -59.5003         83.6192      -0.00867548         149.345
0.528                  -0.409188        -135.916         -59.4983         80.4331         -59.2997         81.3327      -0.00876434         149.277
0.529                  -0.422225        -136.416         -59.2971         78.1377          -59.098         79.0277      -0.00885415         149.209
0.53                   -0.435533        -136.918         -59.0946          75.827         -58.8953         76.7047      -0.00894492         149.142
0.531                  -0.449111        -137.422         -58.8907          73.501         -58.6917         74.3638      -0.00903665         149.074
0.532                  -0.462961        -137.928         -58.6858         71.1599         -58.4875         72.0053      -0.00912936         149.006
0.533                  -0.477084        -138.435           -58.48         68.8038         -58.2828         69.6294      -0.00922304         148.938
0.534                  -0.491483        -138.945         -58.2733         66.4329         -58.0777         67.2364       -0.0093177          148.87
0.535                  -0.506158        -139.455          -58.066         64.0473         -57.8724         64.8268      -0.00941336         148.801
0.536                  -0.521111        -139.968         -57.8582         61.6473          -57.667         62.4008      -0.00951002         148.733
0.537                  -0.536344        -140.483         -57.6502         59.2331         -57.4617         59.9589      -0.00960769         148.664
0.538                  -0.551858        -140.999         -57.4419          56.805         -57.2567         57.5015      -0.00970637         148.596
0.539                  -0.567654        -141.517         -57.2338         54.3632         -57.0521         55.0291      -0.00980609         148.527
0.54                   -0.583735        -142.037         -57.0257          51.908          -56.848         52.5422      -0.00990683         148.459
0.541                  -0.600101        -142.559         -56.8181         49.4397         -56.6446         50.0414       -0.0100086          148.39
0.542                  -0.616756        -143.082          -56.611         46.9588         -56.4421         47.5272       -0.0101115         148.321
0.543                    -0.6337        -143.608         -56.4045         44.4657         -56.2406         45.0002       -0.0102154         148.252
0.544                  -0.650935        -144.135         -56.1989         41.9608         -56.0402         42.4611       -0.0103204         148.182
0.545                  -0.668464        -144.664         -55.9942         39.4446         -55.8412         39.9107       -0.0104264         148.113
0.546                  -0.686287        -145.195         -55.7907         36.9176         -55.6435         37.3496       -0.0105336         148.044
0.547                  -0.704409        -145.729         -55.5885         34.3803         -55.4474         34.7786       -0.0106419         147.974
0.548                   -0.72283        -146.264         -55.3877         31.8335         -55.2529         32.1986       -0.0107513         147.905
0.549                  -0.741552        -146.801         -55.1884         29.2776         -55.0602         29.6102       -0.0108618         147.835
0.55                   -0.760579         -147.34         -54.9908         26.7134         -54.8693         27.0145       -0.0109735         147.765
0.551                  -0.779912        -147.881          -54.795         24.1416         -54.6804         24.4121       -0.0110864         147.695
0.552                  -0.799555        -148.425         -54.6011         21.5629         -54.4935         21.8041       -0.0112004         147.625
0.553                  -0.819509         -148.97         -54.4091          18.978         -54.3087         19.1914       -0.0113156         147.555
0.554                  -0.839779        -149.518         -54.2193         16.3877          -54.126         16.5747        -0.011432         147.484
0.555                  -0.860366        -150.067         -54.0316         13.7929         -53.9456         13.9551       -0.0115496         147.414
0.556                  -0.881273        -150.619         -53.8461         11.1943         -53.7674         11.3333       -0.0116685         147.343
0.557                  -0.902505        -151.173         -53.6629         8.59267         -53.5914         8.71042       -0.0117886         147.273
0.558                  -0.924064         -151.73         -53.4821         5.98893         -53.4178         6.08717         -0.01191         147.202
0.559                  -0.945954        -152.288         -53.3036         3.38385         -53.2464         3.46446       -0.0120327         147.131
0.56                   -0.968179        -152.849         -53.1274        0.778238         -53.0773        0.843114       -0.0121567          147.06
0.561                  -0.990743        -153.413         -52.9537         -1.8271         -52.9104        -1.77607       -0.0122821         146.989
0.562                   -1.01365        -153.979         -52.7823        -4.43138         -52.7458        -4.39233       -0.0124087         146.918
0.563                   -1.03691        -154.547         -52.6134        -7.03385         -52.5834        -7.00493       -0.0125368         146.846
0.564                   -1.06051        -155.117         -52.4467        -9.63378         -52.4232        -9.61318       -0.0126663         146.774
0.565                   -1.08448        -155.691         -52.2825        -12.2305          -52.265        -12.2164       -0.0127972         146.703
0.566                    -1.1088        -156.266         -52.1205        -14.8232         -52.1089        -14.8141       -0.0129295         146.631
0.567                    -1.1335        -156.845         -51.9607        -17.4115         -51.9548        -17.4057       -0.0130633         146.559
0.568                   -1.15857        -157.426         -51.8032        -19.9946         -51.8026        -19.9907       -0.0131986         146.487
0.569                   -1.18402        -158.009         -51.6477        -22.5721         -51.6522        -22.5686       -0.0133354         146.415
0.57                    -1.20985        -158.596         -51.4943        -25.1434         -51.5036        -25.1391       -0.0134739         146.342
0.571                   -1.23608        -159.185         -51.3429        -27.7082         -51.3566        -27.7019       -0.0136138          146.27
0.572                   -1.26272        -159.777         -51.1934         -30.266         -51.2112        -30.2566       -0.0137555         146.197
0.573                   -1.28976        -160.372         -51.0457        -32.8165         -51.0673        -32.8032       -0.0138987         146.124
0.574                   -1.31721         -160.97         -50.8997        -35.3595         -50.9248        -35.3413       -0.0140437         146.051
0.575                   -1.34509         -161.57         -50.7553        -37.8947         -50.7836         -37.871       -0.0141904         145.978
0.576                   -1.37341        -162.174         -50.6124        -40.4218         -50.6436        -40.3921       -0.0143389         145.905
0.577                   -1.40217        -162.781          -50.471         -42.941         -50.5047        -42.9047       -0.0144892         145.831
0.578                   -1.43139        -163.391          -50.331        -45.4519         -50.3669        -45.4087       -0.0146413         145.758
0.579                   -1.46107        -164.005         -50.1921        -47.9547           -50.23        -47.9044       -0.0147954         145.684
0.58                    -1.49122        -164.621         -50.0544        -50.4494         -50.0939        -50.3918       -0.0149514          145.61
0.581                   -1.52187        -165.241         -49.9178         -52.936         -49.9586        -52.8711       -0.0151094         145.536
0.582                   -1.55302        -165.864         -49.7822        -55.4146          -49.824        -55.3424       -0.0152694         145.462
0.583                   -1.58468        -166.491         -49.6474        -57.8855           -49.69        -57.8062       -0.0154315         145.388
0.584                   -1.61687        -167.121         -49.5133        -60.3488         -49.5565        -60.2625       -0.0155958         145.313
0.585                    -1.6496        -167.755           -49.38        -62.8047         -49.4235        -62.7118       -0.0157623         145.238
0.586                    -1.6829        -168.392         -49.2473        -65.2536         -49.2909        -65.1544       -0.0159311         145.163
0.587                   -1.71677        -169.034         -49.1151        -67.6957         -49.1586        -67.5906       -0.0161022         145.088
0.588                   -1.75123        -169.678         -48.9834        -70.1313         -49.0265        -70.0208       -0.0162757         145.013
0.589                    -1.7863        -170.327         -48.8521        -72.5609         -48.8947        -72.4454       -0.0164516         144.938
0.59                    -1.82201        -170.979         -48.7211        -74.9848          -48.763        -74.8648       -0.0166302         144.862
0.591                   -1.85837        -171.635         -48.5904        -77.4033         -48.6314        -77.2795       -0.0168113         144.787
0.592                    -1.8954        -172.296         -48.4599        -79.8169         -48.4999        -79.6898       -0.0169951         144.711
0.593                   -1.93312         -172.96         -48.3296         -82.226         -48.3685        -82.0962       -0.0171816         144.635
0.594                   -1.97157        -173.628         -48.1993        -84.6311          -48.237        -84.4992        -0.017371         144.558
0.595                   -2.01075          -174.3         -48.0692        -87.0325         -48.1055        -86.8991       -0.0175633         144.482
0.596                   -2.05071        -174.977         -47.9391        -89.4308          -47.974        -89.2966       -0.0177587         144.405
0.597                   -2.09146        -175.657         -47.8089        -91.8264         -47.8424        -91.6919       -0.0179571         144.328
0.598                   -2.13304        -176.342         -47.6788        -94.2197         -47.7107        -94.0856       -0.0181587         144.251
0.599                   -2.17547        -177.031         -47.5486        -96.6111          -47.579         -96.478       -0.0183636         144.174
0.6                     -2.21879        -177.724         -47.4184        -99.0013         -47.4471        -98.8697       -0.0185719         144.097
0.601                   -2.26302        -178.422         -47.2881         -101.39         -47.3152        -101.261       -0.0187836         144.019
0.602                    -2.3082        -179.124         -47.1577        -103.779         -47.1832        -103.652       -0.0189989         143.941
0.603                   -2.35437         -179.83         -47.0273        -106.168          -47.051        -106.044       -0.0192178         143.863
0.604                   -2.40155          179.46         -46.8967        -108.557         -46.9188        -108.437       -0.0194405         143.785
0.605                    -2.4498         178.746         -46.7661        -110.946         -46.7866        -110.831        -0.019667         143.707
0.606                   -2.49914         178.027         -46.6354        -113.337         -46.6543        -113.226       -0.0198975         143.628
0.607                   -2.54962         177.304         -46.5047         -115.73          -46.522        -115.623       -0.0201319         143.549
0.608                   -2.60127         176.578         -46.3739        -118.124         -46.3897        -118.023       -0.0203705          143.47
0.609                   -2.65415         175.847         -46.2431         -120.52         -46.2574        -120.424       -0.0206133         143.391
0.61                    -2.70828         175.112         -46.1123        -122.919         -46.1252        -122.829       -0.0208603         143.311
0.611                   -2.76372         174.373         -45.9816        -125.321          -45.993        -125.237       -0.0211117         143.232
0.612                    -2.8205         173.631         -45.8509        -127.725          -45.861        -127.648       -0.0213676         143.152
0.613                   -2.87868         172.885         -45.7203        -130.133         -45.7291        -130.062       -0.0216279         143.072
0.614                    -2.9383         172.136         -45.5898        -132.544         -45.5975         -132.48       -0.0218928         142.991
0.615                    -2.9994         171.384         -45.4595        -134.959          -45.466        -134.902       -0.0221623         142.911
0.616                   -3.06204         170.628         -45.3294        -137.378         -45.3349        -137.327       -0.0224364          142.83
0.617                   -3.12624          169.87         -45.1995        -139.801          -45.204        -139.757       -0.0227152         142.749
0.618                   -3.19206         169.109         -45.0699        -142.228         -45.0735         -142.19       -0.0229988         142.668
0.619                   -3.25955         168.346         -44.9406        -144.659         -44.9434        -144.628        -0.023287         142.586
0.62                    -3.32874         167.581         -44.8117        -147.094         -44.8137        -147.069       -0.0235799         142.504
0.621                   -3.39968         166.815         -44.6832        -149.534         -44.6845        -149.515       -0.0238776         142.422
0.622                    -3.4724         166.047         -44.5551        -151.978         -44.5558        -151.965         -0.02418          142.34
0.623                   -3.54694         165.278         -44.4274        -154.426         -44.4277        -154.419       -0.0244871         142.258
0.624                   -3.62334         164.509         -44.3004        -156.878         -44.3001        -156.877       -0.0247988         142.175
0.625                   -3.70162          163.74         -44.1738        -159.334         -44.1732        -159.338       -0.0251151         142.092
0.626                   -3.78181         162.971         -44.0479        -161.794         -44.0469        -161.804        -0.025436         142.009
0.627                   -3.86393         162.203         -43.9226        -164.258         -43.9213        -164.272       -0.0257614         141.925
0.628                   -3.94801         161.436         -43.7979        -166.725         -43.7964        -166.744       -0.0260913         141.841
0.629                   -4.03406         160.671         -43.6739        -169.196         -43.6723         -169.22       -0.0264256         141.757
