! TOUCHSTONE file generated by CST MICROWAVE STUDIO
! Date and time: Fri Oct  2 18:55:54 2020
! Project name: Scenario_1_Free_Space_out_of_line.cst
! Parameters = {Lambda=346.42; Step_1=17.321; dy1=191.571; dx1=1039; L_HA=400; MT=2.54; Rad_Dielectric=30; Rad_Lower=7.3; Rad_Upper=30; a_HA=580; a_WG=246; b_HA=500; b_WG=121; c_HA=0; c_WG=187; d_feed=85; h_feed=15; h_lower=18; h_upper=40}
! Header version: 2018
! Port assignment regex: !\s*Touchstone port\s*([0-9]+)\s*=\s*(CST MWS port|CST DS port)\s*([0-9]+|Zmin|Zmax)\s*\(\"(.*)\"\)(\s*mode\s*([0-9]+))?.*
! Touchstone port assignment:
! Touchstone port 1 = CST MWS port 1 ("")
! Touchstone port 2 = CST MWS port 2 ("")
# GHz S DB R 50
0.5                    -0.147907        -122.471         -64.7899           41.89         -64.7899           41.89      -0.00669073         151.126
0.501                  -0.153548        -122.911         -64.5993         39.6511         -64.6003         39.6569      -0.00675801         151.061
0.502                   -0.15936        -123.353         -64.4065         37.3938         -64.4083          37.405      -0.00682581         150.996
0.503                  -0.165345        -123.798         -64.2115          35.118         -64.2141         35.1343      -0.00689411          150.93
0.504                  -0.171506        -124.244         -64.0145         32.8235         -64.0177         32.8446      -0.00696291         150.865
0.505                  -0.177846        -124.692         -63.8157         30.5103         -63.8193         30.5358      -0.00703218         150.799
0.506                  -0.184368        -125.142         -63.6151         28.1782         -63.6191         28.2076      -0.00710194         150.733
0.507                  -0.191076        -125.594         -63.4131         25.8272         -63.4173         25.8601      -0.00717215         150.668
0.508                  -0.197971        -126.049         -63.2097         23.4573         -63.2139         23.4931      -0.00724283         150.602
0.509                  -0.205057        -126.505         -63.0051         21.0685         -63.0093         21.1066      -0.00731394         150.536
0.51                   -0.212338        -126.963         -62.7996         18.6608         -62.8036         18.7007       -0.0073855          150.47
0.511                  -0.219816        -127.423         -62.5932         16.2343          -62.597         16.2753      -0.00745747         150.404
0.512                  -0.227496        -127.886         -62.3862         13.7893         -62.3898         13.8307      -0.00752986         150.338
0.513                   -0.23538         -128.35         -62.1789         11.3259          -62.182         11.3671      -0.00760265         150.272
0.514                  -0.243472        -128.816         -61.9713         8.84438         -61.9739         8.88461      -0.00767584         150.205
0.515                  -0.251775        -129.285         -61.7637         6.34514         -61.7658         6.38367       -0.0077494         150.139
0.516                  -0.260294        -129.756         -61.5563         3.82859         -61.5579         3.86467      -0.00782335         150.072
0.517                  -0.269032        -130.228         -61.3493         1.29523         -61.3503         1.32813      -0.00789765         150.006
0.518                  -0.277993        -130.703         -61.1429        -1.25436         -61.1433        -1.22538      -0.00797231         149.939
0.519                   -0.28718        -131.181         -60.9373        -3.81953          -60.937        -3.79518      -0.00804733         149.872
0.52                   -0.296599         -131.66         -60.7326        -6.39953         -60.7318        -6.38051      -0.00812268         149.806
0.521                  -0.306252        -132.141         -60.5291        -8.99357         -60.5277         -8.9805      -0.00819838         149.739
0.522                  -0.316145        -132.625         -60.3269        -11.6007          -60.325        -11.5942      -0.00827441         149.672
0.523                  -0.326282        -133.111         -60.1261        -14.2201         -60.1237        -14.2207      -0.00835078         149.605
0.524                  -0.336666        -133.599          -59.927        -16.8506         -59.9242        -16.8588      -0.00842749         149.537
0.525                  -0.347303        -134.089         -59.7296        -19.4913         -59.7265        -19.5073      -0.00850454          149.47
0.526                  -0.358196        -134.582          -59.534        -22.1409         -59.5307        -22.1651      -0.00858195         149.403
0.527                  -0.369352        -135.077         -59.3404        -24.7983         -59.3369         -24.831      -0.00865972         149.335
0.528                  -0.380774        -135.574         -59.1488        -27.4624         -59.1453        -27.5035      -0.00873787         149.268
0.529                  -0.392467        -136.074         -58.9593        -30.1319         -58.9559        -30.1815      -0.00881643           149.2
0.53                   -0.404438        -136.575         -58.7719        -32.8057         -58.7687        -32.8636      -0.00889541         149.132
0.531                  -0.416689         -137.08         -58.5867        -35.4826         -58.5838        -35.5486      -0.00897486         149.064
0.532                  -0.429228        -137.586         -58.4036        -38.1613         -58.4011        -38.2351       -0.0090548         148.996
0.533                  -0.442059        -138.095         -58.2227        -40.8408         -58.2206        -40.9219      -0.00913529         148.928
0.534                  -0.455187        -138.606         -58.0438          -43.52         -58.0424        -43.6079      -0.00921637          148.86
0.535                  -0.468619         -139.12         -57.8671        -46.1979         -57.8663         -46.292      -0.00929811         148.792
0.536                   -0.48236        -139.636         -57.6923        -48.8736         -57.6923        -48.9731      -0.00938058         148.724
0.537                  -0.496416        -140.154         -57.5195        -51.5461         -57.5203        -51.6504      -0.00946385         148.655
0.538                  -0.510792        -140.675         -57.3485        -54.2148         -57.3501         -54.323        -0.009548         148.586
0.539                  -0.525495        -141.198         -57.1792        -56.8789         -57.1817        -56.9902      -0.00963313         148.518
0.54                   -0.540531        -141.723         -57.0115        -59.5378          -57.015        -59.6513      -0.00971933         148.449
0.541                  -0.555906        -142.251         -56.8454        -62.1912         -56.8498         -62.306      -0.00980673          148.38
0.542                  -0.571627        -142.782         -56.6806        -64.8385          -56.686        -64.9539      -0.00989542         148.311
0.543                  -0.587699        -143.314         -56.5172        -67.4797         -56.5234        -67.5947      -0.00998553         148.242
0.544                   -0.60413         -143.85         -56.3548        -70.1145         -56.3619        -70.2284       -0.0100772         148.173
0.545                  -0.620926        -144.388         -56.1935        -72.7428         -56.2014        -72.8548       -0.0101705         148.103
0.546                  -0.638095        -144.928         -56.0331        -75.3648         -56.0417        -75.4741       -0.0102656         148.034
0.547                  -0.655642         -145.47         -55.8734        -77.9805         -55.8828        -78.0865       -0.0103627         147.964
0.548                  -0.673575        -146.015         -55.7144        -80.5902         -55.7244        -80.6923       -0.0104618         147.894
0.549                  -0.691901        -146.563          -55.556        -83.1943         -55.5665        -83.2919       -0.0105631         147.825
0.55                   -0.710627        -147.113          -55.398         -85.793          -55.409        -85.8857       -0.0106667         147.755
0.551                   -0.72976        -147.666         -55.2404        -88.3868         -55.2517        -88.4742       -0.0107726         147.684
0.552                  -0.749308         -148.22          -55.083        -90.9762         -55.0946         -91.058       -0.0108811         147.614
0.553                  -0.769279        -148.778         -54.9259        -93.5618         -54.9377        -93.6378       -0.0109921         147.544
0.554                  -0.789678        -149.338         -54.7689        -96.1441         -54.7808        -96.2142       -0.0111058         147.473
0.555                  -0.810515          -149.9          -54.612        -98.7238         -54.6239        -98.7879       -0.0112222         147.403
0.556                  -0.831796        -150.465         -54.4552        -101.301          -54.467         -101.36       -0.0113413         147.332
0.557                  -0.853529        -151.032         -54.2984        -103.878           -54.31         -103.93       -0.0114632         147.261
0.558                  -0.875722        -151.601         -54.1416        -106.453         -54.1529        -106.499       -0.0115878          147.19
0.559                  -0.898382        -152.173         -53.9849        -109.028         -53.9958        -109.069       -0.0117152         147.119
0.56                   -0.921517        -152.748         -53.8281        -111.604         -53.8386         -111.64       -0.0118452         147.048
0.561                  -0.945134        -153.325         -53.6713        -114.181         -53.6814        -114.211        -0.011978         146.977
0.562                   -0.96924        -153.904         -53.5145         -116.76         -53.5241        -116.785       -0.0121133         146.905
0.563                  -0.993844        -154.485         -53.3579         -119.34         -53.3669        -119.362       -0.0122512         146.834
0.564                   -1.01895        -155.069         -53.2012        -121.924         -53.2097        -121.941       -0.0123916         146.762
0.565                   -1.04457        -155.655         -53.0448         -124.51         -53.0526        -124.524       -0.0125343          146.69
0.566                   -1.07071        -156.243         -52.8885        -127.101         -52.8956        -127.111       -0.0126793         146.618
0.567                   -1.09737        -156.834         -52.7324        -129.695         -52.7389        -129.702       -0.0128266         146.546
0.568                   -1.12457        -157.427         -52.5766        -132.293         -52.5824        -132.298       -0.0129759         146.474
0.569                    -1.1523        -158.022         -52.4212        -134.896         -52.4263        -134.899       -0.0131272         146.402
0.57                    -1.18058        -158.619         -52.2662        -137.504         -52.2707        -137.505       -0.0132805         146.329
0.571                   -1.20941        -159.218         -52.1116        -140.117         -52.1155        -140.116       -0.0134356         146.257
0.572                   -1.23879         -159.82         -51.9576        -142.734         -51.9608        -142.733       -0.0135924         146.184
0.573                   -1.26874        -160.423         -51.8042        -145.357         -51.8068        -145.355       -0.0137509         146.111
0.574                   -1.29925        -161.029         -51.6514        -147.985         -51.6535        -147.983        -0.013911         146.038
0.575                   -1.33033        -161.636         -51.4994        -150.618         -51.5009        -150.616       -0.0140727         145.965
0.576                   -1.36199        -162.246         -51.3482        -153.256         -51.3492        -153.254       -0.0142358         145.892
0.577                   -1.39422        -162.857         -51.1978        -155.898         -51.1983        -155.897       -0.0144003         145.818
0.578                   -1.42704        -163.471         -51.0483        -158.545         -51.0484        -158.544       -0.0145662         145.745
0.579                   -1.46044        -164.086         -50.8997        -161.197         -50.8995        -161.197       -0.0147335         145.671
0.58                    -1.49442        -164.703         -50.7521        -163.853         -50.7516        -163.853       -0.0149021         145.597
0.581                   -1.52899        -165.322         -50.6056        -166.512         -50.6047        -166.513        -0.015072         145.523
0.582                   -1.56415        -165.942         -50.4601        -169.175          -50.459        -169.177       -0.0152433         145.449
0.583                   -1.59989        -166.565         -50.3157        -171.841         -50.3144        -171.844       -0.0154159         145.375
0.584                   -1.63622        -167.189         -50.1724         -174.51         -50.1709        -174.514       -0.0155897           145.3
0.585                   -1.67313        -167.815         -50.0303        -177.181         -50.0286        -177.186       -0.0157649         145.225
0.586                   -1.71063        -168.442         -49.8892        -179.854         -49.8875         -179.86       -0.0159415         145.151
0.587                    -1.7487        -169.071         -49.7494         177.471         -49.7475         177.464       -0.0161195         145.076
0.588                   -1.78735        -169.702         -49.6106         174.795         -49.6087         174.787       -0.0162989             145
0.589                   -1.82657        -170.334         -49.4729         172.118          -49.471         172.109       -0.0164797         144.925
0.59                    -1.86637        -170.968         -49.3364         169.441         -49.3345         169.432       -0.0166621         144.849
0.591                   -1.90672        -171.604         -49.2009         166.764         -49.1991         166.754        -0.016846         144.774
0.592                   -1.94763        -172.241         -49.0665         164.087         -49.0647         164.077       -0.0170316         144.698
0.593                   -1.98909         -172.88         -48.9331         161.411         -48.9314           161.4       -0.0172189         144.622
0.594                    -2.0311        -173.521         -48.8007         158.736         -48.7991         158.724       -0.0174079         144.546
0.595                   -2.07365        -174.163         -48.6693         156.062         -48.6677          156.05       -0.0175988         144.469
0.596                   -2.11674        -174.808         -48.5387         153.389         -48.5373         153.378       -0.0177916         144.393
0.597                   -2.16035        -175.454          -48.409         150.719         -48.4077         150.707       -0.0179864         144.316
0.598                   -2.20449        -176.102         -48.2801          148.05         -48.2789         148.039       -0.0181834         144.239
0.599                   -2.24915        -176.753          -48.152         145.384         -48.1508         145.373       -0.0183826         144.162
0.6                     -2.29432        -177.405         -48.0245          142.72         -48.0235         142.709       -0.0185841         144.084
0.601                   -2.34001        -178.061         -47.8977         140.058         -47.8968         140.048        -0.018788         144.007
0.602                   -2.38622        -178.718         -47.7715         137.399         -47.7707         137.389       -0.0189945         143.929
0.603                   -2.43294        -179.378         -47.6458         134.742         -47.6451         134.733       -0.0192037         143.851
0.604                   -2.48019         179.958         -47.5206         132.089         -47.5199          132.08       -0.0194157         143.773
0.605                   -2.52796         179.292         -47.3958         129.437         -47.3952         129.429       -0.0196306         143.694
0.606                   -2.57627         178.623         -47.2713         126.789         -47.2709         126.781       -0.0198486         143.616
0.607                   -2.62513          177.95         -47.1472         124.143         -47.1468         124.136       -0.0200699         143.537
0.608                   -2.67456         177.273         -47.0234         121.499          -47.023         121.493       -0.0202945         143.458
0.609                   -2.72457         176.593         -46.8997         118.857         -46.8994         118.852       -0.0205228         143.378
0.61                    -2.77518         175.908         -46.7762         116.218          -46.776         116.213       -0.0207547         143.299
0.611                   -2.82644         175.219         -46.6529         113.581         -46.6527         113.577       -0.0209905         143.219
0.612                   -2.87836         174.526         -46.5296         110.945         -46.5294         110.942       -0.0212303         143.139
0.613                   -2.93098         173.827         -46.4064         108.311         -46.4063         108.309       -0.0214744         143.059
0.614                   -2.98436         173.124         -46.2832         105.679         -46.2831         105.677       -0.0217229         142.979
0.615                   -3.03852         172.415           -46.16         103.047         -46.1599         103.046        -0.021976         142.898
0.616                   -3.09353         171.701         -46.0367         100.417         -46.0366         100.416       -0.0222338         142.817
0.617                   -3.14944         170.981         -45.9134          97.787         -45.9133         97.7863       -0.0224966         142.736
0.618                   -3.20631         170.256           -45.79         95.1574         -45.7899         95.1572       -0.0227646         142.654
0.619                   -3.26421         169.524         -45.6665         92.5279         -45.6664         92.5281       -0.0230379         142.573
0.62                     -3.3232         168.786         -45.5429         89.8981         -45.5428         89.8987       -0.0233167         142.491
0.621                   -3.38336         168.042         -45.4192         87.2679         -45.4191         87.2688       -0.0236012         142.409
0.622                   -3.44478         167.292         -45.2954         84.6369         -45.2952          84.638       -0.0238917         142.326
0.623                   -3.50752         166.536         -45.1714         82.0048         -45.1713         82.0062       -0.0241881         142.244
0.624                   -3.57168         165.773         -45.0474         79.3714         -45.0472          79.373       -0.0244908         142.161
0.625                   -3.63734         165.004         -44.9233         76.7364         -44.9231         76.7381       -0.0247999         142.078
0.626                   -3.70459         164.229          -44.799         74.0995         -44.7989         74.1013       -0.0251155         141.994
0.627                   -3.77352         163.448         -44.6748         71.4605         -44.6746         71.4624       -0.0254378          141.91
0.628                   -3.84423         162.661         -44.5504         68.8191         -44.5502          68.821       -0.0257669         141.826
0.629                   -3.91681         161.868         -44.4261         66.1752         -44.4259          66.177       -0.0261028         141.742
