! TOUCHSTONE file generated by CST MICROWAVE STUDIO
! Date and time: Fri Oct  2 18:53:07 2020
! Project name: Scenario_1_Free_Space_out_of_line.cst
! Parameters = {Lambda=346.42; Step_1=17.321; dy1=174.23; dx1=173; L_HA=400; MT=2.54; Rad_Dielectric=30; Rad_Lower=7.3; Rad_Upper=30; a_HA=580; a_WG=246; b_HA=500; b_WG=121; c_HA=0; c_WG=187; d_feed=85; h_feed=15; h_lower=18; h_upper=40}
! Header version: 2018
! Port assignment regex: !\s*Touchstone port\s*([0-9]+)\s*=\s*(CST MWS port|CST DS port)\s*([0-9]+|Zmin|Zmax)\s*\(\"(.*)\"\)(\s*mode\s*([0-9]+))?.*
! Touchstone port assignment:
! Touchstone port 1 = CST MWS port 1 ("")
! Touchstone port 2 = CST MWS port 2 ("")
# GHz S DB R 50
0.5                     -0.15065        -122.754         -58.8768         151.215         -58.8768         151.215      -0.00637666         151.095
0.501                  -0.156345        -123.186         -58.6973         149.715         -58.6973         149.716      -0.00640624         151.029
0.502                  -0.162165         -123.62         -58.5179         148.223         -58.5179         148.223      -0.00643691         150.964
0.503                  -0.168114        -124.057         -58.3387         146.736         -58.3387         146.736      -0.00646868         150.898
0.504                  -0.174198        -124.496         -58.1596         145.256         -58.1596         145.256      -0.00650158         150.833
0.505                  -0.180422        -124.938         -57.9808         143.781         -57.9808         143.781      -0.00653562         150.767
0.506                   -0.18679        -125.382         -57.8021         142.312         -57.8021         142.312       -0.0065708         150.701
0.507                  -0.193308        -125.828         -57.6237         140.847         -57.6237         140.847      -0.00660715         150.635
0.508                  -0.199981        -126.277         -57.4456         139.387         -57.4455         139.387      -0.00664468         150.569
0.509                  -0.206815        -126.729         -57.2677         137.931         -57.2677         137.932      -0.00668341         150.503
0.51                   -0.213815        -127.183         -57.0901         136.479         -57.0901         136.479      -0.00672334         150.437
0.511                  -0.220987        -127.639         -56.9128          135.03         -56.9128         135.031       -0.0067645         150.371
0.512                  -0.228335        -128.099         -56.7359         133.585         -56.7359         133.586       -0.0068069         150.304
0.513                  -0.235866         -128.56         -56.5593         132.142         -56.5593         132.143      -0.00685056         150.238
0.514                  -0.243586        -129.025         -56.3831         130.702         -56.3831         130.703      -0.00689548         150.171
0.515                  -0.251499        -129.492         -56.2072         129.265         -56.2072         129.265      -0.00694169         150.105
0.516                  -0.259612        -129.961         -56.0317         127.829         -56.0317          127.83      -0.00698921         150.038
0.517                  -0.267932        -130.433         -55.8566         126.395         -55.8566         126.396      -0.00703804         149.971
0.518                  -0.276463        -130.908         -55.6819         124.962         -55.6819         124.963       -0.0070882         149.904
0.519                  -0.285211        -131.385         -55.5076          123.53         -55.5076         123.531      -0.00713972         149.837
0.52                   -0.294184        -131.865         -55.3337           122.1         -55.3337         122.101       -0.0071926          149.77
0.521                  -0.303387        -132.348         -55.1602          120.67         -55.1602         120.671      -0.00724686         149.703
0.522                  -0.312825        -132.833         -54.9872          119.24         -54.9872         119.241      -0.00730252         149.636
0.523                  -0.322507        -133.321         -54.8146         117.811         -54.8146         117.812      -0.00735959         149.569
0.524                  -0.332437        -133.811         -54.6424         116.381         -54.6424         116.382       -0.0074181         149.501
0.525                  -0.342623        -134.305         -54.4707         114.952         -54.4707         114.952      -0.00747805         149.434
0.526                   -0.35307        -134.801         -54.2995         113.521         -54.2995         113.522      -0.00753946         149.366
0.527                  -0.363786        -135.299         -54.1287         112.091         -54.1287         112.091      -0.00760236         149.298
0.528                  -0.374777          -135.8         -53.9585         110.659         -53.9584          110.66      -0.00766675         149.231
0.529                  -0.386049        -136.304         -53.7886         109.226         -53.7886         109.227      -0.00773266         149.163
0.53                    -0.39761        -136.811         -53.6193         107.792         -53.6193         107.793      -0.00780011         149.095
0.531                  -0.409466        -137.321         -53.4505         106.357         -53.4505         106.358       -0.0078691         149.027
0.532                  -0.421624        -137.833         -53.2822          104.92         -53.2821         104.921      -0.00793965         148.958
0.533                  -0.434091        -138.347         -53.1143         103.482         -53.1143         103.482       -0.0080118          148.89
0.534                  -0.446873        -138.865          -52.947         102.041          -52.947         102.042      -0.00808554         148.822
0.535                  -0.459979        -139.385         -52.7802         100.599         -52.7802           100.6       -0.0081609         148.753
0.536                  -0.473414        -139.908         -52.6139         99.1544         -52.6139         99.1551       -0.0082379         148.685
0.537                  -0.487187        -140.434         -52.4482         97.7077         -52.4482         97.7084      -0.00831655         148.616
0.538                  -0.501304        -140.962          -52.283         96.2587          -52.283         96.2593      -0.00839688         148.547
0.539                  -0.515772        -141.493         -52.1183         94.8072         -52.1183         94.8078       -0.0084789         148.478
0.54                   -0.530599        -142.027         -51.9542         93.3531         -51.9542         93.3537      -0.00856262         148.409
0.541                  -0.545793        -142.564         -51.7906         91.8963         -51.7906         91.8969      -0.00864808          148.34
0.542                  -0.561359        -143.103         -51.6276         90.4368         -51.6276         90.4373      -0.00873527         148.271
0.543                  -0.577306        -143.645         -51.4652         88.9744         -51.4652         88.9749      -0.00882424         148.202
0.544                  -0.593642        -144.189         -51.3033         87.5091         -51.3033         87.5096      -0.00891498         148.132
0.545                  -0.610373        -144.737         -51.1421         86.0407         -51.1421         86.0413      -0.00900753         148.063
0.546                  -0.627508        -145.287         -50.9814         84.5693         -50.9814         84.5698      -0.00910189         147.993
0.547                  -0.645053        -145.839         -50.8213         83.0948         -50.8213         83.0953      -0.00919809         147.923
0.548                  -0.663017        -146.395         -50.6618         81.6171         -50.6618         81.6175      -0.00929615         147.853
0.549                  -0.681407        -146.953         -50.5029         80.1361         -50.5029         80.1366      -0.00939609         147.783
0.55                    -0.70023        -147.514         -50.3446         78.6519         -50.3446         78.6523      -0.00949792         147.713
0.551                  -0.719495        -148.077          -50.187         77.1643          -50.187         77.1647      -0.00960166         147.643
0.552                  -0.739209        -148.643         -50.0299         75.6734         -50.0299         75.6738      -0.00970734         147.572
0.553                  -0.759379        -149.212         -49.8736         74.1792         -49.8735         74.1795      -0.00981496         147.502
0.554                  -0.780014        -149.783         -49.7178         72.6815         -49.7178         72.6818      -0.00992456         147.431
0.555                  -0.801121        -150.357         -49.5627         71.1805         -49.5627         71.1808       -0.0100362         147.361
0.556                  -0.822707        -150.933         -49.4082          69.676         -49.4082         69.6763       -0.0101498          147.29
0.557                  -0.844782        -151.512         -49.2545         68.1681         -49.2544         68.1684       -0.0102654         147.219
0.558                  -0.867352        -152.093         -49.1013         66.6568         -49.1013          66.657       -0.0103831         147.148
0.559                  -0.890425        -152.678         -48.9489         65.1421         -48.9489         65.1423       -0.0105028         147.076
0.56                   -0.914009        -153.264         -48.7971          63.624         -48.7971         63.6242       -0.0106247         147.005
0.561                  -0.938113        -153.853          -48.646         62.1025          -48.646         62.1027       -0.0107486         146.934
0.562                  -0.962742        -154.445         -48.4956         60.5777         -48.4956         60.5779       -0.0108747         146.862
0.563                  -0.987906        -155.039         -48.3459         59.0496         -48.3459         59.0497       -0.0110029          146.79
0.564                   -1.01361        -155.636         -48.1968         57.5182         -48.1968         57.5183       -0.0111333         146.718
0.565                   -1.03987        -156.235         -48.0485         55.9835         -48.0485         55.9836       -0.0112659         146.646
0.566                   -1.06668        -156.836         -47.9009         54.4456         -47.9009         54.4457       -0.0114007         146.574
0.567                   -1.09406         -157.44          -47.754         52.9046          -47.754         52.9047       -0.0115377         146.502
0.568                   -1.12202        -158.046         -47.6078         51.3605         -47.6078         51.3606       -0.0116769         146.429
0.569                   -1.15055        -158.654         -47.4623         49.8133         -47.4623         49.8134       -0.0118185         146.357
0.57                    -1.17967        -159.265         -47.3176         48.2631         -47.3176         48.2632       -0.0119623         146.284
0.571                   -1.20939        -159.878         -47.1736           46.71         -47.1735         46.7101       -0.0121084         146.211
0.572                   -1.23971        -160.494         -47.0302          45.154         -47.0302         45.1541       -0.0122569         146.138
0.573                   -1.27065        -161.111         -46.8877         43.5953         -46.8877         43.5953       -0.0124077         146.065
0.574                    -1.3022        -161.731         -46.7458         42.0338         -46.7458         42.0338       -0.0125609         145.992
0.575                   -1.33438        -162.353         -46.6047         40.4696         -46.6047         40.4696       -0.0127165         145.919
0.576                    -1.3672        -162.977         -46.4643         38.9029         -46.4643         38.9029       -0.0128745         145.845
0.577                   -1.40065        -163.604         -46.3246         37.3337         -46.3246         37.3337        -0.013035         145.771
0.578                   -1.43476        -164.232         -46.1856         35.7621         -46.1856          35.762       -0.0131979         145.697
0.579                   -1.46952        -164.863         -46.0474         34.1881         -46.0474         34.1881       -0.0133633         145.623
0.58                    -1.50495        -165.495         -45.9099         32.6119         -45.9099         32.6119       -0.0135312         145.549
0.581                   -1.54105         -166.13         -45.7731         31.0335         -45.7731         31.0335       -0.0137016         145.475
0.582                   -1.57782        -166.766         -45.6371         29.4531         -45.6371         29.4531       -0.0138746           145.4
0.583                   -1.61529        -167.405         -45.5017         27.8707         -45.5017         27.8707       -0.0140501         145.326
0.584                   -1.65344        -168.045         -45.3671         26.2864         -45.3671         26.2864       -0.0142282         145.251
0.585                    -1.6923        -168.687         -45.2331         24.7003         -45.2331         24.7003        -0.014409         145.176
0.586                   -1.73186        -169.331         -45.0999         23.1125         -45.0999         23.1125       -0.0145924         145.101
0.587                   -1.77214        -169.977         -44.9674         21.5231         -44.9674          21.523       -0.0147785         145.026
0.588                   -1.81315        -170.625         -44.8355         19.9321         -44.8355         19.9321       -0.0149672          144.95
0.589                   -1.85488        -171.274         -44.7043         18.3397         -44.7044         18.3397       -0.0151587         144.874
0.59                    -1.89734        -171.925         -44.5739          16.746         -44.5739         16.7459       -0.0153529         144.799
0.591                   -1.94055        -172.578          -44.444          15.151          -44.444         15.1509       -0.0155499         144.723
0.592                   -1.98451        -173.232         -44.3149         13.5548         -44.3149         13.5547       -0.0157496         144.646
0.593                   -2.02923        -173.888         -44.1863         11.9575         -44.1863         11.9575       -0.0159522          144.57
0.594                   -2.07471        -174.546         -44.0584         10.3592         -44.0585         10.3592       -0.0161577         144.494
0.595                   -2.12096        -175.205         -43.9312         8.76003         -43.9312         8.75996        -0.016366         144.417
0.596                   -2.16799        -175.865         -43.8046         7.15997         -43.8046         7.15991       -0.0165772          144.34
0.597                    -2.2158        -176.527         -43.6785         5.55915         -43.6786         5.55908       -0.0167914         144.263
0.598                   -2.26441         -177.19         -43.5531         3.95763         -43.5531         3.95757       -0.0170086         144.186
0.599                   -2.31381        -177.855         -43.4283         2.35549         -43.4283         2.35543       -0.0172287         144.108
0.6                     -2.36401        -178.521          -43.304        0.752802          -43.304        0.752743       -0.0174519         144.031
0.601                   -2.41503        -179.188         -43.1803       -0.850373         -43.1803       -0.850429       -0.0176782         143.953
0.602                   -2.46686        -179.857         -43.0572        -2.45397         -43.0572        -2.45402       -0.0179075         143.875
0.603                   -2.51952         179.474         -42.9346        -4.05793         -42.9346        -4.05798         -0.01814         143.796
0.604                   -2.57301         178.803         -42.8125        -5.66219         -42.8125        -5.66223       -0.0183758         143.718
0.605                   -2.62733         178.131         -42.6909         -7.2667         -42.6909        -7.26674       -0.0186147         143.639
0.606                    -2.6825         177.458         -42.5698        -8.87141         -42.5698        -8.87145       -0.0188569          143.56
0.607                   -2.73852         176.784         -42.4493        -10.4763         -42.4493        -10.4763       -0.0191025         143.481
0.608                    -2.7954         176.109         -42.3291        -12.0813         -42.3291        -12.0813       -0.0193514         143.402
0.609                   -2.85314         175.433         -42.2095        -13.6863         -42.2095        -13.6863       -0.0196037         143.323
0.61                    -2.91175         174.756         -42.0903        -15.2914         -42.0903        -15.2914       -0.0198595         143.243
0.611                   -2.97124         174.079         -41.9715        -16.8965         -41.9715        -16.8965       -0.0201188         143.163
0.612                   -3.03162           173.4         -41.8531        -18.5016         -41.8531        -18.5016       -0.0203817         143.083
0.613                   -3.09288         172.721         -41.7351        -20.1067         -41.7351        -20.1067       -0.0206483         143.002
0.614                   -3.15505         172.041         -41.6175        -21.7117         -41.6175        -21.7117       -0.0209186         142.922
0.615                   -3.21812          171.36         -41.5003        -23.3166         -41.5003        -23.3166       -0.0211926         142.841
0.616                    -3.2821         170.679         -41.3834        -24.9215         -41.3834        -24.9215       -0.0214706          142.76
0.617                     -3.347         169.997         -41.2669        -26.5263         -41.2669        -26.5263       -0.0217524         142.678
0.618                   -3.41282         169.315         -41.1507         -28.131         -41.1507         -28.131       -0.0220383         142.597
0.619                   -3.47958         168.632         -41.0348        -29.7356         -41.0348        -29.7356       -0.0223283         142.515
0.62                    -3.54728         167.949         -40.9192        -31.3402         -40.9192        -31.3402       -0.0226224         142.433
0.621                   -3.61593         167.265         -40.8039        -32.9447         -40.8039        -32.9447       -0.0229209         142.351
0.622                   -3.68553          166.58         -40.6889        -34.5492         -40.6889        -34.5492       -0.0232238         142.268
0.623                    -3.7561         165.896         -40.5742        -36.1537         -40.5742        -36.1536       -0.0235311         142.185
0.624                   -3.82764         165.211         -40.4597        -37.7581         -40.4597        -37.7581       -0.0238431         142.102
0.625                   -3.90016         164.526         -40.3454        -39.3627         -40.3454        -39.3626       -0.0241598         142.019
0.626                   -3.97366         163.841         -40.2314        -40.9672         -40.2314        -40.9672       -0.0244814         141.935
0.627                   -4.04817         163.155         -40.1175        -42.5719         -40.1175        -42.5719       -0.0248079         141.851
0.628                   -4.12367          162.47         -40.0039        -44.1768         -40.0039        -44.1767       -0.0251396         141.767
0.629                   -4.20019         161.784         -39.8905        -45.7818         -39.8905        -45.7818       -0.0254766         141.683
