! TOUCHSTONE file generated by CST MICROWAVE STUDIO
! Date and time: Fri Oct  2 16:31:38 2020
! Project name: Scenario_1_Free_Space_out_of_line.cst
! Parameters = {Lambda=346.42; Step_1=17.321; dy1=174.23; dx1=346; L_HA=400; MT=2.54; Rad_Dielectric=30; Rad_Lower=7.3; Rad_Upper=30; a_HA=580; a_WG=246; b_HA=500; b_WG=121; c_HA=0; c_WG=187; d_feed=85; h_feed=15; h_lower=18; h_upper=40}
! Header version: 2018
! Port assignment regex: !\s*Touchstone port\s*([0-9]+)\s*=\s*(CST MWS port|CST DS port)\s*([0-9]+|Zmin|Zmax)\s*\(\"(.*)\"\)(\s*mode\s*([0-9]+))?.*
! Touchstone port assignment:
! Touchstone port 1 = CST MWS port 1 ("")
! Touchstone port 2 = CST MWS port 2 ("")
# GHz S DB R 50
0.5                      -0.1466        -122.801         -60.3019         68.6259         -60.3019         68.6259      -0.00663393         151.127
0.501                   -0.15529        -123.248         -60.1335         67.0663         -60.1338         67.0658      -0.00673286         151.062
0.502                  -0.164115        -123.696         -59.9635         65.5024         -59.9641         65.5015      -0.00683161         150.996
0.503                  -0.173075        -124.146         -59.7919         63.9343         -59.7928          63.933      -0.00693018         150.931
0.504                  -0.182172        -124.597         -59.6188         62.3619         -59.6199         62.3601      -0.00702858         150.865
0.505                  -0.191405         -125.05         -59.4442         60.7851         -59.4455         60.7829      -0.00712683           150.8
0.506                  -0.200778        -125.504         -59.2681         59.2038         -59.2697         59.2013      -0.00722494         150.734
0.507                  -0.210289        -125.959         -59.0906         57.6181         -59.0924         57.6152      -0.00732292         150.669
0.508                  -0.219941        -126.416         -58.9118         56.0278         -58.9138         56.0246      -0.00742076         150.603
0.509                  -0.229735        -126.874         -58.7316         54.4328         -58.7339         54.4293       -0.0075185         150.537
0.51                   -0.239671        -127.334         -58.5503         52.8331         -58.5527         52.8293      -0.00761614         150.471
0.511                  -0.249752        -127.795         -58.3677         51.2286         -58.3703         51.2244      -0.00771369         150.405
0.512                  -0.259978        -128.258         -58.1839          49.619         -58.1868         49.6147      -0.00781116         150.339
0.513                   -0.27035        -128.723         -57.9991         48.0045         -58.0021         47.9999      -0.00790856         150.273
0.514                  -0.280872        -129.189         -57.8133         46.3847         -57.8164         46.3799      -0.00800592         150.206
0.515                  -0.291542        -129.656         -57.6264         44.7596         -57.6297         44.7547      -0.00810323          150.14
0.516                  -0.302365        -130.126         -57.4387         43.1292         -57.4421         43.1241      -0.00820052         150.074
0.517                   -0.31334        -130.596           -57.25         41.4931         -57.2536         41.4879       -0.0082978         150.007
0.518                   -0.32447        -131.069         -57.0606         39.8514         -57.0642         39.8461      -0.00839509         149.941
0.519                  -0.335756        -131.543         -56.8704         38.2039         -56.8742         38.1986      -0.00849239         149.874
0.52                   -0.347201        -132.019         -56.6795         36.5505         -56.6834         36.5451      -0.00858973         149.807
0.521                  -0.358806        -132.497          -56.488          34.891         -56.4919         34.8856      -0.00868712          149.74
0.522                  -0.370574        -132.976         -56.2959         33.2252         -56.2999         33.2199      -0.00878458         149.673
0.523                  -0.382505        -133.457         -56.1033         31.5532         -56.1074         31.5479      -0.00888211         149.606
0.524                  -0.394604         -133.94         -55.9103         29.8747         -55.9145         29.8695      -0.00897975         149.539
0.525                  -0.406871        -134.425         -55.7169         28.1897         -55.7211         28.1845      -0.00907751         149.472
0.526                  -0.419309        -134.912         -55.5232          26.498         -55.5274         26.4929       -0.0091754         149.405
0.527                  -0.431921        -135.401         -55.3292         24.7994         -55.3335         24.7945      -0.00927345         149.337
0.528                  -0.444709        -135.891         -55.1351          23.094         -55.1394         23.0893      -0.00937167          149.27
0.529                  -0.457675        -136.384         -54.9408         21.3816         -54.9451          21.377      -0.00947009         149.202
0.53                   -0.470824        -136.878         -54.7465          19.662         -54.7508         19.6577      -0.00956872         149.135
0.531                  -0.484156        -137.374         -54.5523         17.9353         -54.5565         17.9312      -0.00966758         149.067
0.532                  -0.497676        -137.873         -54.3581         16.2014         -54.3623         16.1975       -0.0097667         148.999
0.533                  -0.511387        -138.373          -54.164         14.4602         -54.1682         14.4565       -0.0098661         148.931
0.534                  -0.525291        -138.876         -53.9702         12.7116         -53.9744         12.7082      -0.00996579         148.863
0.535                  -0.539392        -139.381         -53.7767         10.9557         -53.7808         10.9525       -0.0100658         148.795
0.536                  -0.553693        -139.887         -53.5835         9.19229         -53.5876         9.18944       -0.0101662         148.727
0.537                  -0.568198        -140.396         -53.3908         7.42152         -53.3948         7.41895       -0.0102669         148.658
0.538                   -0.58291        -140.908         -53.1985         5.64334         -53.2025         5.64105        -0.010368          148.59
0.539                  -0.597835        -141.421         -53.0069         3.85779         -53.0108         3.85578       -0.0104696         148.521
0.54                   -0.612974        -141.937         -52.8158         2.06489         -52.8196         2.06317       -0.0105716         148.453
0.541                  -0.628333        -142.455         -52.6255        0.264708         -52.6292        0.263269        -0.010674         148.384
0.542                  -0.643916        -142.975         -52.4359        -1.54268         -52.4396        -1.54385        -0.010777         148.315
0.543                  -0.659727        -143.498         -52.2472         -3.3572         -52.2507        -3.35809       -0.0108805         148.246
0.544                  -0.675771        -144.023         -52.0593        -5.17872         -52.0628        -5.17935       -0.0109845         148.177
0.545                  -0.692052        -144.551         -51.8724        -7.00712         -51.8758         -7.0075       -0.0110891         148.107
0.546                  -0.708576        -145.081         -51.6866        -8.84226         -51.6898         -8.8424       -0.0111943         148.038
0.547                  -0.725347        -145.613         -51.5018         -10.684         -51.5049        -10.6839       -0.0113002         147.969
0.548                  -0.742372        -146.148         -51.3181        -12.5321         -51.3211        -12.5318       -0.0114067         147.899
0.549                  -0.759654        -146.686         -51.1357        -14.3864         -51.1385        -14.3859        -0.011514         147.829
0.55                   -0.777201        -147.226         -50.9545        -16.2466         -50.9572         -16.246       -0.0116219          147.76
0.551                  -0.795018        -147.769         -50.7746        -18.1126         -50.7772        -18.1118       -0.0117307          147.69
0.552                  -0.813111        -148.314          -50.596        -19.9841         -50.5985        -19.9832       -0.0118402          147.62
0.553                  -0.831486        -148.862         -50.4188        -21.8608         -50.4212        -21.8597       -0.0119506          147.55
0.554                   -0.85015        -149.413         -50.2431        -23.7424         -50.2453        -23.7413       -0.0120619         147.479
0.555                   -0.86911        -149.967         -50.0688        -25.6286         -50.0709        -25.6275        -0.012174         147.409
0.556                  -0.888372        -150.524         -49.8961        -27.5192          -49.898         -27.518       -0.0122871         147.338
0.557                  -0.907944        -151.083         -49.7249        -29.4137         -49.7266        -29.4126       -0.0124012         147.268
0.558                  -0.927834        -151.646         -49.5552         -31.312         -49.5568        -31.3109       -0.0125163         147.197
0.559                  -0.948048        -152.211         -49.3872        -33.2135         -49.3887        -33.2125       -0.0126324         147.126
0.56                   -0.968596        -152.779         -49.2208        -35.1181         -49.2221        -35.1171       -0.0127496         147.055
0.561                  -0.989486         -153.35          -49.056        -37.0252         -49.0572        -37.0244        -0.012868         146.984
0.562                   -1.01073        -153.925         -48.8928        -38.9346         -48.8939        -38.9339       -0.0129876         146.913
0.563                   -1.03232        -154.502         -48.7314        -40.8459         -48.7323        -40.8454       -0.0131083         146.841
0.564                   -1.05429        -155.083         -48.5715        -42.7587         -48.5723        -42.7584       -0.0132303          146.77
0.565                   -1.07663        -155.666         -48.4134        -44.6727         -48.4141        -44.6726       -0.0133536         146.698
0.566                   -1.09937        -156.253         -48.2569        -46.5875         -48.2575        -46.5876       -0.0134783         146.626
0.567                   -1.12249        -156.843         -48.1021        -48.5027         -48.1025        -48.5031       -0.0136043         146.554
0.568                   -1.14603        -157.437         -47.9489         -50.418         -47.9492        -50.4187       -0.0137318         146.482
0.569                   -1.16999        -158.034         -47.7974        -52.3331         -47.7976        -52.3341       -0.0138608          146.41
0.57                    -1.19437        -158.634         -47.6475        -54.2475         -47.6476        -54.2489       -0.0139912         146.338
0.571                    -1.2192        -159.237         -47.4992        -56.1611         -47.4992        -56.1627       -0.0141233         146.265
0.572                   -1.24448        -159.844         -47.3525        -58.0733         -47.3523        -58.0754        -0.014257         146.192
0.573                   -1.27023        -160.455         -47.2073        -59.9841         -47.2071        -59.9865       -0.0143923          146.12
0.574                   -1.29646        -161.068         -47.0636         -61.893         -47.0633        -61.8957       -0.0145294         146.047
0.575                   -1.32318        -161.686         -46.9214        -63.7998          -46.921        -63.8029       -0.0146682         145.973
0.576                    -1.3504        -162.307         -46.7807        -65.7042         -46.7802        -65.7077       -0.0148088           145.9
0.577                   -1.37814        -162.931         -46.6413         -67.606         -46.6408          -67.61       -0.0149513         145.827
0.578                   -1.40642         -163.56         -46.5034         -69.505         -46.5028        -69.5093       -0.0150958         145.753
0.579                   -1.43525        -164.192         -46.3667         -71.401         -46.3661        -71.4057       -0.0152422         145.679
0.58                    -1.46464        -164.827         -46.2314        -73.2938         -46.2307        -73.2989       -0.0153906         145.605
0.581                   -1.49461        -165.466         -46.0973        -75.1831         -46.0965        -75.1886       -0.0155411         145.531
0.582                   -1.52518         -166.11         -45.9643         -77.069         -45.9636        -77.0749       -0.0156938         145.457
0.583                   -1.55636        -166.756         -45.8326        -78.9513         -45.8318        -78.9575       -0.0158486         145.383
0.584                   -1.58817        -167.407         -45.7019        -80.8298          -45.701        -80.8363       -0.0160057         145.308
0.585                   -1.62063        -168.062         -45.5722        -82.7044         -45.5714        -82.7114       -0.0161651         145.234
0.586                   -1.65376         -168.72         -45.4436        -84.5752         -45.4427        -84.5825       -0.0163269         145.159
0.587                   -1.68757        -169.382         -45.3159        -86.4421          -45.315        -86.4497       -0.0164911         145.084
0.588                    -1.7221        -170.048         -45.1891         -88.305         -45.1882        -88.3129       -0.0166577         145.008
0.589                   -1.75734        -170.718         -45.0631         -90.164         -45.0622        -90.1722       -0.0168269         144.933
0.59                    -1.79333        -171.392          -44.938        -92.0191         -44.9371        -92.0275       -0.0169987         144.857
0.591                   -1.83009         -172.07         -44.8136        -93.8703         -44.8127         -93.879       -0.0171732         144.782
0.592                   -1.86764        -172.752         -44.6899        -95.7177          -44.689        -95.7265       -0.0173504         144.706
0.593                   -1.90601        -173.438         -44.5668        -97.5613          -44.566        -97.5703       -0.0175303          144.63
0.594                    -1.9452        -174.128         -44.4444        -99.4012         -44.4436        -99.4104       -0.0177131         144.553
0.595                   -1.98526        -174.821         -44.3226        -101.238         -44.3218        -101.247       -0.0178987         144.477
0.596                    -2.0262        -175.519         -44.2013        -103.071         -44.2005         -103.08       -0.0180873           144.4
0.597                   -2.06804         -176.22         -44.0804          -104.9         -44.0797         -104.91        -0.018279         144.323
0.598                   -2.11082        -176.926         -43.9601        -106.727         -43.9593        -106.736       -0.0184737         144.246
0.599                   -2.15456        -177.635         -43.8401         -108.55         -43.8394         -108.56       -0.0186715         144.169
0.6                     -2.19929        -178.348         -43.7205        -110.371         -43.7199         -110.38       -0.0188726         144.092
0.601                   -2.24502        -179.065         -43.6013        -112.188         -43.6007        -112.198       -0.0190769         144.014
0.602                    -2.2918        -179.786         -43.4824        -114.004         -43.4818        -114.014       -0.0192845         143.936
0.603                   -2.33965         179.489         -43.3638        -115.817         -43.3633        -115.827       -0.0194955         143.858
0.604                    -2.3886         178.761         -43.2455        -117.628          -43.245        -117.638       -0.0197099          143.78
0.605                   -2.43867         178.029         -43.1274        -119.437         -43.1269        -119.447       -0.0199278         143.702
0.606                   -2.48991         177.293         -43.0095        -121.245         -43.0091        -121.254       -0.0201493         143.623
0.607                   -2.54233         176.554         -42.8919        -123.051         -42.8914         -123.06       -0.0203744         143.544
0.608                   -2.59597         175.812         -42.7744        -124.855          -42.774        -124.864       -0.0206032         143.465
0.609                   -2.65087         175.066         -42.6571        -126.659         -42.6568        -126.668       -0.0208357         143.386
0.61                    -2.70705         174.316           -42.54        -128.462         -42.5397        -128.471       -0.0210719         143.307
0.611                   -2.76454         173.564          -42.423        -130.264         -42.4227        -130.273       -0.0213121         143.227
0.612                   -2.82339         172.808         -42.3062        -132.066         -42.3059        -132.074       -0.0215561         143.147
0.613                   -2.88362          172.05         -42.1895        -133.868         -42.1893        -133.876        -0.021804         143.067
0.614                   -2.94527         171.288         -42.0729         -135.67         -42.0728        -135.678        -0.022056         142.986
0.615                   -3.00837         170.524         -41.9566        -137.472         -41.9564        -137.479       -0.0223119         142.906
0.616                   -3.07296         169.757         -41.8403        -139.275         -41.8402        -139.282        -0.022572         142.825
0.617                   -3.13907         168.988         -41.7242        -141.078         -41.7241        -141.085       -0.0228363         142.744
0.618                   -3.20673         168.217         -41.6083        -142.882         -41.6082        -142.888       -0.0231047         142.663
0.619                   -3.27599         167.443         -41.4925        -144.687         -41.4924        -144.693       -0.0233774         142.581
0.62                    -3.34687         166.668         -41.3769        -146.493         -41.3769        -146.499       -0.0236543         142.499
0.621                    -3.4194         165.891         -41.2615        -148.301         -41.2615        -148.306       -0.0239356         142.417
0.622                   -3.49364         165.112         -41.1463         -150.11         -41.1463        -150.115       -0.0242213         142.335
0.623                    -3.5696         164.333         -41.0313        -151.921         -41.0313        -151.926       -0.0245114         142.253
0.624                   -3.64733         163.552         -40.9165        -153.734         -40.9165        -153.738       -0.0248059          142.17
0.625                   -3.72686          162.77          -40.802        -155.548         -40.8021        -155.552       -0.0251049         142.087
0.626                   -3.80821         161.988         -40.6878        -157.365         -40.6878        -157.369       -0.0254084         142.004
0.627                   -3.89143         161.206         -40.5738        -159.183         -40.5739        -159.187       -0.0257164          141.92
0.628                   -3.97654         160.424         -40.4602        -161.004         -40.4603        -161.007       -0.0260291         141.836
0.629                   -4.06358         159.643          -40.347        -162.827          -40.347         -162.83       -0.0263464         141.752
