! TOUCHSTONE file generated by CST MICROWAVE STUDIO
! Date and time: Fri Oct  2 16:39:33 2020
! Project name: Scenario_1_Free_Space_out_of_line.cst
! Parameters = {Lambda=346.42; Step_1=17.321; dy1=174.23; dx1=520; L_HA=400; MT=2.54; Rad_Dielectric=30; Rad_Lower=7.3; Rad_Upper=30; a_HA=580; a_WG=246; b_HA=500; b_WG=121; c_HA=0; c_WG=187; d_feed=85; h_feed=15; h_lower=18; h_upper=40}
! Header version: 2018
! Port assignment regex: !\s*Touchstone port\s*([0-9]+)\s*=\s*(CST MWS port|CST DS port)\s*([0-9]+|Zmin|Zmax)\s*\(\"(.*)\"\)(\s*mode\s*([0-9]+))?.*
! Touchstone port assignment:
! Touchstone port 1 = CST MWS port 1 ("")
! Touchstone port 2 = CST MWS port 2 ("")
# GHz S DB R 50
0.5                    -0.150031        -122.527         -61.9566        -27.3524         -61.8956        -27.2383       -0.0066733         151.147
0.501                  -0.152929        -122.972         -61.7932        -29.0182         -61.7407        -29.0031      -0.00671682         151.082
0.502                  -0.156094        -123.419         -61.6286        -30.6902         -61.5839        -30.7699      -0.00676165         151.016
0.503                   -0.15953        -123.869         -61.4626        -32.3683         -61.4252        -32.5387      -0.00680777         150.951
0.504                  -0.163241        -124.321         -61.2954        -34.0525         -61.2648        -34.3095       -0.0068552         150.885
0.505                  -0.167233        -124.776         -61.1269        -35.7428         -61.1026        -36.0823      -0.00690394         150.819
0.506                  -0.171511        -125.232         -60.9571        -37.4392         -60.9388         -37.857        -0.006954         150.754
0.507                  -0.176078        -125.692         -60.7862        -39.1418         -60.7733        -39.6336      -0.00700538         150.688
0.508                  -0.180941        -126.153         -60.6141        -40.8505         -60.6062        -41.4122       -0.0070581         150.622
0.509                  -0.186103        -126.617         -60.4408        -42.5653         -60.4377        -43.1928      -0.00711214         150.556
0.51                   -0.191569        -127.084         -60.2665        -44.2863         -60.2676        -44.9753      -0.00716754          150.49
0.511                  -0.197344        -127.553         -60.0911        -46.0136         -60.0962          -46.76      -0.00722427         150.424
0.512                  -0.203433        -128.024         -59.9146         -47.747         -59.9234        -48.5467      -0.00728237         150.357
0.513                  -0.209839        -128.497         -59.7372        -49.4867         -59.7493        -50.3356      -0.00734182         150.291
0.514                  -0.216569        -128.973         -59.5588        -51.2328          -59.574        -52.1268      -0.00740263         150.225
0.515                  -0.223625        -129.451         -59.3796        -52.9851         -59.3975        -53.9203      -0.00746483         150.158
0.516                  -0.231012        -129.931         -59.1994        -54.7438         -59.2199        -55.7163       -0.0075284         150.092
0.517                  -0.238736        -130.414         -59.0184        -56.5089         -59.0412        -57.5149      -0.00759335         150.025
0.518                  -0.246799        -130.899         -58.8366        -58.2805         -58.8615        -59.3161       -0.0076597         149.958
0.519                  -0.255206        -131.386         -58.6541        -60.0586         -58.6809        -61.1201      -0.00772745         149.891
0.52                   -0.263961        -131.875         -58.4708        -61.8432         -58.4993         -62.927       -0.0077966         149.824
0.521                  -0.273069        -132.367         -58.2869        -63.6343          -58.317        -64.7369      -0.00786717         149.757
0.522                  -0.282533        -132.861         -58.1024        -65.4321         -58.1338        -66.5501      -0.00793915          149.69
0.523                  -0.292356        -133.357         -57.9173        -67.2366         -57.9499        -68.3665      -0.00801257         149.623
0.524                  -0.302544        -133.855         -57.7317        -69.0477         -57.7653        -70.1864      -0.00808741         149.556
0.525                  -0.313099        -134.355         -57.5456        -70.8657         -57.5801        -72.0098       -0.0081637         149.488
0.526                  -0.324025        -134.858         -57.3591        -72.6903         -57.3944         -73.837      -0.00824144         149.421
0.527                  -0.335326        -135.362         -57.1722        -74.5219         -57.2081        -75.6681      -0.00832063         149.353
0.528                  -0.347004        -135.869          -56.985        -76.3602         -57.0215        -77.5032      -0.00840129         149.286
0.529                  -0.359064        -136.377         -56.7974        -78.2055         -56.8344        -79.3424      -0.00848342         149.218
0.53                   -0.371508        -136.888         -56.6097        -80.0576         -56.6469         -81.186      -0.00856703          149.15
0.531                   -0.38434        -137.401         -56.4217        -81.9167         -56.4592        -83.0339      -0.00865213         149.082
0.532                  -0.397562        -137.916         -56.2337        -83.7828         -56.2713        -84.8865      -0.00873872         149.014
0.533                  -0.411178        -138.433         -56.0455        -85.6558         -56.0831        -86.7437      -0.00882682         148.946
0.534                   -0.42519        -138.951         -55.8573        -87.5358         -55.8949        -88.6058      -0.00891643         148.878
0.535                  -0.439601        -139.472         -55.6691        -89.4227         -55.7066        -90.4728      -0.00900755         148.809
0.536                  -0.454414        -139.995          -55.481        -91.3166         -55.5183        -92.3449      -0.00910021         148.741
0.537                   -0.46963         -140.52         -55.2931        -93.2175           -55.33        -94.2221      -0.00919441         148.673
0.538                  -0.485252        -141.046         -55.1053        -95.1252         -55.1418        -96.1046      -0.00929015         148.604
0.539                  -0.501283        -141.575         -54.9177        -97.0399         -54.9537        -97.9924      -0.00938744         148.535
0.54                   -0.517724        -142.105         -54.7304        -98.9614         -54.7659        -99.8857       -0.0094863         148.466
0.541                  -0.534577        -142.637         -54.5434         -100.89         -54.5783        -101.785      -0.00958674         148.397
0.542                  -0.551845        -143.171         -54.3568        -102.825          -54.391        -103.689      -0.00968875         148.328
0.543                  -0.569529        -143.707         -54.1706        -104.767          -54.204        -105.599      -0.00979236         148.259
0.544                  -0.587631        -144.245         -53.9849        -106.715         -54.0175        -107.515      -0.00989757          148.19
0.545                  -0.606152        -144.784         -53.7998         -108.67         -53.8314        -109.436       -0.0100044         148.121
0.546                  -0.625093        -145.326         -53.6152        -110.631         -53.6458        -111.363       -0.0101128         148.051
0.547                  -0.644457        -145.869         -53.4312        -112.599         -53.4607        -113.296       -0.0102229         147.982
0.548                  -0.664244        -146.414         -53.2479        -114.573         -53.2763        -115.235       -0.0103346         147.912
0.549                  -0.684454         -146.96         -53.0653        -116.553         -53.0925         -117.18        -0.010448         147.842
0.55                   -0.705091        -147.508         -52.8835        -118.539         -52.9093         -119.13        -0.010563         147.772
0.551                  -0.726153        -148.058         -52.7025         -120.53          -52.727        -121.086       -0.0106797         147.702
0.552                  -0.747643         -148.61         -52.5223        -122.528         -52.5453        -123.047       -0.0107981         147.632
0.553                   -0.76956        -149.163          -52.343        -124.531         -52.3646        -125.014       -0.0109181         147.562
0.554                  -0.791905        -149.718         -52.1646        -126.539         -52.1846        -126.987       -0.0110399         147.491
0.555                   -0.81468        -150.275         -51.9872        -128.552         -52.0056        -128.965       -0.0111634         147.421
0.556                  -0.837884        -150.833         -51.8108         -130.57         -51.8275        -130.948       -0.0112886          147.35
0.557                  -0.861518        -151.394         -51.6353        -132.593         -51.6504        -132.937       -0.0114156         147.279
0.558                  -0.885582        -151.955          -51.461         -134.62         -51.4743         -134.93       -0.0115443         147.209
0.559                  -0.910077        -152.519         -51.2877        -136.652         -51.2992        -136.929       -0.0116748         147.138
0.56                   -0.935002        -153.084         -51.1156        -138.688         -51.1253        -138.932        -0.011807         147.066
0.561                  -0.960359         -153.65         -50.9446        -140.727         -50.9524         -140.94        -0.011941         146.995
0.562                  -0.986147        -154.219         -50.7747         -142.77         -50.7806        -142.953       -0.0120769         146.924
0.563                   -1.01237        -154.789          -50.606        -144.817           -50.61        -144.969       -0.0122145         146.852
0.564                   -1.03902         -155.36         -50.4385        -146.866         -50.4406         -146.99        -0.012354         146.781
0.565                    -1.0661        -155.934         -50.2722        -148.919         -50.2724        -149.015       -0.0124953         146.709
0.566                   -1.09362        -156.509         -50.1072        -150.974         -50.1054        -151.044       -0.0126385         146.637
0.567                   -1.12157        -157.085         -49.9434        -153.031         -49.9397        -153.076       -0.0127835         146.565
0.568                   -1.14995        -157.664         -49.7808        -155.091         -49.7752        -155.111       -0.0129304         146.493
0.569                   -1.17876        -158.244         -49.6194        -157.152         -49.6119        -157.149       -0.0130792         146.421
0.57                      -1.208        -158.825         -49.4593        -159.215         -49.4499        -159.191       -0.0132299         146.348
0.571                   -1.23768        -159.409         -49.3005        -161.279         -49.2892        -161.235       -0.0133826         146.276
0.572                    -1.2678        -159.994         -49.1429        -163.345         -49.1298        -163.281       -0.0135372         146.203
0.573                   -1.29835        -160.581         -48.9865        -165.411         -48.9717         -165.33       -0.0136937          146.13
0.574                   -1.32933         -161.17         -48.8314        -167.478         -48.8148         -167.38       -0.0138522         146.057
0.575                   -1.36075        -161.761         -48.6775        -169.545         -48.6592        -169.432       -0.0140127         145.984
0.576                   -1.39261        -162.353         -48.5247        -171.613         -48.5049        -171.486       -0.0141753         145.911
0.577                    -1.4249        -162.947         -48.3732         -173.68         -48.3519        -173.541       -0.0143398         145.837
0.578                   -1.45764        -163.544         -48.2229        -175.747         -48.2001        -175.597       -0.0145064         145.764
0.579                   -1.49081        -164.142         -48.0737        -177.814         -48.0496        -177.653        -0.014675          145.69
0.58                    -1.52443        -164.742         -47.9257         -179.88         -47.9003        -179.711       -0.0148457         145.616
0.581                   -1.55849        -165.344         -47.7788         178.055         -47.7521         178.232       -0.0150185         145.542
0.582                     -1.593        -165.948         -47.6329          175.99         -47.6052         176.174       -0.0151935         145.468
0.583                   -1.62796        -166.554         -47.4882         173.927         -47.4595         174.116       -0.0153705         145.393
0.584                   -1.66337        -167.163         -47.3445         171.865         -47.3149         172.058       -0.0155498         145.319
0.585                   -1.69924        -167.773         -47.2018         169.805         -47.1714         170.001       -0.0157312         145.244
0.586                   -1.73557        -168.386         -47.0601         167.746          -47.029         167.944       -0.0159148         145.169
0.587                   -1.77235        -169.001         -46.9193         165.689         -46.8877         165.888       -0.0161006         145.094
0.588                   -1.80961        -169.618         -46.7795         163.633         -46.7475         163.833       -0.0162887         145.019
0.589                   -1.84733        -170.238         -46.6406         161.579         -46.6082         161.778       -0.0164791         144.944
0.59                    -1.88553         -170.86         -46.5026         159.528         -46.4699         159.725       -0.0166717         144.868
0.591                   -1.92422        -171.484         -46.3653         157.478         -46.3326         157.673       -0.0168667         144.792
0.592                   -1.96339        -172.111         -46.2289          155.43         -46.1962         155.623       -0.0170641         144.717
0.593                   -2.00305        -172.741         -46.0933         153.384         -46.0607         153.574       -0.0172638          144.64
0.594                   -2.04322        -173.373         -45.9583          151.34          -45.926         151.526       -0.0174659         144.564
0.595                   -2.08389        -174.009         -45.8241         149.299         -45.7921          149.48       -0.0176705         144.488
0.596                   -2.12509        -174.646         -45.6906         147.259          -45.659         147.436       -0.0178776         144.411
0.597                   -2.16681        -175.287         -45.5577         145.222         -45.5267         145.393       -0.0180871         144.334
0.598                   -2.20906        -175.931         -45.4254         143.186         -45.3951         143.352       -0.0182993         144.257
0.599                   -2.25187        -176.578         -45.2936         141.153         -45.2641         141.312        -0.018514          144.18
0.6                     -2.29523        -177.228         -45.1624         139.121         -45.1338         139.275       -0.0187313         144.103
0.601                   -2.33916        -177.881         -45.0318         137.091         -45.0041         137.239       -0.0189513         144.025
0.602                   -2.38367        -178.537         -44.9016         135.063          -44.875         135.204        -0.019174         143.948
0.603                   -2.42878        -179.197         -44.7718         133.037         -44.7464         133.171       -0.0193994          143.87
0.604                    -2.4745         -179.86         -44.6425         131.012         -44.6183          131.14       -0.0196277         143.792
0.605                   -2.52085         179.473         -44.5136         128.989         -44.4907         129.111       -0.0198588         143.713
0.606                   -2.56785         178.802         -44.3851         126.967         -44.3635         127.083       -0.0200928         143.635
0.607                   -2.61551         178.128         -44.2569         124.947         -44.2367         125.056       -0.0203298         143.556
0.608                   -2.66384         177.451         -44.1291         122.928         -44.1104         123.031       -0.0205698         143.477
0.609                   -2.71288         176.769         -44.0015         120.909         -43.9843         121.007       -0.0208129         143.398
0.61                    -2.76265         176.083         -43.8743         118.892         -43.8587         118.984       -0.0210591         143.318
0.611                   -2.81316         175.393         -43.7473         116.876         -43.7333         116.962       -0.0213086         143.239
0.612                   -2.86444         174.699         -43.6205          114.86         -43.6082         114.941       -0.0215613         143.159
0.613                   -2.91651         174.001          -43.494         112.844         -43.4834         112.921       -0.0218175         143.079
0.614                   -2.96941         173.299         -43.3677         110.829         -43.3588         110.901       -0.0220771         142.998
0.615                   -3.02316         172.592         -43.2417         108.814         -43.2344         108.882       -0.0223403         142.918
0.616                   -3.07779          171.88         -43.1158         106.799         -43.1102         106.863       -0.0226072         142.837
0.617                   -3.13334         171.164         -42.9901         104.784         -42.9862         104.845       -0.0228778         142.756
0.618                   -3.18983         170.443         -42.8646         102.768         -42.8624         102.827       -0.0231523         142.675
0.619                    -3.2473         169.718         -42.7392         100.752         -42.7388         100.808       -0.0234308         142.593
0.62                    -3.30579         168.988          -42.614         98.7356         -42.6152         98.7898       -0.0237134         142.511
0.621                   -3.36535         168.253          -42.489          96.718         -42.4919         96.7709       -0.0240002         142.429
0.622                     -3.426         167.512         -42.3641         94.6994         -42.3686         94.7515       -0.0242915         142.347
0.623                   -3.48779         166.767         -42.2394         92.6797         -42.2455         92.7314       -0.0245873         142.264
0.624                   -3.55077         166.017         -42.1148         90.6587         -42.1225         90.7105       -0.0248878         142.181
0.625                   -3.61499         165.262         -41.9904         88.6361         -41.9995         88.6885       -0.0251932         142.098
0.626                   -3.68049         164.501         -41.8662         86.6119         -41.8768         86.6654       -0.0255037         142.015
0.627                   -3.74733         163.736         -41.7422         84.5859         -41.7541         84.6409       -0.0258194         141.931
0.628                   -3.81556         162.965         -41.6183         82.5579         -41.6315          82.615       -0.0261406         141.847
0.629                   -3.88523         162.189         -41.4946         80.5279          -41.509         80.5875       -0.0264674         141.763
