! TOUCHSTONE file generated by CST MICROWAVE STUDIO
! Date and time: Fri Oct  2 16:55:25 2020
! Project name: Scenario_1_Free_Space_out_of_line.cst
! Parameters = {Lambda=346.42; Step_1=17.321; dy1=174.23; dx1=693; L_HA=400; MT=2.54; Rad_Dielectric=30; Rad_Lower=7.3; Rad_Upper=30; a_HA=580; a_WG=246; b_HA=500; b_WG=121; c_HA=0; c_WG=187; d_feed=85; h_feed=15; h_lower=18; h_upper=40}
! Header version: 2018
! Port assignment regex: !\s*Touchstone port\s*([0-9]+)\s*=\s*(CST MWS port|CST DS port)\s*([0-9]+|Zmin|Zmax)\s*\(\"(.*)\"\)(\s*mode\s*([0-9]+))?.*
! Touchstone port assignment:
! Touchstone port 1 = CST MWS port 1 ("")
! Touchstone port 2 = CST MWS port 2 ("")
# GHz S DB R 50
0.5                    -0.147454        -122.675         -63.1534        -122.944         -63.1534        -122.944      -0.00667505         151.143
0.501                  -0.155747        -123.109         -62.9748        -125.324         -62.9748        -125.324       -0.0067347         151.078
0.502                  -0.164115        -123.544         -62.7944        -127.685         -62.7943        -127.685      -0.00679495         151.012
0.503                  -0.172559        -123.981         -62.6122        -130.029         -62.6122        -130.029      -0.00685581         150.947
0.504                  -0.181083         -124.42         -62.4285        -132.355         -62.4285        -132.355      -0.00691729         150.882
0.505                  -0.189688         -124.86         -62.2435        -134.664         -62.2434        -134.664       -0.0069794         150.816
0.506                  -0.198376        -125.303         -62.0572        -136.956         -62.0571        -136.956      -0.00704217          150.75
0.507                  -0.207152        -125.747         -61.8699        -139.232         -61.8698        -139.232      -0.00710561         150.685
0.508                  -0.216016        -126.193         -61.6816        -141.493         -61.6816        -141.493      -0.00716973         150.619
0.509                  -0.224972         -126.64         -61.4926        -143.738         -61.4925        -143.739      -0.00723454         150.553
0.51                   -0.234023         -127.09         -61.3029        -145.969         -61.3028         -145.97      -0.00730008         150.487
0.511                  -0.243172        -127.542         -61.1126        -148.187         -61.1125        -148.187      -0.00736634         150.421
0.512                  -0.252422        -127.995         -60.9218        -150.391         -60.9217        -150.391      -0.00743335         150.355
0.513                  -0.261776        -128.451         -60.7307        -152.583         -60.7306        -152.583      -0.00750112         150.289
0.514                  -0.271239        -128.909         -60.5393        -154.762         -60.5392        -154.763      -0.00756967         150.223
0.515                  -0.280813        -129.368         -60.3477        -156.931         -60.3476        -156.931      -0.00763901         150.156
0.516                  -0.290502         -129.83          -60.156        -159.088         -60.1559        -159.088      -0.00770916          150.09
0.517                  -0.300311        -130.294         -59.9642        -161.235         -59.9641        -161.236      -0.00778014         150.023
0.518                  -0.310243         -130.76         -59.7725        -163.373         -59.7724        -163.373      -0.00785197         149.957
0.519                  -0.320303        -131.229         -59.5808        -165.502         -59.5807        -165.502      -0.00792465          149.89
0.52                   -0.330495        -131.699         -59.3893        -167.622         -59.3892        -167.622      -0.00799821         149.823
0.521                  -0.340824        -132.172          -59.198        -169.734         -59.1979        -169.735      -0.00807266         149.757
0.522                  -0.351294        -132.647         -59.0069        -171.839         -59.0068         -171.84      -0.00814802          149.69
0.523                   -0.36191        -133.124          -58.816        -173.938         -58.8159        -173.938       -0.0082243         149.622
0.524                  -0.372678        -133.604         -58.6255         -176.03         -58.6254         -176.03      -0.00830154         149.555
0.525                  -0.383603        -134.086         -58.4354        -178.117         -58.4353        -178.117      -0.00837973         149.488
0.526                  -0.394691        -134.571         -58.2456         179.802         -58.2455         179.802       -0.0084589         149.421
0.527                  -0.405946        -135.058         -58.0563         177.725         -58.0562         177.725      -0.00853907         149.353
0.528                  -0.417375        -135.548         -57.8674         175.652         -57.8673         175.652      -0.00862025         149.286
0.529                  -0.428984         -136.04          -57.679         173.583         -57.6789         173.583      -0.00870246         149.218
0.53                   -0.440779        -136.535         -57.4911         171.518          -57.491         171.517      -0.00878572          149.15
0.531                  -0.452767        -137.032         -57.3037         169.455         -57.3037         169.455      -0.00887005         149.083
0.532                  -0.464955        -137.532         -57.1169         167.394         -57.1168         167.394      -0.00895546         149.015
0.533                  -0.477348        -138.034         -56.9307         165.336         -56.9306         165.335      -0.00904198         148.947
0.534                  -0.489956         -138.54          -56.745         163.279         -56.7449         163.278      -0.00912962         148.878
0.535                  -0.502783        -139.048         -56.5599         161.223         -56.5598         161.222       -0.0092184          148.81
0.536                   -0.51584        -139.558         -56.3754         159.168         -56.3753         159.167      -0.00930834         148.742
0.537                  -0.529132        -140.072         -56.1916         157.113         -56.1915         157.113      -0.00939946         148.673
0.538                  -0.542669        -140.588         -56.0084         155.058         -56.0083         155.058      -0.00949177         148.605
0.539                  -0.556457        -141.107         -55.8258         153.004         -55.8258         153.003       -0.0095853         148.536
0.54                   -0.570507        -141.629          -55.644         150.948         -55.6439         150.948      -0.00968007         148.467
0.541                  -0.584826        -142.154         -55.4628         148.892         -55.4627         148.892       -0.0097761         148.399
0.542                  -0.599423        -142.682         -55.2823         146.834         -55.2822         146.834       -0.0098734          148.33
0.543                  -0.614308        -143.213         -55.1025         144.776         -55.1024         144.775      -0.00997199          148.26
0.544                  -0.629489        -143.746         -54.9234         142.715         -54.9233         142.715       -0.0100719         148.191
0.545                  -0.644977        -144.283          -54.745         140.652         -54.7449         140.652       -0.0101731         148.122
0.546                  -0.660781        -144.823         -54.5674         138.588         -54.5673         138.588       -0.0102757         148.053
0.547                  -0.676911        -145.365         -54.3905         136.521         -54.3904          136.52       -0.0103797         147.983
0.548                  -0.693378        -145.911         -54.2143         134.451         -54.2143         134.451       -0.0104851         147.913
0.549                  -0.710192         -146.46          -54.039         132.378         -54.0389         132.378       -0.0105919         147.844
0.55                   -0.727364        -147.012         -53.8643         130.302         -53.8643         130.302       -0.0107001         147.774
0.551                  -0.744904        -147.567         -53.6905         128.224         -53.6905         128.223       -0.0108098         147.704
0.552                  -0.762824        -148.125         -53.5175         126.141         -53.5174         126.141        -0.010921         147.634
0.553                  -0.781135        -148.686         -53.3452         124.056         -53.3452         124.055       -0.0110337         147.563
0.554                  -0.799849        -149.251         -53.1738         121.966         -53.1738         121.966       -0.0111479         147.493
0.555                  -0.818978        -149.818         -53.0032         119.873         -53.0032         119.873       -0.0112636         147.423
0.556                  -0.838532        -150.389         -52.8334         117.776         -52.8334         117.775        -0.011381         147.352
0.557                  -0.858525        -150.962         -52.6644         115.674         -52.6644         115.674       -0.0114999         147.281
0.558                  -0.878969        -151.539         -52.4963         113.569         -52.4963         113.569       -0.0116204          147.21
0.559                  -0.899876         -152.12          -52.329         111.459          -52.329         111.459       -0.0117426         147.139
0.56                   -0.921259        -152.703         -52.1626         109.346         -52.1626         109.346       -0.0118664         147.068
0.561                   -0.94313        -153.289         -51.9971         107.227         -51.9971         107.227       -0.0119919         146.997
0.562                  -0.965502        -153.879         -51.8324         105.105         -51.8324         105.105       -0.0121192         146.926
0.563                  -0.988389        -154.471         -51.6687         102.978         -51.6687         102.978       -0.0122481         146.854
0.564                    -1.0118        -155.067         -51.5058         100.846         -51.5058         100.846       -0.0123789         146.782
0.565                   -1.03576        -155.666         -51.3438         98.7104         -51.3438         98.7104       -0.0125114         146.711
0.566                   -1.06027        -156.268         -51.1828           96.57         -51.1828           96.57       -0.0126457         146.639
0.567                   -1.08534        -156.873         -51.0226         94.4251         -51.0226          94.425       -0.0127818         146.567
0.568                     -1.111        -157.481         -50.8634         92.2757         -50.8634         92.2756       -0.0129198         146.495
0.569                   -1.13725        -158.092         -50.7051         90.1218         -50.7051         90.1218       -0.0130597         146.422
0.57                     -1.1641        -158.706         -50.5478         87.9635         -50.5478         87.9635       -0.0132015          146.35
0.571                   -1.19158        -159.323         -50.3914         85.8009         -50.3914         85.8009       -0.0133452         146.277
0.572                   -1.21969        -159.943         -50.2359         83.6339         -50.2359         83.6339       -0.0134909         146.204
0.573                   -1.24844        -160.566         -50.0814         81.4626         -50.0814         81.4626       -0.0136386         146.132
0.574                   -1.27786        -161.192         -49.9279         79.2871         -49.9279         79.2872       -0.0137883         146.058
0.575                   -1.30795         -161.82         -49.7753         77.1076         -49.7753         77.1076       -0.0139401         145.985
0.576                   -1.33872        -162.451         -49.6237         74.9239         -49.6237          74.924       -0.0140939         145.912
0.577                   -1.37019        -163.085         -49.4731         72.7364         -49.4731         72.7364       -0.0142498         145.838
0.578                   -1.40237        -163.722         -49.3235         70.5449         -49.3235          70.545       -0.0144078         145.765
0.579                   -1.43528        -164.361         -49.1748         68.3498         -49.1748         68.3498        -0.014568         145.691
0.58                    -1.46892        -165.003         -49.0271          66.151         -49.0271          66.151       -0.0147304         145.617
0.581                    -1.5033        -165.647         -48.8804         63.9487         -48.8804         63.9487        -0.014895         145.543
0.582                   -1.53845        -166.294         -48.7347          61.743         -48.7347          61.743       -0.0150619         145.469
0.583                   -1.57436        -166.943         -48.5899          59.534         -48.5899         59.5341        -0.015231         145.394
0.584                   -1.61105        -167.595         -48.4461         57.3219         -48.4461          57.322       -0.0154024          145.32
0.585                   -1.64853        -168.248         -48.3033         55.1068         -48.3033         55.1069       -0.0155762         145.245
0.586                   -1.68681        -168.904         -48.1615         52.8889         -48.1615          52.889       -0.0157523          145.17
0.587                    -1.7259        -169.562         -48.0206         50.6683         -48.0206         50.6684       -0.0159309         145.095
0.588                   -1.76581        -170.222         -47.8806         48.4451         -47.8806         48.4452       -0.0161119          145.02
0.589                   -1.80655        -170.883         -47.7416         46.2196         -47.7417         46.2197       -0.0162953         144.944
0.59                    -1.84812        -171.547         -47.6036         43.9918         -47.6036         43.9919       -0.0164813         144.869
0.591                   -1.89053        -172.213         -47.4665         41.7618         -47.4665         41.7619       -0.0166698         144.793
0.592                    -1.9338         -172.88         -47.3303           39.53         -47.3303         39.5301       -0.0168609         144.717
0.593                   -1.97792        -173.548          -47.195         37.2964          -47.195         37.2965       -0.0170545         144.641
0.594                    -2.0229        -174.219         -47.0606         35.0611         -47.0607         35.0612       -0.0172509         144.564
0.595                   -2.06875         -174.89         -46.9272         32.8243         -46.9272         32.8244       -0.0174499         144.488
0.596                   -2.11547        -175.563         -46.7945         30.5863         -46.7945         30.5864       -0.0176516         144.411
0.597                   -2.16307        -176.238         -46.6628          28.347         -46.6628         28.3471       -0.0178561         144.334
0.598                   -2.21155        -176.913         -46.5319         26.1068         -46.5319         26.1069       -0.0180634         144.257
0.599                   -2.26091         -177.59         -46.4018         23.8656         -46.4018         23.8657       -0.0182735          144.18
0.6                     -2.31116        -178.268         -46.2725         21.6237         -46.2725         21.6238       -0.0184865         144.103
0.601                    -2.3623        -178.947          -46.144         19.3812          -46.144         19.3813       -0.0187024         144.025
0.602                   -2.41433        -179.626         -46.0163         17.1383         -46.0163         17.1384       -0.0189213         143.947
0.603                   -2.46724         179.693         -45.8893          14.895         -45.8893         14.8951       -0.0191432         143.869
0.604                   -2.52105         179.012         -45.7631         12.6515         -45.7631         12.6516       -0.0193682         143.791
0.605                   -2.57575          178.33         -45.6376          10.408         -45.6376         10.4081       -0.0195962         143.712
0.606                   -2.63134         177.648         -45.5128         8.16443         -45.5128         8.16451       -0.0198274         143.634
0.607                   -2.68782         176.965         -45.3886         5.92104         -45.3887         5.92112       -0.0200618         143.555
0.608                   -2.74518         176.281         -45.2652         3.67789         -45.2652         3.67797       -0.0202995         143.476
0.609                   -2.80343         175.597         -45.1423         1.43509         -45.1423         1.43517       -0.0205404         143.397
0.61                    -2.86256         174.913           -45.02        -0.80727           -45.02       -0.807195       -0.0207847         143.317
0.611                   -2.92257         174.228         -44.8984        -3.04911         -44.8984        -3.04904       -0.0210323         143.237
0.612                   -2.98346         173.543         -44.7773        -5.29035         -44.7773        -5.29029       -0.0212835         143.157
0.613                   -3.04523         172.857         -44.6567        -7.53093         -44.6567        -7.53086       -0.0215381         143.077
0.614                   -3.10787         172.171         -44.5366        -9.77076         -44.5366         -9.7707       -0.0217963         142.997
0.615                   -3.17137         171.485         -44.4171        -12.0098         -44.4171        -12.0098       -0.0220582         142.916
0.616                   -3.23575         170.799          -44.298         -14.248          -44.298         -14.248       -0.0223237         142.835
0.617                   -3.30099         170.113         -44.1793        -16.4853         -44.1793        -16.4853        -0.022593         142.754
0.618                   -3.36709         169.426         -44.0611        -18.7218         -44.0611        -18.7217       -0.0228662         142.673
0.619                   -3.43404         168.739         -43.9432        -20.9572         -43.9432        -20.9572       -0.0231432         142.591
0.62                    -3.50186         168.052         -43.8257        -23.1917         -43.8257        -23.1917       -0.0234242         142.509
0.621                   -3.57053         167.364         -43.7086        -25.4253         -43.7086        -25.4252       -0.0237092         142.427
0.622                   -3.64006         166.676         -43.5918        -27.6578         -43.5918        -27.6578       -0.0239984         142.345
0.623                   -3.71044         165.988         -43.4753        -29.8894         -43.4753        -29.8893       -0.0242917         142.262
0.624                   -3.78168         165.299         -43.3592          -32.12         -43.3592        -32.1199       -0.0245894          142.18
0.625                   -3.85378          164.61         -43.2432        -34.3496         -43.2432        -34.3496       -0.0248914         142.096
0.626                   -3.92673         163.921         -43.1275        -36.5783         -43.1275        -36.5783       -0.0251979         142.013
0.627                   -4.00056          163.23         -43.0121        -38.8062         -43.0121        -38.8062       -0.0255089         141.929
0.628                   -4.07525          162.54         -42.8968        -41.0331         -42.8968        -41.0331       -0.0258246         141.845
0.629                   -4.15082         161.848         -42.7818        -43.2593         -42.7818        -43.2593       -0.0261451         141.761
