! TOUCHSTONE file generated by CST MICROWAVE STUDIO
! Date and time: Fri Oct  2 16:31:28 2020
! Project name: Scenario_1_Free_Space_out_of_line.cst
! Parameters = {Lambda=346.42; Step_1=17.321; dy1=156.889; dx1=346; L_HA=400; MT=2.54; Rad_Dielectric=30; Rad_Lower=7.3; Rad_Upper=30; a_HA=580; a_WG=246; b_HA=500; b_WG=121; c_HA=0; c_WG=187; d_feed=85; h_feed=15; h_lower=18; h_upper=40}
! Header version: 2018
! Port assignment regex: !\s*Touchstone port\s*([0-9]+)\s*=\s*(CST MWS port|CST DS port)\s*([0-9]+|Zmin|Zmax)\s*\(\"(.*)\"\)(\s*mode\s*([0-9]+))?.*
! Touchstone port assignment:
! Touchstone port 1 = CST MWS port 1 ("")
! Touchstone port 2 = CST MWS port 2 ("")
# GHz S DB R 50
0.5                    -0.145132        -122.666         -60.0719         70.9748         -60.0719         70.9748      -0.00663171          151.12
0.501                  -0.150674        -123.112         -59.8573         69.5513         -59.8577         69.5557      -0.00671107         151.054
0.502                  -0.156425        -123.559         -59.6431         68.1153         -59.6438         68.1235      -0.00679153         150.989
0.503                  -0.162389        -124.009         -59.4291         66.6668         -59.4301         66.6784      -0.00687307         150.923
0.504                  -0.168569         -124.46         -59.2155         65.2059         -59.2167         65.2204       -0.0069557         150.858
0.505                  -0.174968        -124.913         -59.0022         63.7325         -59.0036         63.7495      -0.00703939         150.792
0.506                  -0.181589        -125.368         -58.7894         62.2467         -58.7908         62.2657      -0.00712414         150.726
0.507                  -0.188437        -125.825         -58.5769         60.7486         -58.5784         60.7691      -0.00720994          150.66
0.508                  -0.195513        -126.284         -58.3648          59.238         -58.3665         59.2598      -0.00729678         150.594
0.509                  -0.202823        -126.745         -58.1533         57.7151          -58.155         57.7378      -0.00738466         150.528
0.51                   -0.210368        -127.208         -57.9422         56.1799         -57.9439         56.2031      -0.00747355         150.462
0.511                  -0.218154        -127.673         -57.7317         54.6325         -57.7334          54.656      -0.00756345         150.396
0.512                  -0.226182        -128.139         -57.5218         53.0729         -57.5234         53.0963      -0.00765434          150.33
0.513                  -0.234458        -128.608         -57.3124         51.5013          -57.314         51.5243      -0.00774622         150.263
0.514                  -0.242984        -129.079         -57.1037         49.9175         -57.1052         49.9401      -0.00783907         150.197
0.515                  -0.251764        -129.551         -56.8957         48.3219         -56.8971         48.3436      -0.00793288         150.131
0.516                  -0.260802        -130.026         -56.6884         46.7144         -56.6897         46.7351      -0.00802763         150.064
0.517                    -0.2701        -130.502         -56.4818         45.0951         -56.4831         45.1146      -0.00812331         149.997
0.518                  -0.279664        -130.981         -56.2761         43.4642         -56.2772         43.4824       -0.0082199         149.931
0.519                  -0.289496        -131.461         -56.0711         41.8218         -56.0722         41.8385       -0.0083174         149.864
0.52                   -0.299601        -131.943         -55.8671         40.1681          -55.868         40.1832      -0.00841577         149.797
0.521                   -0.30998        -132.428         -55.6639         38.5031         -55.6647         38.5165      -0.00851502          149.73
0.522                   -0.32064        -132.914         -55.4617         36.8271         -55.4624         36.8386      -0.00861512         149.663
0.523                  -0.331582        -133.402         -55.2604         35.1402          -55.261         35.1498      -0.00871605         149.596
0.524                   -0.34281        -133.892         -55.0602         33.4427         -55.0607         33.4503      -0.00881779         149.529
0.525                  -0.354328        -134.384          -54.861         31.7346         -54.8614         31.7402      -0.00892033         149.461
0.526                   -0.36614        -134.878          -54.663         30.0163         -54.6633         30.0198      -0.00902365         149.394
0.527                  -0.378248        -135.374          -54.466         28.2879         -54.4663         28.2894      -0.00912773         149.327
0.528                  -0.390657        -135.872         -54.2703         26.5496         -54.2704         26.5491      -0.00923254         149.259
0.529                  -0.403368        -136.371         -54.0757         24.8018         -54.0758         24.7993      -0.00933808         149.191
0.53                   -0.416386        -136.873         -53.8824         23.0447         -53.8824         23.0401       -0.0094443         149.124
0.531                  -0.429714        -137.376         -53.6904         21.2785         -53.6904          21.272      -0.00955121         149.056
0.532                  -0.443354        -137.882         -53.4997         19.5036         -53.4996         19.4952      -0.00965876         148.988
0.533                  -0.457309        -138.389         -53.3103         17.7202         -53.3102         17.7099      -0.00976695          148.92
0.534                  -0.471582        -138.898         -53.1223         15.9286         -53.1221         15.9166      -0.00987574         148.852
0.535                  -0.486175        -139.409         -52.9356         14.1292         -52.9355         14.1155      -0.00998511         148.784
0.536                  -0.501091        -139.921         -52.7504         12.3222         -52.7503          12.307        -0.010095         148.716
0.537                  -0.516332        -140.436         -52.5667         10.5081         -52.5665         10.4914       -0.0102055         148.647
0.538                    -0.5319        -140.952         -52.3844         8.68705         -52.3843         8.66899       -0.0103165         148.579
0.539                  -0.547796         -141.47         -52.2036         6.85952         -52.2035         6.84023        -0.010428          148.51
0.54                   -0.564023         -141.99         -52.0243         5.02582         -52.0242         5.00542       -0.0105399         148.441
0.541                   -0.58058        -142.512         -51.8465         3.18633         -51.8465         3.16495       -0.0106522         148.373
0.542                  -0.597469        -143.035         -51.6703          1.3414         -51.6703         1.31916        -0.010765         148.304
0.543                  -0.614691         -143.56         -51.4956       -0.508613         -51.4956       -0.531558       -0.0108782         148.235
0.544                  -0.632246        -144.087         -51.3225        -2.36333         -51.3225        -2.38685       -0.0109917         148.166
0.545                  -0.650134        -144.616         -51.1509        -4.22238          -51.151        -4.24633       -0.0111056         148.097
0.546                  -0.668353        -145.146         -50.9808        -6.08539          -50.981        -6.10965       -0.0112198         148.027
0.547                  -0.686904        -145.678         -50.8124        -7.95201         -50.8126        -7.97642       -0.0113342         147.958
0.548                  -0.705785        -146.211         -50.6455        -9.82185         -50.6457        -9.84628        -0.011449         147.888
0.549                  -0.724995        -146.747         -50.4801        -11.6946         -50.4804        -11.7189        -0.011564         147.819
0.55                    -0.74453        -147.284         -50.3163        -13.5698         -50.3167        -13.5939       -0.0116792         147.749
0.551                  -0.764389        -147.822          -50.154        -15.4472         -50.1544        -15.4708       -0.0117946         147.679
0.552                  -0.784568        -148.362         -49.9932        -17.3263         -49.9937        -17.3495       -0.0119103         147.609
0.553                  -0.805064        -148.904          -49.834         -19.207         -49.8345        -19.2296       -0.0120261         147.539
0.554                  -0.825873        -149.448         -49.6762        -21.0888         -49.6767        -21.1106       -0.0121421         147.469
0.555                   -0.84699        -149.993         -49.5199        -22.9714         -49.5205        -22.9923       -0.0122582         147.399
0.556                  -0.868411         -150.54          -49.365        -24.8545         -49.3656        -24.8745       -0.0123745         147.328
0.557                  -0.890129        -151.088         -49.2116        -26.7378         -49.2122        -26.7567       -0.0124909         147.258
0.558                   -0.91214        -151.638         -49.0596         -28.621         -49.0602        -28.6388       -0.0126075         147.187
0.559                  -0.934436         -152.19         -48.9089        -30.5038         -48.9095        -30.5204       -0.0127242         147.116
0.56                   -0.957012        -152.744         -48.7596         -32.386         -48.7602        -32.4013        -0.012841         147.045
0.561                  -0.979861          -153.3         -48.6115        -34.2674         -48.6121        -34.2813        -0.012958         146.974
0.562                   -1.00298        -153.857         -48.4648        -36.1476         -48.4653        -36.1601       -0.0130752         146.903
0.563                   -1.02635        -154.416         -48.3193        -38.0264         -48.3198        -38.0375       -0.0131925         146.832
0.564                   -1.04998        -154.977          -48.175        -39.9038         -48.1755        -39.9133       -0.0133101          146.76
0.565                   -1.07385        -155.541         -48.0318        -41.7793         -48.0323        -41.7874       -0.0134279         146.689
0.566                   -1.09796        -156.106         -47.8898         -43.653         -47.8902        -43.6595       -0.0135459         146.617
0.567                    -1.1223        -156.674         -47.7489        -45.5246         -47.7492        -45.5295       -0.0136643         146.545
0.568                   -1.14687        -157.244          -47.609         -47.394         -47.6093        -47.3973        -0.013783         146.473
0.569                   -1.17166        -157.816         -47.4702        -49.2611         -47.4704        -49.2628       -0.0139021         146.401
0.57                    -1.19667        -158.391         -47.3324        -51.1257         -47.3324        -51.1258       -0.0140217         146.329
0.571                    -1.2219        -158.969         -47.1954        -52.9877         -47.1954        -52.9863       -0.0141418         146.256
0.572                   -1.24734        -159.549         -47.0594        -54.8471         -47.0593        -54.8441       -0.0142625         146.184
0.573                     -1.273        -160.133         -46.9243        -56.7038          -46.924        -56.6993       -0.0143839         146.111
0.574                   -1.29888         -160.72         -46.7899        -58.5577         -46.7895        -58.5518        -0.014506         146.038
0.575                   -1.32498         -161.31         -46.6564        -60.4089         -46.6559        -60.4015       -0.0146291         145.965
0.576                    -1.3513        -161.904         -46.5236        -62.2572         -46.5229        -62.2484       -0.0147531         145.892
0.577                   -1.37787        -162.501         -46.3915        -64.1027         -46.3907        -64.0926       -0.0148782         145.819
0.578                   -1.40469        -163.102           -46.26        -65.9454         -46.2591        -65.9339       -0.0150045         145.745
0.579                   -1.43177        -163.708         -46.1292        -67.7853         -46.1282        -67.7726       -0.0151321         145.671
0.58                    -1.45913        -164.318          -45.999        -69.6223         -45.9978        -69.6085       -0.0152613         145.597
0.581                   -1.48679        -164.932         -45.8694        -71.4567         -45.8681        -71.4417        -0.015392         145.523
0.582                   -1.51478        -165.551         -45.7403        -73.2883         -45.7388        -73.2723       -0.0155245         145.449
0.583                   -1.54313        -166.175         -45.6117        -75.1174         -45.6101        -75.1004       -0.0156589         145.375
0.584                   -1.57186        -166.805         -45.4836        -76.9439         -45.4818         -76.926       -0.0157954           145.3
0.585                   -1.60101        -167.439         -45.3559        -78.7679          -45.354        -78.7492       -0.0159341         145.226
0.586                   -1.63061        -168.079         -45.2287        -80.5895         -45.2265        -80.5701       -0.0160753         145.151
0.587                    -1.6607        -168.725         -45.1018        -82.4088         -45.0995        -82.3887        -0.016219         145.076
0.588                   -1.69133        -169.376         -44.9752         -84.226         -44.9728        -84.2053       -0.0163654             145
0.589                   -1.72254        -170.034          -44.849         -86.041         -44.8465        -86.0199       -0.0165148         144.925
0.59                    -1.75438        -170.697         -44.7231        -87.8542         -44.7205        -87.8326       -0.0166673         144.849
0.591                   -1.78689        -171.366         -44.5976        -89.6655         -44.5947        -89.6436        -0.016823         144.774
0.592                   -1.82012        -172.042         -44.4722        -91.4752         -44.4693         -91.453       -0.0169822         144.698
0.593                   -1.85414        -172.723         -44.3471        -93.2833         -44.3441        -93.2609       -0.0171451         144.621
0.594                   -1.88898        -173.411         -44.2223          -95.09         -44.2191        -95.0675       -0.0173117         144.545
0.595                    -1.9247        -174.105         -44.0977        -96.8954         -44.0944        -96.8729       -0.0174822         144.468
0.596                   -1.96136        -174.806         -43.9733        -98.6997         -43.9699        -98.6772       -0.0176568         144.392
0.597                     -1.999        -175.512          -43.849        -100.503         -43.8455        -100.481       -0.0178357         144.315
0.598                   -2.03769        -176.224          -43.725        -102.306         -43.7214        -102.283        -0.018019         144.237
0.599                   -2.07746        -176.942         -43.6011        -104.107         -43.5974        -104.085       -0.0182068          144.16
0.6                     -2.11838        -177.666         -43.4774        -105.909         -43.4737        -105.887       -0.0183992         144.083
0.601                   -2.16049        -178.396         -43.3538         -107.71           -43.35        -107.688       -0.0185964         144.005
0.602                   -2.20384        -179.131         -43.2304        -109.511         -43.2266         -109.49       -0.0187984         143.927
0.603                   -2.24847        -179.872         -43.1072        -111.311         -43.1033        -111.291       -0.0190054         143.849
0.604                   -2.29444         179.382         -42.9841        -113.112         -42.9801        -113.092       -0.0192174          143.77
0.605                   -2.34178         178.631         -42.8611        -114.913         -42.8572        -114.894       -0.0194345         143.692
0.606                   -2.39054         177.876         -42.7383        -116.715         -42.7343        -116.696       -0.0196567         143.613
0.607                   -2.44076         177.116         -42.6157        -118.517         -42.6117        -118.499       -0.0198842         143.534
0.608                   -2.49247         176.351         -42.4932         -120.32         -42.4892        -120.302       -0.0201169         143.455
0.609                   -2.54571         175.583         -42.3708        -122.123         -42.3668        -122.106       -0.0203548         143.375
0.61                    -2.60052         174.811         -42.2486        -123.928         -42.2447        -123.911       -0.0205981         143.296
0.611                   -2.65693         174.035         -42.1266        -125.733         -42.1227        -125.718       -0.0208466         143.216
0.612                   -2.71496         173.255         -42.0048         -127.54         -42.0009        -127.525       -0.0211004         143.136
0.613                   -2.77466         172.473         -41.8832        -129.348         -41.8794        -129.334       -0.0213594         143.056
0.614                   -2.83605         171.687         -41.7618        -131.158          -41.758        -131.145       -0.0216237         142.975
0.615                   -2.89915         170.899         -41.6406        -132.969         -41.6369        -132.957       -0.0218931         142.894
0.616                   -2.96401         170.109         -41.5196        -134.782          -41.516         -134.77       -0.0221678         142.814
0.617                   -3.03063         169.317         -41.3989        -136.596         -41.3953        -136.585       -0.0224475         142.732
0.618                   -3.09904         168.522         -41.2784        -138.413          -41.275        -138.403       -0.0227324         142.651
0.619                   -3.16928         167.727         -41.1582        -140.231         -41.1549        -140.222       -0.0230223         142.569
0.62                    -3.24136          166.93         -41.0384        -142.051         -41.0351        -142.043       -0.0233171         142.488
0.621                    -3.3153         166.132         -40.9188        -143.874         -40.9156        -143.866       -0.0236168         142.405
0.622                   -3.39114         165.333         -40.7995        -145.698         -40.7965        -145.691       -0.0239215         142.323
0.623                   -3.46888         164.534         -40.6806        -147.525         -40.6777        -147.518       -0.0242309         142.241
0.624                   -3.54855         163.735         -40.5621        -149.353         -40.5592        -149.347        -0.024545         142.158
0.625                   -3.63018         162.935         -40.4439        -151.184         -40.4412        -151.179       -0.0248638         142.075
0.626                   -3.71378         162.137         -40.3262        -153.017         -40.3236        -153.013       -0.0251873         141.991
0.627                   -3.79938         161.339         -40.2089        -154.853         -40.2064        -154.848       -0.0255153         141.908
0.628                   -3.88699         160.542          -40.092         -156.69         -40.0897        -156.686       -0.0258478         141.824
0.629                   -3.97662         159.747         -39.9756         -158.53         -39.9734        -158.527       -0.0261848          141.74
