! TOUCHSTONE file generated by CST MICROWAVE STUDIO
! Date and time: Fri Oct  2 16:39:24 2020
! Project name: Scenario_1_Free_Space_out_of_line.cst
! Parameters = {Lambda=346.42; Step_1=17.321; dy1=156.889; dx1=520; L_HA=400; MT=2.54; Rad_Dielectric=30; Rad_Lower=7.3; Rad_Upper=30; a_HA=580; a_WG=246; b_HA=500; b_WG=121; c_HA=0; c_WG=187; d_feed=85; h_feed=15; h_lower=18; h_upper=40}
! Header version: 2018
! Port assignment regex: !\s*Touchstone port\s*([0-9]+)\s*=\s*(CST MWS port|CST DS port)\s*([0-9]+|Zmin|Zmax)\s*\(\"(.*)\"\)(\s*mode\s*([0-9]+))?.*
! Touchstone port assignment:
! Touchstone port 1 = CST MWS port 1 ("")
! Touchstone port 2 = CST MWS port 2 ("")
# GHz S DB R 50
0.5                    -0.149916         -122.65         -61.6469        -25.9573         -61.6469        -25.9573      -0.00669131         151.116
0.501                  -0.150422        -123.074         -61.4763         -27.675         -61.4735        -27.6959      -0.00672813          151.05
0.502                  -0.151238        -123.502         -61.3045        -29.3958          -61.299        -29.4363      -0.00676662         150.985
0.503                  -0.152377        -123.934         -61.1317        -31.1198         -61.1236        -31.1787      -0.00680679         150.919
0.504                  -0.153847         -124.37         -60.9577        -32.8469         -60.9473        -32.9232      -0.00684863         150.853
0.505                  -0.155658         -124.81         -60.7828        -34.5773         -60.7701        -34.6698      -0.00689214         150.787
0.506                  -0.157821        -125.254         -60.6069        -36.3111         -60.5921        -36.4186      -0.00693732         150.722
0.507                  -0.160343        -125.701           -60.43        -38.0484         -60.4133        -38.1699      -0.00698416         150.656
0.508                  -0.163235        -126.152         -60.2523        -39.7891         -60.2338        -39.9238      -0.00703266          150.59
0.509                  -0.166504        -126.607         -60.0737        -41.5336         -60.0535        -41.6802      -0.00708283         150.524
0.51                   -0.170158        -127.066         -59.8943        -43.2817         -59.8725        -43.4395      -0.00713466         150.457
0.511                  -0.174206        -127.528         -59.7141        -45.0336         -59.6909        -45.2017      -0.00718814         150.391
0.512                  -0.178655        -127.993         -59.5332        -46.7895         -59.5087        -46.9669      -0.00724328         150.325
0.513                  -0.183511        -128.462         -59.3516        -48.5494          -59.326        -48.7353      -0.00730008         150.258
0.514                  -0.188782        -128.934         -59.1693        -50.3134         -59.1427        -50.5071      -0.00735853         150.192
0.515                  -0.194473         -129.41         -58.9865        -52.0817         -58.9589        -52.2823      -0.00741864         150.125
0.516                   -0.20059        -129.888         -58.8031        -53.8543         -58.7747        -54.0611      -0.00748039         150.059
0.517                   -0.20714         -130.37         -58.6191        -55.6314         -58.5901        -55.8436      -0.00754379         149.992
0.518                  -0.214128        -130.855         -58.4347         -57.413         -58.4051          -57.63      -0.00760885         149.925
0.519                  -0.221558        -131.343         -58.2498        -59.1994         -58.2198        -59.4205      -0.00767555         149.858
0.52                   -0.229434        -131.833         -58.0645        -60.9905         -58.0342         -61.215       -0.0077439         149.791
0.521                  -0.237762        -132.327         -57.8789        -62.7865         -57.8483        -63.0138       -0.0078139         149.724
0.522                  -0.246545        -132.823         -57.6929        -64.5875         -57.6622         -64.817      -0.00788555         149.657
0.523                  -0.255786        -133.322         -57.5067        -66.3935          -57.476        -66.6247      -0.00795884         149.589
0.524                  -0.265489        -133.824         -57.3202        -68.2048         -57.2896        -68.4371      -0.00803378         149.522
0.525                  -0.275656        -134.329         -57.1336        -70.0214         -57.1031        -70.2542      -0.00811036         149.455
0.526                  -0.286291        -134.836         -56.9468        -71.8434         -56.9166        -72.0762      -0.00818859         149.387
0.527                  -0.297395        -135.345         -56.7599        -73.6708           -56.73        -73.9031      -0.00826847         149.319
0.528                   -0.30897        -135.857          -56.573        -75.5038         -56.5434        -75.7352      -0.00834999         149.252
0.529                  -0.321018        -136.371          -56.386        -77.3424         -56.3569        -77.5724      -0.00843316         149.184
0.53                    -0.33354        -136.887         -56.1991        -79.1868         -56.1705        -79.4149      -0.00851797         149.116
0.531                  -0.346537        -137.406         -56.0122        -81.0369         -55.9842        -81.2627      -0.00860443         149.048
0.532                   -0.36001        -137.927         -55.8255        -82.8929         -55.7981         -83.116      -0.00869254          148.98
0.533                  -0.373959         -138.45         -55.6389        -84.7548         -55.6122        -84.9748       -0.0087823         148.912
0.534                  -0.388385        -138.975         -55.4525        -86.6226         -55.4266        -86.8391      -0.00887371         148.843
0.535                  -0.403287        -139.503         -55.2664        -88.4964         -55.2412        -88.7091      -0.00896677         148.775
0.536                  -0.418666        -140.032         -55.0805        -90.3762         -55.0562        -90.5847      -0.00906148         148.707
0.537                   -0.43452        -140.563          -54.895         -92.262         -54.8715        -92.4661      -0.00915785         148.638
0.538                  -0.450849        -141.096         -54.7098        -94.1539         -54.6872        -94.3532      -0.00925587         148.569
0.539                  -0.467652        -141.631          -54.525        -96.0519         -54.5033        -96.2461      -0.00935554           148.5
0.54                   -0.484928        -142.168         -54.3407         -97.956         -54.3199        -98.1448      -0.00945688         148.432
0.541                  -0.502675        -142.706         -54.1569        -99.8661         -54.1371        -100.049      -0.00955987         148.363
0.542                  -0.520892        -143.247         -53.9736        -101.782         -53.9547         -101.96      -0.00966453         148.293
0.543                  -0.539577        -143.788         -53.7909        -103.704          -53.773        -103.876      -0.00977085         148.224
0.544                  -0.558728        -144.332         -53.6088        -105.632         -53.5919        -105.797      -0.00987884         148.155
0.545                  -0.578343        -144.877         -53.4274        -107.566         -53.4114        -107.725       -0.0099885         148.085
0.546                   -0.59842        -145.424         -53.2466        -109.506         -53.2316        -109.658       -0.0100998         148.016
0.547                  -0.618956        -145.972         -53.0666        -111.452         -53.0525        -111.597       -0.0102128         147.946
0.548                   -0.63995        -146.522         -52.8873        -113.403         -52.8742        -113.542       -0.0103275         147.877
0.549                  -0.661398        -147.074         -52.7088         -115.36         -52.6966        -115.491       -0.0104439         147.807
0.55                   -0.683298        -147.627         -52.5312        -117.323         -52.5199        -117.447       -0.0105619         147.737
0.551                  -0.705648        -148.181         -52.3544        -119.291          -52.344        -119.407       -0.0106817         147.667
0.552                  -0.728444        -148.737         -52.1785        -121.264          -52.169        -121.373       -0.0108031         147.596
0.553                  -0.751684        -149.294         -52.0035        -123.242         -51.9949        -123.344       -0.0109263         147.526
0.554                  -0.775365        -149.853         -51.8295        -125.225         -51.8217         -125.32       -0.0110511         147.456
0.555                  -0.799484        -150.413         -51.6565        -127.213         -51.6495        -127.301       -0.0111776         147.385
0.556                  -0.824039        -150.975         -51.4845        -129.206         -51.4782        -129.287       -0.0113059         147.314
0.557                  -0.849026        -151.538         -51.3135        -131.204         -51.3079        -131.277       -0.0114359         147.244
0.558                  -0.874443        -152.102         -51.1435        -133.206         -51.1387        -133.271       -0.0115675         147.173
0.559                  -0.900286        -152.668         -50.9746        -135.212         -50.9705         -135.27        -0.011701         147.102
0.56                   -0.926554        -153.235         -50.8069        -137.222         -50.8033        -137.273       -0.0118361          147.03
0.561                  -0.953243        -153.803         -50.6402        -139.235         -50.6373         -139.28        -0.011973         146.959
0.562                  -0.980351        -154.373         -50.4747        -141.253         -50.4723         -141.29       -0.0121117         146.888
0.563                   -1.00788        -154.944         -50.3103        -143.274         -50.3084        -143.305       -0.0122521         146.816
0.564                   -1.03581        -155.517          -50.147        -145.298         -50.1456        -145.322       -0.0123942         146.745
0.565                   -1.06416        -156.091         -49.9849        -147.325         -49.9839        -147.343       -0.0125381         146.673
0.566                   -1.09292        -156.667          -49.824        -149.355         -49.8234        -149.366       -0.0126838         146.601
0.567                   -1.12209        -157.244         -49.6643        -151.387          -49.664        -151.393       -0.0128313         146.529
0.568                   -1.15166        -157.822         -49.5057        -153.422         -49.5058        -153.422       -0.0129806         146.456
0.569                   -1.18164        -158.403         -49.3483        -155.459         -49.3486        -155.453       -0.0131317         146.384
0.57                    -1.21202        -158.984         -49.1921        -157.498         -49.1927        -157.487       -0.0132846         146.312
0.571                    -1.2428        -159.567          -49.037        -159.539         -49.0378        -159.522       -0.0134394         146.239
0.572                   -1.27398        -160.152         -48.8831        -161.581         -48.8841         -161.56       -0.0135959         146.166
0.573                   -1.30556        -160.738         -48.7304        -163.625         -48.7316        -163.599       -0.0137543         146.093
0.574                   -1.33754        -161.326         -48.5789        -165.669         -48.5801        -165.639       -0.0139146          146.02
0.575                   -1.36992        -161.916         -48.4285        -167.715         -48.4298         -167.68       -0.0140767         145.947
0.576                    -1.4027        -162.507         -48.2792        -169.761         -48.2806        -169.723       -0.0142408         145.874
0.577                   -1.43587          -163.1          -48.131        -171.807         -48.1324        -171.766       -0.0144067           145.8
0.578                   -1.46945        -163.695          -47.984        -173.854         -47.9854         -173.81       -0.0145745         145.727
0.579                   -1.50343        -164.292          -47.838        -175.902         -47.8394        -175.854       -0.0147443         145.653
0.58                     -1.5378        -164.891         -47.6931        -177.949         -47.6945        -177.898        -0.014916         145.579
0.581                   -1.57259        -165.491         -47.5493        -179.996         -47.5505        -179.943       -0.0150897         145.505
0.582                   -1.60777        -166.094         -47.4064         177.958         -47.4076         178.013       -0.0152653         145.431
0.583                   -1.64337        -166.698         -47.2646         175.912         -47.2657         175.969        -0.015443         145.356
0.584                   -1.67938        -167.305         -47.1238         173.867         -47.1248         173.925       -0.0156226         145.282
0.585                    -1.7158        -167.914         -46.9839         171.822         -46.9848         171.881       -0.0158043         145.207
0.586                   -1.75264        -168.525         -46.8449         169.779         -46.8457         169.839       -0.0159881         145.132
0.587                    -1.7899        -169.138         -46.7069         167.736         -46.7075         167.797       -0.0161739         145.057
0.588                   -1.82759        -169.754         -46.5697         165.695         -46.5702         165.756       -0.0163618         144.982
0.589                   -1.86571        -170.372         -46.4334         163.654         -46.4337         163.716       -0.0165519         144.906
0.59                    -1.90427        -170.993         -46.2979         161.615         -46.2981         161.677       -0.0167441         144.831
0.591                   -1.94328        -171.616         -46.1632         159.578         -46.1632         159.639       -0.0169385         144.755
0.592                   -1.98274        -172.242         -46.0292         157.542         -46.0291         157.602       -0.0171352         144.679
0.593                   -2.02266         -172.87          -45.896         155.507         -45.8958         155.567        -0.017334         144.603
0.594                   -2.06305        -173.501         -45.7635         153.474         -45.7631         153.532       -0.0175352         144.526
0.595                   -2.10391        -174.135         -45.6316         151.442         -45.6311           151.5       -0.0177386          144.45
0.596                   -2.14526        -174.772         -45.5004         149.412         -45.4998         149.468       -0.0179444         144.373
0.597                   -2.18711        -175.412         -45.3698         147.384         -45.3691         147.438       -0.0181526         144.297
0.598                   -2.22947        -176.055         -45.2398         145.357          -45.239          145.41       -0.0183632         144.219
0.599                   -2.27234        -176.701         -45.1103         143.332         -45.1094         143.383       -0.0185763         144.142
0.6                     -2.31575         -177.35         -44.9814         141.308         -44.9804         141.357       -0.0187919         144.065
0.601                   -2.35971        -178.003          -44.853         139.286         -44.8519         139.333       -0.0190101         143.987
0.602                   -2.40423        -178.659          -44.725         137.265         -44.7239          137.31       -0.0192309         143.909
0.603                   -2.44932        -179.318         -44.5975         135.246         -44.5963         135.289       -0.0194543         143.831
0.604                   -2.49501        -179.981         -44.4704         133.228         -44.4692         133.268       -0.0196805         143.753
0.605                    -2.5413         179.352         -44.3437         131.211         -44.3424         131.249       -0.0199094         143.675
0.606                   -2.58823         178.682         -44.2174         129.196         -44.2161         129.232       -0.0201412         143.596
0.607                    -2.6358         178.008         -44.0914         127.182         -44.0901         127.215        -0.020376         143.517
0.608                   -2.68404          177.33         -43.9657         125.169         -43.9644         125.199       -0.0206136         143.438
0.609                   -2.73297         176.648         -43.8404         123.157         -43.8391         123.185       -0.0208544         143.359
0.61                     -2.7826         175.962         -43.7153         121.146         -43.7141         121.171       -0.0210983         143.279
0.611                   -2.83298         175.272         -43.5905         119.135         -43.5893         119.158       -0.0213454           143.2
0.612                   -2.88412         174.577         -43.4659         117.125         -43.4648         117.146       -0.0215958          143.12
0.613                   -2.93604         173.879         -43.3415         115.116         -43.3405         115.134       -0.0218496          143.04
0.614                   -2.98878         173.176         -43.2174         113.108         -43.2165         113.123       -0.0221069         142.959
0.615                   -3.04236         172.468         -43.0935         111.099         -43.0926         111.113       -0.0223678         142.878
0.616                   -3.09681         171.756         -42.9697         109.091          -42.969         109.102       -0.0226325         142.798
0.617                   -3.15217         171.039         -42.8461         107.083         -42.8455         107.092       -0.0229009         142.716
0.618                   -3.20848         170.318         -42.7227         105.075         -42.7222         105.081       -0.0231733         142.635
0.619                   -3.26575         169.592         -42.5994         103.066         -42.5991         103.071       -0.0234497         142.553
0.62                    -3.32404         168.861         -42.4763         101.058         -42.4761          101.06       -0.0237304         142.472
0.621                   -3.38337         168.126         -42.3533         99.0487         -42.3533          99.049       -0.0240154         142.389
0.622                    -3.4438         167.385         -42.2305         97.0389         -42.2306         97.0374       -0.0243049         142.307
0.623                   -3.50535          166.64         -42.1078         95.0285          -42.108         95.0252        -0.024599         142.224
0.624                   -3.56808         165.889         -41.9851         93.0171         -41.9856         93.0122       -0.0248979         142.141
0.625                   -3.63203         165.134         -41.8627         91.0047         -41.8632         90.9983       -0.0252018         142.058
0.626                   -3.69724         164.373         -41.7403         88.9912         -41.7411         88.9833       -0.0255108         141.975
0.627                   -3.76377         163.607         -41.6181         86.9764          -41.619         86.9672       -0.0258251         141.891
0.628                   -3.83167         162.837          -41.496         84.9602         -41.4971         84.9498        -0.026145         141.807
0.629                   -3.90099         162.061          -41.374         82.9424         -41.3753         82.9309       -0.0264705         141.723
