! TOUCHSTONE file generated by CST MICROWAVE STUDIO
! Date and time: Fri Oct  2 16:55:33 2020
! Project name: Scenario_1_Free_Space_out_of_line.cst
! Parameters = {Lambda=346.42; Step_1=17.321; dy1=156.889; dx1=693; L_HA=400; MT=2.54; Rad_Dielectric=30; Rad_Lower=7.3; Rad_Upper=30; a_HA=580; a_WG=246; b_HA=500; b_WG=121; c_HA=0; c_WG=187; d_feed=85; h_feed=15; h_lower=18; h_upper=40}
! Header version: 2018
! Port assignment regex: !\s*Touchstone port\s*([0-9]+)\s*=\s*(CST MWS port|CST DS port)\s*([0-9]+|Zmin|Zmax)\s*\(\"(.*)\"\)(\s*mode\s*([0-9]+))?.*
! Touchstone port assignment:
! Touchstone port 1 = CST MWS port 1 ("")
! Touchstone port 2 = CST MWS port 2 ("")
# GHz S DB R 50
0.5                    -0.147023        -122.639         -63.2937        -121.076         -63.0039        -121.505      -0.00664939         151.153
0.501                  -0.152098        -123.083         -63.1582        -123.585         -62.9751        -124.442      -0.00668782         151.087
0.502                  -0.157392        -123.529         -63.0173        -126.079         -62.9309        -127.391      -0.00672777         151.022
0.503                  -0.162907        -123.977         -62.8711        -128.557         -62.8714        -130.343      -0.00676925         150.957
0.504                  -0.168646        -124.427         -62.7199        -131.018         -62.7968        -133.289      -0.00681226         150.892
0.505                   -0.17461        -124.879         -62.5641        -133.461         -62.7075        -136.222       -0.0068568         150.826
0.506                  -0.180803        -125.333         -62.4039        -135.885         -62.6042        -139.134      -0.00690287         150.761
0.507                  -0.187226        -125.788         -62.2396        -138.291         -62.4873        -142.019      -0.00695046         150.695
0.508                  -0.193883        -126.246         -62.0714        -140.677         -62.3578        -144.871      -0.00699959         150.629
0.509                  -0.200774        -126.705         -61.8997        -143.043         -62.2164        -147.684      -0.00705026         150.564
0.51                   -0.207903        -127.167         -61.7247         -145.39         -62.0641        -150.455      -0.00710245         150.498
0.511                  -0.215271         -127.63         -61.5467        -147.717         -61.9017         -153.18      -0.00715618         150.432
0.512                  -0.222882        -128.095         -61.3659        -150.024         -61.7302        -155.857      -0.00721145         150.366
0.513                  -0.230738        -128.562         -61.1825        -152.312         -61.5506        -158.483      -0.00726826           150.3
0.514                   -0.23884        -129.031         -60.9969        -154.581         -61.3638        -161.057       -0.0073266         150.233
0.515                  -0.247192        -129.502         -60.8091        -156.832         -61.1706         -163.58      -0.00738649         150.167
0.516                  -0.255795        -129.975         -60.6195        -159.064         -60.9719        -166.051      -0.00744792         150.101
0.517                  -0.264653         -130.45         -60.4283        -161.278         -60.7684        -168.471      -0.00751089         150.034
0.518                  -0.273767        -130.927         -60.2355        -163.476          -60.561        -170.841      -0.00757541         149.968
0.519                   -0.28314        -131.406         -60.0414        -165.657         -60.3504        -173.162      -0.00764147         149.901
0.52                   -0.292774        -131.886         -59.8463        -167.823          -60.137        -175.437      -0.00770909         149.834
0.521                  -0.302672        -132.369         -59.6501        -169.973         -59.9215        -177.667      -0.00777825         149.767
0.522                  -0.312836        -132.854         -59.4531        -172.109         -59.7045        -179.853      -0.00784897         149.701
0.523                  -0.323269         -133.34         -59.2554        -174.231         -59.4863             178      -0.00792125         149.634
0.524                  -0.333972        -133.829         -59.0571        -176.341         -59.2674         175.892      -0.00799508         149.566
0.525                  -0.344949        -134.319         -58.8584        -178.438         -59.0482         173.821      -0.00807048         149.499
0.526                  -0.356202        -134.812         -58.6593         179.476         -58.8289         171.782      -0.00814743         149.432
0.527                  -0.367733        -135.306         -58.4601         177.401         -58.6098         169.775      -0.00822596         149.364
0.528                  -0.379545        -135.803         -58.2606         175.336         -58.3913         167.797      -0.00830605         149.297
0.529                   -0.39164        -136.302         -58.0612          173.28         -58.1734         165.846      -0.00838771         149.229
0.53                   -0.404021        -136.802         -57.8618         171.232         -57.9564         163.919      -0.00847094         149.162
0.531                  -0.416691        -137.305         -57.6624         169.192         -57.7405         162.015      -0.00855576         149.094
0.532                  -0.429651        -137.809         -57.4633         167.159         -57.5257         160.131      -0.00864215         149.026
0.533                  -0.442904        -138.316         -57.2644         165.132         -57.3121         158.265      -0.00873013         148.958
0.534                  -0.456454        -138.825         -57.0659         163.111            -57.1         156.416      -0.00881969          148.89
0.535                  -0.470302        -139.336         -56.8677         161.094         -56.8892         154.581      -0.00891084         148.822
0.536                  -0.484451        -139.848         -56.6699         159.082           -56.68         152.759      -0.00900359         148.753
0.537                  -0.498903        -140.363         -56.4726         157.074         -56.4722         150.949      -0.00909794         148.685
0.538                  -0.513663         -140.88         -56.2758         155.069         -56.2661         149.147      -0.00919389         148.616
0.539                  -0.528731        -141.399         -56.0795         153.066         -56.0615         147.354      -0.00929144         148.548
0.54                   -0.544111        -141.921         -55.8839         151.065         -55.8586         145.568      -0.00939061         148.479
0.541                  -0.559805        -142.444         -55.6889         149.065         -55.6573         143.786      -0.00949139          148.41
0.542                  -0.575817        -142.969         -55.4946         147.066         -55.4576         142.009      -0.00959379         148.341
0.543                  -0.592149        -143.497         -55.3009         145.067         -55.2595         140.234      -0.00969781         148.272
0.544                  -0.608804        -144.027          -55.108         143.068         -55.0631         138.461      -0.00980347         148.203
0.545                  -0.625784        -144.559         -54.9159         141.068         -54.8682         136.688      -0.00991075         148.134
0.546                  -0.643093        -145.093         -54.7246         139.067          -54.675         134.914       -0.0100197         148.064
0.547                  -0.660735        -145.629         -54.5341         137.064         -54.4833         133.139       -0.0101303         147.995
0.548                  -0.678711        -146.168         -54.3444         135.059         -54.2932         131.361       -0.0102425         147.925
0.549                  -0.697024        -146.709         -54.1556         133.052         -54.1046          129.58       -0.0103564         147.855
0.55                    -0.71568        -147.252         -53.9677         131.042         -53.9175         127.794       -0.0104719         147.786
0.551                  -0.734679        -147.797         -53.7807         129.028         -53.7319         126.004       -0.0105891         147.716
0.552                  -0.754027        -148.345         -53.5947         127.011         -53.5478         124.207        -0.010708         147.645
0.553                  -0.773725        -148.895         -53.4096          124.99         -53.3651         122.404       -0.0108286         147.575
0.554                  -0.793779        -149.447         -53.2255         122.965         -53.1839         120.593       -0.0109508         147.505
0.555                  -0.814191        -150.001         -53.0425         120.936         -53.0041         118.775       -0.0110748         147.434
0.556                  -0.834965        -150.558         -52.8604         118.902         -52.8256         116.948       -0.0112004         147.364
0.557                  -0.856106        -151.118         -52.6794         116.862         -52.6485         115.113       -0.0113278         147.293
0.558                  -0.877617         -151.68         -52.4995         114.818         -52.4728         113.268       -0.0114569         147.222
0.559                  -0.899502        -152.244         -52.3206         112.768         -52.2983         111.413       -0.0115877         147.151
0.56                   -0.921767        -152.811         -52.1429         110.713         -52.1252         109.547       -0.0117203          147.08
0.561                  -0.944415         -153.38         -51.9663         108.651         -51.9533         107.672       -0.0118546         147.009
0.562                  -0.967451        -153.952         -51.7908         106.584         -51.7827         105.785       -0.0119906         146.938
0.563                  -0.990881        -154.526         -51.6164         104.511         -51.6134         103.887       -0.0121284         146.866
0.564                   -1.01471        -155.103         -51.4433         102.432         -51.4453         101.977        -0.012268         146.795
0.565                   -1.03894        -155.683         -51.2713         100.347         -51.2784         100.055       -0.0124094         146.723
0.566                   -1.06358        -156.265         -51.1006         98.2549         -51.1126         98.1216       -0.0125525         146.651
0.567                   -1.08864         -156.85         -50.9311         96.1569         -50.9481         96.1757       -0.0126975         146.579
0.568                   -1.11412        -157.438         -50.7628         94.0524         -50.7848         94.2174       -0.0128443         146.507
0.569                   -1.14004        -158.029         -50.5957         91.9416         -50.6226         92.2466       -0.0129929         146.435
0.57                    -1.16638        -158.622           -50.43         89.8244         -50.4616         90.2633       -0.0131433         146.362
0.571                   -1.19318        -159.218         -50.2655         87.7009         -50.3017         88.2673       -0.0132956          146.29
0.572                   -1.22042        -159.818         -50.1023          85.571          -50.143         86.2587       -0.0134498         146.217
0.573                   -1.24813         -160.42         -49.9404         83.4348         -49.9854         84.2374       -0.0136058         146.144
0.574                    -1.2763        -161.025         -49.7798         81.2924         -49.8289         82.2034       -0.0137638         146.071
0.575                   -1.30496        -161.634         -49.6205         79.1439         -49.6735         80.1569       -0.0139236         145.998
0.576                   -1.33411        -162.245         -49.4626         76.9894         -49.5193          78.098       -0.0140853         145.925
0.577                   -1.36377         -162.86         -49.3059         74.8289         -49.3662         76.0266        -0.014249         145.851
0.578                   -1.39393        -163.478         -49.1507         72.6626         -49.2141         73.9431       -0.0144147         145.778
0.579                   -1.42463        -164.099         -48.9967         70.4907         -49.0632         71.8474       -0.0145823         145.704
0.58                    -1.45587        -164.724         -48.8442         68.3133         -48.9134           69.74       -0.0147518          145.63
0.581                   -1.48766        -165.352         -48.6929         66.1306         -48.7647         67.6208       -0.0149234         145.556
0.582                   -1.52003        -165.983          -48.543         63.9427         -48.6171         65.4903        -0.015097         145.482
0.583                   -1.55299        -166.618         -48.3945         61.7498         -48.4705         63.3486       -0.0152727         145.407
0.584                   -1.58656        -167.257         -48.2473         59.5522         -48.3251         61.1961       -0.0154504         145.333
0.585                   -1.62076        -167.899         -48.1014         57.3499         -48.1807          59.033       -0.0156301         145.258
0.586                   -1.65561        -168.545         -47.9569         55.1433         -48.0374         56.8597        -0.015812         145.183
0.587                   -1.69113        -169.195         -47.8137         52.9325         -47.8952         54.6764        -0.015996         145.108
0.588                   -1.72735        -169.848         -47.6717         50.7178         -47.7541         52.4837       -0.0161821         145.033
0.589                    -1.7643        -170.505         -47.5311         48.4994          -47.614         50.2817       -0.0163704         144.957
0.59                    -1.80199        -171.167         -47.3918         46.2775          -47.475          48.071       -0.0165609         144.882
0.591                   -1.84047        -171.832         -47.2538         44.0524          -47.337         45.8519       -0.0167536         144.806
0.592                   -1.87977        -172.501          -47.117         41.8243         -47.2001         43.6248       -0.0169486          144.73
0.593                   -1.91991        -173.174         -46.9814         39.5934         -47.0642         41.3902       -0.0171458         144.654
0.594                   -1.96093        -173.851         -46.8471           37.36         -46.9293         39.1485       -0.0173453         144.578
0.595                   -2.00287        -174.531         -46.7139         35.1243         -46.7954         36.9001       -0.0175472         144.502
0.596                   -2.04577        -175.216          -46.582         32.8865         -46.6626         34.6454       -0.0177514         144.425
0.597                   -2.08968        -175.904         -46.4511         30.6469         -46.5307          32.385        -0.017958         144.348
0.598                   -2.13462        -176.597         -46.3214         28.4058         -46.3998         30.1192        -0.018167         144.271
0.599                   -2.18065        -177.292         -46.1928         26.1633         -46.2698         27.8485       -0.0183785         144.194
0.6                      -2.2278        -177.992         -46.0653         23.9196         -46.1408         25.5733       -0.0185925         144.117
0.601                   -2.27614        -178.694         -45.9388         21.6751         -46.0127         23.2941        -0.018809         144.039
0.602                   -2.32569          -179.4         -45.8133         19.4298         -45.8855         21.0114       -0.0190282         143.961
0.603                    -2.3765         179.891         -45.6888          17.184         -45.7592         18.7255       -0.0192499         143.883
0.604                   -2.42861          179.18         -45.5652          14.938         -45.6337         16.4369       -0.0194743         143.805
0.605                   -2.48207         178.466         -45.4426         12.6918         -45.5091          14.146       -0.0197014         143.727
0.606                   -2.53692          177.75         -45.3208         10.4457         -45.3853         11.8532       -0.0199313         143.648
0.607                   -2.59317         177.033         -45.1998         8.19979         -45.2622         9.55895        -0.020164         143.569
0.608                   -2.65087         176.314         -45.0797         5.95432         -45.1399         7.26358       -0.0203995          143.49
0.609                   -2.71003         175.595         -44.9603         3.70942         -45.0184         4.96748        -0.020638         143.411
0.61                    -2.77067         174.875         -44.8417         1.46522         -44.8976         2.67101       -0.0208794         143.332
0.611                   -2.83279         174.156         -44.7237       -0.778139         -44.7774        0.374516       -0.0211239         143.252
0.612                   -2.89639         173.437         -44.6064        -3.02054         -44.6579        -1.92168       -0.0213715         143.172
0.613                   -2.96144          172.72         -44.4898        -5.26186          -44.539        -4.21726       -0.0216222         143.092
0.614                   -3.02794         172.004         -44.3737          -7.502         -44.4207        -6.51193       -0.0218762         143.012
0.615                   -3.09583         171.291         -44.2582        -9.74087         -44.3029        -8.80542       -0.0221334         142.931
0.616                   -3.16508          170.58         -44.1432        -11.9784         -44.1857        -11.0975        -0.022394          142.85
0.617                   -3.23563         169.872         -44.0286        -14.2145          -44.069        -13.3878       -0.0226581         142.769
0.618                    -3.3074         169.168         -43.9145        -16.4491         -43.9527        -15.6763       -0.0229257         142.688
0.619                   -3.38033         168.467         -43.8008        -18.6822         -43.8369        -17.9627        -0.023197         142.606
0.62                    -3.45432         167.771         -43.6875        -20.9138         -43.7215        -20.2468       -0.0234719         142.525
0.621                   -3.52931         167.078         -43.5745        -23.1437         -43.6065        -22.5284       -0.0237506         142.442
0.622                   -3.60519          166.39         -43.4618        -25.3721         -43.4918        -24.8075       -0.0240333          142.36
0.623                   -3.68187         165.706         -43.3494        -27.5988         -43.3774        -27.0838       -0.0243199         142.278
0.624                   -3.75929         165.026         -43.2373        -29.8239         -43.2634        -29.3573       -0.0246107         142.195
0.625                   -3.83734         164.349         -43.1253        -32.0475         -43.1496         -31.628       -0.0249056         142.112
0.626                   -3.91597         163.676         -43.0135        -34.2694          -43.036        -33.8956       -0.0252049         142.028
0.627                    -3.9951         163.005         -42.9019        -36.4899         -42.9227        -36.1603       -0.0255086         141.945
0.628                   -4.07468         162.337         -42.7904        -38.7088         -42.8095        -38.4219       -0.0258169         141.861
0.629                   -4.15468         161.671          -42.679        -40.9263         -42.6965        -40.6804         -0.02613         141.777
