! TOUCHSTONE file generated by CST MICROWAVE STUDIO
! Date and time: Fri Oct  2 18:56:10 2020
! Project name: Scenario_1_Free_Space_out_of_line.cst
! Parameters = {Lambda=346.42; Step_1=17.321; dy1=156.889; dx1=1039; L_HA=400; MT=2.54; Rad_Dielectric=30; Rad_Lower=7.3; Rad_Upper=30; a_HA=580; a_WG=246; b_HA=500; b_WG=121; c_HA=0; c_WG=187; d_feed=85; h_feed=15; h_lower=18; h_upper=40}
! Header version: 2018
! Port assignment regex: !\s*Touchstone port\s*([0-9]+)\s*=\s*(CST MWS port|CST DS port)\s*([0-9]+|Zmin|Zmax)\s*\(\"(.*)\"\)(\s*mode\s*([0-9]+))?.*
! Touchstone port assignment:
! Touchstone port 1 = CST MWS port 1 ("")
! Touchstone port 2 = CST MWS port 2 ("")
# GHz S DB R 50
0.5                    -0.148071        -122.519         -64.3279         43.6493         -64.3279         43.6493      -0.00671276         151.128
0.501                  -0.154258        -122.956         -64.1226         41.3214          -64.123         41.2811      -0.00676857         151.063
0.502                  -0.160592        -123.396          -63.917         38.9815         -63.9179         38.9035      -0.00682493         150.998
0.503                  -0.167075        -123.838         -63.7113         36.6295         -63.7127         36.5164      -0.00688189         150.932
0.504                   -0.17371        -124.282         -63.5055         34.2655         -63.5075         34.1199      -0.00693945         150.867
0.505                  -0.180499        -124.727         -63.2997         31.8897         -63.3024          31.714      -0.00699764         150.801
0.506                  -0.187445        -125.175         -63.0939         29.5021         -63.0974         29.2988      -0.00705648         150.736
0.507                  -0.194552        -125.624         -62.8883         27.1029         -62.8927         26.8745      -0.00711599          150.67
0.508                  -0.201822        -126.076         -62.6829         24.6921         -62.6883          24.441       -0.0071762         150.604
0.509                  -0.209259        -126.529         -62.4779         22.2699         -62.4842         21.9986      -0.00723712         150.538
0.51                   -0.216864        -126.985         -62.2733         19.8365         -62.2806         19.5473      -0.00729879         150.472
0.511                  -0.224643        -127.443         -62.0691         17.3922         -62.0775         17.0872      -0.00736121         150.406
0.512                  -0.232598        -127.902         -61.8655          14.937          -61.875         14.6186      -0.00742442          150.34
0.513                  -0.240733        -128.364         -61.6626         12.4713         -61.6731         12.1417      -0.00748844         150.274
0.514                  -0.249051        -128.828         -61.4603         9.99526          -61.472         9.65646      -0.00755329         150.208
0.515                  -0.257556        -129.294         -61.2589         7.50919         -61.2716         7.16327        -0.007619         150.141
0.516                  -0.266251        -129.762         -61.0582         5.01339          -61.072         4.66229      -0.00768558         150.075
0.517                  -0.275141        -130.233         -60.8585         2.50814         -60.8734         2.15374      -0.00775306         150.008
0.518                   -0.28423        -130.705         -60.6597     -0.00621831         -60.6756       -0.362126      -0.00782146         149.942
0.519                  -0.293522         -131.18         -60.4619        -2.52935         -60.4788        -2.88507      -0.00789082         149.875
0.52                   -0.303021        -131.657         -60.2652        -5.06092         -60.2831        -5.41482      -0.00796114         149.808
0.521                  -0.312731        -132.137         -60.0696        -7.60054         -60.0884        -7.95112      -0.00803246         149.741
0.522                  -0.322658        -132.618         -59.8752        -10.1478         -59.8947        -10.4937      -0.00810481         149.674
0.523                  -0.332805        -133.102          -59.682        -12.7025         -59.7022        -13.0422       -0.0081782         149.607
0.524                  -0.343177        -133.588           -59.49         -15.264         -59.5109        -15.5965      -0.00825265          149.54
0.525                  -0.353781        -134.077         -59.2992         -17.832         -59.3207        -18.1562       -0.0083282         149.472
0.526                  -0.364619        -134.568         -59.1097        -20.4062         -59.1317         -20.721      -0.00840488         149.405
0.527                  -0.375699        -135.061         -58.9215        -22.9861         -58.9439        -23.2906      -0.00848269         149.337
0.528                  -0.387024        -135.557         -58.7347        -25.5713         -58.7573        -25.8647      -0.00856168          149.27
0.529                  -0.398602        -136.055         -58.5491        -28.1615         -58.5719        -28.4432      -0.00864186         149.202
0.53                   -0.410437        -136.555         -58.3649        -30.7562         -58.3878        -31.0255      -0.00872325         149.134
0.531                  -0.422535        -137.058         -58.1821         -33.355         -58.2049        -33.6116       -0.0088059         149.067
0.532                  -0.434902        -137.564         -58.0005        -35.9577         -58.0233        -36.2011      -0.00888981         148.999
0.533                  -0.447545        -138.072         -57.8203        -38.5638         -57.8428        -38.7938      -0.00897503          148.93
0.534                   -0.46047        -138.582         -57.6414        -41.1729         -57.6636        -41.3894      -0.00906156         148.862
0.535                  -0.473683        -139.095         -57.4637        -43.7849         -57.4855        -43.9876      -0.00914945         148.794
0.536                  -0.487191         -139.61         -57.2874        -46.3993         -57.3087        -46.5884       -0.0092387         148.726
0.537                  -0.501002        -140.128         -57.1123        -49.0158          -57.133        -49.1913      -0.00932936         148.657
0.538                  -0.515121        -140.649         -56.9385        -51.6342         -56.9585        -51.7963      -0.00942145         148.589
0.539                  -0.529557        -141.172         -56.7658        -54.2543          -56.785        -54.4032      -0.00951498          148.52
0.54                   -0.544316        -141.698         -56.5944        -56.8757         -56.6127        -57.0118         -0.00961         148.451
0.541                  -0.559406        -142.226          -56.424        -59.4983         -56.4415        -59.6219      -0.00970652         148.382
0.542                  -0.574835        -142.757         -56.2548        -62.1219         -56.2714        -62.2335      -0.00980457         148.313
0.543                  -0.590612         -143.29         -56.0867        -64.7464         -56.1022        -64.8463      -0.00990418         148.244
0.544                  -0.606743        -143.826         -55.9196        -67.3715         -55.9341        -67.4603       -0.0100054         148.175
0.545                  -0.623237        -144.365         -55.7535        -69.9972         -55.7669        -70.0755       -0.0101082         148.105
0.546                  -0.640103        -144.906         -55.5884        -72.6233         -55.6007        -72.6917       -0.0102126         148.036
0.547                  -0.657349         -145.45         -55.4243        -75.2498         -55.4354        -75.3089       -0.0103187         147.966
0.548                  -0.674983        -145.997          -55.261        -77.8767          -55.271        -77.9271       -0.0104265         147.897
0.549                  -0.693016        -146.546         -55.0986        -80.5039         -55.1074        -80.5462        -0.010536         147.827
0.55                   -0.711454        -147.098          -54.937        -83.1314         -54.9447        -83.1663       -0.0106472         147.757
0.551                  -0.730309        -147.652         -54.7763        -85.7592         -54.7828        -85.7873       -0.0107601         147.687
0.552                  -0.749587         -148.21         -54.6163        -88.3873         -54.6217        -88.4092       -0.0108749         147.617
0.553                    -0.7693        -148.769         -54.4571        -91.0157         -54.4613        -91.0322       -0.0109915         147.546
0.554                  -0.789456        -149.332         -54.2985        -93.6446         -54.3017        -93.6562       -0.0111099         147.476
0.555                  -0.810065        -149.897         -54.1407         -96.274         -54.1428        -96.2814       -0.0112301         147.406
0.556                  -0.831135        -150.464         -53.9835         -98.904         -53.9846        -98.9076       -0.0113522         147.335
0.557                  -0.852676        -151.034          -53.827        -101.535         -53.8271        -101.535       -0.0114763         147.264
0.558                  -0.874698        -151.607         -53.6711        -104.166         -53.6703        -104.164       -0.0116022         147.193
0.559                   -0.89721        -152.182         -53.5158        -106.798         -53.5141        -106.794       -0.0117301         147.122
0.56                   -0.920221         -152.76         -53.3611        -109.431         -53.3586        -109.426       -0.0118599         147.051
0.561                   -0.94374         -153.34         -53.2069        -112.066         -53.2038        -112.059       -0.0119917          146.98
0.562                  -0.967776        -153.922         -53.0534        -114.701         -53.0496        -114.693       -0.0121255         146.908
0.563                  -0.992337        -154.507         -52.9004        -117.338          -52.896         -117.33       -0.0122613         146.837
0.564                   -1.01743        -155.095          -52.748        -119.976          -52.743        -119.968       -0.0123991         146.765
0.565                   -1.04307        -155.685         -52.5962        -122.616         -52.5907        -122.608       -0.0125389         146.694
0.566                   -1.06926        -156.277          -52.445        -125.257         -52.4391        -125.249       -0.0126808         146.622
0.567                   -1.09601        -156.871         -52.2943          -127.9          -52.288        -127.893       -0.0128247          146.55
0.568                   -1.12332        -157.467         -52.1442        -130.545         -52.1376        -130.539       -0.0129707         146.477
0.569                    -1.1512        -158.066         -51.9947        -133.191         -51.9879        -133.186       -0.0131188         146.405
0.57                    -1.17966        -158.667         -51.8458         -135.84         -51.8388        -135.836       -0.0132689         146.333
0.571                   -1.20871         -159.27         -51.6975         -138.49         -51.6904        -138.488       -0.0134211          146.26
0.572                   -1.23834        -159.874         -51.5499        -141.143         -51.5427        -141.142       -0.0135753         146.187
0.573                   -1.26856        -160.481         -51.4028        -143.797         -51.3956        -143.797       -0.0137317         146.114
0.574                   -1.29939         -161.09         -51.2565        -146.454         -51.2493        -146.455       -0.0138901         146.041
0.575                   -1.33081          -161.7         -51.1108        -149.112         -51.1037        -149.115       -0.0140505         145.968
0.576                   -1.36283        -162.313         -50.9658        -151.773         -50.9588        -151.777        -0.014213         145.895
0.577                   -1.39546        -162.927         -50.8215        -154.435         -50.8146         -154.44       -0.0143775         145.822
0.578                   -1.42868        -163.542         -50.6779        -157.099         -50.6712        -157.106       -0.0145441         145.748
0.579                   -1.46251         -164.16          -50.535        -159.765         -50.5286        -159.773       -0.0147126         145.674
0.58                    -1.49695        -164.779         -50.3929        -162.433         -50.3868        -162.441       -0.0148831           145.6
0.581                   -1.53197        -165.399         -50.2516        -165.102         -50.2457        -165.112       -0.0150556         145.526
0.582                    -1.5676        -166.021          -50.111        -167.773         -50.1054        -167.783         -0.01523         145.452
0.583                   -1.60381        -166.644         -49.9713        -170.445          -49.966        -170.456       -0.0154063         145.378
0.584                   -1.64062        -167.269         -49.8323        -173.119         -49.8273        -173.129       -0.0155845         145.303
0.585                     -1.678        -167.895         -49.6941        -175.793         -49.6895        -175.804       -0.0157646         145.229
0.586                   -1.71595        -168.523         -49.5568        -178.468         -49.5524        -178.479       -0.0159464         145.154
0.587                   -1.75447        -169.152         -49.4203         178.856         -49.4162         178.845         -0.01613         145.079
0.588                   -1.79354        -169.782         -49.2846          176.18         -49.2808         176.169       -0.0163154         145.004
0.589                   -1.83317        -170.414         -49.1497         173.503         -49.1463         173.492       -0.0165025         144.928
0.59                    -1.87333        -171.047         -49.0156         170.827         -49.0125         170.816       -0.0166913         144.853
0.591                   -1.91402        -171.681         -48.8823          168.15         -48.8795          168.14       -0.0168818         144.777
0.592                   -1.95524        -172.317         -48.7499         165.474         -48.7473         165.464       -0.0170739         144.701
0.593                   -1.99696        -172.954         -48.6182         162.798         -48.6159         162.789       -0.0172676         144.625
0.594                   -2.03919        -173.593         -48.4873         160.123         -48.4852         160.115        -0.017463         144.549
0.595                   -2.08191        -174.234         -48.3571         157.449         -48.3553         157.441         -0.01766         144.473
0.596                   -2.12511        -174.876         -48.2277         154.776         -48.2261         154.769       -0.0178587         144.396
0.597                    -2.1688         -175.52          -48.099         152.104         -48.0976         152.098        -0.018059          144.32
0.598                   -2.21295        -176.166          -47.971         149.434         -47.9698         149.429       -0.0182609         144.243
0.599                   -2.25758        -176.815         -47.8436         146.765         -47.8426         146.761       -0.0184646         144.165
0.6                     -2.30267        -177.465         -47.7169         144.098          -47.716         144.094       -0.0186701         144.088
0.601                   -2.34823        -178.119         -47.5907         141.433           -47.59          141.43       -0.0188775         144.011
0.602                   -2.39426        -178.774         -47.4652          138.77         -47.4645         138.767       -0.0190868         143.933
0.603                   -2.44076        -179.433         -47.3401         136.109         -47.3396         136.106       -0.0192982         143.855
0.604                   -2.48775         179.905         -47.2156         133.449         -47.2151         133.448       -0.0195118         143.777
0.605                   -2.53522          179.24         -47.0915         130.792         -47.0911         130.791       -0.0197277         143.699
0.606                    -2.5832         178.572         -46.9679         128.137         -46.9675         128.137       -0.0199462          143.62
0.607                   -2.63171           177.9         -46.8446         125.484         -46.8443         125.484       -0.0201673         143.541
0.608                   -2.68076         177.224         -46.7217         122.833         -46.7215         122.834       -0.0203914         143.462
0.609                   -2.73038         176.543         -46.5991         120.185         -46.5989         120.185       -0.0206185         143.383
0.61                    -2.78061         175.859         -46.4768         117.538         -46.4766         117.539       -0.0208489         143.303
0.611                   -2.83146         175.169         -46.3548         114.893         -46.3546         114.895        -0.021083         143.224
0.612                   -2.88299         174.475         -46.2329         112.251         -46.2327         112.252       -0.0213208         143.144
0.613                   -2.93523         173.776         -46.1112         109.609         -46.1111         109.611       -0.0215627         143.064
0.614                   -2.98823         173.071         -45.9897          106.97         -45.9896         106.971       -0.0218088         142.983
0.615                   -3.04203         172.361         -45.8683         104.332         -45.8682         104.333       -0.0220596         142.903
0.616                    -3.0967         171.646          -45.747         101.695         -45.7469         101.696       -0.0223151         142.822
0.617                    -3.1523         170.924         -45.6257         99.0594         -45.6256         99.0607       -0.0225758         142.741
0.618                   -3.20887         170.197         -45.5045         96.4246         -45.5044         96.4258       -0.0228417         142.659
0.619                    -3.2665         169.463         -45.3834         93.7904         -45.3833         93.7915       -0.0231131         142.578
0.62                    -3.32524         168.724         -45.2622         91.1568         -45.2621         91.1577       -0.0233902         142.496
0.621                   -3.38517         167.978         -45.1411         88.5233          -45.141         88.5241       -0.0236733         142.414
0.622                   -3.44637         167.226         -45.0199         85.8899         -45.0198         85.8905       -0.0239625         142.331
0.623                   -3.50892         166.467         -44.8987         83.2562         -44.8986         83.2566        -0.024258         142.249
0.624                   -3.57289         165.702         -44.7775          80.622         -44.7774         80.6222       -0.0245599         142.166
0.625                   -3.63838         164.931         -44.6562         77.9871         -44.6562         77.9871       -0.0248684         142.083
0.626                   -3.70545         164.154          -44.535         75.3511          -44.535          75.351       -0.0251836         141.999
0.627                   -3.77421         163.371         -44.4137          72.714         -44.4137         72.7138       -0.0255056         141.916
0.628                   -3.84474         162.583         -44.2924         70.0754         -44.2925          70.075       -0.0258345         141.832
0.629                   -3.91713         161.788         -44.1712          67.435         -44.1712         67.4346       -0.0261703         141.748
