! TOUCHSTONE file generated by CST MICROWAVE STUDIO
! Date and time: Fri Oct  2 18:52:40 2020
! Project name: Scenario_1_Free_Space_out_of_line.cst
! Parameters = {Lambda=346.42; Step_1=17.321; dy1=139.548; dx1=173; L_HA=400; MT=2.54; Rad_Dielectric=30; Rad_Lower=7.3; Rad_Upper=30; a_HA=580; a_WG=246; b_HA=500; b_WG=121; c_HA=0; c_WG=187; d_feed=85; h_feed=15; h_lower=18; h_upper=40}
! Header version: 2018
! Port assignment regex: !\s*Touchstone port\s*([0-9]+)\s*=\s*(CST MWS port|CST DS port)\s*([0-9]+|Zmin|Zmax)\s*\(\"(.*)\"\)(\s*mode\s*([0-9]+))?.*
! Touchstone port assignment:
! Touchstone port 1 = CST MWS port 1 ("")
! Touchstone port 2 = CST MWS port 2 ("")
# GHz S DB R 50
0.5                    -0.152597        -122.648         -57.9424         156.774         -57.9424         156.774      -0.00647683         151.134
0.501                  -0.158804         -123.09         -57.7629         155.106          -57.763         155.107      -0.00650488         151.068
0.502                   -0.16515        -123.534         -57.5831         153.458         -57.5833         153.459       -0.0065339         151.003
0.503                  -0.171636         -123.98         -57.4029         151.828         -57.4033         151.829      -0.00656389         150.937
0.504                  -0.178264        -124.428         -57.2227         150.215         -57.2231         150.217      -0.00659489         150.872
0.505                  -0.185037        -124.877         -57.0423         148.619         -57.0428         148.621      -0.00662689         150.806
0.506                  -0.191957        -125.328         -56.8619         147.038         -56.8626          147.04      -0.00665993          150.74
0.507                  -0.199025        -125.781         -56.6816         145.473         -56.6824         145.475      -0.00669401         150.675
0.508                  -0.206245        -126.236         -56.5015         143.921         -56.5023         143.924      -0.00672916         150.609
0.509                  -0.213619        -126.693         -56.3216         142.383         -56.3224         142.386       -0.0067654         150.543
0.51                    -0.22115        -127.152         -56.1419         140.858         -56.1428         140.861      -0.00680274         150.477
0.511                  -0.228841        -127.612         -55.9625         139.345         -55.9635         139.348      -0.00684119          150.41
0.512                  -0.236693        -128.075         -55.7835         137.844         -55.7845         137.846      -0.00688079         150.344
0.513                  -0.244711         -128.54         -55.6048         136.353         -55.6059         136.355      -0.00692155         150.278
0.514                  -0.252898        -129.007         -55.4265         134.872         -55.4276         134.874      -0.00696348         150.211
0.515                  -0.261257        -129.475         -55.2487           133.4         -55.2499         133.403      -0.00700662         150.145
0.516                  -0.269791        -129.946         -55.0714         131.937         -55.0726          131.94      -0.00705097         150.078
0.517                  -0.278504        -130.419         -54.8945         130.482         -54.8957         130.485      -0.00709656         150.012
0.518                    -0.2874        -130.895         -54.7182         129.035         -54.7194         129.038      -0.00714341         149.945
0.519                  -0.296482        -131.372         -54.5424         127.595         -54.5436         127.598      -0.00719155         149.878
0.52                   -0.305754        -131.852         -54.3671         126.161         -54.3683         126.164      -0.00724098         149.811
0.521                  -0.315222        -132.334         -54.1923         124.734         -54.1936         124.736      -0.00729174         149.744
0.522                  -0.324888        -132.818         -54.0181         123.312         -54.0194         123.314      -0.00734384         149.677
0.523                  -0.334758        -133.304         -53.8445         121.894         -53.8458         121.897      -0.00739732         149.609
0.524                  -0.344836        -133.793         -53.6715         120.482         -53.6727         120.484      -0.00745218         149.542
0.525                  -0.355127        -134.284          -53.499         119.073         -53.5002         119.075      -0.00750846         149.475
0.526                  -0.365636        -134.777         -53.3271         117.668         -53.3283          117.67      -0.00756618         149.407
0.527                  -0.376368        -135.273         -53.1557         116.266          -53.157         116.268      -0.00762536         149.339
0.528                  -0.387328        -135.771          -52.985         114.867         -52.9862         114.869      -0.00768602         149.272
0.529                  -0.398523        -136.272         -52.8148         113.471          -52.816         113.473      -0.00774819         149.204
0.53                   -0.409957        -136.775         -52.6452         112.076         -52.6464         112.078       -0.0078119         149.136
0.531                  -0.421637        -137.281         -52.4762         110.684         -52.4773         110.685      -0.00787717         149.068
0.532                  -0.433568        -137.789         -52.3077         109.292         -52.3089         109.294      -0.00794402             149
0.533                  -0.445758        -138.299         -52.1398         107.902          -52.141         107.903      -0.00801249         148.931
0.534                  -0.458212        -138.813         -51.9725         106.512         -51.9736         106.514      -0.00808259         148.863
0.535                  -0.470937        -139.329         -51.8058         105.123         -51.8068         105.124      -0.00815435         148.795
0.536                   -0.48394        -139.847         -51.6396         103.733         -51.6406         103.735       -0.0082278         148.726
0.537                  -0.497229        -140.368         -51.4739         102.344          -51.475         102.345      -0.00830297         148.657
0.538                  -0.510809        -140.892         -51.3088         100.954         -51.3099         100.955      -0.00837989         148.589
0.539                   -0.52469        -141.419         -51.1443         99.5636         -51.1453         99.5648      -0.00845857          148.52
0.54                   -0.538878        -141.948         -50.9803         98.1721         -50.9813         98.1732      -0.00853906         148.451
0.541                  -0.553382         -142.48         -50.8169         96.7794         -50.8178         96.7804      -0.00862137         148.382
0.542                  -0.568209        -143.015          -50.654         95.3852         -50.6549         95.3861      -0.00870554         148.313
0.543                  -0.583368        -143.553         -50.4916         93.9894         -50.4925         93.9903       -0.0087916         148.243
0.544                  -0.598868        -144.093         -50.3298         92.5918         -50.3306         92.5926      -0.00887956         148.174
0.545                  -0.614717        -144.636         -50.1685         91.1921         -50.1692         91.1928      -0.00896947         148.104
0.546                  -0.630924        -145.182         -50.0077         89.7902         -50.0084         89.7909      -0.00906136         148.035
0.547                  -0.647499        -145.731         -49.8474         88.3858         -49.8481         88.3865      -0.00915524         147.965
0.548                   -0.66445        -146.283         -49.6877         86.9789         -49.6884         86.9795      -0.00925116         147.895
0.549                  -0.681788        -146.838         -49.5285         85.5692         -49.5291         85.5698      -0.00934914         147.825
0.55                   -0.699523        -147.395         -49.3698         84.1567         -49.3704         84.1572      -0.00944921         147.755
0.551                  -0.717664        -147.956         -49.2116         82.7411         -49.2122         82.7416      -0.00955141         147.685
0.552                  -0.736221        -148.519         -49.0539         81.3223         -49.0545         81.3228      -0.00965575         147.614
0.553                  -0.755206        -149.086         -48.8967         79.9003         -48.8973         79.9007      -0.00976228         147.544
0.554                  -0.774628        -149.655         -48.7401         78.4748         -48.7406         78.4752      -0.00987103         147.473
0.555                    -0.7945        -150.228          -48.584         77.0457         -48.5844         77.0461      -0.00998202         147.402
0.556                  -0.814831        -150.803         -48.4283         75.6131         -48.4288         75.6134       -0.0100953         147.332
0.557                  -0.835633        -151.381         -48.2732         74.1767         -48.2736          74.177       -0.0102109         147.261
0.558                  -0.856917        -151.962         -48.1187         72.7365          -48.119         72.7367       -0.0103288         147.189
0.559                  -0.878696        -152.547         -47.9646         71.2924         -47.9649         71.2926        -0.010449         147.118
0.56                   -0.900981        -153.134          -47.811         69.8443         -47.8113         69.8445       -0.0105717         147.047
0.561                  -0.923783        -153.724          -47.658         68.3921         -47.6583         68.3923       -0.0106968         146.975
0.562                  -0.947116        -154.317         -47.5055         66.9359         -47.5058         66.9361       -0.0108244         146.904
0.563                  -0.970991        -154.913         -47.3535         65.4755         -47.3537         65.4757       -0.0109544         146.832
0.564                  -0.995421        -155.512          -47.202         64.0109         -47.2023         64.0111        -0.011087          146.76
0.565                   -1.02042        -156.114         -47.0511         62.5421         -47.0513         62.5422       -0.0112221         146.688
0.566                     -1.046        -156.719         -46.9007          61.069         -46.9009         61.0691       -0.0113598         146.616
0.567                   -1.07217        -157.327         -46.7509         59.5917          -46.751         59.5918          -0.0115         146.544
0.568                   -1.09894        -157.938         -46.6015           58.11         -46.6017         58.1101        -0.011643         146.471
0.569                   -1.12634        -158.551         -46.4528          56.624         -46.4529         56.6241       -0.0117885         146.399
0.57                    -1.15437        -159.167         -46.3045         55.1337         -46.3046         55.1337       -0.0119368         146.326
0.571                   -1.18304        -159.787         -46.1569          53.639         -46.1569         53.6391       -0.0120878         146.253
0.572                   -1.21237        -160.409         -46.0098         52.1401         -46.0098         52.1401       -0.0122415          146.18
0.573                   -1.24238        -161.033         -45.8632         50.6368         -45.8632         50.6368       -0.0123979         146.107
0.574                   -1.27307        -161.661         -45.7172         49.1293         -45.7172         49.1293       -0.0125572         146.034
0.575                   -1.30446        -162.291         -45.5718         47.6175         -45.5718         47.6175       -0.0127192          145.96
0.576                   -1.33656        -162.924          -45.427         46.1015         -45.4269         46.1015       -0.0128841         145.887
0.577                   -1.36938        -163.559         -45.2827         44.5814         -45.2827         44.5813       -0.0130519         145.813
0.578                   -1.40295        -164.197         -45.1391         43.0571          -45.139          43.057       -0.0132225         145.739
0.579                   -1.43727        -164.838          -44.996         41.5287         -44.9959         41.5286        -0.013396         145.665
0.58                    -1.47235         -165.48         -44.8535         39.9963         -44.8534         39.9962       -0.0135725         145.591
0.581                   -1.50821        -166.126         -44.7116         38.4599         -44.7115         38.4598       -0.0137518         145.516
0.582                   -1.54486        -166.773         -44.5703         36.9196         -44.5702         36.9195       -0.0139341         145.442
0.583                   -1.58232        -167.423         -44.4297         35.3755         -44.4296         35.3754       -0.0141194         145.367
0.584                   -1.62059        -168.075         -44.2896         33.8276         -44.2895         33.8275       -0.0143076         145.292
0.585                    -1.6597         -168.73         -44.1502         32.2761         -44.1501          32.276       -0.0144988         145.218
0.586                   -1.69964        -169.386         -44.0114         30.7209         -44.0113         30.7208        -0.014693         145.142
0.587                   -1.74044        -170.044         -43.8732         29.1623         -43.8731         29.1622       -0.0148902         145.067
0.588                    -1.7821        -170.705         -43.7356         27.6002         -43.7355         27.6001       -0.0150904         144.992
0.589                   -1.82465        -171.367         -43.5987         26.0349         -43.5986         26.0347       -0.0152937         144.916
0.59                    -1.86808        -172.031         -43.4624         24.4663         -43.4623         24.4661       -0.0154999          144.84
0.591                   -1.91241        -172.696         -43.3268         22.8946         -43.3266         22.8944       -0.0157092         144.764
0.592                   -1.95765        -173.363         -43.1918         21.3199         -43.1916         21.3197       -0.0159216         144.688
0.593                   -2.00381        -174.032         -43.0574         19.7423         -43.0572         19.7421        -0.016137         144.612
0.594                    -2.0509        -174.702         -42.9236         18.1619         -42.9235         18.1617       -0.0163554         144.535
0.595                   -2.09894        -175.373         -42.7905         16.5788         -42.7904         16.5787       -0.0165768         144.458
0.596                   -2.14792        -176.046         -42.6581         14.9932         -42.6579          14.993       -0.0168013         144.382
0.597                   -2.19786         -176.72         -42.5263         13.4051         -42.5261          13.405       -0.0170289         144.304
0.598                   -2.24877        -177.395         -42.3951         11.8147          -42.395         11.8146       -0.0172595         144.227
0.599                   -2.30065         -178.07         -42.2646         10.2222         -42.2644          10.222       -0.0174931          144.15
0.6                     -2.35351        -178.747         -42.1347          8.6275         -42.1345         8.62736       -0.0177298         144.072
0.601                   -2.40737        -179.424         -42.0054         7.03088         -42.0053         7.03074       -0.0179695         143.994
0.602                   -2.46221         179.899         -41.8767         5.43243         -41.8766         5.43229       -0.0182122         143.916
0.603                   -2.51806          179.22         -41.7487         3.83226         -41.7486         3.83212        -0.018458         143.838
0.604                   -2.57491         178.542         -41.6213          2.2305         -41.6212         2.23036       -0.0187068          143.76
0.605                   -2.63278         177.863         -41.4946        0.627268         -41.4945        0.627133       -0.0189586         143.681
0.606                   -2.69165         177.184         -41.3684       -0.977317         -41.3683       -0.977448       -0.0192135         143.602
0.607                   -2.75155         176.505         -41.2428        -2.58313         -41.2427        -2.58326       -0.0194714         143.523
0.608                   -2.81246         175.826         -41.1179        -4.19007         -41.1178        -4.19019       -0.0197324         143.444
0.609                    -2.8744         175.148         -40.9935          -5.798         -40.9934        -5.79812       -0.0199964         143.365
0.61                    -2.93736          174.47         -40.8697        -7.40682         -40.8696        -7.40693       -0.0202635         143.285
0.611                   -3.00134         173.792         -40.7465        -9.01641         -40.7464        -9.01651       -0.0205337         143.205
0.612                   -3.06635         173.115         -40.6239        -10.6267         -40.6238        -10.6268        -0.020807         143.125
0.613                   -3.13238         172.438         -40.5018        -12.2375         -40.5017        -12.2376       -0.0210834         143.045
0.614                   -3.19943         171.762         -40.3803        -13.8488         -40.3802        -13.8488       -0.0213629         142.964
0.615                    -3.2675         171.088         -40.2593        -15.4604         -40.2592        -15.4605       -0.0216457         142.883
0.616                   -3.33659         170.414         -40.1388        -17.0723         -40.1387        -17.0723       -0.0219316         142.802
0.617                    -3.4067         169.742         -40.0188        -18.6843         -40.0188        -18.6844       -0.0222209         142.721
0.618                   -3.47781          169.07         -39.8994        -20.2965         -39.8993        -20.2965       -0.0225134          142.64
0.619                   -3.54993         168.401         -39.7804        -21.9086         -39.7804        -21.9086       -0.0228093         142.558
0.62                    -3.62305         167.732         -39.6619        -23.5206         -39.6619        -23.5207       -0.0231086         142.476
0.621                   -3.69716         167.065         -39.5439        -25.1325         -39.5439        -25.1325       -0.0234114         142.394
0.622                   -3.77226           166.4         -39.4263        -26.7442         -39.4263        -26.7442       -0.0237178         142.311
0.623                   -3.84834         165.737         -39.3092        -28.3555         -39.3092        -28.3555       -0.0240279         142.228
0.624                   -3.92539         165.076         -39.1925        -29.9665         -39.1925        -29.9665       -0.0243417         142.145
0.625                    -4.0034         164.416         -39.0762        -31.5771         -39.0762        -31.5771       -0.0246594         142.062
0.626                   -4.08237         163.759         -38.9602        -33.1872         -38.9603        -33.1872       -0.0249811         141.978
0.627                   -4.16229         163.104         -38.8447        -34.7968         -38.8447        -34.7968       -0.0253069         141.894
0.628                   -4.24313         162.451         -38.7296        -36.4059         -38.7296        -36.4058       -0.0256369          141.81
0.629                    -4.3249         161.801         -38.6147        -38.0143         -38.6148        -38.0143       -0.0259712         141.726
