! TOUCHSTONE file generated by CST MICROWAVE STUDIO
! Date and time: Fri Oct  2 16:31:17 2020
! Project name: Scenario_1_Free_Space_out_of_line.cst
! Parameters = {Lambda=346.42; Step_1=17.321; dy1=139.548; dx1=346; L_HA=400; MT=2.54; Rad_Dielectric=30; Rad_Lower=7.3; Rad_Upper=30; a_HA=580; a_WG=246; b_HA=500; b_WG=121; c_HA=0; c_WG=187; d_feed=85; h_feed=15; h_lower=18; h_upper=40}
! Header version: 2018
! Port assignment regex: !\s*Touchstone port\s*([0-9]+)\s*=\s*(CST MWS port|CST DS port)\s*([0-9]+|Zmin|Zmax)\s*\(\"(.*)\"\)(\s*mode\s*([0-9]+))?.*
! Touchstone port assignment:
! Touchstone port 1 = CST MWS port 1 ("")
! Touchstone port 2 = CST MWS port 2 ("")
# GHz S DB R 50
0.5                    -0.145004        -122.786         -59.8536         72.7313         -59.8536         72.7313      -0.00660436          151.12
0.501                  -0.152147        -123.244         -59.6265         71.1975         -59.6265         71.1975      -0.00669892         151.055
0.502                  -0.159524        -123.703         -59.4005         69.6581         -59.4005         69.6582      -0.00679368         150.989
0.503                  -0.167136        -124.163         -59.1756          68.113         -59.1757         68.1132      -0.00688864         150.924
0.504                  -0.174982        -124.625          -58.952         66.5621          -58.952         66.5623      -0.00698382         150.858
0.505                  -0.183062        -125.087         -58.7295         65.0051         -58.7295         65.0054       -0.0070792         150.793
0.506                  -0.191375        -125.551         -58.5082         63.4418         -58.5082         63.4421      -0.00717479         150.727
0.507                  -0.199921        -126.017          -58.288         61.8721         -58.2881         61.8725      -0.00727059         150.661
0.508                  -0.208699        -126.483         -58.0691         60.2958         -58.0691         60.2962      -0.00736661         150.595
0.509                  -0.217709        -126.951         -57.8512         58.7128         -57.8513         58.7133      -0.00746285         150.529
0.51                   -0.226951         -127.42         -57.6346          57.123         -57.6347         57.1235       -0.0075593         150.463
0.511                  -0.236423         -127.89         -57.4192         55.5263         -57.4192         55.5268      -0.00765597         150.397
0.512                  -0.246126        -128.362         -57.2049         53.9224          -57.205          53.923      -0.00775287         150.331
0.513                  -0.256058        -128.835         -56.9918         52.3115         -56.9919         52.3121         -0.00785         150.265
0.514                   -0.26622        -129.309           -56.78         50.6934           -56.78          50.694      -0.00794735         150.198
0.515                  -0.276611        -129.784         -56.5693          49.068         -56.5694         49.0686      -0.00804494         150.132
0.516                  -0.287229        -130.261         -56.3599         47.4353         -56.3599          47.436      -0.00814276         150.066
0.517                  -0.298076        -130.739         -56.1517         45.7953         -56.1517          45.796      -0.00824082         149.999
0.518                  -0.309149        -131.219         -55.9447         44.1479         -55.9448         44.1486      -0.00833913         149.932
0.519                  -0.320449          -131.7          -55.739         42.4931         -55.7391         42.4938      -0.00843768         149.866
0.52                   -0.331975        -132.182         -55.5346          40.831         -55.5346         40.8317      -0.00853648         149.799
0.521                  -0.343727        -132.665         -55.3314         39.1616         -55.3315         39.1623      -0.00863554         149.732
0.522                  -0.355704         -133.15         -55.1296         37.4848         -55.1296         37.4855      -0.00873486         149.665
0.523                  -0.367906        -133.637          -54.929         35.8007         -54.9291         35.8014      -0.00883445         149.598
0.524                  -0.380332        -134.124         -54.7298         34.1094         -54.7298         34.1101      -0.00893431         149.531
0.525                  -0.392982        -134.614         -54.5319          32.411         -54.5319         32.4117      -0.00903444         149.463
0.526                  -0.405856        -135.104         -54.3353         30.7054         -54.3353         30.7062      -0.00913485         149.396
0.527                  -0.418953        -135.596         -54.1401         28.9929         -54.1401         28.9936      -0.00923556         149.329
0.528                  -0.432273         -136.09         -53.9462         27.2736         -53.9463         27.2743      -0.00933655         149.261
0.529                  -0.445816        -136.585         -53.7538         25.5474         -53.7539         25.5481      -0.00943785         149.194
0.53                   -0.459582        -137.082         -53.5627         23.8146         -53.5628         23.8153      -0.00953945         149.126
0.531                  -0.473571         -137.58         -53.3731         22.0753         -53.3732          22.076      -0.00964137         149.058
0.532                  -0.487782         -138.08         -53.1849         20.3296         -53.1849         20.3303      -0.00974361          148.99
0.533                  -0.502217        -138.581         -52.9981         18.5778         -52.9981         18.5784      -0.00984618         148.922
0.534                  -0.516875        -139.084         -52.8127         16.8199         -52.8128         16.8205      -0.00994909         148.854
0.535                  -0.531756        -139.588         -52.6288         15.0561         -52.6289         15.0568       -0.0100523         148.786
0.536                   -0.54686        -140.095         -52.4464         13.2867         -52.4464         13.2873        -0.010156         148.718
0.537                  -0.562189        -140.603         -52.2654         11.5118         -52.2654         11.5124       -0.0102599         148.649
0.538                  -0.577743        -141.112         -52.0858         9.73166         -52.0859         9.73223       -0.0103643         148.581
0.539                  -0.593522        -141.624         -51.9078         7.94643         -51.9078         7.94699        -0.010469         148.512
0.54                   -0.609527        -142.137         -51.7312         6.15636         -51.7312         6.15689       -0.0105741         148.443
0.541                  -0.625759        -142.652         -51.5561         4.36166         -51.5561         4.36218       -0.0106797         148.375
0.542                   -0.64222        -143.169         -51.3825         2.56256         -51.3825         2.56306       -0.0107856         148.306
0.543                   -0.65891        -143.688         -51.2103        0.759302         -51.2104        0.759779        -0.010892         148.237
0.544                  -0.675831        -144.209         -51.0397        -1.04789         -51.0397        -1.04743       -0.0109989         148.168
0.545                  -0.692984        -144.731         -50.8705        -2.85876         -50.8705        -2.85833       -0.0111061         148.098
0.546                  -0.710371        -145.256         -50.7027        -4.67308         -50.7028        -4.67267       -0.0112139         148.029
0.547                  -0.727994        -145.783         -50.5365        -6.49061         -50.5365        -6.49021       -0.0113221          147.96
0.548                  -0.745854        -146.312         -50.3716        -8.31109         -50.3716        -8.31072       -0.0114309          147.89
0.549                  -0.763955        -146.843         -50.2082        -10.1343         -50.2083        -10.1339       -0.0115402          147.82
0.55                   -0.782299        -147.376         -50.0463        -11.9599         -50.0463        -11.9596         -0.01165         147.751
0.551                  -0.800887        -147.911         -49.8857        -13.7878         -49.8857        -13.7875       -0.0117603         147.681
0.552                  -0.819724        -148.449         -49.7266        -15.6177         -49.7266        -15.6174       -0.0118712         147.611
0.553                  -0.838812        -148.988         -49.5688        -17.4493         -49.5688        -17.4491       -0.0119827          147.54
0.554                  -0.858155        -149.531         -49.4124        -19.2825         -49.4124        -19.2822       -0.0120948          147.47
0.555                  -0.877756        -150.075         -49.2574        -21.1169         -49.2574        -21.1166       -0.0122076           147.4
0.556                  -0.897619        -150.622         -49.1036        -22.9523         -49.1036        -22.9521        -0.012321         147.329
0.557                  -0.917748        -151.172         -48.9512        -24.7886         -48.9512        -24.7885        -0.012435         147.259
0.558                  -0.938148        -151.724            -48.8        -26.6256            -48.8        -26.6254       -0.0125498         147.188
0.559                  -0.958823        -152.279         -48.6501        -28.4629         -48.6501        -28.4628       -0.0126653         147.117
0.56                   -0.979779        -152.836         -48.5015        -30.3005         -48.5015        -30.3003       -0.0127815         147.046
0.561                   -1.00102        -153.396          -48.354         -32.138          -48.354        -32.1379       -0.0128985         146.975
0.562                   -1.02256        -153.959         -48.2077        -33.9755         -48.2077        -33.9754       -0.0130163         146.904
0.563                   -1.04439        -154.524         -48.0625        -35.8126         -48.0625        -35.8125       -0.0131349         146.832
0.564                   -1.06652        -155.093         -47.9185        -37.6491         -47.9185        -37.6491       -0.0132544         146.761
0.565                   -1.08897        -155.664         -47.7755        -39.4851         -47.7755         -39.485       -0.0133748         146.689
0.566                   -1.11174        -156.238         -47.6336        -41.3202         -47.6336        -41.3202       -0.0134961         146.617
0.567                   -1.13483        -156.816         -47.4927        -43.1544         -47.4927        -43.1544       -0.0136184         146.545
0.568                   -1.15825        -157.396         -47.3529        -44.9875         -47.3529        -44.9875       -0.0137417         146.473
0.569                   -1.18202         -157.98         -47.2139        -46.8195         -47.2139        -46.8195        -0.013866         146.401
0.57                    -1.20614        -158.567         -47.0759        -48.6502         -47.0759        -48.6502       -0.0139914         146.329
0.571                   -1.23062        -159.157         -46.9388        -50.4794         -46.9388        -50.4795       -0.0141179         146.256
0.572                   -1.25548         -159.75         -46.8025        -52.3073         -46.8025        -52.3073       -0.0142456         146.183
0.573                   -1.28071        -160.347          -46.667        -54.1335          -46.667        -54.1336       -0.0143745         146.111
0.574                   -1.30634        -160.948         -46.5324        -55.9582         -46.5324        -55.9583       -0.0145046         146.038
0.575                   -1.33237        -161.552         -46.3985        -57.7812         -46.3985        -57.7813       -0.0146361         145.964
0.576                   -1.35882        -162.159         -46.2653        -59.6026         -46.2653        -59.6027       -0.0147689         145.891
0.577                    -1.3857        -162.771         -46.1328        -61.4222         -46.1328        -61.4223       -0.0149031         145.818
0.578                   -1.41303        -163.385          -46.001          -63.24          -46.001        -63.2401       -0.0150388         145.744
0.579                   -1.44081        -164.004         -45.8698        -65.0561         -45.8698        -65.0562        -0.015176          145.67
0.58                    -1.46906        -164.627         -45.7391        -66.8704         -45.7392        -66.8705       -0.0153148         145.596
0.581                   -1.49779        -165.253         -45.6091         -68.683         -45.6091        -68.6831       -0.0154553         145.522
0.582                   -1.52704        -165.884         -45.4796        -70.4938         -45.4796        -70.4939       -0.0155975         145.448
0.583                    -1.5568        -166.518         -45.3506        -72.3029         -45.3506         -72.303       -0.0157415         145.374
0.584                   -1.58709        -167.157         -45.2221        -74.1103         -45.2221        -74.1105       -0.0158873         145.299
0.585                   -1.61795          -167.8          -45.094        -75.9161          -45.094        -75.9162       -0.0160351         145.224
0.586                   -1.64938        -168.447         -44.9663        -77.7203         -44.9663        -77.7204       -0.0161849          145.15
0.587                    -1.6814        -169.098          -44.839         -79.523          -44.839        -79.5231       -0.0163368         145.075
0.588                   -1.71404        -169.754         -44.7122        -81.3242         -44.7122        -81.3243       -0.0164909         144.999
0.589                   -1.74731        -170.414         -44.5856         -83.124         -44.5856        -83.1241       -0.0166472         144.924
0.59                    -1.78124        -171.078         -44.4594        -84.9225         -44.4594        -84.9226       -0.0168059         144.848
0.591                   -1.81586        -171.747         -44.3335        -86.7197         -44.3335        -86.7198       -0.0169671         144.772
0.592                   -1.85118        -172.421         -44.2079        -88.5158         -44.2079         -88.516       -0.0171308         144.696
0.593                   -1.88723        -173.099         -44.0825        -90.3109         -44.0825         -90.311       -0.0172971          144.62
0.594                   -1.92404        -173.781         -43.9574         -92.105         -43.9574        -92.1051       -0.0174662         144.544
0.595                   -1.96163        -174.469         -43.8325        -93.8983         -43.8325        -93.8984       -0.0176382         144.467
0.596                   -2.00003        -175.161         -43.7078        -95.6908         -43.7078        -95.6909       -0.0178131         144.391
0.597                   -2.03928        -175.858         -43.5833        -97.4827         -43.5833        -97.4828       -0.0179911         144.314
0.598                   -2.07939        -176.559         -43.4591        -99.2741         -43.4591        -99.2742       -0.0181723         144.237
0.599                    -2.1204        -177.265         -43.3349        -101.065          -43.335        -101.065       -0.0183568         144.159
0.6                     -2.16235        -177.976          -43.211        -102.856          -43.211        -102.856       -0.0185448         144.082
0.601                   -2.20526        -178.692         -43.0872        -104.646         -43.0872        -104.647       -0.0187363         144.004
0.602                   -2.24917        -179.413         -42.9636        -106.437         -42.9636        -106.437       -0.0189314         143.926
0.603                   -2.29411         179.862         -42.8401        -108.228         -42.8401        -108.228       -0.0191304         143.848
0.604                   -2.34013         179.132         -42.7167        -110.019         -42.7167        -110.019       -0.0193333          143.77
0.605                   -2.38724         178.397         -42.5935         -111.81         -42.5935         -111.81       -0.0195402         143.691
0.606                    -2.4355         177.657         -42.4704        -113.601         -42.4704        -113.602       -0.0197514         143.612
0.607                   -2.48495         176.913         -42.3475        -115.394         -42.3475        -115.394       -0.0199668         143.533
0.608                   -2.53561         176.164         -42.2247        -117.187         -42.2247        -117.187       -0.0201867         143.454
0.609                   -2.58754          175.41          -42.102        -118.981          -42.102        -118.981       -0.0204111         143.375
0.61                    -2.64077         174.652         -41.9794        -120.775         -41.9794        -120.776       -0.0206402         143.295
0.611                   -2.69535         173.889          -41.857        -122.571          -41.857        -122.571       -0.0208741         143.215
0.612                   -2.75131         173.122         -41.7348        -124.368         -41.7348        -124.369        -0.021113         143.135
0.613                   -2.80871         172.351         -41.6127        -126.167         -41.6127        -126.167       -0.0213569         143.055
0.614                   -2.86759         171.576         -41.4907        -127.967         -41.4907        -127.967       -0.0216059         142.974
0.615                   -2.92798         170.796         -41.3689        -129.768         -41.3689        -129.768       -0.0218602         142.893
0.616                   -2.98995         170.013         -41.2473        -131.571         -41.2473        -131.571       -0.0221199         142.812
0.617                   -3.05354         169.226         -41.1259        -133.376         -41.1259        -133.376        -0.022385         142.731
0.618                   -3.11878         168.435         -41.0047        -135.182         -41.0047        -135.182       -0.0226557          142.65
0.619                   -3.18574         167.641         -40.8837         -136.99         -40.8837         -136.99        -0.022932         142.568
0.62                    -3.25446         166.844          -40.763        -138.801          -40.763        -138.801        -0.023214         142.486
0.621                   -3.32498         166.044         -40.6425        -140.613         -40.6425        -140.613       -0.0235018         142.404
0.622                   -3.39736         165.241         -40.5222        -142.427         -40.5222        -142.427       -0.0237954         142.321
0.623                   -3.47163         164.435         -40.4023        -144.244         -40.4023        -144.244       -0.0240948         142.238
0.624                   -3.54786         163.627         -40.2826        -146.063         -40.2826        -146.063       -0.0244001         142.156
0.625                   -3.62609         162.818         -40.1632        -147.884         -40.1632        -147.884       -0.0247113         142.072
0.626                   -3.70637         162.007         -40.0442        -149.707         -40.0442        -149.707       -0.0250285         141.989
0.627                   -3.78873         161.194         -39.9255        -151.533         -39.9255        -151.533       -0.0253515         141.905
0.628                   -3.87324         160.381         -39.8072        -153.361         -39.8072        -153.361       -0.0256805         141.821
0.629                   -3.95993         159.567         -39.6893        -155.191         -39.6893        -155.191       -0.0260154         141.737
