! TOUCHSTONE file generated by CST MICROWAVE STUDIO
! Date and time: Fri Oct  2 16:39:14 2020
! Project name: Scenario_1_Free_Space_out_of_line.cst
! Parameters = {Lambda=346.42; Step_1=17.321; dy1=139.548; dx1=520; L_HA=400; MT=2.54; Rad_Dielectric=30; Rad_Lower=7.3; Rad_Upper=30; a_HA=580; a_WG=246; b_HA=500; b_WG=121; c_HA=0; c_WG=187; d_feed=85; h_feed=15; h_lower=18; h_upper=40}
! Header version: 2018
! Port assignment regex: !\s*Touchstone port\s*([0-9]+)\s*=\s*(CST MWS port|CST DS port)\s*([0-9]+|Zmin|Zmax)\s*\(\"(.*)\"\)(\s*mode\s*([0-9]+))?.*
! Touchstone port assignment:
! Touchstone port 1 = CST MWS port 1 ("")
! Touchstone port 2 = CST MWS port 2 ("")
# GHz S DB R 50
0.5                    -0.150248        -122.662         -61.4732        -24.3857         -61.4732        -24.3857      -0.00668522         151.138
0.501                  -0.169478        -123.131         -61.3047        -26.0978         -61.3054        -26.0924      -0.00672848         151.072
0.502                  -0.189289          -123.6         -61.1351        -27.8132         -61.1364        -27.8026      -0.00677302         151.007
0.503                  -0.209716        -124.068         -60.9642        -29.5317         -60.9662        -29.5163      -0.00681884         150.941
0.504                  -0.230799        -124.536         -60.7922        -31.2534         -60.7948        -31.2335      -0.00686595         150.876
0.505                  -0.252583        -125.003         -60.6191        -32.9785         -60.6222        -32.9543      -0.00691435          150.81
0.506                  -0.275122        -125.468         -60.4449         -34.707         -60.4486        -34.6788      -0.00696406         150.744
0.507                  -0.298474        -125.933         -60.2697         -36.439         -60.2739         -36.407      -0.00701508         150.678
0.508                  -0.322708        -126.397         -60.0936        -38.1744         -60.0982        -38.1391      -0.00706742         150.612
0.509                  -0.347904        -126.858         -59.9164        -39.9135         -59.9215         -39.875      -0.00712108         150.546
0.51                   -0.374153        -127.318         -59.7384        -41.6563         -59.7439        -41.6148      -0.00717608          150.48
0.511                  -0.401564        -127.774         -59.5595        -43.4029         -59.5654        -43.3587      -0.00723241         150.414
0.512                   -0.43026        -128.227         -59.3798        -45.1534         -59.3861        -45.1066      -0.00729009         150.348
0.513                  -0.460391        -128.677         -59.1993        -46.9078         -59.2059        -46.8588      -0.00734912         150.281
0.514                  -0.492131        -129.121         -59.0181        -48.6664          -59.025        -48.6153      -0.00740952         150.215
0.515                  -0.525689        -129.558         -58.8362        -50.4291         -58.8433        -50.3762      -0.00747128         150.148
0.516                  -0.561313        -129.988         -58.6537        -52.1961          -58.661        -52.1416      -0.00753442         150.082
0.517                    -0.5993        -130.407         -58.4705        -53.9676         -58.4781        -53.9115      -0.00759895         150.015
0.518                   -0.64001        -130.813         -58.2868        -55.7435         -58.2945        -55.6862      -0.00766487         149.948
0.519                  -0.683873        -131.203         -58.1026         -57.524         -58.1105        -57.4656      -0.00773219         149.881
0.52                   -0.731407        -131.571         -57.9179        -59.3092         -57.9259        -59.2499      -0.00780092         149.814
0.521                  -0.783229         -131.91         -57.7328        -61.0993         -57.7408        -61.0392      -0.00787106         149.747
0.522                  -0.840053        -132.209         -57.5473        -62.8942         -57.5554        -62.8336      -0.00794264          149.68
0.523                  -0.902666        -132.454         -57.3614        -64.6942         -57.3696        -64.6331      -0.00801564         149.613
0.524                  -0.971827        -132.624         -57.1753        -66.4992         -57.1835        -66.4379      -0.00809009         149.546
0.525                   -1.04798        -132.685         -56.9889        -68.3094         -56.9971         -68.248      -0.00816598         149.478
0.526                    -1.1305        -132.587         -56.8024        -70.1249         -56.8105        -70.0634      -0.00824334         149.411
0.527                   -1.21589        -132.253         -56.6157        -71.9456         -56.6237        -71.8843      -0.00832217         149.343
0.528                   -1.29329         -131.57         -56.4289        -73.7714         -56.4369        -73.7104      -0.00840247         149.275
0.529                   -1.33456        -130.399         -56.2421        -75.6024         -56.2499        -75.5418      -0.00848426         149.208
0.53                    -1.27733        -128.672         -56.0552         -77.438          -56.063         -77.378      -0.00856754          149.14
0.531                   -1.02134        -126.734         -55.8683        -79.2781         -55.8759        -79.2187      -0.00865233         149.072
0.532                  -0.520547        -125.787         -55.6811        -81.1231         -55.6885        -81.0644      -0.00873863         149.004
0.533                2.52316e-07        -127.076         -55.4936        -82.9752         -55.5009        -82.9174      -0.00882646         148.936
0.534                2.60584e-07        -130.048         -55.3064         -84.838         -55.3136        -84.7812      -0.00891582         148.867
0.535                2.69584e-07        -133.168         -55.1195        -86.7071         -55.1264        -86.6514      -0.00900672         148.799
0.536                2.76224e-07        -135.695         -54.9328        -88.5818         -54.9395        -88.5272      -0.00909917          148.73
0.537                2.79856e-07        -137.605         -54.7465         -90.462          -54.753        -90.4087      -0.00919319         148.662
0.538                2.80619e-07        -139.064         -54.5606        -92.3479         -54.5669         -92.296      -0.00928877         148.593
0.539                2.78708e-07        -140.227         -54.3752        -94.2395         -54.3811        -94.1891      -0.00938594         148.524
0.54                 2.74227e-07        -141.196         -54.1901        -96.1371         -54.1958        -96.0882       -0.0094847         148.456
0.541                 -0.0322731        -142.039         -54.0056        -98.0408          -54.011        -97.9935      -0.00958507         148.387
0.542                  -0.108883        -142.796         -53.8216        -99.9506         -53.8268         -99.905      -0.00968705         148.318
0.543                  -0.178131        -143.494         -53.6382        -101.866         -53.6431        -101.823      -0.00979065         148.248
0.544                  -0.241244        -144.152         -53.4553        -103.788         -53.4599        -103.746      -0.00989588         148.179
0.545                  -0.299282        -144.781         -53.2731        -105.716         -53.2774        -105.676       -0.0100028          148.11
0.546                  -0.353124        -145.389         -53.0915        -107.649         -53.0956        -107.611       -0.0101113          148.04
0.547                  -0.403489        -145.981         -52.9106        -109.588         -52.9144        -109.552       -0.0102215         147.971
0.548                  -0.450964        -146.562         -52.7305        -111.533          -52.734        -111.499       -0.0103334         147.901
0.549                  -0.496025        -147.134         -52.5511        -113.484         -52.5544        -113.452        -0.010447         147.831
0.55                   -0.539064          -147.7         -52.3726         -115.44         -52.3755         -115.41       -0.0105622         147.761
0.551                    -0.5804        -148.261         -52.1949        -117.401         -52.1976        -117.373       -0.0106792         147.691
0.552                    -0.6203        -148.819         -52.0181        -119.368         -52.0205        -119.343       -0.0107979         147.621
0.553                  -0.658985        -149.374         -51.8422         -121.34         -51.8443        -121.317       -0.0109184          147.55
0.554                  -0.696642        -149.928         -51.6673        -123.317         -51.6691        -123.296       -0.0110406          147.48
0.555                  -0.733426        -150.481         -51.4933        -125.299         -51.4949         -125.28       -0.0111645         147.409
0.556                  -0.769472        -151.033         -51.3204        -127.286         -51.3217        -127.269       -0.0112902         147.339
0.557                  -0.804892        -151.584         -51.1484        -129.278         -51.1496        -129.263       -0.0114178         147.268
0.558                  -0.839785        -152.136         -50.9776        -131.274         -50.9785        -131.261       -0.0115471         147.197
0.559                  -0.874237        -152.689         -50.8078        -133.274         -50.8085        -133.264       -0.0116782         147.126
0.56                    -0.90832        -153.242         -50.6391        -135.278         -50.6396         -135.27       -0.0118111         147.055
0.561                  -0.942101        -153.796         -50.4716        -137.286         -50.4718         -137.28       -0.0119459         146.984
0.562                  -0.975635        -154.351         -50.3052        -139.298         -50.3053        -139.294       -0.0120826         146.912
0.563                   -1.00897        -154.907         -50.1399        -141.313         -50.1398        -141.311       -0.0122211         146.841
0.564                   -1.04216        -155.464         -49.9759        -143.331         -49.9756        -143.332       -0.0123614         146.769
0.565                   -1.07524        -156.023          -49.813        -145.353         -49.8125        -145.356       -0.0125037         146.697
0.566                   -1.10825        -156.583         -49.6513        -147.377         -49.6507        -147.382       -0.0126479         146.625
0.567                   -1.14121        -157.146         -49.4908        -149.404         -49.4901        -149.411        -0.012794         146.553
0.568                   -1.17417        -157.709         -49.3315        -151.434         -49.3306        -151.442        -0.012942         146.481
0.569                   -1.20714        -158.275         -49.1734        -153.465         -49.1724        -153.475        -0.013092         146.409
0.57                    -1.24016        -158.842         -49.0165        -155.498         -49.0155        -155.511       -0.0132439         146.336
0.571                   -1.27324        -159.412         -48.8608        -157.534         -48.8597        -157.548       -0.0133978         146.264
0.572                   -1.30641        -159.983         -48.7063         -159.57         -48.7052        -159.586       -0.0135537         146.191
0.573                   -1.33969        -160.557         -48.5531        -161.608         -48.5518        -161.625       -0.0137116         146.118
0.574                    -1.3731        -161.133          -48.401        -163.647         -48.3997        -163.666       -0.0138715         146.045
0.575                   -1.40666        -161.711         -48.2501        -165.687         -48.2488        -165.707       -0.0140335         145.972
0.576                   -1.44038        -162.291         -48.1003        -167.727          -48.099        -167.749       -0.0141975         145.898
0.577                   -1.47428        -162.874         -47.9518        -169.768         -47.9504        -169.791       -0.0143636         145.825
0.578                   -1.50838        -163.459         -47.8043        -171.809          -47.803        -171.833       -0.0145318         145.751
0.579                   -1.54269        -164.046          -47.658        -173.851         -47.6567        -173.875       -0.0147021         145.677
0.58                    -1.57724        -164.636         -47.5128        -175.892         -47.5115        -175.917       -0.0148745         145.603
0.581                   -1.61202        -165.229         -47.3687        -177.932         -47.3674        -177.959       -0.0150491         145.529
0.582                   -1.64707        -165.825         -47.2257        -179.972         -47.2244            -180       -0.0152258         145.455
0.583                   -1.68239        -166.423         -47.0836         177.988         -47.0824          177.96       -0.0154046         145.381
0.584                     -1.718        -167.024         -46.9426         175.949         -46.9414          175.92       -0.0155857         145.306
0.585                    -1.7539        -167.627         -46.8026         173.911         -46.8015         173.882        -0.015769         145.231
0.586                   -1.79013        -168.234         -46.6636         171.875         -46.6625         171.845       -0.0159545         145.157
0.587                   -1.82668        -168.843         -46.5255         169.839         -46.5244         169.809       -0.0161422         145.082
0.588                   -1.86358        -169.456         -46.3883         167.805         -46.3873         167.774       -0.0163323         145.006
0.589                   -1.90084        -170.072          -46.252         165.772         -46.2511         165.741       -0.0165246         144.931
0.59                    -1.93848         -170.69         -46.1166          163.74         -46.1157          163.71       -0.0167192         144.855
0.591                    -1.9765        -171.312         -45.9819          161.71         -45.9811          161.68       -0.0169162          144.78
0.592                   -2.01493        -171.937         -45.8481         159.682         -45.8473         159.652       -0.0171155         144.704
0.593                   -2.05377        -172.566          -45.715         157.656         -45.7143         157.626       -0.0173172         144.628
0.594                   -2.09305        -173.197         -45.5826         155.631          -45.582         155.601       -0.0175212         144.551
0.595                   -2.13279        -173.833          -45.451         153.608         -45.4505         153.578       -0.0177277         144.475
0.596                   -2.17298        -174.471           -45.32         151.587         -45.3195         151.558       -0.0179367         144.398
0.597                   -2.21367        -175.113         -45.1896         149.567         -45.1892         149.539       -0.0181481         144.321
0.598                   -2.25485        -175.759         -45.0599         147.549         -45.0596         147.522       -0.0183621         144.244
0.599                   -2.29656        -176.409         -44.9307         145.534         -44.9304         145.506       -0.0185785         144.167
0.6                      -2.3388        -177.062          -44.802          143.52         -44.8019         143.493       -0.0187975          144.09
0.601                   -2.38159        -177.719         -44.6739         141.507         -44.6738         141.482       -0.0190191         144.012
0.602                   -2.42496        -178.379         -44.5463         139.497         -44.5462         139.472       -0.0192433         143.934
0.603                   -2.46893        -179.044         -44.4191         137.488         -44.4191         137.464       -0.0194702         143.857
0.604                   -2.51351        -179.712         -44.2923          135.48         -44.2924         135.457       -0.0196997         143.778
0.605                   -2.55873         179.615          -44.166         133.475         -44.1661         133.452        -0.019932           143.7
0.606                    -2.6046         178.939           -44.04          131.47         -44.0401         131.449        -0.020167         143.621
0.607                   -2.65116         178.258         -43.9143         129.467         -43.9145         129.447       -0.0204048         143.543
0.608                   -2.69842         177.573          -43.789         127.466         -43.7893         127.447       -0.0206454         143.464
0.609                    -2.7464         176.884          -43.664         125.465         -43.6643         125.447        -0.020889         143.384
0.61                    -2.79515         176.191         -43.5393         123.466         -43.5396         123.449       -0.0211355         143.305
0.611                   -2.84466         175.493         -43.4148         121.468         -43.4151         121.452       -0.0213849         143.225
0.612                   -2.89499         174.792         -43.2906          119.47         -43.2909         119.456       -0.0216374         143.145
0.613                   -2.94615         174.085         -43.1666         117.474         -43.1669          117.46        -0.021893         143.065
0.614                   -2.99817         173.374         -43.0428         115.478         -43.0431         115.465       -0.0221517         142.985
0.615                   -3.05107         172.659         -42.9192         113.482         -42.9195         113.471       -0.0224137         142.904
0.616                   -3.10491         171.939         -42.7957         111.487         -42.7961         111.477        -0.022679         142.823
0.617                   -3.15969         171.215         -42.6724         109.492         -42.6728         109.483       -0.0229476         142.742
0.618                   -3.21546         170.486         -42.5493         107.498         -42.5496          107.49       -0.0232197         142.661
0.619                   -3.27225         169.752         -42.4263         105.503         -42.4266         105.496       -0.0234954          142.58
0.62                     -3.3301         169.014         -42.3034         103.508         -42.3037         103.502       -0.0237747         142.498
0.621                   -3.38904          168.27         -42.1806         101.513         -42.1809         101.508       -0.0240577         142.416
0.622                   -3.44911         167.523          -42.058         99.5172         -42.0582         99.5136       -0.0243446         142.333
0.623                   -3.51035          166.77         -41.9354          97.521         -41.9356         97.5183       -0.0246355         142.251
0.624                    -3.5728         166.013          -41.813          95.524         -41.8131         95.5223       -0.0249305         142.168
0.625                    -3.6365          165.25         -41.6906         93.5261         -41.6907         93.5253       -0.0252298         142.085
0.626                    -3.7015         164.483         -41.5684         91.5272         -41.5684         91.5273       -0.0255335         142.001
0.627                   -3.76784         163.712         -41.4462         89.5271         -41.4462         89.5281       -0.0258417         141.918
0.628                   -3.83556         162.935         -41.3242         87.5257         -41.3241         87.5275       -0.0261547         141.834
0.629                   -3.90473         162.154         -41.2022         85.5228         -41.2021         85.5254       -0.0264727          141.75
