! TOUCHSTONE file generated by CST MICROWAVE STUDIO
! Date and time: Fri Oct  2 16:55:45 2020
! Project name: Scenario_1_Free_Space_out_of_line.cst
! Parameters = {Lambda=346.42; Step_1=17.321; dy1=139.548; dx1=693; L_HA=400; MT=2.54; Rad_Dielectric=30; Rad_Lower=7.3; Rad_Upper=30; a_HA=580; a_WG=246; b_HA=500; b_WG=121; c_HA=0; c_WG=187; d_feed=85; h_feed=15; h_lower=18; h_upper=40}
! Header version: 2018
! Port assignment regex: !\s*Touchstone port\s*([0-9]+)\s*=\s*(CST MWS port|CST DS port)\s*([0-9]+|Zmin|Zmax)\s*\(\"(.*)\"\)(\s*mode\s*([0-9]+))?.*
! Touchstone port assignment:
! Touchstone port 1 = CST MWS port 1 ("")
! Touchstone port 2 = CST MWS port 2 ("")
# GHz S DB R 50
0.5                    -0.145666        -122.374         -62.9236        -120.636         -62.9236        -120.636      -0.00662925         151.137
0.501                  -0.152581        -122.816         -62.6851        -122.536         -62.6835         -122.54      -0.00670162         151.072
0.502                  -0.159657         -123.26         -62.4488        -124.446         -62.4457        -124.455      -0.00677449         151.007
0.503                  -0.166897        -123.705         -62.2146        -126.368         -62.2102         -126.38      -0.00684784         150.942
0.504                  -0.174301        -124.152         -61.9826          -128.3          -61.977        -128.315      -0.00692167         150.876
0.505                  -0.181871        -124.601         -61.7527        -130.242         -61.7461        -130.261      -0.00699598         150.811
0.506                  -0.189609        -125.051          -61.525        -132.196         -61.5173        -132.217      -0.00707075         150.745
0.507                  -0.197515        -125.503         -61.2994        -134.159         -61.2908        -134.184      -0.00714597         150.679
0.508                  -0.205592        -125.956         -61.0758        -136.133         -61.0665        -136.161      -0.00722165         150.614
0.509                  -0.213841        -126.412         -60.8544        -138.118         -60.8444        -138.148      -0.00729778         150.548
0.51                   -0.222263        -126.869          -60.635        -140.113         -60.6245        -140.145      -0.00737435         150.482
0.511                  -0.230861        -127.327         -60.4177        -142.117         -60.4067        -142.152      -0.00745135         150.416
0.512                  -0.239636        -127.788         -60.2025        -144.132         -60.1911        -144.169      -0.00752878          150.35
0.513                  -0.248589         -128.25         -59.9893        -146.156         -59.9775        -146.195      -0.00760663         150.284
0.514                  -0.257723        -128.714         -59.7781         -148.19         -59.7661         -148.23       -0.0076849         150.218
0.515                  -0.267039        -129.179          -59.569        -150.233         -59.5568        -150.275      -0.00776358         150.152
0.516                   -0.27654        -129.647         -59.3619        -152.285         -59.3496        -152.328      -0.00784266         150.085
0.517                  -0.286227        -130.116         -59.1568        -154.346         -59.1444         -154.39      -0.00792215         150.019
0.518                  -0.296102        -130.588         -58.9537        -156.415         -58.9413         -156.46      -0.00800203         149.952
0.519                  -0.306167        -131.061         -58.7526        -158.493         -58.7403        -158.539       -0.0080823         149.886
0.52                   -0.316425        -131.536         -58.5535        -160.578         -58.5412        -160.625      -0.00816295         149.819
0.521                  -0.326877        -132.012         -58.3563        -162.672         -58.3442        -162.719      -0.00824399         149.752
0.522                  -0.337526        -132.491         -58.1611        -164.772         -58.1491         -164.82      -0.00832541         149.685
0.523                  -0.348375        -132.972         -57.9678         -166.88          -57.956        -166.928       -0.0084072         149.618
0.524                  -0.359426        -133.455         -57.7764        -168.995         -57.7649        -169.043      -0.00848937         149.551
0.525                  -0.370681        -133.939         -57.5869        -171.116         -57.5757        -171.164      -0.00857191         149.484
0.526                  -0.382143        -134.426         -57.3993        -173.243         -57.3883        -173.291      -0.00865482         149.417
0.527                  -0.393814        -134.915         -57.2136        -175.376         -57.2029        -175.423       -0.0087381          149.35
0.528                  -0.405698        -135.405         -57.0296        -177.515         -57.0193        -177.562      -0.00882175         149.282
0.529                  -0.417798        -135.898         -56.8475        -179.659         -56.8375        -179.705      -0.00890578         149.215
0.53                   -0.430116        -136.393         -56.6672         178.192         -56.6575         178.147      -0.00899018         149.147
0.531                  -0.442655         -136.89         -56.4886         176.039         -56.4793         175.995      -0.00907496          149.08
0.532                   -0.45542        -137.389         -56.3117         173.881         -56.3028         173.838      -0.00916012         149.012
0.533                  -0.468413        -137.891         -56.1365          171.72         -56.1279         171.678      -0.00924567         148.944
0.534                  -0.481637        -138.394         -55.9629         169.555         -55.9548         169.514      -0.00933163         148.876
0.535                  -0.495097          -138.9          -55.791         167.387         -55.7833         167.347      -0.00941798         148.808
0.536                  -0.508796        -139.408         -55.6207         165.215         -55.6133         165.177      -0.00950476          148.74
0.537                  -0.522739        -139.918         -55.4519         163.041         -55.4449         163.004      -0.00959196         148.672
0.538                  -0.536929        -140.431         -55.2846         160.865          -55.278         160.829       -0.0096796         148.603
0.539                   -0.55137        -140.946         -55.1188         158.686         -55.1126         158.652      -0.00976771         148.535
0.54                   -0.566067        -141.463         -54.9545         156.506         -54.9486         156.473      -0.00985629         148.466
0.541                  -0.581026        -141.983         -54.7915         154.324          -54.786         154.292      -0.00994537         148.398
0.542                  -0.596249        -142.505         -54.6299          152.14         -54.6247         152.111        -0.010035         148.329
0.543                  -0.611743         -143.03         -54.4696         149.956         -54.4647         149.927       -0.0101251          148.26
0.544                  -0.627513        -143.557         -54.3105          147.77          -54.306         147.743       -0.0102158         148.191
0.545                  -0.643564        -144.086         -54.1527         145.584         -54.1485         145.559       -0.0103071         148.122
0.546                  -0.659902        -144.618         -53.9961         143.397         -53.9922         143.374       -0.0103991         148.053
0.547                  -0.676532        -145.153         -53.8405          141.21          -53.837         141.188       -0.0104917         147.984
0.548                  -0.693462        -145.691         -53.6861         139.022         -53.6829         139.002        -0.010585         147.914
0.549                  -0.710697         -146.23         -53.5328         136.835         -53.5298         136.816       -0.0106791         147.845
0.55                   -0.728243        -146.773         -53.3804         134.648         -53.3777          134.63        -0.010774         147.775
0.551                  -0.746109        -147.318          -53.229          132.46         -53.2265         132.445       -0.0108697         147.705
0.552                  -0.764301        -147.867         -53.0786         130.274         -53.0763         130.259       -0.0109663         147.635
0.553                  -0.782826        -148.417          -52.929         128.087         -52.9269         128.074       -0.0110638         147.565
0.554                  -0.801693        -148.971         -52.7802         125.901         -52.7784          125.89       -0.0111624         147.495
0.555                   -0.82091        -149.528         -52.6323         123.716         -52.6306         123.706        -0.011262         147.425
0.556                  -0.840485        -150.087         -52.4851         121.531         -52.4836         121.523       -0.0113628         147.354
0.557                  -0.860427        -150.649         -52.3386         119.347         -52.3373          119.34       -0.0114647         147.284
0.558                  -0.880745        -151.214         -52.1929         117.164         -52.1917         117.158        -0.011568         147.213
0.559                  -0.901449        -151.782         -52.0477         114.982         -52.0467         114.977       -0.0116725         147.142
0.56                   -0.922548        -152.354         -51.9032           112.8         -51.9023         112.796       -0.0117785         147.072
0.561                  -0.944054        -152.928         -51.7593         110.619         -51.7585         110.616        -0.011886         147.001
0.562                  -0.965977        -153.505         -51.6159         108.439         -51.6152         108.437       -0.0119951         146.929
0.563                  -0.988328        -154.085          -51.473         106.259         -51.4725         106.258       -0.0121058         146.858
0.564                   -1.01112        -154.669         -51.3306         104.081         -51.3302          104.08       -0.0122183         146.787
0.565                   -1.03436        -155.255         -51.1887         101.902         -51.1883         101.903       -0.0123326         146.715
0.566                   -1.05807        -155.845         -51.0471          99.725         -51.0469         99.7261       -0.0124488         146.643
0.567                   -1.08225        -156.438          -50.906         97.5482         -50.9058         97.5499       -0.0125671         146.572
0.568                   -1.10692        -157.034         -50.7653         95.3718         -50.7652         95.3742       -0.0126875           146.5
0.569                    -1.1321        -157.633          -50.625         93.1959         -50.6249         93.1989         -0.01281         146.427
0.57                     -1.1578        -158.236          -50.485         91.0204         -50.4849         91.0239       -0.0129349         146.355
0.571                   -1.18403        -158.842         -50.3453         88.8453         -50.3452         88.8491       -0.0130621         146.283
0.572                   -1.21081        -159.451         -50.2059         86.6703         -50.2059         86.6746       -0.0131918          146.21
0.573                   -1.23815        -160.063         -50.0668         84.4956         -50.0668         84.5002        -0.013324         146.137
0.574                   -1.26607        -160.679         -49.9279         82.3209          -49.928         82.3258       -0.0134589         146.065
0.575                   -1.29459        -161.298         -49.7894         80.1462         -49.7895         80.1513       -0.0135965         145.992
0.576                   -1.32373         -161.92         -49.6511         77.9714         -49.6512         77.9768       -0.0137369         145.918
0.577                   -1.35349        -162.545          -49.513         75.7965         -49.5131          75.802       -0.0138802         145.845
0.578                   -1.38391        -163.174         -49.3752         73.6213         -49.3753         73.6268       -0.0140264         145.772
0.579                   -1.41499        -163.806         -49.2376         71.4457         -49.2377         71.4513       -0.0141756         145.698
0.58                    -1.44676        -164.442         -49.1002         69.2696         -49.1003         69.2753       -0.0143279         145.624
0.581                   -1.47923         -165.08         -48.9631          67.093         -48.9632         67.0987       -0.0144833          145.55
0.582                   -1.51243        -165.722         -48.8261         64.9158         -48.8263         64.9215       -0.0146419         145.476
0.583                   -1.54637        -166.367         -48.6894         62.7379         -48.6895         62.7435       -0.0148037         145.402
0.584                   -1.58108        -167.015          -48.553         60.5591         -48.5531         60.5647       -0.0149687         145.328
0.585                   -1.61656        -167.666         -48.4167         58.3795         -48.4168         58.3849       -0.0151371         145.253
0.586                   -1.65285         -168.32         -48.2807         56.1989         -48.2808         56.2042       -0.0153087         145.178
0.587                   -1.68997        -168.977         -48.1449         54.0173          -48.145         54.0225       -0.0154837         145.104
0.588                   -1.72792        -169.637         -48.0093         51.8346         -48.0094         51.8396       -0.0156621         145.029
0.589                   -1.76674          -170.3          -47.874         49.6507         -47.8741         49.6556       -0.0158438         144.953
0.59                    -1.80644        -170.965          -47.739         47.4656          -47.739         47.4703       -0.0160288         144.878
0.591                   -1.84704        -171.633         -47.6042         45.2792         -47.6042         45.2837       -0.0162172         144.803
0.592                   -1.88857        -172.304         -47.4697         43.0915         -47.4697         43.0958        -0.016409         144.727
0.593                   -1.93103        -172.977         -47.3354         40.9024         -47.3355         40.9065       -0.0166041         144.651
0.594                   -1.97444        -173.653         -47.2015         38.7119         -47.2015         38.7157       -0.0168026         144.575
0.595                   -2.01883        -174.331         -47.0679           36.52         -47.0678         36.5236       -0.0170043         144.499
0.596                    -2.0642         -175.01         -46.9345         34.3265         -46.9345         34.3299       -0.0172094         144.422
0.597                   -2.11058        -175.692         -46.8015         32.1316         -46.8015         32.1348       -0.0174177         144.346
0.598                   -2.15798        -176.376         -46.6689         29.9352         -46.6688         29.9382       -0.0176292         144.269
0.599                    -2.2064        -177.061         -46.5365         27.7373         -46.5365         27.7401       -0.0178439         144.192
0.6                     -2.25587        -177.748         -46.4046         25.5379         -46.4045         25.5404       -0.0180618         144.115
0.601                   -2.30639        -178.436          -46.273         23.3369         -46.2729         23.3393       -0.0182828         144.038
0.602                   -2.35797        -179.125         -46.1418         21.1345         -46.1417         21.1367        -0.018507          143.96
0.603                   -2.41062        -179.815          -46.011         18.9307         -46.0109         18.9326       -0.0187342         143.883
0.604                   -2.46434         179.494         -45.8806         16.7254         -45.8805         16.7271       -0.0189645         143.805
0.605                   -2.51913         178.802         -45.7506         14.5186         -45.7505         14.5203       -0.0191978         143.727
0.606                     -2.575         178.109         -45.6211         12.3106          -45.621          12.312       -0.0194341         143.649
0.607                   -2.63195         177.417          -45.492         10.1012         -45.4919         10.1025       -0.0196734          143.57
0.608                   -2.68997         176.724         -45.3634         7.89048         -45.3632         7.89167       -0.0199156         143.491
0.609                   -2.74907         176.031         -45.2352          5.6786          -45.235         5.67966       -0.0201608         143.413
0.61                    -2.80922         175.338         -45.1075         3.46556         -45.1073          3.4665       -0.0204089         143.334
0.611                   -2.87044         174.646         -44.9802         1.25144         -44.9801         1.25227         -0.02066         143.254
0.612                    -2.9327         173.954         -44.8535       -0.963709         -44.8533       -0.962967        -0.020914         143.175
0.613                   -2.99599         173.262         -44.7272         -3.1798         -44.7271        -3.17914       -0.0211709         143.095
0.614                    -3.0603         172.571         -44.6014        -5.39676         -44.6013        -5.39618       -0.0214308         143.015
0.615                   -3.12562         171.881         -44.4762        -7.61451          -44.476        -7.61399       -0.0216937         142.935
0.616                   -3.19193         171.192         -44.3514        -9.83297         -44.3512        -9.83251       -0.0219595         142.855
0.617                   -3.25922         170.504         -44.2271        -12.0521          -44.227        -12.0516       -0.0222284         142.774
0.618                   -3.32746         169.817         -44.1034        -14.2717         -44.1032        -14.2713       -0.0225003         142.694
0.619                   -3.39663         169.131         -43.9801        -16.4918         -43.9799        -16.4914       -0.0227753         142.613
0.62                    -3.46672         168.446         -43.8574        -18.7122         -43.8572        -18.7119       -0.0230535         142.531
0.621                   -3.53771         167.762         -43.7351         -20.933         -43.7349        -20.9327       -0.0233348          142.45
0.622                   -3.60958         167.079         -43.6134        -23.1539         -43.6132        -23.1536       -0.0236195         142.368
0.623                    -3.6823         166.397         -43.4921         -25.375         -43.4919        -25.3747       -0.0239075         142.286
0.624                   -3.75587         165.717         -43.3713        -27.5962         -43.3711        -27.5958       -0.0241989         142.204
0.625                   -3.83026         165.037          -43.251        -29.8172         -43.2508        -29.8169       -0.0244938         142.121
0.626                   -3.90546         164.359         -43.1312        -32.0382          -43.131        -32.0379       -0.0247923         142.039
0.627                   -3.98146         163.681         -43.0119         -34.259         -43.0116        -34.2587       -0.0250945         141.956
0.628                   -4.05824         163.004          -42.893        -36.4796         -42.8927        -36.4792       -0.0254005         141.872
0.629                   -4.13579         162.327         -42.7745        -38.6999         -42.7742        -38.6995       -0.0257105         141.789
