! TOUCHSTONE file generated by CST MICROWAVE STUDIO
! Date and time: Fri Oct  2 19:09:54 2020
! Project name: Scenario_1_Free_Space_out_of_line.cst
! Parameters = {Lambda=346.42; Step_1=17.321; dy1=139.548; dx1=866; L_HA=400; MT=2.54; Rad_Dielectric=30; Rad_Lower=7.3; Rad_Upper=30; a_HA=580; a_WG=246; b_HA=500; b_WG=121; c_HA=0; c_WG=187; d_feed=85; h_feed=15; h_lower=18; h_upper=40}
! Header version: 2018
! Port assignment regex: !\s*Touchstone port\s*([0-9]+)\s*=\s*(CST MWS port|CST DS port)\s*([0-9]+|Zmin|Zmax)\s*\(\"(.*)\"\)(\s*mode\s*([0-9]+))?.*
! Touchstone port assignment:
! Touchstone port 1 = CST MWS port 1 ("")
! Touchstone port 2 = CST MWS port 2 ("")
# GHz S DB R 50
0.5                    -0.148411        -122.534         -63.5952         140.624         -63.5952         140.624      -0.00662349         151.129
0.501                  -0.155046        -122.987         -63.6383         137.836         -63.6381         137.834      -0.00669023         151.064
0.502                  -0.161885        -123.441         -63.6706         134.994         -63.6701         134.989      -0.00675777         150.998
0.503                  -0.168928        -123.896         -63.6914           132.1         -63.6906         132.094      -0.00682611         150.933
0.504                  -0.176178        -124.354         -63.6999         129.161         -63.6989         129.153      -0.00689526         150.867
0.505                  -0.183636        -124.813         -63.6957         126.182         -63.6943         126.172      -0.00696521         150.801
0.506                  -0.191304        -125.273          -63.678         123.168         -63.6763         123.157      -0.00703599         150.735
0.507                  -0.199183        -125.735         -63.6466         120.127         -63.6446         120.114      -0.00710758          150.67
0.508                  -0.207276        -126.199         -63.6011         117.065         -63.5987         117.051      -0.00717999         150.604
0.509                  -0.215584        -126.664         -63.5414          113.99         -63.5386         113.976      -0.00725323         150.538
0.51                   -0.224109        -127.131         -63.4674         110.909         -63.4642         110.894      -0.00732731         150.472
0.511                  -0.232852          -127.6         -63.3792         107.829         -63.3757         107.814      -0.00740222         150.405
0.512                  -0.241816         -128.07          -63.277         104.758         -63.2732         104.742      -0.00747797         150.339
0.513                  -0.251002        -128.542         -63.1613         101.701         -63.1571         101.686      -0.00755457         150.273
0.514                  -0.260412        -129.016         -63.0324         98.6661         -63.0279         98.6513      -0.00763202         150.207
0.515                  -0.270049        -129.491         -62.8911         95.6585         -62.8862         95.6443      -0.00771033          150.14
0.516                  -0.279913        -129.968         -62.7378         92.6834         -62.7327         92.6701      -0.00778951         150.073
0.517                  -0.290007        -130.447         -62.5734         89.7454         -62.5681         89.7331      -0.00786955         150.007
0.518                  -0.300332        -130.927         -62.3987         86.8484         -62.3931         86.8372      -0.00795046          149.94
0.519                  -0.310891        -131.409         -62.2144         83.9956         -62.2086         83.9856      -0.00803226         149.873
0.52                   -0.321685        -131.893         -62.0214         81.1893         -62.0154         81.1807      -0.00811494         149.806
0.521                  -0.332717        -132.379         -61.8205         78.4315         -61.8144         78.4242      -0.00819851         149.739
0.522                  -0.343988        -132.866         -61.6125         75.7233         -61.6063         75.7174      -0.00828298         149.672
0.523                    -0.3555        -133.355         -61.3982         73.0653         -61.3919         73.0609      -0.00836835         149.605
0.524                  -0.367256        -133.846         -61.1785         70.4577         -61.1721         70.4546      -0.00845463         149.538
0.525                  -0.379257        -134.338         -60.9539            67.9         -60.9475         67.8984      -0.00854184         149.471
0.526                  -0.391506        -134.832         -60.7253         65.3916         -60.7189         65.3914      -0.00862996         149.403
0.527                  -0.404004        -135.328         -60.4932         62.9314         -60.4868         62.9325      -0.00871902         149.336
0.528                  -0.416754        -135.826         -60.2582         60.5181         -60.2519         60.5205      -0.00880902         149.268
0.529                  -0.429758        -136.326          -60.021           58.15         -60.0147         58.1536      -0.00889996           149.2
0.53                   -0.443018        -136.827         -59.7819         55.8255         -59.7757         55.8303      -0.00899186         149.132
0.531                  -0.456536         -137.33         -59.5415         53.5426         -59.5354         53.5485      -0.00908471         149.065
0.532                  -0.470315        -137.836         -59.3002         51.2994         -59.2942         51.3063      -0.00917854         148.997
0.533                  -0.484356        -138.343         -59.0583         49.0939         -59.0524         49.1017      -0.00927335         148.928
0.534                  -0.498663        -138.851         -58.8162         46.9239         -58.8104         46.9326      -0.00936914          148.86
0.535                  -0.513237        -139.362         -58.5742         44.7874         -58.5685         44.7968      -0.00946593         148.792
0.536                  -0.528081        -139.875         -58.3325         42.6822          -58.327         42.6924      -0.00956372         148.724
0.537                  -0.543197        -140.389         -58.0915         40.6062         -58.0861         40.6171      -0.00966252         148.655
0.538                  -0.558589        -140.906         -57.8512         38.5575          -57.846         38.5689      -0.00976235         148.586
0.539                  -0.574257        -141.424         -57.6119          36.534         -57.6068         36.5459       -0.0098632         148.518
0.54                   -0.590206        -141.944         -57.3738         34.5337         -57.3689          34.546       -0.0099651         148.449
0.541                  -0.606437        -142.466         -57.1369         32.5546         -57.1322         32.5673       -0.0100681          148.38
0.542                  -0.622953        -142.991         -56.9015          30.595          -56.897         30.6079       -0.0101721         148.311
0.543                  -0.639757        -143.517         -56.6677          28.653         -56.6633         28.6661       -0.0102772         148.242
0.544                  -0.656853        -144.045         -56.4355         26.7269         -56.4313         26.7401       -0.0103833         148.173
0.545                  -0.674242        -144.575          -56.205         24.8149          -56.201         24.8282       -0.0104906         148.103
0.546                  -0.691927        -145.108         -55.9763         22.9154         -55.9724         22.9287        -0.010599         148.034
0.547                  -0.709913        -145.642         -55.7494         21.0268         -55.7458           21.04       -0.0107084         147.964
0.548                  -0.728201        -146.179         -55.5245         19.1477         -55.5211         19.1608       -0.0108191         147.895
0.549                  -0.746795        -146.717         -55.3015         17.2764         -55.2983         17.2893       -0.0109308         147.825
0.55                   -0.765699        -147.258         -55.0806         15.4117         -55.0775         15.4244       -0.0110437         147.755
0.551                  -0.784915        -147.801         -54.8617          13.552         -54.8588         13.5645       -0.0111578         147.685
0.552                  -0.804447        -148.346         -54.6449         11.6962         -54.6422         11.7083       -0.0112731         147.615
0.553                  -0.824299        -148.893         -54.4302         9.84294         -54.4276         9.85464       -0.0113896         147.545
0.554                  -0.844474        -149.442         -54.2176         7.99094         -54.2153         8.00221       -0.0115073         147.474
0.555                  -0.864976        -149.994         -54.0072         6.13904          -54.005         6.14984       -0.0116262         147.404
0.556                  -0.885809        -150.548         -53.7989         4.28609         -53.7969         4.29638       -0.0117463         147.333
0.557                  -0.906977        -151.104         -53.5929         2.43097         -53.5911         2.44072       -0.0118677         147.263
0.558                  -0.928483        -151.662          -53.389        0.572621         -53.3874        0.581782       -0.0119904         147.192
0.559                  -0.950333        -152.223         -53.1874        -1.29001         -53.1859        -1.28147       -0.0121144         147.121
0.56                    -0.97253        -152.786          -52.988        -3.15794         -52.9867        -3.15005       -0.0122396          147.05
0.561                   -0.99508        -153.352         -52.7909        -5.03212         -52.7897        -5.02492       -0.0123662         146.978
0.562                   -1.01799         -153.92          -52.596        -6.91352          -52.595        -6.90703       -0.0124942         146.907
0.563                   -1.04125         -154.49         -52.4034        -8.80304         -52.4025        -8.79729       -0.0126235         146.836
0.564                   -1.06489        -155.063         -52.2131        -10.7016         -52.2124        -10.6966       -0.0127542         146.764
0.565                    -1.0889        -155.639         -52.0251          -12.61         -52.0245        -12.6058       -0.0128862         146.692
0.566                   -1.11328        -156.217         -51.8394        -14.5291         -51.8389        -14.5257       -0.0130198          146.62
0.567                   -1.13805        -156.797          -51.656        -16.4597         -51.6556        -16.4571       -0.0131547         146.548
0.568                   -1.16321         -157.38         -51.4749        -18.4025         -51.4746        -18.4008       -0.0132911         146.476
0.569                   -1.18876        -157.966         -51.2961        -20.3585          -51.296        -20.3576        -0.013429         146.404
0.57                    -1.21471        -158.555         -51.1197        -22.3281         -51.1197        -22.3281       -0.0135685         146.332
0.571                   -1.24107        -159.146         -50.9456        -24.3123         -50.9457        -24.3131       -0.0137094         146.259
0.572                   -1.26785         -159.74         -50.7738        -26.3116          -50.774        -26.3133       -0.0138519         146.186
0.573                   -1.29504        -160.337         -50.6044        -28.3266         -50.6047        -28.3292        -0.013996         146.113
0.574                   -1.32267        -160.936         -50.4373         -30.358         -50.4377        -30.3615       -0.0141418          146.04
0.575                   -1.35073        -161.539         -50.2726        -32.4065         -50.2731        -32.4108       -0.0142891         145.967
0.576                   -1.37924        -162.144         -50.1103        -34.4725         -50.1108        -34.4777       -0.0144382         145.894
0.577                   -1.40821        -162.752         -49.9503        -36.5565         -49.9508        -36.5626       -0.0145889          145.82
0.578                   -1.43763        -163.364         -49.7926        -38.6592         -49.7932        -38.6661       -0.0147414         145.747
0.579                   -1.46753        -163.978         -49.6372        -40.7809         -49.6379        -40.7886       -0.0148956         145.673
0.58                    -1.49791        -164.595         -49.4842        -42.9221          -49.485        -42.9306       -0.0150517         145.599
0.581                   -1.52879        -165.216         -49.3335        -45.0831         -49.3343        -45.0924       -0.0152095         145.525
0.582                   -1.56016         -165.84         -49.1851        -47.2645         -49.1859        -47.2745       -0.0153693         145.451
0.583                   -1.59205        -166.467         -49.0389        -49.4663         -49.0398        -49.4771       -0.0155309         145.376
0.584                   -1.62447        -167.097          -48.895        -51.6891         -48.8959        -51.7005       -0.0156945         145.302
0.585                   -1.65742         -167.73         -48.7533        -53.9329         -48.7542        -53.9449       -0.0158601         145.227
0.586                   -1.69092        -168.367         -48.6138         -56.198         -48.6146        -56.2106       -0.0160278         145.152
0.587                   -1.72499        -169.008         -48.4765        -58.4845         -48.4773        -58.4976       -0.0161975         145.077
0.588                   -1.75963        -169.652         -48.3412        -60.7926          -48.342        -60.8062       -0.0163693         145.002
0.589                   -1.79487        -170.299          -48.208        -63.1222         -48.2087        -63.1362       -0.0165433         144.927
0.59                    -1.83072         -170.95         -48.0767        -65.4733         -48.0775        -65.4877       -0.0167195         144.851
0.591                   -1.86719        -171.604         -47.9474        -67.8459         -47.9481        -67.8607       -0.0168981         144.775
0.592                   -1.90431        -172.263           -47.82        -70.2399         -47.8206        -70.2549       -0.0170789         144.699
0.593                   -1.94209        -172.925         -47.6944        -72.6551          -47.695        -72.6703       -0.0172622         144.623
0.594                   -1.98054        -173.591         -47.5705        -75.0911          -47.571        -75.1064       -0.0174479         144.547
0.595                    -2.0197         -174.26         -47.4482        -77.5478         -47.4487        -77.5631       -0.0176361          144.47
0.596                   -2.05957        -174.934         -47.3275        -80.0246         -47.3279          -80.04       -0.0178269         144.394
0.597                   -2.10019        -175.611         -47.2082        -82.5212         -47.2086        -82.5365       -0.0180204         144.317
0.598                   -2.14158        -176.293         -47.0903         -85.037         -47.0907        -85.0522       -0.0182167          144.24
0.599                   -2.18376        -176.978         -46.9737        -87.5715          -46.974        -87.5864       -0.0184157         144.162
0.6                     -2.22675        -177.668         -46.8583        -90.1239         -46.8585        -90.1385       -0.0186177         144.085
0.601                   -2.27059        -178.362         -46.7439        -92.6935         -46.7441        -92.7078       -0.0188227         144.007
0.602                    -2.3153         -179.06         -46.6305        -95.2796         -46.6306        -95.2934       -0.0190307         143.929
0.603                   -2.36091        -179.762         -46.5179        -97.8812          -46.518        -97.8945        -0.019242         143.851
0.604                   -2.40745         179.532         -46.4061        -100.497         -46.4061         -100.51       -0.0194565         143.773
0.605                   -2.45495         178.821         -46.2949        -103.127         -46.2949        -103.139       -0.0196744         143.695
0.606                   -2.50346         178.107         -46.1843         -105.77         -46.1842        -105.781       -0.0198959         143.616
0.607                     -2.553         177.388          -46.074        -108.424         -46.0739        -108.434        -0.020121         143.537
0.608                   -2.60361         176.664         -45.9641        -111.088         -45.9639        -111.098       -0.0203499         143.458
0.609                   -2.65534         175.937         -45.8544        -113.761         -45.8542         -113.77       -0.0205827         143.379
0.61                    -2.70822         175.205         -45.7448        -116.442         -45.7446        -116.451       -0.0208196         143.299
0.611                   -2.76229         174.469         -45.6353         -119.13         -45.6351        -119.137       -0.0210607         143.219
0.612                    -2.8176         173.728         -45.5258        -121.823         -45.5256        -121.829       -0.0213061         143.139
0.613                    -2.8742         172.984         -45.4161        -124.519         -45.4159        -124.526       -0.0215561         143.059
0.614                   -2.93213         172.236         -45.3063        -127.219         -45.3061        -127.224       -0.0218107         142.978
0.615                   -2.99144         171.483         -45.1963         -129.92         -45.1961        -129.924       -0.0220702         142.898
0.616                   -3.05218         170.727          -45.086        -132.621         -45.0858        -132.625       -0.0223348         142.817
0.617                   -3.11441         169.967         -44.9754        -135.321         -44.9752        -135.324       -0.0226046         142.735
0.618                   -3.17817         169.203         -44.8644        -138.018         -44.8643         -138.02       -0.0228798         142.654
0.619                   -3.24353         168.436         -44.7531        -140.712          -44.753        -140.714       -0.0231605         142.572
0.62                    -3.31054         167.666         -44.6415        -143.401         -44.6414        -143.402       -0.0234471          142.49
0.621                   -3.37925         166.893         -44.5294        -146.085         -44.5294        -146.085       -0.0237395         142.408
0.622                   -3.44972         166.117          -44.417        -148.761          -44.417         -148.76       -0.0240381         142.326
0.623                   -3.52201         165.338         -44.3042         -151.43         -44.3043        -151.428       -0.0243428         142.243
0.624                   -3.59617         164.558         -44.1911         -154.09         -44.1912        -154.088       -0.0246539          142.16
0.625                   -3.67227         163.776         -44.0776         -156.74         -44.0779        -156.738       -0.0249715         142.077
0.626                   -3.75034         162.992         -43.9639         -159.38         -43.9642        -159.378       -0.0252955         141.994
0.627                   -3.83045         162.207           -43.85        -162.009         -43.8503        -162.007        -0.025626          141.91
0.628                   -3.91265         161.423         -43.7358        -164.627         -43.7362        -164.624       -0.0259631         141.826
0.629                   -3.99697         160.638         -43.6214        -167.234         -43.6219         -167.23       -0.0263066         141.742
