! TOUCHSTONE file generated by CST MICROWAVE STUDIO
! Date and time: Fri Oct  2 18:56:18 2020
! Project name: Scenario_1_Free_Space_out_of_line.cst
! Parameters = {Lambda=346.42; Step_1=17.321; dy1=139.548; dx1=1039; L_HA=400; MT=2.54; Rad_Dielectric=30; Rad_Lower=7.3; Rad_Upper=30; a_HA=580; a_WG=246; b_HA=500; b_WG=121; c_HA=0; c_WG=187; d_feed=85; h_feed=15; h_lower=18; h_upper=40}
! Header version: 2018
! Port assignment regex: !\s*Touchstone port\s*([0-9]+)\s*=\s*(CST MWS port|CST DS port)\s*([0-9]+|Zmin|Zmax)\s*\(\"(.*)\"\)(\s*mode\s*([0-9]+))?.*
! Touchstone port assignment:
! Touchstone port 1 = CST MWS port 1 ("")
! Touchstone port 2 = CST MWS port 2 ("")
# GHz S DB R 50
0.5                    -0.148163        -122.607         -64.1484         44.1658         -64.1484         44.1658      -0.00673002         151.135
0.501                  -0.152347        -123.047         -63.9712         42.2291         -63.9796         42.2441      -0.00678157         151.069
0.502                   -0.15676         -123.49         -63.7934         40.2665         -63.8098         40.2956      -0.00683416         151.004
0.503                  -0.161403        -123.936         -63.6152         38.2777         -63.6391         38.3201       -0.0068878         150.938
0.504                  -0.166281        -124.383         -63.4363         36.2629         -63.4674         36.3177      -0.00694249         150.873
0.505                  -0.171397        -124.832         -63.2568         34.2219         -63.2947         34.2883      -0.00699824         150.807
0.506                  -0.176754        -125.284         -63.0768         32.1547          -63.121         32.2319      -0.00705504         150.741
0.507                  -0.182356        -125.738         -62.8961         30.0614         -62.9462         30.1487      -0.00711291         150.676
0.508                  -0.188207        -126.194         -62.7147          27.942         -62.7704         28.0386      -0.00717185          150.61
0.509                  -0.194309        -126.652         -62.5326         25.7965         -62.5935         25.9016      -0.00723186         150.544
0.51                   -0.200668        -127.112         -62.3499          23.625         -62.4155          23.738      -0.00729295         150.478
0.511                  -0.207285        -127.574         -62.1665         21.4275         -62.2365         21.5477      -0.00735512         150.412
0.512                  -0.214165        -128.039         -61.9824         19.2042         -62.0563          19.331      -0.00741837         150.345
0.513                  -0.221311        -128.506         -61.7975         16.9551         -61.8751         17.0878      -0.00748272         150.279
0.514                  -0.228728        -128.974          -61.612         14.6805         -61.6929         14.8185      -0.00754816         150.213
0.515                  -0.236418        -129.445         -61.4259         12.3804         -61.5095         12.5232      -0.00761469         150.146
0.516                  -0.244384        -129.919          -61.239         10.0551         -61.3252         10.2022      -0.00768233          150.08
0.517                  -0.252632        -130.394         -61.0515         7.70482         -61.1398         7.85558      -0.00775108         150.013
0.518                  -0.261164        -130.872         -60.8634         5.32975         -60.9535         5.48371      -0.00782095         149.946
0.519                  -0.269984        -131.351         -60.6747         2.93017         -60.7662         3.08685      -0.00789193         149.879
0.52                   -0.279096        -131.833         -60.4855        0.506391          -60.578        0.665322      -0.00796403         149.813
0.521                  -0.288503        -132.317         -60.2957        -1.94128          -60.389        -1.78053      -0.00803727         149.746
0.522                  -0.298209        -132.804         -60.1055        -4.41248         -60.1991        -4.25035      -0.00811164         149.679
0.523                  -0.308218        -133.292         -59.9148        -6.90683         -60.0085        -6.74373      -0.00818716         149.611
0.524                  -0.318532        -133.782         -59.7237        -9.42393         -59.8172        -9.26024      -0.00826382         149.544
0.525                  -0.329157        -134.275         -59.5323        -11.9633         -59.6253        -11.7994      -0.00834164         149.477
0.526                  -0.340096         -134.77         -59.3406        -14.5246         -59.4328        -14.3609      -0.00842061         149.409
0.527                  -0.351351        -135.267         -59.1487        -17.1072         -59.2399         -16.944      -0.00850075         149.342
0.528                  -0.362928        -135.766         -58.9567        -19.7106         -59.0465        -19.5483      -0.00858207         149.274
0.529                  -0.374829        -136.268         -58.7647        -22.3342         -58.8529        -22.1731      -0.00866456         149.207
0.53                   -0.387058        -136.771         -58.5726        -24.9775          -58.659         -24.818      -0.00874824         149.139
0.531                  -0.399619        -137.277         -58.3806        -27.6399          -58.465        -27.4823      -0.00883312         149.071
0.532                  -0.412515        -137.785         -58.1888        -30.3206         -58.2709        -30.1653       -0.0089192         149.003
0.533                  -0.425751        -138.295         -57.9973        -33.0191         -58.0769        -32.8663      -0.00900649         148.935
0.534                  -0.439329        -138.807         -57.8061        -35.7346          -57.883        -35.5847      -0.00909499         148.867
0.535                  -0.453253        -139.321         -57.6153        -38.4664         -57.6894        -38.3197      -0.00918472         148.798
0.536                  -0.467527        -139.838          -57.425        -41.2137         -57.4962        -41.0705      -0.00927569          148.73
0.537                  -0.482155        -140.356         -57.2353        -43.9758         -57.3034        -43.8364       -0.0093679         148.661
0.538                  -0.497139        -140.877         -57.0463        -46.7517         -57.1112        -46.6166      -0.00946136         148.593
0.539                  -0.512484          -141.4         -56.8581        -49.5409         -56.9197        -49.4102      -0.00955609         148.524
0.54                   -0.528193        -141.925         -56.6708        -52.3422         -56.7289        -52.2164      -0.00965209         148.455
0.541                  -0.544269        -142.452         -56.4843         -55.155          -56.539        -55.0342      -0.00974936         148.386
0.542                  -0.560717        -142.981         -56.2989        -57.9783         -56.3501        -57.8629      -0.00984793         148.317
0.543                  -0.577539        -143.512         -56.1146        -60.8112         -56.1623        -60.7015      -0.00994781         148.248
0.544                  -0.594739        -144.046         -55.9315        -63.6528         -55.9756        -63.5491        -0.010049         148.179
0.545                  -0.612321        -144.581         -55.7496        -66.5022         -55.7901        -66.4047       -0.0101515          148.11
0.546                  -0.630287        -145.119         -55.5691        -69.3585          -55.606        -69.2675       -0.0102554          148.04
0.547                  -0.648642        -145.659         -55.3899        -72.2208         -55.4232        -72.1365       -0.0103606         147.971
0.548                  -0.667388        -146.201         -55.2122         -75.088          -55.242        -75.0107       -0.0104671         147.901
0.549                   -0.68653        -146.745         -55.0359        -77.9595         -55.0622        -77.8893       -0.0105751         147.831
0.55                    -0.70607        -147.291         -54.8612        -80.8341         -54.8841        -80.7713       -0.0106844         147.761
0.551                  -0.726012        -147.839         -54.6881         -83.711         -54.7077        -83.6557       -0.0107951         147.691
0.552                  -0.746359         -148.39         -54.5165        -86.5894         -54.5329        -86.5417       -0.0109073         147.621
0.553                  -0.767115        -148.942         -54.3467        -89.4684         -54.3599        -89.4284       -0.0110208         147.551
0.554                  -0.788282        -149.497         -54.1784         -92.347         -54.1886        -92.3149       -0.0111359          147.48
0.555                  -0.809865        -150.053         -54.0119        -95.2246         -54.0191        -95.2004       -0.0112523          147.41
0.556                  -0.831866        -150.612         -53.8471        -98.1003         -53.8515         -98.084       -0.0113703         147.339
0.557                  -0.854289        -151.173         -53.6839        -100.973         -53.6857        -100.965       -0.0114898         147.269
0.558                  -0.877137        -151.736         -53.5225        -103.843         -53.5217        -103.842       -0.0116108         147.198
0.559                  -0.900412        -152.301         -53.3627        -106.709         -53.3595        -106.716       -0.0117333         147.127
0.56                    -0.92412        -152.868         -53.2047         -109.57         -53.1991        -109.584       -0.0118573         147.056
0.561                  -0.948262        -153.438         -53.0482        -112.425         -53.0406        -112.447        -0.011983         146.984
0.562                  -0.972842        -154.009         -52.8934        -115.275         -52.8838        -115.304       -0.0121102         146.913
0.563                  -0.997863        -154.583         -52.7402        -118.118         -52.7287        -118.155        -0.012239         146.841
0.564                   -1.02333        -155.158         -52.5886        -120.954         -52.5754        -120.998       -0.0123695          146.77
0.565                   -1.04924        -155.736         -52.4386        -123.783         -52.4238        -123.833       -0.0125016         146.698
0.566                   -1.07561        -156.316           -52.29        -126.604         -52.2738        -126.661       -0.0126355         146.626
0.567                   -1.10243        -156.898         -52.1428        -129.416         -52.1254         -129.48        -0.012771         146.554
0.568                    -1.1297        -157.482         -51.9971        -132.221         -51.9785         -132.29       -0.0129082         146.482
0.569                   -1.15744        -158.068         -51.8527        -135.016         -51.8331        -135.091       -0.0130472          146.41
0.57                    -1.18564        -158.657         -51.7097        -137.803         -51.6892        -137.882        -0.013188         146.337
0.571                   -1.21431        -159.247         -51.5678         -140.58         -51.5466        -140.665       -0.0133306         146.265
0.572                   -1.24345         -159.84         -51.4272        -143.348         -51.4054        -143.437        -0.013475         146.192
0.573                   -1.27307        -160.435         -51.2877        -146.106         -51.2654          -146.2       -0.0136213         146.119
0.574                   -1.30316        -161.032         -51.1493        -148.855         -51.1266        -148.953       -0.0137694         146.046
0.575                   -1.33374        -161.632          -51.012        -151.595         -50.9889        -151.695       -0.0139195         145.973
0.576                    -1.3648        -162.233         -50.8755        -154.325         -50.8523        -154.428       -0.0140716         145.899
0.577                   -1.39635        -162.837         -50.7401        -157.046         -50.7167        -157.152       -0.0142257         145.826
0.578                   -1.42839        -163.443         -50.6054        -159.757         -50.5821        -159.865       -0.0143817         145.752
0.579                   -1.46093        -164.052         -50.4716        -162.459         -50.4483        -162.569       -0.0145399         145.678
0.58                    -1.49398        -164.662         -50.3385        -165.152         -50.3154        -165.263       -0.0147001         145.604
0.581                   -1.52753        -165.275         -50.2061        -167.836         -50.1832        -167.948       -0.0148625          145.53
0.582                   -1.56158        -165.891         -50.0743        -170.511         -50.0517        -170.624        -0.015027         145.456
0.583                   -1.59616        -166.508         -49.9432        -173.178         -49.9209        -173.291       -0.0151938         145.381
0.584                   -1.63125        -167.128         -49.8125        -175.836         -49.7907         -175.95       -0.0153628         145.307
0.585                   -1.66687        -167.751         -49.6824        -178.486          -49.661          -178.6       -0.0155341         145.232
0.586                   -1.70302        -168.376         -49.5527         178.871         -49.5318         178.758       -0.0157077         145.157
0.587                    -1.7397        -169.003         -49.4234         176.236         -49.4031         176.124       -0.0158838         145.082
0.588                   -1.77693        -169.633         -49.2944         173.608         -49.2747         173.497       -0.0160622         145.007
0.589                    -1.8147        -170.266         -49.1658         170.986         -49.1467         170.877       -0.0162432         144.931
0.59                    -1.85302        -170.901         -49.0375         168.371          -49.019         168.264       -0.0164266         144.856
0.591                   -1.89191        -171.539         -48.9094         165.763         -48.8916         165.657       -0.0166127          144.78
0.592                   -1.93136        -172.179         -48.7816         163.159         -48.7644         163.056       -0.0168014         144.704
0.593                   -1.97139        -172.822         -48.6539         160.562         -48.6374          160.46       -0.0169928         144.628
0.594                     -2.012        -173.468         -48.5264         157.969         -48.5106          157.87       -0.0171869         144.551
0.595                    -2.0532        -174.117          -48.399         155.381         -48.3839         155.285       -0.0173838         144.475
0.596                     -2.095        -174.768         -48.2717         152.797         -48.2574         152.703       -0.0175835         144.398
0.597                   -2.13741        -175.423         -48.1445         150.216         -48.1309         150.126       -0.0177862         144.321
0.598                   -2.18043         -176.08         -48.0174          147.64         -48.0045         147.553       -0.0179919         144.244
0.599                   -2.22409        -176.741         -47.8904         145.066         -47.8781         144.982       -0.0182006         144.167
0.6                     -2.26839        -177.404         -47.7633         142.495         -47.7518         142.415       -0.0184124         144.089
0.601                   -2.31334        -178.071         -47.6363         139.926         -47.6255         139.849       -0.0186274         144.012
0.602                   -2.35896        -178.741         -47.5093          137.36         -47.4992         137.286       -0.0188456         143.934
0.603                   -2.40526        -179.415         -47.3824         134.794         -47.3728         134.724       -0.0190671         143.856
0.604                   -2.45225         179.909         -47.2554          132.23         -47.2465         132.164       -0.0192921         143.777
0.605                   -2.49996         179.228         -47.1284         129.667         -47.1202         129.604       -0.0195204         143.699
0.606                   -2.54839         178.545         -47.0015         127.104         -46.9938         127.045       -0.0197523          143.62
0.607                   -2.59756         177.857         -46.8745         124.542         -46.8674         124.486       -0.0199879         143.541
0.608                   -2.64751         177.166         -46.7475         121.979          -46.741         121.926       -0.0202271         143.462
0.609                   -2.69823         176.472         -46.6206         119.415         -46.6146         119.366       -0.0204701         143.383
0.61                    -2.74977         175.773         -46.4936         116.851         -46.4881         116.806       -0.0207169         143.303
0.611                   -2.80213          175.07         -46.3667         114.286         -46.3617         114.243       -0.0209677         143.223
0.612                   -2.85536         174.364         -46.2398         111.719         -46.2353          111.68       -0.0212225         143.143
0.613                   -2.90946         173.653          -46.113          109.15         -46.1089         109.114       -0.0214814         143.063
0.614                   -2.96448         172.938         -45.9862         106.579         -45.9825         106.547       -0.0217446         142.982
0.615                   -3.02044         172.219         -45.8595         104.006         -45.8562         103.977        -0.022012         142.902
0.616                   -3.07738         171.495         -45.7328          101.43         -45.7299         101.404       -0.0222839         142.821
0.617                   -3.13532         170.767         -45.6063         98.8519         -45.6038         98.8285       -0.0225602          142.74
0.618                   -3.19432         170.035         -45.4799         96.2705         -45.4777         96.2499       -0.0228411         142.658
0.619                    -3.2544         169.298         -45.3537         93.6859         -45.3517          93.668       -0.0231268         142.576
0.62                    -3.31562         168.556         -45.2276         91.0979         -45.2259         91.0826       -0.0234172         142.495
0.621                   -3.37801         167.809         -45.1017         88.5064         -45.1003         88.4935       -0.0237125         142.412
0.622                   -3.44163         167.058          -44.976         85.9111         -44.9749         85.9005       -0.0240128          142.33
0.623                   -3.50652         166.302         -44.8506         83.3121         -44.8496         83.3036       -0.0243183         142.247
0.624                   -3.57274         165.541         -44.7254          80.709         -44.7247         80.7026       -0.0246289         142.164
0.625                   -3.64035         164.775         -44.6005         78.1019         -44.5999         78.0974       -0.0249449         142.081
0.626                    -3.7094         164.004          -44.476         75.4907         -44.4755         75.4879       -0.0252664         141.998
0.627                   -3.77997         163.228         -44.3518         72.8752         -44.3514          72.874       -0.0255934         141.914
0.628                   -3.85211         162.447         -44.2279         70.2555         -44.2277         70.2557        -0.025926          141.83
0.629                   -3.92591         161.662         -44.1044         67.6314         -44.1043          67.633       -0.0262645         141.745
