! TOUCHSTONE file generated by CST MICROWAVE STUDIO
! Date and time: Fri Oct  2 18:52:25 2020
! Project name: Scenario_1_Free_Space_out_of_line.cst
! Parameters = {Lambda=346.42; Step_1=17.321; dy1=122.207; dx1=173; L_HA=400; MT=2.54; Rad_Dielectric=30; Rad_Lower=7.3; Rad_Upper=30; a_HA=580; a_WG=246; b_HA=500; b_WG=121; c_HA=0; c_WG=187; d_feed=85; h_feed=15; h_lower=18; h_upper=40}
! Header version: 2018
! Port assignment regex: !\s*Touchstone port\s*([0-9]+)\s*=\s*(CST MWS port|CST DS port)\s*([0-9]+|Zmin|Zmax)\s*\(\"(.*)\"\)(\s*mode\s*([0-9]+))?.*
! Touchstone port assignment:
! Touchstone port 1 = CST MWS port 1 ("")
! Touchstone port 2 = CST MWS port 2 ("")
# GHz S DB R 50
0.5                    -0.153804        -122.673         -57.5309         159.302         -57.5309         159.302      -0.00655335         151.132
0.501                  -0.159416        -123.111         -57.3523         157.803         -57.3517           157.8       -0.0065969         151.066
0.502                  -0.165168         -123.55         -57.1738         156.312         -57.1726         156.305      -0.00664095         151.001
0.503                  -0.171064        -123.991         -56.9955         154.828         -56.9937         154.818       -0.0066855         150.935
0.504                  -0.177105        -124.434         -56.8172          153.35         -56.8149         153.337      -0.00673057          150.87
0.505                  -0.183295         -124.88         -56.6392         151.878         -56.6364         151.863      -0.00677615         150.804
0.506                  -0.189636        -125.327         -56.4614         150.413         -56.4581         150.395      -0.00682226         150.738
0.507                  -0.196133        -125.777         -56.2837         148.953           -56.28         148.933      -0.00686889         150.673
0.508                  -0.202787        -126.228         -56.1063         147.498         -56.1022         147.476      -0.00691606         150.607
0.509                  -0.209602        -126.682         -55.9292         146.048         -55.9247         146.025      -0.00696378         150.541
0.51                   -0.216582        -127.138         -55.7523         144.603         -55.7475         144.578      -0.00701205         150.475
0.511                   -0.22373        -127.596         -55.5757         143.162         -55.5706         143.135      -0.00706087         150.409
0.512                   -0.23105        -128.057         -55.3993         141.725          -55.394         141.697      -0.00711027         150.342
0.513                  -0.238544        -128.519         -55.2233         140.292         -55.2178         140.262      -0.00716025         150.276
0.514                  -0.246217        -128.984         -55.0476         138.862         -55.0418         138.831      -0.00721082          150.21
0.515                  -0.254073        -129.451         -54.8723         137.435         -54.8663         137.403        -0.007262         150.143
0.516                  -0.262116         -129.92         -54.6972         136.011         -54.6911         135.978      -0.00731379         150.077
0.517                  -0.270349        -130.392         -54.5225         134.589         -54.5162         134.556      -0.00736621          150.01
0.518                  -0.278777        -130.866         -54.3482          133.17         -54.3418         133.136      -0.00741928         149.943
0.519                  -0.287404        -131.342         -54.1742         131.753         -54.1677         131.719        -0.007473         149.876
0.52                   -0.296235        -131.821         -54.0006         130.338          -53.994         130.303      -0.00752741         149.809
0.521                  -0.305274        -132.302         -53.8273         128.924         -53.8207         128.889       -0.0075825         149.742
0.522                  -0.314525        -132.786         -53.6544         127.512         -53.6477         127.476      -0.00763832         149.675
0.523                  -0.323994        -133.271         -53.4819           126.1         -53.4752         126.065      -0.00769486         149.608
0.524                  -0.333685         -133.76         -53.3097          124.69         -53.3031         124.654      -0.00775216         149.541
0.525                  -0.343604        -134.251          -53.138          123.28         -53.1313         123.244      -0.00781024         149.473
0.526                  -0.353755        -134.744         -52.9666         121.871           -52.96         121.835      -0.00786913         149.406
0.527                  -0.364144         -135.24         -52.7957         120.462         -52.7891         120.426      -0.00792884         149.338
0.528                  -0.374776        -135.738         -52.6251         119.053         -52.6186         119.018       -0.0079894         149.271
0.529                  -0.385657        -136.239         -52.4549         117.644         -52.4485         117.609      -0.00805085         149.203
0.53                   -0.396793        -136.743         -52.2851         116.235         -52.2788           116.2      -0.00811322         149.135
0.531                   -0.40819        -137.249         -52.1158         114.826         -52.1095         114.791      -0.00817653         149.067
0.532                  -0.419853        -137.758         -51.9468         113.416         -51.9407         113.381      -0.00824083         148.999
0.533                  -0.431789         -138.27         -51.7782         112.005         -51.7722         111.971      -0.00830614         148.931
0.534                  -0.444005        -138.784         -51.6101         110.593         -51.6042          110.56       -0.0083725         148.863
0.535                  -0.456506        -139.301         -51.4424         109.181         -51.4366         109.147      -0.00843996         148.794
0.536                    -0.4693         -139.82          -51.275         107.767         -51.2694         107.734      -0.00850856         148.726
0.537                  -0.482393        -140.343         -51.1081         106.352         -51.1027         106.319      -0.00857834         148.657
0.538                  -0.495793        -140.868         -50.9417         104.935         -50.9364         104.903      -0.00864934         148.588
0.539                  -0.509506        -141.396         -50.7756         103.517         -50.7705         103.486      -0.00872162          148.52
0.54                   -0.523541        -141.926           -50.61         102.097          -50.605         102.067      -0.00879522         148.451
0.541                  -0.537905         -142.46         -50.4448         100.675           -50.44         100.646       -0.0088702         148.382
0.542                  -0.552605        -142.996           -50.28         99.2514         -50.2754         99.2228      -0.00894661         148.312
0.543                   -0.56765        -143.535         -50.1157         97.8258         -50.1112          97.798      -0.00902452         148.243
0.544                  -0.583048        -144.077         -49.9518          96.398         -49.9475          96.371      -0.00910397         148.174
0.545                  -0.598808        -144.622         -49.7883          94.968         -49.7842         94.9418      -0.00918503         148.104
0.546                  -0.614937         -145.17         -49.6253         93.5357         -49.6213         93.5103      -0.00926777         148.035
0.547                  -0.631445        -145.721         -49.4627          92.101         -49.4589         92.0765      -0.00935224         147.965
0.548                  -0.648341        -146.274         -49.3006         90.6638          -49.297         90.6402      -0.00943853         147.895
0.549                  -0.665633        -146.831         -49.1389          89.224         -49.1355         89.2013      -0.00952669         147.825
0.55                   -0.683332         -147.39         -48.9776         87.7816         -48.9745         87.7598       -0.0096168         147.755
0.551                  -0.701448        -147.953         -48.8169         86.3364         -48.8139         86.3156      -0.00970894         147.685
0.552                  -0.719989        -148.518         -48.6566         84.8885         -48.6537         84.8686      -0.00980317         147.614
0.553                  -0.738966        -149.087         -48.4967         83.4378         -48.4941         83.4188      -0.00989959         147.544
0.554                  -0.758389        -149.658         -48.3374         81.9841         -48.3349         81.9661      -0.00999825         147.473
0.555                  -0.778269        -150.233         -48.1785         80.5275         -48.1762         80.5105       -0.0100993         147.403
0.556                  -0.798617        -150.811         -48.0201         79.0678         -48.0179         79.0518       -0.0102027         147.332
0.557                  -0.819443        -151.391         -47.8621         77.6052         -47.8601         77.5901       -0.0103086         147.261
0.558                  -0.840759        -151.975         -47.7047         76.1394         -47.7028         76.1253       -0.0104171          147.19
0.559                  -0.862576        -152.561         -47.5477         74.6704          -47.546         74.6573       -0.0105282         147.118
0.56                   -0.884906        -153.151         -47.3913         73.1983         -47.3897         73.1862       -0.0106421         147.047
0.561                   -0.90776        -153.743         -47.2353          71.723         -47.2339         71.7119       -0.0107588         146.975
0.562                  -0.931151        -154.339         -47.0798         70.2445         -47.0786         70.2343       -0.0108784         146.904
0.563                   -0.95509        -154.938         -46.9249         68.7627         -46.9238         68.7535        -0.011001         146.832
0.564                   -0.97959        -155.539         -46.7705         67.2776         -46.7695         67.2693       -0.0111266          146.76
0.565                   -1.00466        -156.144         -46.6166         65.7892         -46.6157         65.7819       -0.0112554         146.688
0.566                   -1.03033        -156.752         -46.4632         64.2975         -46.4624         64.2912       -0.0113874         146.616
0.567                   -1.05659        -157.363         -46.3103         62.8025         -46.3097         62.7971       -0.0115226         146.544
0.568                   -1.08346        -157.976          -46.158         61.3042         -46.1575         61.2997       -0.0116612         146.471
0.569                   -1.11096        -158.593         -46.0062         59.8026         -46.0058         59.7989       -0.0118032         146.399
0.57                     -1.1391        -159.212          -45.855         58.2976         -45.8547         58.2948       -0.0119486         146.326
0.571                   -1.16789        -159.835         -45.7043         56.7893         -45.7041         56.7874       -0.0120975         146.253
0.572                   -1.19736         -160.46         -45.5542         55.2777         -45.5541         55.2766         -0.01225          146.18
0.573                    -1.2275        -161.088         -45.4046         53.7628         -45.4046         53.7625       -0.0124061         146.107
0.574                   -1.25834        -161.719         -45.2556         52.2446         -45.2557         52.2451       -0.0125658         146.033
0.575                   -1.28989        -162.353         -45.1072         50.7231         -45.1073         50.7244       -0.0127292          145.96
0.576                   -1.32216         -162.99         -44.9594         49.1984         -44.9595         49.2004       -0.0128962         145.886
0.577                   -1.35518        -163.629         -44.8121         47.6705         -44.8123         47.6732        -0.013067         145.813
0.578                   -1.38894        -164.271         -44.6654         46.1393         -44.6657         46.1427       -0.0132415         145.739
0.579                   -1.42348        -164.916         -44.5194          44.605         -44.5196         44.6091       -0.0134197         145.665
0.58                     -1.4588        -165.563         -44.3739         43.0676         -44.3742         43.0723       -0.0136016          145.59
0.581                   -1.49492        -166.213          -44.229         41.5271         -44.2293         41.5324       -0.0137872         145.516
0.582                   -1.53185        -166.865         -44.0847         39.9835         -44.0851         39.9894       -0.0139765         145.441
0.583                    -1.5696        -167.519         -43.9411         38.4369         -43.9415         38.4433       -0.0141695         145.367
0.584                   -1.60821        -168.176          -43.798         36.8874         -43.7984         36.8942       -0.0143662         145.292
0.585                   -1.64766        -168.836         -43.6556         35.3349          -43.656         35.3422       -0.0145664         145.217
0.586                   -1.68799        -169.497         -43.5138         33.7796         -43.5142         33.7873       -0.0147702         145.142
0.587                   -1.72921        -170.161         -43.3726         32.2214          -43.373         32.2296       -0.0149775         145.067
0.588                   -1.77132        -170.827          -43.232         30.6605         -43.2325          30.669       -0.0151883         144.991
0.589                   -1.81436        -171.494         -43.0921         29.0969         -43.0925         29.1057       -0.0154025         144.915
0.59                    -1.85832        -172.164         -42.9528         27.5306         -42.9533         27.5398       -0.0156201          144.84
0.591                   -1.90322        -172.835         -42.8142         25.9618         -42.8146         25.9712        -0.015841         144.764
0.592                   -1.94908        -173.508         -42.6762         24.3904         -42.6766            24.4       -0.0160651         144.688
0.593                   -1.99591        -174.183         -42.5388         22.8166         -42.5392         22.8264       -0.0162924         144.611
0.594                   -2.04372        -174.859         -42.4021         21.2405         -42.4025         21.2504       -0.0165227         144.535
0.595                   -2.09252        -175.537         -42.2661          19.662         -42.2664          19.672       -0.0167562         144.458
0.596                   -2.14234        -176.216         -42.1306         18.0813          -42.131         18.0914       -0.0169926         144.381
0.597                   -2.19317        -176.896         -41.9959         16.4984         -41.9962         16.5086       -0.0172319         144.304
0.598                   -2.24503        -177.577         -41.8618         14.9134          -41.862         14.9236       -0.0174741         144.227
0.599                   -2.29794        -178.259         -41.7283         13.3265         -41.7285         13.3366       -0.0177191          144.15
0.6                     -2.35189        -178.942         -41.5955         11.7376         -41.5957         11.7477       -0.0179668         144.072
0.601                   -2.40691        -179.625         -41.4633         10.1468         -41.4635         10.1568       -0.0182172         143.995
0.602                   -2.46299         179.691         -41.3318         8.55429          -41.332         8.56418       -0.0184702         143.917
0.603                   -2.52015         179.007         -41.2009         6.96007         -41.2011         6.96982       -0.0187258         143.839
0.604                    -2.5784         178.322         -41.0707         5.36425         -41.0708         5.37383        -0.018984         143.761
0.605                   -2.63774         177.638         -40.9412          3.7669         -40.9412         3.77629       -0.0192447         143.682
0.606                   -2.69818         176.953         -40.8122         2.16811         -40.8123         2.17728       -0.0195079         143.603
0.607                   -2.75972         176.269         -40.6839        0.567957         -40.6839        0.576882       -0.0197736         143.524
0.608                   -2.82237         175.585         -40.5563        -1.03347         -40.5563        -1.02481       -0.0200418         143.445
0.609                   -2.88613         174.901         -40.4292        -2.63609         -40.4292        -2.62771       -0.0203124         143.366
0.61                      -2.951         174.219         -40.3028        -4.23982         -40.3028        -4.23174       -0.0205854         143.287
0.611                   -3.01698         173.537         -40.1771        -5.84457          -40.177        -5.83681        -0.020861         143.207
0.612                   -3.08408         172.856         -40.0519        -7.45026         -40.0518        -7.44284       -0.0211391         143.127
0.613                   -3.15229         172.176         -39.9274        -9.05682         -39.9272        -9.04974       -0.0214196         143.047
0.614                   -3.22161         171.498         -39.8034        -10.6642         -39.8033        -10.6574       -0.0217027         142.966
0.615                   -3.29204         170.822         -39.6801        -12.2722         -39.6799        -12.2658       -0.0219885         142.886
0.616                   -3.36357         170.147         -39.5573        -13.8808         -39.5572        -13.8749       -0.0222768         142.805
0.617                   -3.43619         169.473         -39.4352          -15.49          -39.435        -15.4844       -0.0225679         142.724
0.618                   -3.50991         168.802         -39.3136        -17.0997         -39.3134        -17.0944       -0.0228618         142.643
0.619                    -3.5847         168.134         -39.1926        -18.7097         -39.1924        -18.7049       -0.0231585         142.561
0.62                    -3.66057         167.467         -39.0721          -20.32         -39.0719        -20.3156       -0.0234581         142.479
0.621                    -3.7375         166.803         -38.9522        -21.9306          -38.952        -21.9266       -0.0237607         142.397
0.622                   -3.81548         166.142         -38.8329        -23.5413         -38.8327        -23.5377       -0.0240665         142.315
0.623                   -3.89449         165.484         -38.7141        -25.1522         -38.7139        -25.1489       -0.0243755         142.232
0.624                   -3.97452         164.828         -38.5958         -26.763         -38.5956        -26.7601       -0.0246879         142.149
0.625                   -4.05555         164.176          -38.478        -28.3739         -38.4778        -28.3713       -0.0250037         142.066
0.626                   -4.13757         163.527         -38.3607        -29.9846         -38.3605        -29.9824       -0.0253232         141.983
0.627                   -4.22056         162.882         -38.2439        -31.5952         -38.2437        -31.5933       -0.0256464         141.899
0.628                   -4.30449          162.24         -38.1276        -33.2055         -38.1274         -33.204       -0.0259734         141.815
0.629                   -4.38934         161.601         -38.0117        -34.8156         -38.0116        -34.8145       -0.0263046         141.731
