! TOUCHSTONE file generated by CST MICROWAVE STUDIO
! Date and time: Fri Oct  2 16:31:08 2020
! Project name: Scenario_1_Free_Space_out_of_line.cst
! Parameters = {Lambda=346.42; Step_1=17.321; dy1=122.207; dx1=346; L_HA=400; MT=2.54; Rad_Dielectric=30; Rad_Lower=7.3; Rad_Upper=30; a_HA=580; a_WG=246; b_HA=500; b_WG=121; c_HA=0; c_WG=187; d_feed=85; h_feed=15; h_lower=18; h_upper=40}
! Header version: 2018
! Port assignment regex: !\s*Touchstone port\s*([0-9]+)\s*=\s*(CST MWS port|CST DS port)\s*([0-9]+|Zmin|Zmax)\s*\(\"(.*)\"\)(\s*mode\s*([0-9]+))?.*
! Touchstone port assignment:
! Touchstone port 1 = CST MWS port 1 ("")
! Touchstone port 2 = CST MWS port 2 ("")
# GHz S DB R 50
0.5                    -0.144187        -122.666         -59.6707         74.4439         -59.6707         74.4439      -0.00660481         151.133
0.501                  -0.158836        -123.034         -59.5889         72.2749         -59.5889         72.2749       -0.0066716         151.068
0.502                  -0.173314        -123.404            -59.5         70.1054            -59.5         70.1053      -0.00673941         151.002
0.503                  -0.187624        -123.778         -59.4041         67.9376         -59.4041         67.9375      -0.00680823         150.937
0.504                  -0.201771        -124.154         -59.3013         65.7739         -59.3013         65.7738      -0.00687807         150.872
0.505                  -0.215757        -124.533         -59.1917         63.6165         -59.1917         63.6163      -0.00694893         150.806
0.506                  -0.229588        -124.916         -59.0755         61.4673         -59.0755         61.4672      -0.00702082         150.741
0.507                  -0.243266        -125.301         -58.9529         59.3285         -58.9528         59.3283      -0.00709374         150.675
0.508                  -0.256797         -125.69          -58.824         57.2018         -58.8239         57.2016       -0.0071677         150.609
0.509                  -0.270184        -126.081          -58.689         55.0889          -58.689         55.0888      -0.00724269         150.543
0.51                   -0.283434        -126.477         -58.5483         52.9914         -58.5482         52.9913      -0.00731872         150.477
0.511                  -0.296551        -126.875          -58.402         50.9107         -58.4019         50.9106       -0.0073958         150.411
0.512                   -0.30954        -127.277         -58.2504          48.848         -58.2503         48.8478      -0.00747394         150.345
0.513                  -0.322407        -127.683         -58.0937         46.8043         -58.0936         46.8042      -0.00755312         150.279
0.514                  -0.335158        -128.092         -57.9323         44.7806         -57.9322         44.7805      -0.00763337         150.213
0.515                  -0.347799        -128.504         -57.7663         42.7776         -57.7662         42.7775      -0.00771469         150.147
0.516                  -0.360337        -128.921         -57.5962          40.796         -57.5961         40.7958      -0.00779707          150.08
0.517                  -0.372778        -129.341          -57.422          38.836         -57.4219         38.8359      -0.00788053         150.014
0.518                   -0.38513        -129.765         -57.2442         36.8981         -57.2441          36.898      -0.00796508         149.947
0.519                    -0.3974        -130.194         -57.0629         34.9825         -57.0628         34.9824       -0.0080507         149.881
0.52                   -0.409595        -130.626         -56.8784         33.0891         -56.8783          33.089      -0.00813743         149.814
0.521                  -0.421725        -131.062          -56.691          31.218         -56.6909         31.2179      -0.00822524         149.747
0.522                  -0.433796        -131.502         -56.5008          29.369         -56.5007         29.3689      -0.00831417          149.68
0.523                  -0.445819        -131.947         -56.3082         27.5418         -56.3081         27.5417       -0.0084042         149.613
0.524                  -0.457802        -132.396         -56.1133         25.7361         -56.1132         25.7361      -0.00849535         149.546
0.525                  -0.469754        -132.849         -55.9164         23.9515         -55.9163         23.9515      -0.00858762         149.479
0.526                  -0.481687        -133.307         -55.7176         22.1875         -55.7175         22.1875      -0.00868102         149.412
0.527                  -0.493609        -133.769         -55.5171         20.4437          -55.517         20.4437      -0.00877555         149.344
0.528                  -0.505532        -134.236         -55.3152         18.7193         -55.3151         18.7193      -0.00887123         149.277
0.529                  -0.517468        -134.707         -55.1119         17.0139         -55.1118         17.0139      -0.00896806         149.209
0.53                   -0.529427        -135.184         -54.9074         15.3267         -54.9073         15.3268      -0.00906604         149.141
0.531                  -0.541421        -135.665         -54.7019         13.6572         -54.7018         13.6572      -0.00916519         149.074
0.532                  -0.553464        -136.151         -54.4955         12.0044         -54.4954         12.0045      -0.00926551         149.006
0.533                  -0.565568        -136.642         -54.2883         10.3679         -54.2882         10.3679        -0.009367         148.938
0.534                  -0.577746        -137.138         -54.0804         8.74673         -54.0803         8.74677      -0.00946969          148.87
0.535                  -0.590013        -137.639          -53.872         7.14026         -53.8719          7.1403      -0.00957357         148.802
0.536                  -0.602383        -138.145         -53.6631         5.54771         -53.6631         5.54775      -0.00967865         148.733
0.537                  -0.614871        -138.656         -53.4539         3.96833         -53.4538         3.96837      -0.00978495         148.665
0.538                  -0.627492        -139.173         -53.2444         2.40136         -53.2444         2.40141      -0.00989247         148.597
0.539                  -0.640262        -139.695         -53.0348        0.846066         -53.0347         0.84611       -0.0100012         148.528
0.54                   -0.653198        -140.222          -52.825       -0.698313         -52.8249        -0.69827       -0.0101112         148.459
0.541                  -0.666317        -140.755         -52.6151        -2.23251          -52.615        -2.23247       -0.0102224         148.391
0.542                  -0.679636        -141.294         -52.4052        -3.75727         -52.4052        -3.75723       -0.0103349         148.322
0.543                  -0.693173        -141.838         -52.1954         -5.2733         -52.1954        -5.27326       -0.0104487         148.253
0.544                  -0.706947        -142.388         -51.9858        -6.78132         -51.9857        -6.78129       -0.0105637         148.184
0.545                  -0.720977        -142.943         -51.7762        -8.28204         -51.7762        -8.28202         -0.01068         148.114
0.546                  -0.735282        -143.504         -51.5669        -9.77615         -51.5669        -9.77613       -0.0107977         148.045
0.547                  -0.749884        -144.071         -51.3578        -11.2643         -51.3578        -11.2643       -0.0109166         147.976
0.548                  -0.764803        -144.644          -51.149        -12.7473          -51.149        -12.7472       -0.0110369         147.906
0.549                   -0.78006        -145.222         -50.9406        -14.2256         -50.9405        -14.2256       -0.0111584         147.836
0.55                   -0.795677        -145.807         -50.7324        -15.6999         -50.7324        -15.6999       -0.0112814         147.767
0.551                  -0.811676        -146.398         -50.5247         -17.171         -50.5247         -17.171       -0.0114056         147.697
0.552                  -0.828082        -146.994         -50.3173        -18.6393         -50.3173        -18.6393       -0.0115313         147.627
0.553                  -0.844916        -147.597         -50.1104        -20.1055         -50.1104        -20.1055       -0.0116583         147.557
0.554                  -0.862204        -148.205          -49.904        -21.5702         -49.9039        -21.5703       -0.0117867         147.486
0.555                  -0.879969         -148.82          -49.698         -23.034         -49.6979        -23.0341       -0.0119166         147.416
0.556                  -0.898237         -149.44         -49.4925        -24.4975         -49.4925        -24.4975       -0.0120478         147.345
0.557                  -0.917034        -150.067         -49.2875        -25.9611         -49.2875        -25.9612       -0.0121805         147.275
0.558                  -0.936385          -150.7         -49.0831        -27.4255         -49.0831        -27.4256       -0.0123146         147.204
0.559                  -0.956317        -151.339         -48.8792        -28.8912         -48.8792        -28.8913       -0.0124502         147.133
0.56                   -0.976857        -151.984         -48.6759        -30.3586         -48.6759        -30.3588       -0.0125872         147.062
0.561                  -0.998031        -152.635         -48.4732        -31.8284         -48.4732        -31.8286       -0.0127258         146.991
0.562                   -1.01987        -153.292         -48.2711        -33.3011         -48.2711        -33.3012       -0.0128658          146.92
0.563                    -1.0424        -153.956         -48.0697         -34.777         -48.0697        -34.7771       -0.0130074         146.849
0.564                   -1.06564        -154.625         -47.8689        -36.2567         -47.8689        -36.2568       -0.0131505         146.777
0.565                   -1.08964          -155.3         -47.6687        -37.7406         -47.6688        -37.7408       -0.0132951         146.705
0.566                   -1.11441        -155.981         -47.4693        -39.2293         -47.4693        -39.2295       -0.0134413         146.634
0.567                   -1.13999        -156.668         -47.2706        -40.7231         -47.2706        -40.7233       -0.0135891         146.562
0.568                    -1.1664         -157.36         -47.0726        -42.2224         -47.0726        -42.2227       -0.0137385          146.49
0.569                   -1.19367        -158.059         -46.8753        -43.7278         -46.8754         -43.728       -0.0138896         146.417
0.57                    -1.22184        -158.763         -46.6789        -45.2396         -46.6789        -45.2398       -0.0140422         146.345
0.571                   -1.25093        -159.473         -46.4832        -46.7581         -46.4833        -46.7584       -0.0141966         146.273
0.572                   -1.28097        -160.188         -46.2884        -48.2839         -46.2884        -48.2842       -0.0143526           146.2
0.573                     -1.312        -160.908         -46.0944        -49.8172         -46.0945        -49.8175       -0.0145103         146.127
0.574                   -1.34403        -161.634         -45.9013        -51.3584         -45.9013        -51.3587       -0.0146697         146.054
0.575                    -1.3771        -162.365         -45.7091        -52.9079         -45.7092        -52.9082       -0.0148308         145.981
0.576                   -1.41124        -163.101         -45.5178         -54.466         -45.5179        -54.4663       -0.0149937         145.908
0.577                   -1.44648        -163.842         -45.3275         -56.033         -45.3276        -56.0333       -0.0151584         145.835
0.578                   -1.48284        -164.588         -45.1382        -57.6092         -45.1383        -57.6095       -0.0153249         145.761
0.579                   -1.52035        -165.338         -44.9499        -59.1949           -44.95        -59.1953       -0.0154932         145.688
0.58                    -1.55904        -166.093         -44.7627        -60.7905         -44.7628        -60.7908       -0.0156633         145.614
0.581                   -1.59893        -166.853         -44.5766         -62.396         -44.5767        -62.3964       -0.0158353          145.54
0.582                   -1.64005        -167.616         -44.3916        -64.0119         -44.3917        -64.0123       -0.0160092         145.466
0.583                   -1.68243        -168.383         -44.2078        -65.6383         -44.2079        -65.6387       -0.0161851         145.392
0.584                   -1.72608        -169.154         -44.0252        -67.2755         -44.0254        -67.2758       -0.0163628         145.317
0.585                   -1.77104        -169.929         -43.8439        -68.9235          -43.844        -68.9239       -0.0165426         145.243
0.586                   -1.81732        -170.707         -43.6639        -70.5827          -43.664        -70.5831       -0.0167243         145.168
0.587                   -1.86494        -171.488         -43.4852        -72.2531         -43.4853        -72.2535        -0.016908         145.093
0.588                   -1.91393        -172.273         -43.3079        -73.9349          -43.308        -73.9353       -0.0170938         145.018
0.589                    -1.9643        -173.059          -43.132        -75.6282         -43.1322        -75.6286       -0.0172817         144.942
0.59                    -2.01607        -173.849         -42.9576        -77.3331         -42.9578        -77.3335       -0.0174717         144.867
0.591                   -2.06926        -174.641         -42.7848        -79.0496         -42.7849        -79.0501       -0.0176638         144.791
0.592                   -2.12389        -175.434         -42.6135        -80.7779         -42.6136        -80.7783        -0.017858         144.716
0.593                   -2.17996         -176.23         -42.4438        -82.5179         -42.4439        -82.5183       -0.0180545          144.64
0.594                   -2.23749        -177.027         -42.2758        -84.2696         -42.2759          -84.27       -0.0182532         144.563
0.595                   -2.29649        -177.825         -42.1095         -86.033         -42.1097        -86.0334       -0.0184541         144.487
0.596                   -2.35697        -178.624          -41.945         -87.808         -41.9451        -87.8084       -0.0186574         144.411
0.597                   -2.41893        -179.424         -41.7823        -89.5946         -41.7824         -89.595       -0.0188629         144.334
0.598                   -2.48239         179.775         -41.6214        -91.3926         -41.6216         -91.393       -0.0190708         144.257
0.599                   -2.54735         178.974         -41.4625        -93.2019         -41.4627        -93.2024       -0.0192812          144.18
0.6                     -2.61382         178.174         -41.3056        -95.0225         -41.3057        -95.0229       -0.0194939         144.103
0.601                   -2.68178         177.373         -41.1506         -96.854         -41.1508        -96.8544       -0.0197091         144.025
0.602                   -2.75125         176.573         -40.9977        -98.6962         -40.9979        -98.6966       -0.0199268         143.948
0.603                   -2.82223         175.775         -40.8469        -100.549         -40.8471        -100.549       -0.0201471          143.87
0.604                    -2.8947         174.977         -40.6982        -102.412         -40.6984        -102.412       -0.0203699         143.792
0.605                   -2.96867          174.18         -40.5517        -104.285         -40.5519        -104.285       -0.0205954         143.713
0.606                   -3.04412         173.386         -40.4074        -106.168         -40.4076        -106.168       -0.0208235         143.635
0.607                   -3.12106         172.593         -40.2654         -108.06         -40.2656         -108.06       -0.0210544         143.556
0.608                   -3.19947         171.802         -40.1256        -109.961         -40.1258        -109.961        -0.021288         143.477
0.609                   -3.27934         171.014         -39.9882         -111.87         -39.9884        -111.871       -0.0215244         143.398
0.61                    -3.36066         170.229          -39.853        -113.788         -39.8532        -113.788       -0.0217636         143.319
0.611                   -3.44342         169.446         -39.7203        -115.713         -39.7205        -115.714       -0.0220057         143.239
0.612                   -3.52759         168.667         -39.5899        -117.646         -39.5901        -117.646       -0.0222508          143.16
0.613                   -3.61317         167.891         -39.4618        -119.586         -39.4621        -119.586       -0.0224989          143.08
0.614                   -3.70014         167.119         -39.3362        -121.532         -39.3364        -121.532         -0.02275         142.999
0.615                   -3.78848         166.351          -39.213        -123.483         -39.2132        -123.484       -0.0230042         142.919
0.616                   -3.87816         165.587         -39.0922         -125.44         -39.0924        -125.441       -0.0232616         142.838
0.617                   -3.96917         164.827         -38.9738        -127.403          -38.974        -127.403       -0.0235221         142.757
0.618                   -4.06149         164.072         -38.8578        -129.369          -38.858        -129.369        -0.023786         142.676
0.619                   -4.15508         163.322         -38.7442        -131.339         -38.7444        -131.339       -0.0240531         142.595
0.62                    -4.24994         162.577         -38.6329        -133.313         -38.6332        -133.313       -0.0243236         142.513
0.621                   -4.34603         161.837          -38.524        -135.289         -38.5242        -135.289       -0.0245976         142.431
0.622                   -4.44333         161.102         -38.4175        -137.268         -38.4177        -137.268       -0.0248751         142.349
0.623                   -4.54181         160.373         -38.3132        -139.248         -38.3134        -139.248       -0.0251562         142.267
0.624                   -4.64145         159.649         -38.2112         -141.23         -38.2114         -141.23       -0.0254409         142.184
0.625                   -4.74222         158.931         -38.1114        -143.212         -38.1116        -143.212       -0.0257294         142.101
0.626                   -4.84409          158.22         -38.0137        -145.195         -38.0139        -145.195       -0.0260216         142.018
0.627                   -4.94703         157.514         -37.9182        -147.177         -37.9184        -147.177       -0.0263177         141.935
0.628                   -5.05102         156.815         -37.8249        -149.159          -37.825        -149.159       -0.0266177         141.851
0.629                   -5.15602         156.122         -37.7335        -151.139         -37.7337        -151.139       -0.0269218         141.767
