! TOUCHSTONE file generated by CST MICROWAVE STUDIO
! Date and time: Fri Oct  2 16:39:05 2020
! Project name: Scenario_1_Free_Space_out_of_line.cst
! Parameters = {Lambda=346.42; Step_1=17.321; dy1=122.207; dx1=520; L_HA=400; MT=2.54; Rad_Dielectric=30; Rad_Lower=7.3; Rad_Upper=30; a_HA=580; a_WG=246; b_HA=500; b_WG=121; c_HA=0; c_WG=187; d_feed=85; h_feed=15; h_lower=18; h_upper=40}
! Header version: 2018
! Port assignment regex: !\s*Touchstone port\s*([0-9]+)\s*=\s*(CST MWS port|CST DS port)\s*([0-9]+|Zmin|Zmax)\s*\(\"(.*)\"\)(\s*mode\s*([0-9]+))?.*
! Touchstone port assignment:
! Touchstone port 1 = CST MWS port 1 ("")
! Touchstone port 2 = CST MWS port 2 ("")
# GHz S DB R 50
0.5                    -0.151185        -122.696          -61.288        -22.9056          -61.288        -22.9056      -0.00669125         151.124
0.501                   -0.15582        -123.155         -61.1084        -24.5693         -61.1082         -24.567      -0.00673842         151.058
0.502                  -0.160696        -123.615         -60.9282        -26.2363         -60.9279        -26.2317      -0.00678682         150.993
0.503                  -0.165815        -124.078         -60.7475        -27.9068         -60.7471        -27.9001      -0.00683647         150.927
0.504                  -0.171181        -124.542         -60.5663         -29.581         -60.5658        -29.5722      -0.00688736         150.861
0.505                  -0.176796        -125.007         -60.3846         -31.259          -60.384        -31.2483       -0.0069395         150.795
0.506                  -0.182662        -125.475         -60.2025        -32.9411         -60.2017        -32.9285       -0.0069929          150.73
0.507                  -0.188781        -125.944         -60.0199        -34.6274          -60.019        -34.6131      -0.00704756         150.664
0.508                  -0.195156        -126.415         -59.8368        -36.3181         -59.8359        -36.3023      -0.00710349         150.598
0.509                  -0.201789        -126.888         -59.6534        -38.0134         -59.6524        -37.9961      -0.00716068         150.532
0.51                   -0.208683        -127.362         -59.4696        -39.7136         -59.4685        -39.6948      -0.00721915         150.465
0.511                  -0.215839        -127.838         -59.2855        -41.4187         -59.2843        -41.3986       -0.0072789         150.399
0.512                  -0.223262        -128.316         -59.1011        -43.1289         -59.0999        -43.1076      -0.00733993         150.333
0.513                  -0.230953        -128.795         -58.9164        -44.8445         -58.9151        -44.8221      -0.00740226         150.266
0.514                  -0.238914        -129.276         -58.7315        -46.5655         -58.7301        -46.5421      -0.00746588           150.2
0.515                  -0.247148        -129.759         -58.5463        -48.2922         -58.5449        -48.2678       -0.0075308         150.133
0.516                  -0.255657        -130.244         -58.3609        -50.0247         -58.3595        -49.9995      -0.00759702         150.067
0.517                  -0.264445         -130.73         -58.1754        -51.7632         -58.1739        -51.7371      -0.00766456             150
0.518                  -0.273513        -131.218         -57.9897        -53.5077         -57.9881         -53.481      -0.00773341         149.933
0.519                  -0.282864        -131.708         -57.8039        -55.2585         -57.8023        -55.2312      -0.00780359         149.866
0.52                   -0.292501          -132.2          -57.618        -57.0156         -57.6164        -56.9879       -0.0078751         149.799
0.521                  -0.302425        -132.693         -57.4321        -58.7793         -57.4304        -58.7511      -0.00794794         149.732
0.522                  -0.312641        -133.188         -57.2461        -60.5496         -57.2444         -60.521      -0.00802212         149.665
0.523                   -0.32315        -133.685         -57.0602        -62.3266         -57.0585        -62.2978      -0.00809765         149.598
0.524                  -0.333955        -134.184         -56.8742        -64.1105         -56.8725        -64.0815      -0.00817454          149.53
0.525                  -0.345058        -134.684         -56.6884        -65.9013         -56.6866        -65.8722      -0.00825278         149.463
0.526                  -0.356463        -135.186         -56.5026        -67.6992         -56.5008          -67.67       -0.0083324         149.395
0.527                  -0.368171         -135.69          -56.317        -69.5042         -56.3152         -69.475      -0.00841338         149.328
0.528                  -0.380186        -136.196         -56.1315        -71.3164         -56.1297        -71.2873      -0.00849575          149.26
0.529                   -0.39251        -136.703         -55.9462        -73.1359         -55.9444        -73.1069      -0.00857951         149.192
0.53                   -0.405145        -137.212         -55.7612        -74.9627         -55.7593        -74.9339      -0.00866466         149.124
0.531                  -0.418095        -137.723         -55.5764        -76.7968         -55.5745        -76.7684      -0.00875121         149.056
0.532                  -0.431363        -138.236         -55.3919        -78.6384           -55.39        -78.6103      -0.00883917         148.988
0.533                   -0.44495         -138.75         -55.2077        -80.4874         -55.2058        -80.4597      -0.00892855          148.92
0.534                  -0.458861        -139.267         -55.0238        -82.3439          -55.022        -82.3166      -0.00901936         148.852
0.535                  -0.473096        -139.785         -54.8404        -84.2078         -54.8386         -84.181      -0.00911159         148.783
0.536                   -0.48766        -140.305         -54.6574        -86.0792         -54.6556        -86.0529      -0.00920527         148.715
0.537                  -0.502556        -140.826         -54.4748         -87.958          -54.473        -87.9323       -0.0093004         148.646
0.538                  -0.517785         -141.35         -54.2928        -89.8442          -54.291        -89.8192      -0.00939699         148.578
0.539                  -0.533351        -141.875         -54.1112        -91.7379         -54.1094        -91.7134      -0.00949504         148.509
0.54                   -0.549257        -142.402         -53.9303        -93.6388         -53.9285        -93.6151      -0.00959457          148.44
0.541                  -0.565505        -142.931         -53.7499         -95.547         -53.7481         -95.524      -0.00969558         148.371
0.542                  -0.582099        -143.462         -53.5701        -97.4625         -53.5684        -97.4402      -0.00979809         148.302
0.543                  -0.599041        -143.994          -53.391         -99.385         -53.3893        -99.3635       -0.0099021         148.233
0.544                  -0.616336        -144.529         -53.2126        -101.315         -53.2109        -101.294       -0.0100076         148.163
0.545                  -0.633984        -145.065         -53.0349        -103.251         -53.0332        -103.231       -0.0101147         148.094
0.546                  -0.651991        -145.603          -52.858        -105.194         -52.8563        -105.175       -0.0102232         148.025
0.547                  -0.670357        -146.143         -52.6818        -107.144         -52.6802        -107.126       -0.0103334         147.955
0.548                  -0.689088        -146.684         -52.5065        -109.101         -52.5049        -109.083        -0.010445         147.885
0.549                  -0.708186        -147.228          -52.332        -111.063         -52.3304        -111.047       -0.0105583         147.815
0.55                   -0.727654        -147.773         -52.1584        -113.032         -52.1568        -113.017       -0.0106731         147.745
0.551                  -0.747495        -148.321         -51.9856        -115.007         -51.9841        -114.993       -0.0107895         147.675
0.552                  -0.767713         -148.87         -51.8138        -116.988         -51.8123        -116.975       -0.0109074         147.605
0.553                  -0.788311        -149.421         -51.6429        -118.975         -51.6415        -118.962        -0.011027         147.535
0.554                  -0.809292        -149.974          -51.473        -120.967         -51.4716        -120.955       -0.0111483         147.464
0.555                   -0.83066        -150.529         -51.3041        -122.964         -51.3027        -122.953       -0.0112711         147.394
0.556                  -0.852419        -151.086         -51.1362        -124.966         -51.1348        -124.957       -0.0113956         147.323
0.557                   -0.87457        -151.644         -50.9693        -126.973          -50.968        -126.965       -0.0115217         147.252
0.558                  -0.897119        -152.205         -50.8034        -128.985         -50.8022        -128.977       -0.0116496         147.182
0.559                  -0.920069        -152.768         -50.6386        -131.001         -50.6375        -130.994       -0.0117791         147.111
0.56                   -0.943424        -153.332         -50.4749        -133.021         -50.4738        -133.015       -0.0119102         147.039
0.561                  -0.967186        -153.899         -50.3123        -135.045         -50.3112        -135.039       -0.0120432         146.968
0.562                  -0.991361        -154.467         -50.1507        -137.072         -50.1497        -137.068       -0.0121778         146.897
0.563                   -1.01595        -155.037         -49.9903        -139.103         -49.9893        -139.099       -0.0123142         146.825
0.564                   -1.04096         -155.61         -49.8309        -141.136           -49.83        -141.134       -0.0124523         146.754
0.565                    -1.0664        -156.184         -49.6727        -143.173         -49.6718        -143.171       -0.0125922         146.682
0.566                   -1.09226        -156.761         -49.5155        -145.212         -49.5147        -145.211       -0.0127339          146.61
0.567                   -1.11855        -157.339         -49.3595        -147.253         -49.3588        -147.253       -0.0128774         146.538
0.568                   -1.14528        -157.919         -49.2046        -149.296         -49.2039        -149.297       -0.0130227         146.466
0.569                   -1.17245        -158.502         -49.0508        -151.341         -49.0502        -151.343       -0.0131698         146.393
0.57                    -1.20007        -159.086         -48.8981        -153.388         -48.8975         -153.39       -0.0133188         146.321
0.571                   -1.22814        -159.673         -48.7464        -155.436         -48.7459        -155.438       -0.0134697         146.248
0.572                   -1.25666        -160.262         -48.5959        -157.484         -48.5955        -157.487       -0.0136224         146.175
0.573                   -1.28564        -160.853         -48.4464        -159.534          -48.446        -159.537       -0.0137771         146.102
0.574                   -1.31508        -161.446          -48.298        -161.583         -48.2977        -161.588       -0.0139337         146.029
0.575                   -1.34499        -162.041         -48.1506        -163.634         -48.1503        -163.638       -0.0140922         145.956
0.576                   -1.37538        -162.638         -48.0042        -165.684          -48.004        -165.689       -0.0142527         145.883
0.577                   -1.40624        -163.237         -47.8589        -167.734         -47.8587        -167.739       -0.0144152         145.809
0.578                   -1.43759        -163.839         -47.7145        -169.783         -47.7144        -169.789       -0.0145797         145.736
0.579                   -1.46943        -164.443         -47.5711        -171.832         -47.5711        -171.839       -0.0147463         145.662
0.58                    -1.50177        -165.049         -47.4286         -173.88         -47.4287        -173.887       -0.0149149         145.588
0.581                   -1.53461        -165.657         -47.2871        -175.927         -47.2872        -175.935       -0.0150856         145.514
0.582                   -1.56795        -166.267         -47.1464        -177.973         -47.1466        -177.981       -0.0152584          145.44
0.583                   -1.60181         -166.88         -47.0066         179.982         -47.0068         179.974       -0.0154333         145.365
0.584                   -1.63619        -167.495         -46.8677         177.939         -46.8679         177.931       -0.0156104         145.291
0.585                    -1.6711        -168.113         -46.7296         175.897         -46.7298         175.889       -0.0157896         145.216
0.586                   -1.70654        -168.732         -46.5922         173.857         -46.5926         173.849       -0.0159711         145.141
0.587                   -1.74252        -169.354         -46.4556         171.819          -46.456         171.811       -0.0161548         145.066
0.588                   -1.77905        -169.979         -46.3198         169.783         -46.3202         169.774       -0.0163408         144.991
0.589                   -1.81614        -170.606         -46.1847         167.749         -46.1851          167.74       -0.0165291         144.916
0.59                    -1.85378        -171.235         -46.0502         165.717         -46.0507         165.708       -0.0167197          144.84
0.591                     -1.892        -171.867         -45.9163         163.687         -45.9169         163.678       -0.0169126         144.764
0.592                    -1.9308        -172.502         -45.7831          161.66         -45.7837         161.651        -0.017108         144.688
0.593                   -1.97018        -173.139         -45.6505         159.634         -45.6511         159.625       -0.0173058         144.612
0.594                   -2.01017        -173.778         -45.5184         157.611          -45.519         157.602        -0.017506         144.536
0.595                   -2.05075         -174.42         -45.3868         155.591         -45.3875         155.582       -0.0177088          144.46
0.596                   -2.09195        -175.065         -45.2558         153.572         -45.2564         153.563       -0.0179141         144.383
0.597                   -2.13378        -175.712         -45.1252         151.556         -45.1259         151.548        -0.018122         144.306
0.598                   -2.17624        -176.362          -44.995         149.543         -44.9957         149.534       -0.0183325         144.229
0.599                   -2.21935        -177.015         -44.8653         147.531          -44.866         147.522       -0.0185457         144.152
0.6                     -2.26312        -177.671         -44.7359         145.522         -44.7366         145.513       -0.0187615         144.074
0.601                   -2.30755        -178.329         -44.6069         143.515         -44.6076         143.506       -0.0189802         143.997
0.602                   -2.35266         -178.99         -44.4782          141.51          -44.479         141.502       -0.0192016         143.919
0.603                   -2.39847        -179.654         -44.3498         139.507         -44.3506         139.499       -0.0194259         143.841
0.604                   -2.44497         179.679         -44.2218         137.506         -44.2225         137.498       -0.0196531         143.763
0.605                    -2.4922         179.009          -44.094         135.507         -44.0947           135.5       -0.0198832         143.685
0.606                   -2.54016         178.336         -43.9664          133.51         -43.9672         133.503       -0.0201163         143.606
0.607                   -2.58887          177.66          -43.839         131.514         -43.8398         131.507       -0.0203525         143.527
0.608                   -2.63833         176.981         -43.7119         129.521         -43.7127         129.514       -0.0205918         143.448
0.609                   -2.68858         176.299         -43.5849         127.528         -43.5857         127.522       -0.0208343         143.369
0.61                    -2.73961         175.614         -43.4581         125.537         -43.4589         125.531       -0.0210801         143.289
0.611                   -2.79146         174.925         -43.3315         123.548         -43.3323         123.542       -0.0213291          143.21
0.612                   -2.84413         174.234          -43.205         121.559         -43.2058         121.553       -0.0215816          143.13
0.613                   -2.89765         173.539         -43.0786         119.571         -43.0794         119.566       -0.0218375          143.05
0.614                   -2.95204         172.841         -42.9524         117.585         -42.9531         117.579       -0.0220969         142.969
0.615                   -3.00731         172.139         -42.8262         115.599         -42.8269         115.594       -0.0223599         142.889
0.616                   -3.06349         171.434         -42.7001         113.613         -42.7008         113.608       -0.0226266         142.808
0.617                    -3.1206         170.725         -42.5742         111.628         -42.5748         111.623       -0.0228971         142.727
0.618                   -3.17865         170.013         -42.4483         109.643         -42.4489         109.639       -0.0231715         142.646
0.619                   -3.23769         169.298         -42.3225         107.658         -42.3231         107.654       -0.0234498         142.564
0.62                    -3.29772         168.579         -42.1967         105.674         -42.1973          105.67       -0.0237321         142.482
0.621                   -3.35878         167.856          -42.071         103.688         -42.0716         103.685       -0.0240186           142.4
0.622                    -3.4209          167.13         -41.9454         101.703          -41.946           101.7       -0.0243094         142.318
0.623                   -3.48409         166.399         -41.8199         99.7171         -41.8204         99.7141       -0.0246045         142.235
0.624                    -3.5484         165.665         -41.6944         97.7304          -41.695         97.7277       -0.0249041         142.153
0.625                   -3.61386         164.927         -41.5691         95.7429         -41.5695         95.7404       -0.0252083         142.069
0.626                   -3.68049         164.186         -41.4438         93.7544         -41.4442         93.7521       -0.0255172         141.986
0.627                   -3.74833          163.44         -41.3185         91.7647          -41.319         91.7627       -0.0258309         141.902
0.628                   -3.81742         162.691         -41.1934         89.7738         -41.1938         89.7719       -0.0261496         141.819
0.629                   -3.88779         161.937         -41.0684         87.7813         -41.0688         87.7797       -0.0264735         141.734
