! TOUCHSTONE file generated by CST MICROWAVE STUDIO
! Date and time: Fri Oct  2 16:56:03 2020
! Project name: Scenario_1_Free_Space_out_of_line.cst
! Parameters = {Lambda=346.42; Step_1=17.321; dy1=122.207; dx1=693; L_HA=400; MT=2.54; Rad_Dielectric=30; Rad_Lower=7.3; Rad_Upper=30; a_HA=580; a_WG=246; b_HA=500; b_WG=121; c_HA=0; c_WG=187; d_feed=85; h_feed=15; h_lower=18; h_upper=40}
! Header version: 2018
! Port assignment regex: !\s*Touchstone port\s*([0-9]+)\s*=\s*(CST MWS port|CST DS port)\s*([0-9]+|Zmin|Zmax)\s*\(\"(.*)\"\)(\s*mode\s*([0-9]+))?.*
! Touchstone port assignment:
! Touchstone port 1 = CST MWS port 1 ("")
! Touchstone port 2 = CST MWS port 2 ("")
# GHz S DB R 50
0.5                    -0.146798        -122.668         -62.6939        -119.607         -62.6939        -119.607      -0.00668243          151.13
0.501                  -0.152048        -123.078         -62.6022        -121.616         -62.6022        -121.616      -0.00673658         151.065
0.502                  -0.157451         -123.49         -62.5063         -123.64         -62.5063        -123.639      -0.00679156             151
0.503                  -0.163012        -123.906         -62.4062        -125.677         -62.4062        -125.677       -0.0068474         150.934
0.504                  -0.168734        -124.324         -62.3018        -127.728         -62.3018        -127.728      -0.00690408         150.869
0.505                  -0.174621        -124.745         -62.1931        -129.792         -62.1931        -129.791      -0.00696163         150.803
0.506                  -0.180677         -125.17         -62.0801        -131.866         -62.0801        -131.866      -0.00702005         150.738
0.507                  -0.186907        -125.597         -61.9627        -133.952         -61.9628        -133.951      -0.00707935         150.672
0.508                  -0.193315        -126.028         -61.8411        -136.046         -61.8411        -136.045      -0.00713953         150.606
0.509                  -0.199906        -126.461         -61.7151        -138.149         -61.7152        -138.148      -0.00720062          150.54
0.51                   -0.206684        -126.898         -61.5849        -140.259          -61.585        -140.259      -0.00726261         150.474
0.511                  -0.213653        -127.338         -61.4505        -142.377         -61.4506        -142.376      -0.00732552         150.408
0.512                   -0.22082         -127.78         -61.3119        -144.499          -61.312        -144.499      -0.00738935         150.342
0.513                  -0.228187        -128.226         -61.1692        -146.627         -61.1693        -146.626      -0.00745412         150.276
0.514                   -0.23576        -128.675         -61.0225        -148.759         -61.0226        -148.758      -0.00751983          150.21
0.515                  -0.243545        -129.127         -60.8719        -150.894          -60.872        -150.893       -0.0075865         150.144
0.516                  -0.251546        -129.582         -60.7173        -153.031         -60.7175         -153.03      -0.00765414         150.077
0.517                  -0.259768         -130.04         -60.5591         -155.17         -60.5592        -155.169      -0.00772275         150.011
0.518                  -0.268217        -130.501         -60.3972         -157.31         -60.3973        -157.309      -0.00779235         149.944
0.519                  -0.276898        -130.965         -60.2317        -159.451         -60.2318         -159.45      -0.00786294         149.877
0.52                   -0.285816        -131.432         -60.0629        -161.591          -60.063         -161.59      -0.00793455          149.81
0.521                  -0.294977        -131.903         -59.8907        -163.731         -59.8908         -163.73      -0.00800717         149.744
0.522                  -0.304387        -132.376         -59.7154         -165.87         -59.7155        -165.869      -0.00808083         149.677
0.523                  -0.314051        -132.853         -59.5371        -168.008         -59.5372        -168.007      -0.00815553          149.61
0.524                  -0.323974        -133.333         -59.3559        -170.144          -59.356        -170.142      -0.00823128         149.542
0.525                  -0.334164        -133.816         -59.1719        -172.277         -59.1721        -172.276       -0.0083081         149.475
0.526                  -0.344625        -134.302         -58.9854        -174.409         -58.9855        -174.408        -0.008386         149.408
0.527                  -0.355363        -134.791         -58.7964        -176.538         -58.7965        -176.537        -0.008465          149.34
0.528                  -0.366386        -135.283         -58.6051        -178.665         -58.6052        -178.663      -0.00854509         149.273
0.529                  -0.377698        -135.778         -58.4116         179.211         -58.4117         179.213       -0.0086263         149.205
0.53                   -0.389307        -136.277         -58.2161          177.09         -58.2162         177.091      -0.00870864         149.138
0.531                  -0.401218        -136.779         -58.0187         174.971         -58.0188         174.973      -0.00879213          149.07
0.532                  -0.413438        -137.283         -57.8195         172.855         -57.8196         172.856      -0.00887677         149.002
0.533                  -0.425973        -137.791         -57.6188         170.742         -57.6189         170.743      -0.00896258         148.934
0.534                   -0.43883        -138.302         -57.4166          168.63         -57.4167         168.631      -0.00904958         148.866
0.535                  -0.452016        -138.816         -57.2132         166.521         -57.2132         166.522      -0.00913777         148.797
0.536                  -0.465537        -139.334         -57.0085         164.414         -57.0086         164.415      -0.00922718         148.729
0.537                    -0.4794        -139.854         -56.8028         162.309         -56.8029          162.31      -0.00931782         148.661
0.538                  -0.493611        -140.377         -56.5962         160.205         -56.5962         160.206       -0.0094097         148.592
0.539                  -0.508179        -140.904         -56.3888         158.103         -56.3888         158.104      -0.00950284         148.524
0.54                   -0.523108        -141.434         -56.1807         156.001         -56.1808         156.002      -0.00959725         148.455
0.541                  -0.538408        -141.966         -55.9721           153.9         -55.9722         153.901      -0.00969295         148.386
0.542                  -0.554084        -142.502         -55.7632           151.8         -55.7632         151.801      -0.00978996         148.317
0.543                  -0.570143        -143.041         -55.5539           149.7         -55.5539         149.701      -0.00988829         148.248
0.544                  -0.586594        -143.583         -55.3445           147.6         -55.3445         147.601      -0.00998796         148.179
0.545                  -0.603442        -144.128          -55.135         145.499          -55.135           145.5        -0.010089         148.109
0.546                  -0.620696        -144.676         -54.9256         143.397         -54.9256         143.398       -0.0101914          148.04
0.547                  -0.638363        -145.227         -54.7163         141.295         -54.7163         141.296       -0.0102952         147.971
0.548                  -0.656449        -145.781         -54.5073         139.191         -54.5073         139.192       -0.0104004         147.901
0.549                  -0.674963        -146.338         -54.2987         137.085         -54.2987         137.086        -0.010507         147.831
0.55                   -0.693912        -146.898         -54.0906         134.977         -54.0906         134.978       -0.0106151         147.761
0.551                  -0.713303        -147.461         -53.8831         132.867          -53.883         132.868       -0.0107246         147.691
0.552                  -0.733143        -148.026         -53.6762         130.754         -53.6762         130.755       -0.0108357         147.621
0.553                  -0.753441        -148.595         -53.4701         128.639         -53.4701          128.64       -0.0109482         147.551
0.554                  -0.774204        -149.167         -53.2649          126.52         -53.2649         126.521       -0.0110623         147.481
0.555                  -0.795438        -149.742         -53.0607         124.398         -53.0606         124.399       -0.0111779          147.41
0.556                  -0.817153        -150.319         -52.8574         122.273         -52.8574         122.274        -0.011295          147.34
0.557                  -0.839355        -150.899         -52.6554         120.144         -52.6553         120.145       -0.0114138         147.269
0.558                  -0.862051        -151.483         -52.4545         118.011         -52.4544         118.012       -0.0115342         147.198
0.559                  -0.885251        -152.069         -52.2549         115.875         -52.2548         115.875       -0.0116561         147.127
0.56                    -0.90896        -152.657         -52.0567         113.734         -52.0565         113.734       -0.0117798         147.056
0.561                  -0.933188        -153.249         -51.8599         111.588         -51.8597         111.589       -0.0119051         146.985
0.562                   -0.95794        -153.843         -51.6646         109.439         -51.6645          109.44       -0.0120322         146.914
0.563                  -0.983226         -154.44         -51.4709         107.285         -51.4708         107.286       -0.0121609         146.842
0.564                   -1.00905         -155.04         -51.2788         105.127         -51.2787         105.128       -0.0122914         146.771
0.565                   -1.03543        -155.643         -51.0885         102.964         -51.0883         102.965       -0.0124237         146.699
0.566                   -1.06235        -156.248         -50.8999         100.797         -50.8997         100.798       -0.0125578         146.627
0.567                   -1.08985        -156.855         -50.7131          98.626          -50.713         98.6267       -0.0126936         146.555
0.568                   -1.11791        -157.466         -50.5282         96.4503         -50.5281          96.451       -0.0128314         146.483
0.569                   -1.14655        -158.079         -50.3453         94.2703         -50.3451          94.271        -0.012971          146.41
0.57                    -1.17578        -158.694         -50.1643         92.0862         -50.1641         92.0869       -0.0131125         146.338
0.571                    -1.2056        -159.312         -49.9853         89.8981         -49.9851         89.8988        -0.013256         146.265
0.572                   -1.23602        -159.932         -49.8083         87.7062         -49.8081         87.7068       -0.0134014         146.193
0.573                   -1.26704        -160.555         -49.6334         85.5105         -49.6332         85.5111       -0.0135488          146.12
0.574                   -1.29869         -161.18         -49.4606         83.3112         -49.4604         83.3118       -0.0136982         146.047
0.575                   -1.33095        -161.808         -49.2899         81.1086         -49.2897         81.1092       -0.0138497         145.974
0.576                   -1.36384        -162.438         -49.1214         78.9029         -49.1212         78.9034       -0.0140033           145.9
0.577                   -1.39737         -163.07         -48.9551         76.6942         -48.9549         76.6947       -0.0141589         145.827
0.578                   -1.43155        -163.704         -48.7909         74.4829         -48.7907         74.4834       -0.0143167         145.753
0.579                   -1.46637        -164.341         -48.6289         72.2691         -48.6287         72.2695       -0.0144767          145.68
0.58                    -1.50185         -164.98         -48.4691         70.0531         -48.4689         70.0535       -0.0146389         145.606
0.581                     -1.538        -165.621         -48.3115         67.8352         -48.3113         67.8356       -0.0148033         145.532
0.582                   -1.57482        -166.264          -48.156         65.6156         -48.1558         65.6159         -0.01497         145.457
0.583                   -1.61231         -166.91         -48.0027         63.3946         -48.0025         63.3949        -0.015139         145.383
0.584                   -1.65049        -167.557         -47.8516         61.1724         -47.8514         61.1728       -0.0153103         145.308
0.585                   -1.68937        -168.207         -47.7026         58.9494         -47.7024         58.9498        -0.015484         145.234
0.586                   -1.72894        -168.858         -47.5557         56.7259         -47.5555         56.7261       -0.0156602         145.159
0.587                   -1.76921        -169.511         -47.4109         54.5019         -47.4107         54.5022       -0.0158388         145.084
0.588                    -1.8102        -170.167         -47.2681          52.278         -47.2679         52.2782       -0.0160199         145.008
0.589                   -1.85191        -170.824         -47.1274         50.0542         -47.1272         50.0545       -0.0162035         144.933
0.59                    -1.89434        -171.483         -46.9886         47.8309         -46.9884         47.8311       -0.0163897         144.857
0.591                    -1.9375        -172.144         -46.8518         45.6083         -46.8516         45.6085       -0.0165786         144.782
0.592                    -1.9814        -172.806         -46.7169         43.3866         -46.7166         43.3868       -0.0167701         144.706
0.593                   -2.02604         -173.47         -46.5838         41.1661         -46.5835         41.1662       -0.0169643          144.63
0.594                   -2.07143        -174.136         -46.4524         38.9469         -46.4522          38.947       -0.0171612         144.553
0.595                   -2.11758        -174.804         -46.3229         36.7292         -46.3227         36.7293       -0.0173609         144.477
0.596                   -2.16449        -175.473          -46.195         34.5133         -46.1948         34.5134       -0.0175635           144.4
0.597                   -2.21217        -176.144         -46.0687         32.2993         -46.0685         32.2994        -0.017769         144.323
0.598                   -2.26062        -176.816          -45.944         30.0873         -45.9438         30.0874       -0.0179774         144.246
0.599                   -2.30986         -177.49         -45.8208         27.8775         -45.8207         27.8776       -0.0181887         144.169
0.6                     -2.35988        -178.165         -45.6991         25.6701         -45.6989         25.6701       -0.0184031         144.092
0.601                   -2.41069        -178.842         -45.5787          23.465         -45.5785         23.4651       -0.0186206         144.014
0.602                    -2.4623         -179.52         -45.4597         21.2625         -45.4595         21.2625       -0.0188413         143.936
0.603                   -2.51472         179.801         -45.3418         19.0625         -45.3417         19.0625       -0.0190651         143.858
0.604                   -2.56794          179.12         -45.2252         16.8652         -45.2251         16.8652       -0.0192922          143.78
0.605                   -2.62199         178.438         -45.1097         14.6706         -45.1095         14.6706       -0.0195225         143.702
0.606                   -2.67686         177.755         -44.9952         12.4787         -44.9951         12.4786       -0.0197563         143.623
0.607                   -2.73255         177.071         -44.8818         10.2894         -44.8816         10.2894       -0.0199934         143.544
0.608                   -2.78908         176.385         -44.7692         8.10291         -44.7691         8.10287        -0.020234         143.465
0.609                   -2.84646         175.698         -44.6575         5.91908         -44.6574         5.91903       -0.0204782         143.386
0.61                    -2.90468          175.01         -44.5466          3.7379         -44.5464         3.73785        -0.020726         143.306
0.611                   -2.96376         174.321         -44.4364         1.55933         -44.4362         1.55927       -0.0209774         143.227
0.612                   -3.02369         173.631         -44.3268         -0.6167         -44.3267       -0.616761       -0.0212326         143.147
0.613                    -3.0845          172.94         -44.2179        -2.79026         -44.2178        -2.79033       -0.0214915         143.067
0.614                   -3.14618         172.248         -44.1095        -4.96144         -44.1094        -4.96151       -0.0217544         142.986
0.615                   -3.20874         171.555         -44.0015        -7.13033         -44.0014         -7.1304       -0.0220211         142.906
0.616                   -3.27219         170.861          -43.894        -9.29705         -43.8939        -9.29712       -0.0222919         142.825
0.617                   -3.33654         170.167         -43.7869        -11.4617         -43.7868        -11.4618       -0.0225668         142.744
0.618                   -3.40179         169.471           -43.68        -13.6244         -43.6799        -13.6245       -0.0228458         142.662
0.619                   -3.46795         168.774         -43.5734        -15.7854         -43.5734        -15.7854       -0.0231291         142.581
0.62                    -3.53503         168.077          -43.467        -17.9446          -43.467        -17.9447       -0.0234166         142.499
0.621                   -3.60304         167.379         -43.3608        -20.1024         -43.3608        -20.1025       -0.0237086         142.417
0.622                   -3.67198          166.68         -43.2547        -22.2589         -43.2546        -22.2589       -0.0240051         142.335
0.623                   -3.74187          165.98         -43.1486        -24.4141         -43.1486        -24.4142       -0.0243061         142.252
0.624                   -3.81271         165.279         -43.0426        -26.5683         -43.0426        -26.5684       -0.0246117         142.169
0.625                   -3.88452         164.578         -42.9365        -28.7218         -42.9365        -28.7218       -0.0249221         142.086
0.626                    -3.9573         163.876         -42.8304        -30.8745         -42.8304        -30.8745       -0.0252374         142.003
0.627                   -4.03106         163.173         -42.7242        -33.0268         -42.7242        -33.0268       -0.0255575         141.919
0.628                   -4.10582         162.469         -42.6178        -35.1787         -42.6178        -35.1788       -0.0258827         141.835
0.629                   -4.18159         161.765         -42.5113        -37.3306         -42.5113        -37.3306        -0.026213         141.751
