! TOUCHSTONE file generated by CST MICROWAVE STUDIO
! Date and time: Fri Oct  2 19:10:06 2020
! Project name: Scenario_1_Free_Space_out_of_line.cst
! Parameters = {Lambda=346.42; Step_1=17.321; dy1=122.207; dx1=866; L_HA=400; MT=2.54; Rad_Dielectric=30; Rad_Lower=7.3; Rad_Upper=30; a_HA=580; a_WG=246; b_HA=500; b_WG=121; c_HA=0; c_WG=187; d_feed=85; h_feed=15; h_lower=18; h_upper=40}
! Header version: 2018
! Port assignment regex: !\s*Touchstone port\s*([0-9]+)\s*=\s*(CST MWS port|CST DS port)\s*([0-9]+|Zmin|Zmax)\s*\(\"(.*)\"\)(\s*mode\s*([0-9]+))?.*
! Touchstone port assignment:
! Touchstone port 1 = CST MWS port 1 ("")
! Touchstone port 2 = CST MWS port 2 ("")
# GHz S DB R 50
0.5                    -0.148688        -122.522         -63.4556         141.398         -63.4556         141.398       -0.0066315          151.11
0.501                  -0.151705        -122.955         -63.2226          138.08         -63.2213         138.095      -0.00670553         151.045
0.502                  -0.154969        -123.391         -62.9864         134.856         -62.9841         134.884      -0.00677997         150.979
0.503                  -0.158484        -123.829         -62.7482         131.722          -62.745         131.762      -0.00685481         150.914
0.504                  -0.162256         -124.27         -62.5089         128.672          -62.505         128.723      -0.00693008         150.848
0.505                   -0.16629        -124.713         -62.2693         125.702         -62.2648         125.764      -0.00700578         150.782
0.506                  -0.170592         -125.16         -62.0301         122.808         -62.0252         122.879      -0.00708192         150.717
0.507                  -0.175167        -125.608         -61.7919         119.985         -61.7867         120.064      -0.00715851         150.651
0.508                  -0.180021         -126.06         -61.5552         117.227         -61.5498         117.313      -0.00723556         150.585
0.509                  -0.185159        -126.514         -61.3203         114.532         -61.3149         114.624      -0.00731308         150.519
0.51                   -0.190586         -126.97         -61.0877         111.893         -61.0822         111.991      -0.00739109         150.453
0.511                   -0.19631        -127.429         -60.8576         109.308          -60.852          109.41      -0.00746959         150.386
0.512                  -0.202334        -127.891         -60.6302         106.773         -60.6246         106.879       -0.0075486          150.32
0.513                  -0.208665        -128.355         -60.4056         104.283         -60.4001         104.392      -0.00762812         150.254
0.514                  -0.215309        -128.822         -60.1839         101.835         -60.1785         101.946      -0.00770818         150.187
0.515                  -0.222272        -129.292         -59.9653         99.4258           -59.96         99.5391      -0.00778877         150.121
0.516                  -0.229559        -129.764         -59.7498         97.0528         -59.7446         97.1673      -0.00786992         150.054
0.517                  -0.237176        -130.239         -59.5374         94.7128         -59.5323         94.8281      -0.00795163         149.988
0.518                  -0.245129        -130.716         -59.3281         92.4032         -59.3232         92.5187      -0.00803393         149.921
0.519                  -0.253424        -131.196          -59.122         90.1213         -59.1172         90.2366      -0.00811681         149.854
0.52                   -0.262066        -131.678         -58.9189         87.8649         -58.9143         87.9796       -0.0082003         149.787
0.521                  -0.271063        -132.163         -58.7189         85.6318         -58.7144         85.7456      -0.00828441          149.72
0.522                  -0.280419        -132.651         -58.5219         83.4199         -58.5175         83.5324      -0.00836916         149.653
0.523                  -0.290141        -133.141         -58.3278         81.2273         -58.3236         81.3382      -0.00845455         149.586
0.524                  -0.300234        -133.633         -58.1366         79.0521         -58.1326         79.1612       -0.0085406         149.519
0.525                  -0.310704        -134.128         -57.9483         76.8928         -57.9443         76.9998      -0.00862733         149.451
0.526                  -0.321558        -134.626         -57.7626         74.7476         -57.7589         74.8523      -0.00871475         149.384
0.527                  -0.332801        -135.126         -57.5797         72.6153          -57.576         72.7175      -0.00880288         149.316
0.528                  -0.344439        -135.628         -57.3993         70.4943         -57.3958         70.5938      -0.00889173         149.249
0.529                  -0.356478        -136.133         -57.2215         68.3834         -57.2181         68.4801      -0.00898133         149.181
0.53                   -0.368923         -136.64          -57.046         66.2813         -57.0428          66.375      -0.00907167         149.113
0.531                  -0.381781         -137.15          -56.873         64.1869         -56.8698         64.2775       -0.0091628         149.045
0.532                  -0.395057        -137.662         -56.7021         62.0991         -56.6991         62.1866      -0.00925471         148.977
0.533                  -0.408756        -138.177         -56.5335          60.017         -56.5306         60.1011      -0.00934742         148.909
0.534                  -0.422885        -138.693          -56.367         57.9395         -56.3642         58.0202      -0.00944097         148.841
0.535                  -0.437449        -139.212         -56.2025         55.8657         -56.1999          55.943      -0.00953535         148.772
0.536                  -0.452453        -139.734           -56.04         53.7948         -56.0374         53.8686       -0.0096306         148.704
0.537                  -0.467903        -140.258         -55.8793          51.726         -55.8769         51.7963      -0.00972672         148.636
0.538                  -0.483803        -140.783         -55.7204         49.6585         -55.7181         49.7252      -0.00982375         148.567
0.539                   -0.50016        -141.312         -55.5632         47.5916          -55.561         47.6548      -0.00992169         148.498
0.54                   -0.516977        -141.842         -55.4077         45.5247         -55.4056         45.5842       -0.0100206         148.429
0.541                  -0.534261        -142.374         -55.2537          43.457         -55.2517          43.513       -0.0101204         148.361
0.542                  -0.552016        -142.909         -55.1012          41.388         -55.0993         41.4404       -0.0102212         148.291
0.543                  -0.570247        -143.446         -54.9502         39.3171         -54.9483         39.3659        -0.010323         148.222
0.544                  -0.588957        -143.984         -54.8004         37.2437         -54.7987         37.2889       -0.0104259         148.153
0.545                  -0.608152        -144.525          -54.652         35.1674         -54.6503          35.209       -0.0105298         148.084
0.546                  -0.627836        -145.068         -54.5048         33.0876         -54.5032         33.1257       -0.0106347         148.014
0.547                  -0.648013        -145.613         -54.3587         31.0039         -54.3572         31.0385       -0.0107407         147.945
0.548                  -0.668686        -146.159         -54.2137         28.9158         -54.2122          28.947       -0.0108479         147.875
0.549                   -0.68986        -146.708         -54.0697         26.8229         -54.0683         26.8507       -0.0109562         147.805
0.55                   -0.711538        -147.258         -53.9266         24.7248         -53.9254         24.7493       -0.0110656         147.735
0.551                  -0.733722        -147.811         -53.7845         22.6212         -53.7833         22.6424       -0.0111762         147.665
0.552                  -0.756416        -148.364         -53.6432         20.5117         -53.6421         20.5297        -0.011288         147.595
0.553                  -0.779623         -148.92         -53.5027         18.3959         -53.5016         18.4107       -0.0114011         147.525
0.554                  -0.803344        -149.478         -53.3629         16.2736         -53.3619         16.2854       -0.0115154         147.455
0.555                  -0.827583        -150.037         -53.2238         14.1444         -53.2229         14.1532        -0.011631         147.384
0.556                   -0.85234        -150.597         -53.0853         12.0082         -53.0845          12.014       -0.0117479         147.313
0.557                  -0.877618        -151.159         -52.9474         9.86453         -52.9466         9.86752       -0.0118662         147.243
0.558                  -0.903416        -151.723           -52.81         7.71327         -52.8093          7.7135       -0.0119858         147.172
0.559                  -0.929738        -152.288         -52.6731         5.55418         -52.6725         5.55173       -0.0121067         147.101
0.56                   -0.956581        -152.855         -52.5367         3.38704         -52.5361           3.382       -0.0122292          147.03
0.561                  -0.983947        -153.423         -52.4006         1.21167            -52.4         1.20413        -0.012353         146.958
0.562                   -1.01183        -153.992         -52.2649       -0.972112         -52.2644       -0.982051       -0.0124784         146.887
0.563                   -1.04024        -154.562         -52.1295        -3.16446          -52.129        -3.17671       -0.0126052         146.816
0.564                   -1.06917        -155.134         -51.9943        -5.36551          -51.994        -5.37998       -0.0127336         146.744
0.565                   -1.09862        -155.707         -51.8595        -7.57541         -51.8591        -7.59199       -0.0128636         146.672
0.566                   -1.12858        -156.281         -51.7248        -9.79425         -51.7245        -9.81286       -0.0129951           146.6
0.567                   -1.15905        -156.856         -51.5903        -12.0222           -51.59        -12.0427       -0.0131283         146.528
0.568                   -1.19003        -157.432         -51.4559        -14.2592         -51.4557        -14.2815       -0.0132631         146.456
0.569                   -1.22151        -158.009         -51.3217        -16.5054         -51.3215        -16.5295       -0.0133997         146.384
0.57                    -1.25349        -158.587         -51.1875        -18.7609         -51.1874        -18.7866       -0.0135379         146.311
0.571                   -1.28596        -159.166         -51.0535        -21.0257         -51.0534        -21.0529        -0.013678         146.239
0.572                   -1.31892        -159.746         -50.9195        -23.2998         -50.9194        -23.3284       -0.0138198         146.166
0.573                   -1.35236        -160.327         -50.7855        -25.5833         -50.7855        -25.6132       -0.0139635         146.093
0.574                   -1.38627        -160.908         -50.6515        -27.8761         -50.6516        -27.9072        -0.014109          146.02
0.575                   -1.42064         -161.49         -50.5175        -30.1782         -50.5176        -30.2105       -0.0142564         145.947
0.576                   -1.45546        -162.073         -50.3835        -32.4897         -50.3837        -32.5229       -0.0144058         145.873
0.577                   -1.49072        -162.656         -50.2495        -34.8104         -50.2497        -34.8446       -0.0145572           145.8
0.578                   -1.52641         -163.24         -50.1155        -37.1403         -50.1157        -37.1753       -0.0147106         145.726
0.579                   -1.56251        -163.825         -49.9814        -39.4794         -49.9816        -39.5151        -0.014866         145.653
0.58                    -1.59901        -164.411         -49.8472        -41.8276         -49.8475        -41.8639       -0.0150235         145.579
0.581                    -1.6359        -164.997          -49.713        -44.1847         -49.7134        -44.2215       -0.0151832         145.505
0.582                   -1.67315        -165.583         -49.5788        -46.5507         -49.5792         -46.588        -0.015345          145.43
0.583                   -1.71075         -166.17         -49.4445        -48.9255         -49.4449        -48.9631        -0.015509         145.356
0.584                   -1.74868        -166.758         -49.3102         -51.309         -49.3107        -51.3468       -0.0156753         145.281
0.585                   -1.78692        -167.347         -49.1759        -53.7009         -49.1763        -53.7389       -0.0158439         145.207
0.586                   -1.82545        -167.936         -49.0415        -56.1012          -49.042        -56.1393       -0.0160149         145.132
0.587                   -1.86423        -168.526         -48.9071        -58.5098         -48.9076        -58.5478       -0.0161882         145.057
0.588                   -1.90326        -169.117         -48.7727        -60.9263         -48.7732        -60.9643       -0.0163639         144.981
0.589                   -1.94249        -169.708         -48.6383        -63.3507         -48.6388        -63.3886       -0.0165421         144.906
0.59                    -1.98191        -170.301         -48.5039        -65.7828         -48.5045        -65.8205       -0.0167229          144.83
0.591                   -2.02147        -170.895         -48.3696        -68.2224         -48.3702        -68.2597       -0.0169062         144.755
0.592                   -2.06116         -171.49         -48.2353        -70.6692         -48.2359        -70.7062       -0.0170921         144.679
0.593                   -2.10095        -172.087          -48.101        -73.1231         -48.1017        -73.1596       -0.0172806         144.603
0.594                   -2.14078        -172.685         -47.9669        -75.5838         -47.9676        -75.6198       -0.0174719         144.526
0.595                   -2.18065        -173.286         -47.8329        -78.0511         -47.8336        -78.0866       -0.0176659          144.45
0.596                   -2.22051        -173.888          -47.699        -80.5247         -47.6997        -80.5596       -0.0178627         144.373
0.597                   -2.26032        -174.493         -47.5653        -83.0044          -47.566        -83.0387       -0.0180624         144.296
0.598                   -2.30007        -175.102         -47.4318          -85.49         -47.4325        -85.5236        -0.018265         144.219
0.599                   -2.33972        -175.714         -47.2984        -87.9812         -47.2991         -88.014       -0.0184705         144.142
0.6                     -2.37924        -176.329         -47.1653        -90.4776          -47.166        -90.5096        -0.018679         144.065
0.601                   -2.41862         -176.95         -47.0325        -92.9791         -47.0332        -93.0103       -0.0188906         143.987
0.602                   -2.45783        -177.575            -46.9        -95.4853         -46.9007        -95.5157       -0.0191053         143.909
0.603                   -2.49687        -178.207         -46.7677        -97.9961         -46.7684        -98.0255       -0.0193231         143.831
0.604                   -2.53574        -178.845         -46.6358        -100.511         -46.6365         -100.54       -0.0195442         143.753
0.605                   -2.57446         -179.49         -46.5043         -103.03          -46.505        -103.057       -0.0197685         143.675
0.606                   -2.61305         179.856         -46.3732        -105.552         -46.3739        -105.579       -0.0199961         143.596
0.607                   -2.65155         179.192         -46.2424        -108.078         -46.2431        -108.103       -0.0202271         143.517
0.608                   -2.69004         178.518         -46.1122        -110.606         -46.1128        -110.631       -0.0204616         143.438
0.609                   -2.72861         177.833         -45.9823        -113.138          -45.983        -113.161       -0.0206996         143.359
0.61                    -2.76736         177.134          -45.853        -115.671         -45.8537        -115.694       -0.0209411          143.28
0.611                   -2.80646         176.422         -45.7242        -118.207         -45.7248        -118.229       -0.0211862           143.2
0.612                   -2.84609         175.695         -45.5959        -120.745         -45.5966        -120.766        -0.021435          143.12
0.613                   -2.88646         174.953         -45.4682        -123.284         -45.4688        -123.304       -0.0216875          143.04
0.614                   -2.92783         174.193         -45.3411        -125.824         -45.3417        -125.843       -0.0219438         142.959
0.615                   -2.97049         173.417         -45.2145        -128.365         -45.2151        -128.383       -0.0222039         142.879
0.616                   -3.01478         172.622         -45.0886        -130.907         -45.0891        -130.924        -0.022468         142.798
0.617                   -3.06105         171.809         -44.9633        -133.449         -44.9638        -133.465       -0.0227361         142.717
0.618                   -3.10967         170.979         -44.8386        -135.991         -44.8391        -136.006       -0.0230081         142.636
0.619                   -3.16105         170.132         -44.7146        -138.533         -44.7151        -138.547       -0.0232843         142.554
0.62                    -3.21558         169.269         -44.5913        -141.074         -44.5917        -141.087       -0.0235647         142.472
0.621                   -3.27363         168.391         -44.4686        -143.614          -44.469        -143.626       -0.0238493          142.39
0.622                   -3.33556         167.501         -44.3467        -146.153          -44.347        -146.165       -0.0241382         142.308
0.623                   -3.40167         166.601         -44.2254        -148.691         -44.2257        -148.702       -0.0244315         142.226
0.624                    -3.4722         165.694         -44.1048        -151.228         -44.1051        -151.238       -0.0247292         142.143
0.625                   -3.54733         164.783         -43.9849        -153.762         -43.9852        -153.771       -0.0250314          142.06
0.626                   -3.62713         163.872         -43.8657        -156.295         -43.8659        -156.303       -0.0253382         141.977
0.627                   -3.71159         162.963         -43.7472        -158.825         -43.7474        -158.832       -0.0256496         141.893
0.628                   -3.80064         162.061         -43.6294        -161.352         -43.6296        -161.359       -0.0259658         141.809
0.629                   -3.89409         161.167         -43.5122        -163.877         -43.5124        -163.884       -0.0262867         141.725
