! TOUCHSTONE file generated by CST MICROWAVE STUDIO
! Date and time: Fri Oct  2 18:56:26 2020
! Project name: Scenario_1_Free_Space_out_of_line.cst
! Parameters = {Lambda=346.42; Step_1=17.321; dy1=122.207; dx1=1039; L_HA=400; MT=2.54; Rad_Dielectric=30; Rad_Lower=7.3; Rad_Upper=30; a_HA=580; a_WG=246; b_HA=500; b_WG=121; c_HA=0; c_WG=187; d_feed=85; h_feed=15; h_lower=18; h_upper=40}
! Header version: 2018
! Port assignment regex: !\s*Touchstone port\s*([0-9]+)\s*=\s*(CST MWS port|CST DS port)\s*([0-9]+|Zmin|Zmax)\s*\(\"(.*)\"\)(\s*mode\s*([0-9]+))?.*
! Touchstone port assignment:
! Touchstone port 1 = CST MWS port 1 ("")
! Touchstone port 2 = CST MWS port 2 ("")
# GHz S DB R 50
0.5                    -0.147708        -122.546         -64.0126         44.7565         -64.0103         44.7552      -0.00672225          151.13
0.501                  -0.152205        -122.979         -63.9444         41.7516         -63.9509         41.8372      -0.00676054         151.065
0.502                  -0.156895        -123.414         -63.8656         38.7448         -63.8814         38.9108      -0.00680045         150.999
0.503                  -0.161784        -123.852         -63.7766         35.7405          -63.802         35.9799      -0.00684196         150.934
0.504                  -0.166876        -124.292         -63.6775         32.7427         -63.7127         33.0485      -0.00688508         150.868
0.505                  -0.172174        -124.734         -63.5687         29.7552         -63.6139         30.1202      -0.00692979         150.803
0.506                  -0.177683        -125.179         -63.4504         26.7815         -63.5057         27.1986       -0.0069761         150.737
0.507                  -0.183408        -125.626         -63.3232         23.8248         -63.3884         24.2869      -0.00702401         150.671
0.508                  -0.189353        -126.076         -63.1874         20.8879         -63.2624         21.3882      -0.00707352         150.605
0.509                  -0.195522        -126.528         -63.0436         17.9733         -63.1282         18.5051      -0.00712461         150.539
0.51                   -0.201919        -126.982         -62.8923          15.083          -62.986         15.6401      -0.00717729         150.473
0.511                   -0.20855        -127.439         -62.7339         12.2186         -62.8363         12.7952      -0.00723156         150.407
0.512                  -0.215419        -127.898          -62.569         9.38154         -62.6796         9.97223      -0.00728741         150.341
0.513                   -0.22253         -128.36         -62.3981         6.57273         -62.5164         7.17248      -0.00734485         150.275
0.514                  -0.229888        -128.824         -62.2216          3.7928          -62.347         4.39707      -0.00740386         150.208
0.515                  -0.237498         -129.29         -62.0402         1.04207         -62.1721         1.64679      -0.00746446         150.142
0.516                  -0.245364        -129.759         -61.8543        -1.67942          -61.992        -1.07788      -0.00752663         150.075
0.517                  -0.253491        -130.231         -61.6643        -4.37191         -61.8072        -3.77671      -0.00759037         150.009
0.518                  -0.261885        -130.705         -61.4707        -7.03584         -61.6181        -6.44972      -0.00765569         149.942
0.519                  -0.270549        -131.181          -61.274        -9.67185         -61.4251        -9.09716      -0.00772258         149.875
0.52                   -0.279489         -131.66         -61.0744        -12.2808         -61.2287        -11.7195      -0.00779104         149.808
0.521                   -0.28871        -132.141         -60.8725        -14.8636         -61.0293        -14.3173      -0.00786107         149.741
0.522                  -0.298216        -132.625         -60.6685        -17.4213         -60.8272        -16.8914      -0.00793266         149.674
0.523                  -0.308013        -133.111         -60.4627        -19.9552         -60.6227        -19.4426      -0.00800582         149.607
0.524                  -0.318106        -133.599         -60.2555        -22.4666         -60.4161         -21.972      -0.00808055          149.54
0.525                  -0.328499         -134.09         -60.0472        -24.9566         -60.2078        -24.4807      -0.00815684         149.473
0.526                  -0.339198        -134.584         -59.8379        -27.4268         -59.9981        -26.9699      -0.00823469         149.405
0.527                  -0.350208         -135.08         -59.6279        -29.8786         -59.7872        -29.4407       -0.0083141         149.338
0.528                  -0.361533        -135.578         -59.4175        -32.3132         -59.5753        -31.8945      -0.00839508          149.27
0.529                  -0.373179        -136.079         -59.2068        -34.7323         -59.3627        -34.3326      -0.00847762         149.202
0.53                   -0.385152        -136.582         -58.9961        -37.1372         -59.1495        -36.7562      -0.00856171         149.135
0.531                  -0.397455        -137.088         -58.7853        -39.5293          -58.936        -39.1668      -0.00864737         149.067
0.532                  -0.410095        -137.596         -58.5748          -41.91         -58.7223        -41.5656      -0.00873459         148.999
0.533                  -0.423076        -138.107         -58.3647        -44.2807         -58.5086         -43.954      -0.00882338         148.931
0.534                  -0.436404         -138.62          -58.155        -46.6428          -58.295        -46.3332      -0.00891372         148.862
0.535                  -0.450083        -139.136         -57.9458        -48.9975         -58.0817        -48.7047      -0.00900563         148.794
0.536                   -0.46412        -139.654         -57.7374        -51.3463         -57.8688        -51.0696      -0.00909909         148.726
0.537                  -0.478518        -140.174         -57.5297        -53.6902         -57.6564        -53.4293      -0.00919413         148.657
0.538                  -0.493284        -140.697         -57.3228        -56.0306         -57.4446        -55.7848      -0.00929073         148.589
0.539                  -0.508422        -141.222         -57.1169        -58.3685         -57.2334        -58.1375      -0.00938889          148.52
0.54                   -0.523938         -141.75         -56.9119        -60.7052         -57.0231        -60.4884      -0.00948863         148.451
0.541                  -0.539836         -142.28          -56.708        -63.0417         -56.8137        -62.8386      -0.00958993         148.382
0.542                  -0.556121        -142.812         -56.5051        -65.3791         -56.6052        -65.1893      -0.00969281         148.313
0.543                    -0.5728        -143.347         -56.3035        -67.7183         -56.3977        -67.5414      -0.00979727         148.244
0.544                  -0.589876        -143.884          -56.103        -70.0604         -56.1913         -69.896       -0.0099033         148.175
0.545                  -0.607354        -144.423         -55.9038        -72.4061         -55.9861         -72.254       -0.0100109         148.106
0.546                   -0.62524        -144.965         -55.7058        -74.7565         -55.7821        -74.6162       -0.0101201         148.036
0.547                  -0.643539         -145.51         -55.5092        -77.1122         -55.5794        -76.9836       -0.0102309         147.967
0.548                  -0.662255        -146.056         -55.3139        -79.4742          -55.378        -79.3569       -0.0103433         147.897
0.549                  -0.681394        -146.605         -55.1201        -81.8431          -55.178        -81.7369       -0.0104572         147.827
0.55                   -0.700959        -147.156         -54.9277        -84.2195         -54.9794        -84.1244       -0.0105728         147.758
0.551                  -0.720957        -147.709         -54.7367        -86.6042         -54.7823          -86.52         -0.01069         147.688
0.552                   -0.74139        -148.265         -54.5472        -88.9978         -54.5868        -88.9243       -0.0108088         147.617
0.553                  -0.762265        -148.823         -54.3593        -91.4007         -54.3928         -91.338       -0.0109292         147.547
0.554                  -0.783585        -149.383         -54.1729        -93.8135         -54.2005        -93.7614       -0.0110512         147.477
0.555                  -0.805356        -149.946         -53.9881        -96.2366         -54.0099        -96.1951       -0.0111749         147.406
0.556                   -0.82758        -150.511         -53.8049        -98.6705          -53.821        -98.6396       -0.0113002         147.336
0.557                  -0.850264        -151.077         -53.6233        -101.115         -53.6338        -101.095       -0.0114271         147.265
0.558                   -0.87341        -151.647         -53.4434        -103.572         -53.4484        -103.562       -0.0115557         147.194
0.559                  -0.897024        -152.218         -53.2652         -106.04         -53.2649        -106.041       -0.0116859         147.123
0.56                   -0.921109        -152.791         -53.0888         -108.52         -53.0833        -108.531       -0.0118178         147.052
0.561                  -0.945669        -153.367          -52.914        -111.012         -52.9036        -111.034       -0.0119514         146.981
0.562                  -0.970708        -153.945          -52.741        -113.516         -52.7259        -113.549       -0.0120867          146.91
0.563                   -0.99623        -154.525         -52.5698        -116.032         -52.5502        -116.076       -0.0122237         146.838
0.564                   -1.02224        -155.107         -52.4004        -118.561         -52.3765        -118.616       -0.0123623         146.767
0.565                   -1.04874        -155.691         -52.2329        -121.102         -52.2049        -121.167       -0.0125027         146.695
0.566                   -1.07573        -156.277         -52.0672        -123.655         -52.0353        -123.731       -0.0126448         146.623
0.567                   -1.10322        -156.865         -51.9033        -126.221         -51.8679        -126.307       -0.0127886         146.551
0.568                   -1.13121        -157.456         -51.7413        -128.798         -51.7026        -128.894       -0.0129342         146.479
0.569                    -1.1597        -158.048         -51.5812        -131.387         -51.5395        -131.494       -0.0130816         146.407
0.57                     -1.1887        -158.642          -51.423        -133.987         -51.3786        -134.104       -0.0132307         146.334
0.571                   -1.21821        -159.239         -51.2666        -136.599         -51.2198        -136.726       -0.0133817         146.262
0.572                   -1.24823        -159.837         -51.1122        -139.222         -51.0633        -139.358       -0.0135344         146.189
0.573                   -1.27876        -160.438         -50.9597        -141.855         -50.9089            -142        -0.013689         146.116
0.574                   -1.30981         -161.04         -50.8091        -144.498         -50.7567        -144.652       -0.0138454         146.043
0.575                   -1.34138        -161.645         -50.6603        -147.152         -50.6068        -147.313       -0.0140036          145.97
0.576                   -1.37348        -162.251         -50.5135        -149.814          -50.459        -149.983       -0.0141637         145.897
0.577                   -1.40609         -162.86         -50.3685        -152.485         -50.3134        -152.661       -0.0143258         145.823
0.578                   -1.43923         -163.47         -50.2254        -155.165         -50.1699        -155.347       -0.0144897          145.75
0.579                   -1.47291        -164.082         -50.0841        -157.852         -50.0285         -158.04       -0.0146555         145.676
0.58                    -1.50711        -164.697         -49.9446        -160.546         -49.8892        -160.739       -0.0148233         145.602
0.581                   -1.54184        -165.313         -49.8069        -163.248          -49.752        -163.445       -0.0149931         145.528
0.582                    -1.5771        -165.931         -49.6709        -165.955         -49.6167        -166.155       -0.0151649         145.454
0.583                    -1.6129        -166.551         -49.5366        -168.667         -49.4834         -168.87       -0.0153387         145.379
0.584                   -1.64924        -167.174          -49.404        -171.384          -49.352        -171.589       -0.0155145         145.305
0.585                   -1.68611        -167.798          -49.273        -174.106         -49.2224        -174.311       -0.0156924          145.23
0.586                   -1.72353        -168.424         -49.1436        -176.831         -49.0946        -177.035       -0.0158724         145.155
0.587                   -1.76148        -169.052         -49.0157        -179.559         -48.9685        -179.762       -0.0160545          145.08
0.588                   -1.79998        -169.682         -48.8892          177.71          -48.844          177.51       -0.0162388         145.005
0.589                   -1.83901        -170.315         -48.7641         174.978          -48.721         174.781       -0.0164252          144.93
0.59                     -1.8786        -170.949         -48.6404         172.245         -48.5995         172.052       -0.0166139         144.854
0.591                   -1.91872        -171.586         -48.5179         169.511         -48.4794         169.323       -0.0168048         144.778
0.592                    -1.9594        -172.224         -48.3966         166.777         -48.3605         166.596       -0.0169979         144.703
0.593                   -2.00062        -172.865         -48.2764         164.043         -48.2428         163.869       -0.0171934         144.626
0.594                   -2.04239        -173.508         -48.1572         161.311         -48.1263         161.145       -0.0173911          144.55
0.595                   -2.08471        -174.153          -48.039          158.58         -48.0107         158.423       -0.0175913         144.474
0.596                   -2.12759        -174.801         -47.9217         155.851          -47.896         155.704       -0.0177939         144.397
0.597                   -2.17102         -175.45         -47.8053         153.125         -47.7821         152.988       -0.0179989          144.32
0.598                   -2.21501        -176.103         -47.6895         150.401         -47.6689         150.275       -0.0182064         144.243
0.599                   -2.25957        -176.757         -47.5744         147.681         -47.5564         147.566       -0.0184164         144.166
0.6                     -2.30468        -177.415         -47.4598         144.964         -47.4443         144.862        -0.018629         144.089
0.601                   -2.35037        -178.074         -47.3458         142.251         -47.3326         142.161       -0.0188442         144.011
0.602                   -2.39663        -178.737         -47.2321         139.542         -47.2212         139.465       -0.0190621         143.933
0.603                   -2.44346        -179.402         -47.1188         136.838         -47.1101         136.774       -0.0192827         143.855
0.604                   -2.49088         179.929         -47.0057         134.138          -46.999         134.087        -0.019506         143.777
0.605                   -2.53889         179.258         -46.8928         131.443          -46.888         131.405       -0.0197321         143.699
0.606                    -2.5875         178.584         -46.7799         128.753          -46.777         128.728       -0.0199611          143.62
0.607                   -2.63671         177.906         -46.6671         126.068         -46.6658         126.056        -0.020193         143.541
0.608                   -2.68654         177.225         -46.5543         123.388         -46.5544         123.388       -0.0204278         143.462
0.609                     -2.737         176.541         -46.4413         120.713         -46.4427         120.725       -0.0206657         143.383
0.61                     -2.7881         175.852         -46.3281         118.044         -46.3306         118.067       -0.0209066         143.303
0.611                   -2.83986         175.161         -46.2147         115.379         -46.2182         115.412       -0.0211507         143.224
0.612                   -2.89229         174.465          -46.101         112.718         -46.1052         112.762        -0.021398         143.144
0.613                   -2.94541         173.765         -45.9869         110.063         -45.9918         110.116       -0.0216486         143.064
0.614                   -2.99925          173.06         -45.8724         107.412         -45.8777         107.473       -0.0219025         142.983
0.615                   -3.05383         172.351         -45.7574         104.765          -45.763         104.833       -0.0221598         142.903
0.616                   -3.10918         171.638          -45.642         102.123         -45.6477         102.196       -0.0224207         142.822
0.617                   -3.16533         170.919          -45.526          99.484         -45.5317         99.5612       -0.0226851         142.741
0.618                   -3.22231         170.195         -45.4094         96.8486          -45.415         96.9288       -0.0229531         142.659
0.619                   -3.28016         169.466         -45.2922         94.2164         -45.2975         94.2981       -0.0232249         142.578
0.62                    -3.33893         168.732         -45.1744         91.5869         -45.1794         91.6686       -0.0235006         142.496
0.621                   -3.39867         167.991          -45.056         88.9596         -45.0605           89.04       -0.0237802         142.414
0.622                   -3.45942         167.245          -44.937         86.3343         -44.9409         86.4116       -0.0240638         142.331
0.623                   -3.52125         166.492         -44.8173         83.7105         -44.8207         83.7832       -0.0243516         142.249
0.624                   -3.58423         165.733         -44.6969         81.0876         -44.6997         81.1541       -0.0246437         142.166
0.625                   -3.64842         164.967         -44.5759         78.4652         -44.5782          78.524       -0.0249402         142.083
0.626                   -3.71391         164.195         -44.4544         75.8428          -44.456         75.8924       -0.0252413         141.999
0.627                   -3.78078         163.415         -44.3322         73.2199         -44.3333         73.2588       -0.0255471         141.916
0.628                   -3.84912         162.628         -44.2095          70.596         -44.2101         70.6227       -0.0258578         141.832
0.629                   -3.91905         161.834         -44.0862         67.9706         -44.0865         67.9839       -0.0261735         141.747
