! TOUCHSTONE file generated by CST MICROWAVE STUDIO
! Date and time: Fri Oct  2 18:52:17 2020
! Project name: Scenario_1_Free_Space_out_of_line.cst
! Parameters = {Lambda=346.42; Step_1=17.321; dy1=104.866; dx1=173; L_HA=400; MT=2.54; Rad_Dielectric=30; Rad_Lower=7.3; Rad_Upper=30; a_HA=580; a_WG=246; b_HA=500; b_WG=121; c_HA=0; c_WG=187; d_feed=85; h_feed=15; h_lower=18; h_upper=40}
! Header version: 2018
! Port assignment regex: !\s*Touchstone port\s*([0-9]+)\s*=\s*(CST MWS port|CST DS port)\s*([0-9]+|Zmin|Zmax)\s*\(\"(.*)\"\)(\s*mode\s*([0-9]+))?.*
! Touchstone port assignment:
! Touchstone port 1 = CST MWS port 1 ("")
! Touchstone port 2 = CST MWS port 2 ("")
# GHz S DB R 50
0.5                     -0.15511        -122.697         -57.1643          161.45         -57.1643          161.45      -0.00662577         151.143
0.501                  -0.158683        -123.129         -57.0053         159.856         -57.0052         159.856      -0.00663911         151.078
0.502                  -0.162436        -123.563          -56.845         158.273         -56.8449         158.273        -0.006654         151.012
0.503                   -0.16637            -124         -56.6835         156.701         -56.6834           156.7      -0.00667043         150.947
0.504                  -0.170492        -124.439         -56.5209         155.139         -56.5207         155.139      -0.00668842         150.881
0.505                  -0.174804         -124.88         -56.3573         153.589         -56.3571         153.588      -0.00670798         150.815
0.506                  -0.179311        -125.324         -56.1928         152.048         -56.1925         152.048      -0.00672912         150.749
0.507                  -0.184016        -125.771         -56.0273         150.517          -56.027         150.517      -0.00675185         150.684
0.508                  -0.188925        -126.219         -55.8611         148.996         -55.8607         148.996      -0.00677618         150.618
0.509                   -0.19404        -126.671         -55.6941         147.484         -55.6937         147.484      -0.00680213         150.551
0.51                   -0.199368        -127.125         -55.5264         145.981          -55.526         145.981      -0.00682971         150.485
0.511                  -0.204911        -127.581         -55.3581         144.487         -55.3577         144.486      -0.00685892         150.419
0.512                  -0.210675         -128.04         -55.1893         143.001         -55.1888             143      -0.00688977         150.353
0.513                  -0.216664        -128.501         -55.0199         141.523         -55.0194         141.522      -0.00692229         150.286
0.514                  -0.222883        -128.965         -54.8502         140.052         -54.8496         140.052      -0.00695649          150.22
0.515                  -0.229337        -129.431           -54.68         138.589         -54.6794         138.588      -0.00699236         150.153
0.516                   -0.23603          -129.9         -54.5094         137.132         -54.5089         137.132      -0.00702994         150.087
0.517                  -0.242967        -130.371         -54.3386         135.683          -54.338         135.682      -0.00706922          150.02
0.518                  -0.250153        -130.845         -54.1675         134.239         -54.1669         134.239      -0.00711023         149.953
0.519                  -0.257593        -131.322         -53.9961         132.801         -53.9955         132.801      -0.00715297         149.886
0.52                   -0.265292        -131.801         -53.8246         131.369          -53.824         131.369      -0.00719746         149.819
0.521                  -0.273256        -132.283         -53.6529         129.942         -53.6523         129.942      -0.00724371         149.752
0.522                   -0.28149        -132.768         -53.4811          128.52         -53.4805          128.52      -0.00729173         149.685
0.523                  -0.289999        -133.255         -53.3092         127.103         -53.3085         127.103      -0.00734155         149.618
0.524                  -0.298788        -133.745         -53.1372         125.689         -53.1365         125.689      -0.00739317          149.55
0.525                  -0.307863        -134.237         -52.9651          124.28         -52.9645          124.28       -0.0074466         149.483
0.526                   -0.31723        -134.732         -52.7931         122.874         -52.7925         122.874      -0.00750187         149.415
0.527                  -0.326895         -135.23         -52.6211         121.472         -52.6204         121.471      -0.00755898         149.348
0.528                  -0.336862        -135.731         -52.4491         120.072         -52.4484         120.072      -0.00761795          149.28
0.529                  -0.347139        -136.234         -52.2771         118.675         -52.2765         118.675      -0.00767879         149.212
0.53                    -0.35773         -136.74         -52.1053          117.28         -52.1046          117.28      -0.00774152         149.144
0.531                  -0.368643        -137.249         -51.9335         115.888         -51.9329         115.888      -0.00780616         149.076
0.532                  -0.379882         -137.76         -51.7618         114.497         -51.7612         114.497      -0.00787272         149.008
0.533                  -0.391455        -138.274         -51.5903         113.108         -51.5897         113.108      -0.00794121          148.94
0.534                  -0.403368        -138.791         -51.4189          111.72         -51.4183          111.72      -0.00801166         148.871
0.535                  -0.415627        -139.311         -51.2477         110.332         -51.2471         110.332      -0.00808407         148.803
0.536                  -0.428238        -139.833         -51.0766         108.946         -51.0761         108.946      -0.00815847         148.734
0.537                  -0.441209        -140.358         -50.9058          107.56         -50.9052          107.56      -0.00823486         148.666
0.538                  -0.454545        -140.886         -50.7352         106.174         -50.7346         106.174      -0.00831328         148.597
0.539                  -0.468254        -141.417         -50.5647         104.788         -50.5642         104.788      -0.00839372         148.528
0.54                   -0.482343        -141.951         -50.3945         103.402          -50.394         103.402      -0.00847622         148.459
0.541                  -0.496818        -142.487         -50.2246         102.016         -50.2241         102.016      -0.00856079          148.39
0.542                  -0.511687        -143.026         -50.0549         100.628         -50.0544         100.628      -0.00864744         148.321
0.543                  -0.526957        -143.568         -49.8855         99.2397          -49.885         99.2398       -0.0087362         148.251
0.544                  -0.542635        -144.113         -49.7164         97.8502         -49.7159         97.8502      -0.00882709         148.182
0.545                  -0.558729        -144.661         -49.5475         96.4592         -49.5471         96.4593      -0.00892011         148.113
0.546                  -0.575246        -145.211          -49.379         95.0667         -49.3786         95.0668      -0.00901529         148.043
0.547                  -0.592193        -145.764         -49.2108         93.6724         -49.2104         93.6725      -0.00911266         147.973
0.548                  -0.609579        -146.321         -49.0429         92.2762         -49.0425         92.2762      -0.00921222         147.903
0.549                   -0.62741         -146.88         -48.8754         90.8778          -48.875         90.8778        -0.009314         147.833
0.55                   -0.645697        -147.441         -48.7082         89.4771         -48.7078         89.4771      -0.00941802         147.763
0.551                  -0.664445        -148.006         -48.5414         88.0739          -48.541          88.074      -0.00952429         147.693
0.552                  -0.683663        -148.573         -48.3749         86.6681         -48.3746         86.6681      -0.00963285         147.623
0.553                  -0.703361        -149.144         -48.2089         85.2595         -48.2086         85.2595       -0.0097437         147.552
0.554                  -0.723545        -149.717         -48.0432         83.8479         -48.0429         83.8479      -0.00985688         147.482
0.555                  -0.744225        -150.293         -47.8779         82.4333         -47.8777         82.4333       -0.0099724         147.411
0.556                  -0.765409        -150.872         -47.7131         81.0154         -47.7128         81.0154       -0.0100903          147.34
0.557                  -0.787105        -151.453         -47.5487         79.5941         -47.5484         79.5941       -0.0102105         147.269
0.558                  -0.809324        -152.038         -47.3847         78.1694         -47.3845         78.1694       -0.0103332         147.198
0.559                  -0.832074        -152.625         -47.2212         76.7411          -47.221         76.7411       -0.0104583         147.127
0.56                   -0.855363        -153.215         -47.0582         75.3091          -47.058         75.3091       -0.0105859         147.056
0.561                  -0.879202        -153.808         -46.8956         73.8733         -46.8954         73.8733       -0.0107159         146.984
0.562                  -0.903599        -154.404         -46.7335         72.4336         -46.7334         72.4336       -0.0108485         146.913
0.563                  -0.928565        -155.002         -46.5719         70.9899         -46.5718         70.9899       -0.0109836         146.841
0.564                  -0.954108        -155.604         -46.4109         69.5421         -46.4108         69.5421       -0.0111212         146.769
0.565                  -0.980239        -156.208         -46.2503         68.0902         -46.2502         68.0902       -0.0112614         146.697
0.566                   -1.00697        -156.815         -46.0903          66.634         -46.0902          66.634       -0.0114042         146.625
0.567                    -1.0343        -157.425         -45.9309         65.1736         -45.9308         65.1736       -0.0115496         146.553
0.568                   -1.06226        -158.037          -45.772         63.7088         -45.7719         63.7088       -0.0116977         146.481
0.569                   -1.09084        -158.652         -45.6137         62.2397         -45.6136         62.2397       -0.0118484         146.408
0.57                    -1.12007         -159.27          -45.456         60.7661         -45.4559         60.7661       -0.0120019         146.336
0.571                   -1.14994        -159.891         -45.2989          59.288         -45.2988          59.288       -0.0121581         146.263
0.572                   -1.18047        -160.514         -45.1423         57.8055         -45.1423         57.8055       -0.0123171          146.19
0.573                   -1.21168         -161.14         -44.9865         56.3185         -44.9864         56.3185       -0.0124788         146.117
0.574                   -1.24356        -161.769         -44.8312         54.8269         -44.8312         54.8269       -0.0126434         146.044
0.575                   -1.27615          -162.4         -44.6766         53.3308         -44.6766         53.3308       -0.0128108          145.97
0.576                   -1.30944        -163.034         -44.5227         51.8301         -44.5227         51.8301       -0.0129812         145.897
0.577                   -1.34345        -163.671         -44.3694         50.3249         -44.3694         50.3249       -0.0131544         145.823
0.578                   -1.37818         -164.31         -44.2168         48.8152         -44.2169         48.8152       -0.0133305         145.749
0.579                   -1.41367        -164.952         -44.0649          47.301          -44.065          47.301       -0.0135097         145.675
0.58                     -1.4499        -165.596         -43.9137         45.7824         -43.9138         45.7824       -0.0136918         145.601
0.581                   -1.48691        -166.243         -43.7633         44.2592         -43.7633         44.2593        -0.013877         145.527
0.582                   -1.52469        -166.893         -43.6136         42.7317         -43.6136         42.7318       -0.0140652         145.453
0.583                   -1.56327        -167.544         -43.4646         41.1999         -43.4646         41.1999       -0.0142566         145.378
0.584                   -1.60266        -168.199         -43.3163         39.6637         -43.3164         39.6638       -0.0144511         145.303
0.585                   -1.64287        -168.855         -43.1688         38.1233         -43.1689         38.1234       -0.0146487         145.228
0.586                   -1.68391        -169.514         -43.0221         36.5787         -43.0222         36.5788       -0.0148496         145.153
0.587                   -1.72581        -170.175         -42.8762           35.03         -42.8763         35.0301       -0.0150537         145.078
0.588                   -1.76856        -170.839          -42.731         33.4773         -42.7311         33.4774       -0.0152611         145.003
0.589                    -1.8122        -171.505         -42.5867         31.9206         -42.5868         31.9207       -0.0154719         144.927
0.59                    -1.85673        -172.173         -42.4431         30.3601         -42.4432         30.3602       -0.0156859         144.851
0.591                   -1.90217        -172.843         -42.3004         28.7957         -42.3005         28.7959       -0.0159034         144.775
0.592                   -1.94853        -173.515         -42.1584         27.2277         -42.1585         27.2279       -0.0161244         144.699
0.593                   -1.99583        -174.189         -42.0173         25.6562         -42.0174         25.6563       -0.0163488         144.623
0.594                   -2.04409        -174.865          -41.877         24.0811         -41.8771         24.0813       -0.0165767         144.546
0.595                   -2.09333        -175.543         -41.7375         22.5027         -41.7376         22.5028       -0.0168082          144.47
0.596                   -2.14355        -176.223         -41.5989          20.921          -41.599         20.9212       -0.0170433         144.393
0.597                   -2.19478        -176.904         -41.4611         19.3363         -41.4612         19.3364        -0.017282         144.316
0.598                   -2.24704        -177.588         -41.3241         17.7485         -41.3242         17.7486       -0.0175245         144.239
0.599                   -2.30034        -178.272          -41.188         16.1578         -41.1881         16.1579       -0.0177707         144.161
0.6                     -2.35469        -178.959         -41.0527         14.5643         -41.0528         14.5645       -0.0180207         144.084
0.601                   -2.41013        -179.646         -40.9182         12.9682         -40.9183         12.9684       -0.0182745         144.006
0.602                   -2.46666         179.665         -40.7846         11.3697         -40.7847         11.3698       -0.0185322         143.928
0.603                   -2.52431         178.974         -40.6517         9.76871         -40.6519         9.76888       -0.0187939          143.85
0.604                   -2.58309         178.283         -40.5198         8.16552         -40.5199         8.16569       -0.0190595         143.772
0.605                   -2.64303         177.591         -40.3886         6.56023         -40.3887          6.5604       -0.0193292         143.693
0.606                   -2.70414         176.898         -40.2583         4.95297         -40.2584         4.95314        -0.019603         143.614
0.607                   -2.76644         176.204         -40.1288         3.34388         -40.1288         3.34404        -0.019881         143.535
0.608                   -2.82995          175.51              -40         1.73309         -40.0001         1.73325       -0.0201631         143.456
0.609                    -2.8947         174.815         -39.8721        0.120732         -39.8722        0.120892       -0.0204496         143.377
0.61                    -2.96069          174.12          -39.745        -1.49305         -39.7451         -1.4929       -0.0207403         143.297
0.611                   -3.02795         173.425         -39.6186        -3.10813         -39.6187        -3.10798       -0.0210355         143.217
0.612                    -3.0965         172.731          -39.493        -4.72438         -39.4931        -4.72424        -0.021335         143.137
0.613                   -3.16636         172.036         -39.3682        -6.34166         -39.3683        -6.34153       -0.0216392         143.057
0.614                   -3.23753         171.343         -39.2441        -7.95985         -39.2442        -7.95973       -0.0219478         142.976
0.615                   -3.31005          170.65         -39.1208        -9.57883         -39.1209        -9.57871       -0.0222612         142.895
0.616                   -3.38393         169.958         -38.9982        -11.1985         -38.9982        -11.1984       -0.0225792         142.814
0.617                   -3.45917         169.268         -38.8763        -12.8186         -38.8763        -12.8186       -0.0229021         142.733
0.618                    -3.5358         168.579         -38.7551        -14.4393         -38.7551        -14.4392       -0.0232298         142.652
0.619                   -3.61383         167.892         -38.6345        -16.0602         -38.6345        -16.0601       -0.0235624          142.57
0.62                    -3.69327         167.207         -38.5146        -17.6813         -38.5147        -17.6813          -0.0239         142.488
0.621                   -3.77411         166.526         -38.3954        -19.3025         -38.3954        -19.3025       -0.0242427         142.406
0.622                   -3.85638         165.846         -38.2768        -20.9238         -38.2768        -20.9238       -0.0245906         142.324
0.623                   -3.94007         165.171         -38.1588        -22.5449         -38.1588        -22.5449       -0.0249438         142.241
0.624                   -4.02518         164.499         -38.0414        -24.1659         -38.0414        -24.1659       -0.0253022         142.158
0.625                    -4.1117         163.831         -37.9246        -25.7866         -37.9246        -25.7866       -0.0256661         142.075
0.626                   -4.19963         163.168         -37.8083         -27.407         -37.8083         -27.407       -0.0260355         141.991
0.627                   -4.28895         162.509         -37.6926        -29.0269         -37.6926         -29.027       -0.0264104         141.907
0.628                   -4.37963         161.856         -37.5774        -30.6463         -37.5773        -30.6464        -0.026791         141.823
0.629                   -4.47167         161.209         -37.4626        -32.2652         -37.4626        -32.2653       -0.0271774         141.739
