! TOUCHSTONE file generated by CST MICROWAVE STUDIO
! Date and time: Fri Oct  2 16:30:58 2020
! Project name: Scenario_1_Free_Space_out_of_line.cst
! Parameters = {Lambda=346.42; Step_1=17.321; dy1=104.866; dx1=346; L_HA=400; MT=2.54; Rad_Dielectric=30; Rad_Lower=7.3; Rad_Upper=30; a_HA=580; a_WG=246; b_HA=500; b_WG=121; c_HA=0; c_WG=187; d_feed=85; h_feed=15; h_lower=18; h_upper=40}
! Header version: 2018
! Port assignment regex: !\s*Touchstone port\s*([0-9]+)\s*=\s*(CST MWS port|CST DS port)\s*([0-9]+|Zmin|Zmax)\s*\(\"(.*)\"\)(\s*mode\s*([0-9]+))?.*
! Touchstone port assignment:
! Touchstone port 1 = CST MWS port 1 ("")
! Touchstone port 2 = CST MWS port 2 ("")
# GHz S DB R 50
0.5                    -0.143655        -122.732           -59.48         76.0981           -59.48         76.0981      -0.00662434         151.117
0.501                  -0.150895         -123.19          -59.201         74.5933         -59.2046         74.6175      -0.00671694         151.052
0.502                  -0.158365         -123.65         -58.9272          73.081          -58.934         73.1274      -0.00680993         150.987
0.503                  -0.166064         -124.11         -58.6582          71.561          -58.668         71.6279      -0.00690329         150.921
0.504                  -0.173993        -124.572          -58.394         70.0331         -58.4063         70.1189      -0.00699702         150.856
0.505                  -0.182153        -125.035         -58.1343         68.4974         -58.1489         68.6003      -0.00709112          150.79
0.506                  -0.190543        -125.499         -57.8789         66.9536         -57.8956         67.0723      -0.00718559         150.724
0.507                  -0.199163        -125.965         -57.6277         65.4017         -57.6462         65.5347      -0.00728043         150.658
0.508                  -0.208014        -126.432         -57.3804         63.8417         -57.4006         63.9878      -0.00737564         150.592
0.509                  -0.217096          -126.9         -57.1371         62.2736         -57.1586         62.4314       -0.0074712         150.527
0.51                   -0.226408         -127.37         -56.8975         60.6972         -56.9202         60.8656      -0.00756713          150.46
0.511                  -0.235952        -127.841         -56.6614         59.1127         -56.6851         59.2905      -0.00766342         150.394
0.512                  -0.245727        -128.313         -56.4289           57.52         -56.4534         57.7063      -0.00776006         150.328
0.513                  -0.255732        -128.787         -56.1997         55.9193         -56.2249         56.1129      -0.00785706         150.262
0.514                  -0.265969        -129.262         -55.9738         54.3104         -55.9995         54.5104      -0.00795441         150.196
0.515                  -0.276437        -129.738          -55.751         52.6935         -55.7772         52.8991      -0.00805211         150.129
0.516                  -0.287136        -130.216         -55.5314         51.0686         -55.5577         51.2789      -0.00815017         150.063
0.517                  -0.298066        -130.695         -55.3147         49.4359         -55.3412           49.65      -0.00824857         149.996
0.518                  -0.309227        -131.175         -55.1009         47.7954         -55.1274         48.0125      -0.00834731         149.929
0.519                  -0.320619        -131.657         -54.8899         46.1473         -54.9163         46.3667       -0.0084464         149.863
0.52                   -0.332242         -132.14         -54.6816         44.4915         -54.7079         44.7126      -0.00854584         149.796
0.521                  -0.344096        -132.625         -54.4761         42.8284         -54.5021         43.0503      -0.00864561         149.729
0.522                  -0.356182        -133.111         -54.2731         41.1579         -54.2988         41.3802      -0.00874573         149.662
0.523                  -0.368498        -133.598         -54.0727         39.4803          -54.098         39.7023      -0.00884618         149.595
0.524                  -0.381045        -134.087         -53.8747         37.7957         -53.8996         38.0168      -0.00894698         149.528
0.525                  -0.393823        -134.577         -53.6792         36.1042         -53.7035         36.3239      -0.00904811         149.461
0.526                  -0.406833        -135.069          -53.486          34.406         -53.5098         34.6238      -0.00914957         149.393
0.527                  -0.420073        -135.562         -53.2951         32.7014         -53.3183         32.9168      -0.00925138         149.326
0.528                  -0.433544        -136.056         -53.1065         30.9904         -53.1291         31.2029      -0.00935352         149.258
0.529                  -0.447247        -136.552         -52.9201         29.2733         -52.9419         29.4826      -0.00945599         149.191
0.53                   -0.461181         -137.05         -52.7358         27.5502          -52.757         27.7558       -0.0095588         149.123
0.531                  -0.475347        -137.549         -52.5536         25.8214          -52.574          26.023      -0.00966195         149.055
0.532                  -0.489744         -138.05         -52.3735          24.087         -52.3932         24.2843      -0.00976543         148.987
0.533                  -0.504373        -138.552         -52.1954         22.3473         -52.2143         22.5399      -0.00986925         148.919
0.534                  -0.519235        -139.056         -52.0193         20.6025         -52.0373         20.7901       -0.0099734         148.851
0.535                  -0.534329        -139.561          -51.845         18.8527         -51.8623         19.0352       -0.0100779         148.783
0.536                  -0.549656        -140.068         -51.6727         17.0983         -51.6891         17.2753       -0.0101827         148.715
0.537                  -0.565216        -140.577         -51.5021         15.3394         -51.5178         15.5107       -0.0102879         148.646
0.538                   -0.58101        -141.087         -51.3334         13.5762         -51.3483         13.7416       -0.0103934         148.578
0.539                  -0.597038        -141.599         -51.1664          11.809         -51.1805         11.9684       -0.0104993         148.509
0.54                   -0.613301        -142.113         -51.0011         10.0379         -51.0144         10.1912       -0.0106055         148.441
0.541                    -0.6298        -142.628         -50.8374         8.26331           -50.85         8.41024       -0.0107121         148.372
0.542                  -0.646535        -143.146         -50.6754         6.48532         -50.6872         6.62584        -0.010819         148.303
0.543                  -0.663508        -143.665          -50.515         4.70417          -50.526          4.8382       -0.0109262         148.234
0.544                  -0.680719        -144.186         -50.3561          2.9201         -50.3664         3.04758       -0.0110339         148.165
0.545                   -0.69817        -144.708         -50.1987         1.13331         -50.2083          1.2542       -0.0111419         148.096
0.546                  -0.715861        -145.233         -50.0428        -0.65597         -50.0517       -0.541703       -0.0112503         148.026
0.547                  -0.733795        -145.759         -49.8883        -2.44754         -49.8965        -2.33989        -0.011359         147.957
0.548                  -0.751972        -146.288         -49.7351        -4.24118         -49.7427        -4.14015       -0.0114681         147.887
0.549                  -0.770394        -146.819         -49.5833        -6.03668         -49.5903        -5.94224       -0.0115777         147.818
0.55                   -0.789063        -147.351         -49.4329        -7.83386         -49.4392        -7.74596       -0.0116876         147.748
0.551                  -0.807981        -147.886         -49.2837         -9.6325         -49.2894        -9.55108       -0.0117979         147.678
0.552                  -0.827149        -148.422         -49.1357        -11.4324         -49.1409        -11.3574       -0.0119087         147.608
0.553                  -0.846571        -148.961         -48.9889        -13.2334         -48.9936        -13.1647       -0.0120199         147.538
0.554                  -0.866248        -149.502         -48.8432        -15.0353         -48.8474        -14.9729       -0.0121315         147.468
0.555                  -0.886183        -150.046         -48.6987         -16.838         -48.7024        -16.7816       -0.0122436         147.397
0.556                  -0.906379        -150.591         -48.5552        -18.6412         -48.5585        -18.5908       -0.0123561         147.327
0.557                  -0.926839        -151.139         -48.4128        -20.4448         -48.4156        -20.4003       -0.0124692         147.256
0.558                  -0.947566        -151.689         -48.2714        -22.2487         -48.2738        -22.2098       -0.0125827         147.185
0.559                  -0.968563        -152.242         -48.1309        -24.0526          -48.133        -24.0193       -0.0126967         147.114
0.56                   -0.989835        -152.797         -47.9913        -25.8565         -47.9931        -25.8286       -0.0128112         147.044
0.561                   -1.01138        -153.355         -47.8527        -27.6602         -47.8541        -27.6375       -0.0129263         146.972
0.562                   -1.03322        -153.915         -47.7149        -29.4636          -47.716        -29.4459        -0.013042         146.901
0.563                   -1.05534        -154.477         -47.5779        -31.2665         -47.5787        -31.2537       -0.0131582          146.83
0.564                   -1.07775        -155.043         -47.4416        -33.0689         -47.4422        -33.0607       -0.0132751         146.758
0.565                   -1.10046        -155.611         -47.3062        -34.8706         -47.3065         -34.867       -0.0133926         146.687
0.566                   -1.12347        -156.182         -47.1714        -36.6716         -47.1716        -36.6722       -0.0135108         146.615
0.567                   -1.14679        -156.756         -47.0373        -38.4718         -47.0373        -38.4764       -0.0136296         146.543
0.568                   -1.17042        -157.333         -46.9039         -40.271         -46.9037        -40.2795       -0.0137492         146.471
0.569                   -1.19438        -157.912          -46.771        -42.0692         -46.7707        -42.0814       -0.0138695         146.399
0.57                    -1.21866        -158.495         -46.6388        -43.8663         -46.6383         -43.882       -0.0139906         146.326
0.571                   -1.24328        -159.081          -46.507        -45.6624         -46.5065        -45.6813       -0.0141126         146.254
0.572                   -1.26825        -159.669         -46.3758        -47.4572         -46.3752        -47.4791       -0.0142354         146.181
0.573                   -1.29356        -160.262         -46.2451        -49.2508         -46.2444        -49.2756       -0.0143591         146.108
0.574                   -1.31924        -160.857         -46.1149        -51.0432         -46.1141        -51.0706       -0.0144838         146.035
0.575                   -1.34528        -161.456          -45.985        -52.8343         -45.9842        -52.8641       -0.0146095         145.962
0.576                   -1.37171        -162.058         -45.8556        -54.6241         -45.8548        -54.6561       -0.0147362         145.889
0.577                   -1.39852        -162.663         -45.7265        -56.4125         -45.7257        -56.4466        -0.014864         145.816
0.578                   -1.42574        -163.273         -45.5978        -58.1997          -45.597        -58.2356        -0.014993         145.742
0.579                   -1.45337        -163.885         -45.4694        -59.9855         -45.4686         -60.023       -0.0151232         145.668
0.58                    -1.48142        -164.502         -45.3413          -61.77         -45.3405         -61.809       -0.0152547         145.594
0.581                   -1.50991        -165.122         -45.2135        -63.5531         -45.2127        -63.5934       -0.0153875          145.52
0.582                   -1.53885        -165.746         -45.0859         -65.335         -45.0852        -65.3764       -0.0155218         145.446
0.583                   -1.56825        -166.374         -44.9586        -67.1157         -44.9579         -67.158       -0.0156575         145.372
0.584                   -1.59814        -167.006         -44.8315        -68.8951         -44.8308        -68.9381       -0.0157949         145.297
0.585                   -1.62852        -167.642         -44.7045        -70.6733         -44.7039         -70.717       -0.0159338         145.222
0.586                   -1.65941        -168.282         -44.5777        -72.4504         -44.5771        -72.4945       -0.0160746         145.148
0.587                   -1.69084        -168.927         -44.4511        -74.2264         -44.4506        -74.2708       -0.0162171         145.073
0.588                    -1.7228        -169.575         -44.3246        -76.0014         -44.3241        -76.0458       -0.0163616         144.997
0.589                   -1.75534        -170.228         -44.1982        -77.7754         -44.1978        -77.8198       -0.0165081         144.922
0.59                    -1.78846        -170.886         -44.0719        -79.5485         -44.0716        -79.5928       -0.0166567         144.846
0.591                   -1.82218        -171.548         -43.9457        -81.3207         -43.9455        -81.3647       -0.0168076          144.77
0.592                   -1.85654        -172.214         -43.8196        -83.0922         -43.8194        -83.1358       -0.0169608         144.694
0.593                   -1.89154        -172.885         -43.6936         -84.863         -43.6935        -84.9061       -0.0171165         144.618
0.594                   -1.92722        -173.561         -43.5676        -86.6332         -43.5675        -86.6757       -0.0172748         144.542
0.595                    -1.9636        -174.242         -43.4416        -88.4029         -43.4416        -88.4446       -0.0174358         144.465
0.596                   -2.00071        -174.927         -43.3157        -90.1721         -43.3158         -90.213       -0.0175997         144.389
0.597                   -2.03857        -175.618         -43.1898         -91.941           -43.19        -91.9811       -0.0177666         144.312
0.598                    -2.0772        -176.313         -43.0639        -93.7097         -43.0642        -93.7487       -0.0179366         144.234
0.599                   -2.11665        -177.014         -42.9381        -95.4782         -42.9384        -95.5162       -0.0181099         144.157
0.6                     -2.15694        -177.719         -42.8123        -97.2467         -42.8126        -97.2835       -0.0182866         144.079
0.601                    -2.1981         -178.43         -42.6864        -99.0152         -42.6868        -99.0509       -0.0184669         144.002
0.602                   -2.24017        -179.145         -42.5606        -100.784          -42.561        -100.818        -0.018651         143.924
0.603                   -2.28318        -179.866         -42.4348        -102.553         -42.4352        -102.586       -0.0188389         143.846
0.604                   -2.32716         179.407         -42.3089        -104.322         -42.3094        -104.354       -0.0190309         143.767
0.605                   -2.37216         178.676         -42.1831        -106.092         -42.1837        -106.123       -0.0192272         143.688
0.606                   -2.41822         177.939         -42.0573        -107.863         -42.0579        -107.892       -0.0194278          143.61
0.607                   -2.46536         177.197         -41.9315        -109.634         -41.9321        -109.661        -0.019633         143.531
0.608                   -2.51364         176.449         -41.8057        -111.406         -41.8063        -111.432       -0.0198429         143.451
0.609                   -2.56309         175.696         -41.6799        -113.179         -41.6806        -113.203       -0.0200578         143.372
0.61                    -2.61377         174.938         -41.5542        -114.952         -41.5548        -114.976       -0.0202777         143.292
0.611                   -2.66572         174.175         -41.4284        -116.727         -41.4291        -116.749       -0.0205028         143.212
0.612                   -2.71898         173.406         -41.3028        -118.504         -41.3034        -118.524       -0.0207334         143.132
0.613                    -2.7736         172.632         -41.1771        -120.281         -41.1778          -120.3       -0.0209695         143.051
0.614                   -2.82964         171.853         -41.0515         -122.06         -41.0522        -122.078       -0.0212113         142.971
0.615                   -2.88714         171.068          -40.926        -123.841         -40.9267        -123.857        -0.021459          142.89
0.616                   -2.94617         170.279         -40.8006        -125.623         -40.8012        -125.638       -0.0217127         142.809
0.617                   -3.00676         169.485         -40.6753        -127.407         -40.6759         -127.42       -0.0219726         142.727
0.618                   -3.06899         168.686           -40.55        -129.193         -40.5506        -129.205       -0.0222388         142.646
0.619                    -3.1329         167.882         -40.4249        -130.981         -40.4254        -130.991       -0.0225113         142.564
0.62                    -3.19856         167.073         -40.2999        -132.771         -40.3004         -132.78       -0.0227904         142.482
0.621                   -3.26603          166.26         -40.1751        -134.562         -40.1756         -134.57        -0.023076           142.4
0.622                   -3.33535         165.443         -40.0504        -136.356         -40.0508        -136.363       -0.0233684         142.317
0.623                   -3.40661         164.622         -39.9259        -138.153         -39.9263        -138.158       -0.0236676         142.234
0.624                   -3.47986         163.797         -39.8016        -139.951          -39.802        -139.955       -0.0239736         142.151
0.625                   -3.55516         162.968         -39.6776        -141.752         -39.6779        -141.755       -0.0242865         142.068
0.626                   -3.63258         162.136         -39.5538        -143.555          -39.554        -143.557       -0.0246063         141.984
0.627                   -3.71217         161.301         -39.4302        -145.361         -39.4304        -145.362       -0.0249331           141.9
0.628                   -3.79402         160.463          -39.307        -147.169         -39.3071         -147.17       -0.0252669         141.816
0.629                   -3.87818         159.624          -39.184         -148.98         -39.1841        -148.979       -0.0256076         141.732
