! TOUCHSTONE file generated by CST MICROWAVE STUDIO
! Date and time: Fri Oct  2 16:38:53 2020
! Project name: Scenario_1_Free_Space_out_of_line.cst
! Parameters = {Lambda=346.42; Step_1=17.321; dy1=104.866; dx1=520; L_HA=400; MT=2.54; Rad_Dielectric=30; Rad_Lower=7.3; Rad_Upper=30; a_HA=580; a_WG=246; b_HA=500; b_WG=121; c_HA=0; c_WG=187; d_feed=85; h_feed=15; h_lower=18; h_upper=40}
! Header version: 2018
! Port assignment regex: !\s*Touchstone port\s*([0-9]+)\s*=\s*(CST MWS port|CST DS port)\s*([0-9]+|Zmin|Zmax)\s*\(\"(.*)\"\)(\s*mode\s*([0-9]+))?.*
! Touchstone port assignment:
! Touchstone port 1 = CST MWS port 1 ("")
! Touchstone port 2 = CST MWS port 2 ("")
# GHz S DB R 50
0.5                    -0.150763        -122.653            -61.2        -21.6662            -61.2        -21.6662      -0.00668574         151.131
0.501                  -0.154785        -123.109         -61.0867        -23.2838         -61.0868        -23.2838      -0.00673155         151.065
0.502                  -0.159059        -123.566         -60.9703         -24.912         -60.9704         -24.912      -0.00677861             151
0.503                  -0.163587        -124.025         -60.8507        -26.5504          -60.851        -26.5504      -0.00682693         150.934
0.504                  -0.168371        -124.486         -60.7281        -28.1987         -60.7284        -28.1987       -0.0068765         150.868
0.505                  -0.173416        -124.948         -60.6023        -29.8565         -60.6027        -29.8566      -0.00692734         150.803
0.506                  -0.178723        -125.413         -60.4734        -31.5236         -60.4739        -31.5237      -0.00697945         150.737
0.507                  -0.184295        -125.879         -60.3415        -33.1995          -60.342        -33.1996      -0.00703284         150.671
0.508                  -0.190136        -126.348         -60.2065        -34.8839          -60.207        -34.8841      -0.00708752         150.605
0.509                  -0.196248        -126.818         -60.0684        -36.5766          -60.069        -36.5768      -0.00714348         150.539
0.51                   -0.202635         -127.29         -59.9273        -38.2771          -59.928        -38.2774      -0.00720075         150.473
0.511                  -0.209298        -127.764         -59.7833        -39.9853          -59.784        -39.9856      -0.00725931         150.407
0.512                  -0.216242         -128.24         -59.6363        -41.7008         -59.6371        -41.7011       -0.0073192          150.34
0.513                  -0.223468        -128.717         -59.4864        -43.4233         -59.4872        -43.4237       -0.0073804         150.274
0.514                   -0.23098        -129.197         -59.3337        -45.1527         -59.3345        -45.1531      -0.00744292         150.207
0.515                  -0.238781        -129.678         -59.1781        -46.8886          -59.179        -46.8891      -0.00750678         150.141
0.516                  -0.246873        -130.162         -59.0199        -48.6308         -59.0208        -48.6314      -0.00757198         150.074
0.517                   -0.25526        -130.647         -58.8589        -50.3793         -58.8598        -50.3799      -0.00763853         150.007
0.518                  -0.263944        -131.134         -58.6953        -52.1337         -58.6963        -52.1343      -0.00770643         149.941
0.519                  -0.272928        -131.623         -58.5291        -53.8938         -58.5301        -53.8946       -0.0077757         149.874
0.52                   -0.282216        -132.114         -58.3604        -55.6597         -58.3615        -55.6605      -0.00784633         149.807
0.521                  -0.291809        -132.606         -58.1893        -57.4311         -58.1904        -57.4319      -0.00791835          149.74
0.522                  -0.301711        -133.101         -58.0158         -59.208         -58.0169        -59.2088      -0.00799175         149.673
0.523                  -0.311925        -133.597         -57.8401        -60.9902         -57.8412         -60.991      -0.00806654         149.605
0.524                  -0.322454        -134.095         -57.6622        -62.7777         -57.6633        -62.7786      -0.00814273         149.538
0.525                    -0.3333        -134.596         -57.4821        -64.5705         -57.4832        -64.5714      -0.00822034         149.471
0.526                  -0.344467        -135.098            -57.3        -66.3685         -57.3011        -66.3694      -0.00829937         149.403
0.527                  -0.355956        -135.601          -57.116        -68.1717         -57.1171        -68.1727      -0.00837982         149.336
0.528                  -0.367772        -136.107         -56.9301        -69.9802         -56.9312        -69.9812       -0.0084617         149.268
0.529                  -0.379917        -136.615         -56.7424         -71.794         -56.7435        -71.7949      -0.00854503           149.2
0.53                   -0.392394        -137.124          -56.553         -73.613         -56.5541         -73.614      -0.00862982         149.132
0.531                  -0.405205        -137.635          -56.362        -75.4375         -56.3631        -75.4385      -0.00871606         149.064
0.532                  -0.418355        -138.148         -56.1696        -77.2674         -56.1707        -77.2684      -0.00880378         148.996
0.533                  -0.431844        -138.663         -55.9757        -79.1029         -55.9768        -79.1038      -0.00889298         148.928
0.534                  -0.445677         -139.18         -55.7805        -80.9439         -55.7816        -80.9449      -0.00898366          148.86
0.535                  -0.459856        -139.699         -55.5842        -82.7908         -55.5852        -82.7917      -0.00907585         148.791
0.536                  -0.474383        -140.219         -55.3867        -84.6435         -55.3877        -84.6443      -0.00916954         148.723
0.537                  -0.489263        -140.741         -55.1881        -86.5021         -55.1892         -86.503      -0.00926475         148.654
0.538                  -0.504497        -141.266         -54.9887        -88.3669         -54.9897        -88.3677      -0.00936149         148.586
0.539                  -0.520089        -141.792         -54.7885        -90.2379         -54.7895        -90.2387      -0.00945976         148.517
0.54                   -0.536041         -142.32         -54.5875        -92.1152         -54.5885         -92.116      -0.00955958         148.448
0.541                  -0.552356        -142.849          -54.386        -93.9991         -54.3869        -93.9998      -0.00966096         148.379
0.542                  -0.569037        -143.381         -54.1839        -95.8895         -54.1848        -95.8902      -0.00976391          148.31
0.543                  -0.586087        -143.914         -53.9814        -97.7868         -53.9823        -97.7874      -0.00986844         148.241
0.544                  -0.603508        -144.449         -53.7786        -99.6909         -53.7795        -99.6914      -0.00997455         148.171
0.545                  -0.621304        -144.986         -53.5757        -101.602         -53.5765        -101.602       -0.0100823         148.102
0.546                  -0.639478        -145.525         -53.3726         -103.52         -53.3734        -103.521       -0.0101916         148.033
0.547                  -0.658031        -146.066         -53.1695        -105.445         -53.1702        -105.446       -0.0103025         147.963
0.548                  -0.676967        -146.609         -52.9665        -107.378         -52.9672        -107.378       -0.0104151         147.893
0.549                   -0.69629        -147.153         -52.7638        -109.318         -52.7644        -109.318       -0.0105293         147.823
0.55                   -0.716001        -147.699         -52.5613        -111.265          -52.562        -111.266       -0.0106452         147.753
0.551                  -0.736104        -148.248         -52.3593         -113.22         -52.3599         -113.22       -0.0107628         147.683
0.552                  -0.756601        -148.798         -52.1578        -115.182         -52.1583        -115.183        -0.010882         147.613
0.553                  -0.777495        -149.349         -51.9569        -117.152         -51.9574        -117.152       -0.0110029         147.543
0.554                   -0.79879        -149.903         -51.7567        -119.129         -51.7572        -119.129       -0.0111255         147.472
0.555                  -0.820489        -150.459         -51.5573        -121.114         -51.5577        -121.114       -0.0112499         147.402
0.556                  -0.842593        -151.016         -51.3588        -123.106         -51.3592        -123.106        -0.011376         147.331
0.557                  -0.865107        -151.575         -51.1613        -125.105         -51.1617        -125.105       -0.0115038          147.26
0.558                  -0.888033        -152.136         -50.9649        -127.111         -50.9652        -127.111       -0.0116333          147.19
0.559                  -0.911374        -152.699         -50.7696        -129.124         -50.7699        -129.124       -0.0117647         147.119
0.56                   -0.935133        -153.264         -50.5757        -131.145         -50.5759        -131.145       -0.0118978         147.047
0.561                  -0.959314        -153.831          -50.383        -133.171         -50.3832        -133.171       -0.0120327         146.976
0.562                   -0.98392          -154.4         -50.1918        -135.205          -50.192        -135.205       -0.0121694         146.905
0.563                   -1.00895         -154.97         -50.0021        -137.244         -50.0022        -137.244        -0.012308         146.833
0.564                   -1.03442        -155.543         -49.8139         -139.29          -49.814         -139.29       -0.0124484         146.762
0.565                   -1.06031        -156.117         -49.6274        -141.341         -49.6275        -141.341       -0.0125906          146.69
0.566                   -1.08665        -156.693         -49.4426        -143.398         -49.4427        -143.398       -0.0127347         146.618
0.567                   -1.11343        -157.271         -49.2596        -145.459         -49.2596        -145.459       -0.0128807         146.546
0.568                   -1.14065        -157.852         -49.0784        -147.526         -49.0783        -147.526       -0.0130286         146.474
0.569                   -1.16831        -158.434          -48.899        -149.597          -48.899        -149.597       -0.0131784         146.401
0.57                    -1.19643        -159.018         -48.7216        -151.672         -48.7215        -151.672       -0.0133301         146.329
0.571                   -1.22501        -159.604         -48.5461         -153.75          -48.546         -153.75       -0.0134838         146.256
0.572                   -1.25404        -160.192         -48.3726        -155.832         -48.3725        -155.832       -0.0136394         146.184
0.573                   -1.28354        -160.782         -48.2012        -157.916          -48.201        -157.916        -0.013797         146.111
0.574                    -1.3135        -161.373         -48.0317        -160.003         -48.0315        -160.003       -0.0139566         146.038
0.575                   -1.34393        -161.967         -47.8644        -162.092         -47.8641        -162.092       -0.0141182         145.964
0.576                   -1.37483        -162.563         -47.6991        -164.182         -47.6988        -164.182       -0.0142819         145.891
0.577                   -1.40622        -163.161         -47.5359        -166.273         -47.5356        -166.274       -0.0144476         145.818
0.578                   -1.43808        -163.761         -47.3747        -168.365         -47.3744        -168.366       -0.0146153         145.744
0.579                   -1.47043        -164.364         -47.2157        -170.457         -47.2154        -170.458       -0.0147852          145.67
0.58                    -1.50328        -164.968         -47.0587        -172.549         -47.0584         -172.55       -0.0149572         145.596
0.581                   -1.53662        -165.574         -46.9038         -174.64         -46.9034        -174.641       -0.0151312         145.522
0.582                   -1.57046        -166.183         -46.7509         -176.73         -46.7505        -176.731       -0.0153075         145.448
0.583                   -1.60481        -166.793            -46.6        -178.819         -46.5996         -178.82       -0.0154858         145.374
0.584                   -1.63967        -167.406          -46.451         179.094         -46.4507         179.093       -0.0156664         145.299
0.585                   -1.67504        -168.021         -46.3041          177.01         -46.3037         177.009       -0.0158492         145.225
0.586                   -1.71094        -168.638          -46.159         174.928         -46.1586         174.927       -0.0160342          145.15
0.587                   -1.74736        -169.258         -46.0157         172.849         -46.0153         172.848       -0.0162215         145.075
0.588                   -1.78432         -169.88         -45.8743         170.774         -45.8739         170.773        -0.016411         144.999
0.589                   -1.82182        -170.504         -45.7346         168.702         -45.7342         168.701       -0.0166028         144.924
0.59                    -1.85986         -171.13         -45.5966         166.634         -45.5962         166.633        -0.016797         144.849
0.591                   -1.89846        -171.759         -45.4603          164.57         -45.4599         164.569       -0.0169935         144.773
0.592                   -1.93762         -172.39         -45.3255          162.51         -45.3251         162.509       -0.0171924         144.697
0.593                   -1.97734        -173.024         -45.1923         160.455         -45.1919         160.454       -0.0173936         144.621
0.594                   -2.01764         -173.66         -45.0605         158.405         -45.0601         158.403       -0.0175973         144.545
0.595                   -2.05852        -174.298         -44.9301         156.359         -44.9297         156.358       -0.0178034         144.468
0.596                   -2.09999        -174.939         -44.8011         154.319         -44.8007         154.317       -0.0180121         144.392
0.597                   -2.14205        -175.583         -44.6733         152.283         -44.6729         152.282       -0.0182232         144.315
0.598                   -2.18473        -176.229         -44.5466         150.253         -44.5463         150.251       -0.0184369         144.238
0.599                   -2.22802        -176.878         -44.4211         148.228         -44.4208         148.226       -0.0186531         144.161
0.6                     -2.27194        -177.529         -44.2967         146.208         -44.2963         146.206       -0.0188719         144.083
0.601                   -2.31649        -178.183         -44.1732         144.193         -44.1729         144.192       -0.0190934         144.006
0.602                   -2.36169         -178.84         -44.0507         142.184         -44.0503         142.182       -0.0193175         143.928
0.603                   -2.40755          -179.5          -43.929         140.179         -43.9286         140.178       -0.0195444          143.85
0.604                   -2.45407         179.838          -43.808          138.18         -43.8077         138.178        -0.019774         143.772
0.605                   -2.50128         179.172         -43.6878         136.185         -43.6875         136.184       -0.0200063         143.694
0.606                   -2.54918         178.504         -43.5683         134.196          -43.568         134.194       -0.0202415         143.615
0.607                   -2.59779         177.832         -43.4493         132.211          -43.449         132.209       -0.0204796         143.536
0.608                   -2.64712         177.158         -43.3309          130.23         -43.3306         130.229       -0.0207205         143.457
0.609                   -2.69718          176.48          -43.213         128.254         -43.2127         128.253       -0.0209644         143.378
0.61                      -2.748           175.8         -43.0954         126.283         -43.0952         126.281       -0.0212113         143.299
0.611                   -2.79958         175.116         -42.9782         124.315          -42.978         124.313       -0.0214613         143.219
0.612                   -2.85194         174.429         -42.8614         122.351         -42.8612          122.35       -0.0217143         143.139
0.613                    -2.9051         173.738         -42.7448         120.391         -42.7446         120.389       -0.0219705         143.059
0.614                   -2.95908         173.045         -42.6284         118.434         -42.6282         118.432       -0.0222299         142.979
0.615                    -3.0139         172.347         -42.5122          116.48          -42.512         116.478       -0.0224926         142.899
0.616                   -3.06958         171.647         -42.3961         114.529         -42.3959         114.527       -0.0227587         142.818
0.617                   -3.12613         170.942         -42.2801          112.58         -42.2799         112.579       -0.0230281         142.737
0.618                   -3.18359         170.235         -42.1642         110.634          -42.164         110.632        -0.023301         142.656
0.619                   -3.24197         169.523         -42.0483         108.689         -42.0481         108.688       -0.0235775         142.574
0.62                     -3.3013         168.808         -41.9323         106.747         -41.9322         106.746       -0.0238576         142.492
0.621                    -3.3616         168.089         -41.8163         104.806         -41.8162         104.805       -0.0241415          142.41
0.622                   -3.42291         167.366         -41.7003         102.866         -41.7002         102.865       -0.0244291         142.328
0.623                   -3.48524         166.639         -41.5842         100.927          -41.584         100.926       -0.0247207         142.246
0.624                   -3.54864         165.909         -41.4679         98.9883         -41.4678         98.9874       -0.0250163         142.163
0.625                   -3.61312         165.174         -41.3515           97.05         -41.3514         97.0492        -0.025316          142.08
0.626                   -3.67873         164.435          -41.235         95.1118         -41.2349          95.111       -0.0256199         141.997
0.627                    -3.7455         163.692         -41.1183         93.1732         -41.1182         93.1725       -0.0259282         141.913
0.628                   -3.81347         162.945         -41.0014          91.234         -41.0014         91.2333       -0.0262411         141.829
0.629                   -3.88266         162.193         -40.8844          89.294         -40.8844         89.2933       -0.0265585         141.745
