! TOUCHSTONE file generated by CST MICROWAVE STUDIO
! Date and time: Fri Oct  2 16:56:16 2020
! Project name: Scenario_1_Free_Space_out_of_line.cst
! Parameters = {Lambda=346.42; Step_1=17.321; dy1=104.866; dx1=693; L_HA=400; MT=2.54; Rad_Dielectric=30; Rad_Lower=7.3; Rad_Upper=30; a_HA=580; a_WG=246; b_HA=500; b_WG=121; c_HA=0; c_WG=187; d_feed=85; h_feed=15; h_lower=18; h_upper=40}
! Header version: 2018
! Port assignment regex: !\s*Touchstone port\s*([0-9]+)\s*=\s*(CST MWS port|CST DS port)\s*([0-9]+|Zmin|Zmax)\s*\(\"(.*)\"\)(\s*mode\s*([0-9]+))?.*
! Touchstone port assignment:
! Touchstone port 1 = CST MWS port 1 ("")
! Touchstone port 2 = CST MWS port 2 ("")
# GHz S DB R 50
0.5                    -0.146439        -122.606         -62.6012        -118.929         -62.6012        -118.929      -0.00669016         151.108
0.501                  -0.153178        -123.028          -62.499        -121.103          -62.499        -121.104      -0.00674686         151.042
0.502                   -0.16002        -123.454         -62.3921        -123.284         -62.3922        -123.285      -0.00680423         150.977
0.503                  -0.166968        -123.881         -62.2806         -125.47         -62.2807        -125.472      -0.00686231         150.912
0.504                  -0.174026        -124.311         -62.1645        -127.661         -62.1646        -127.663       -0.0069211         150.846
0.505                  -0.181198        -124.743         -62.0438        -129.855         -62.0439        -129.857       -0.0069806         150.781
0.506                   -0.18849        -125.177         -61.9186        -132.051         -61.9188        -132.054      -0.00704084         150.715
0.507                  -0.195904        -125.614         -61.7891        -134.248         -61.7892        -134.252      -0.00710182         150.649
0.508                  -0.203445        -126.054         -61.6552        -136.445         -61.6554         -136.45      -0.00716355         150.583
0.509                  -0.211119        -126.495         -61.5171        -138.642         -61.5173        -138.647      -0.00722605         150.518
0.51                    -0.21893        -126.939         -61.3749        -140.838         -61.3751        -140.843      -0.00728934         150.452
0.511                  -0.226882        -127.386         -61.2287        -143.031         -61.2289        -143.037      -0.00735341         150.386
0.512                   -0.23498        -127.835         -61.0787        -145.222         -61.0788        -145.228      -0.00741829         150.319
0.513                   -0.24323        -128.286         -60.9249        -147.409         -60.9251        -147.415      -0.00748399         150.253
0.514                  -0.251637         -128.74         -60.7675        -149.591         -60.7677        -149.598      -0.00755052         150.187
0.515                  -0.260205        -129.197         -60.6067        -151.769         -60.6068        -151.776       -0.0076179         150.121
0.516                   -0.26894        -129.656         -60.4426        -153.942         -60.4427         -153.95      -0.00768613         150.054
0.517                  -0.277847        -130.118         -60.2752         -156.11         -60.2754        -156.117      -0.00775523         149.988
0.518                  -0.286932        -130.582         -60.1049        -158.272          -60.105        -158.279      -0.00782521         149.921
0.519                    -0.2962        -131.049         -59.9317        -160.428         -59.9318        -160.435       -0.0078961         149.854
0.52                   -0.305657        -131.518         -59.7558        -162.577         -59.7559        -162.585      -0.00796789         149.787
0.521                  -0.315309        -131.991         -59.5773         -164.72         -59.5774        -164.728      -0.00804061          149.72
0.522                  -0.325162        -132.465         -59.3964        -166.857         -59.3965        -166.865      -0.00811428         149.653
0.523                  -0.335221        -132.943         -59.2133        -168.987         -59.2133        -168.995      -0.00818889         149.586
0.524                  -0.345493        -133.423          -59.028        -171.111          -59.028        -171.119      -0.00826448         149.519
0.525                  -0.355983        -133.906         -58.8407        -173.228         -58.8407        -173.237      -0.00834105         149.452
0.526                  -0.366699        -134.392         -58.6516         -175.34         -58.6516        -175.348      -0.00841862         149.384
0.527                  -0.377646         -134.88         -58.4608        -177.445         -58.4608        -177.453      -0.00849721         149.317
0.528                  -0.388831        -135.371         -58.2685        -179.544         -58.2684        -179.552      -0.00857683         149.249
0.529                  -0.400261        -135.865         -58.0747         178.362         -58.0747         178.354      -0.00865749         149.182
0.53                   -0.411943        -136.362         -57.8796         176.274         -57.8796         176.266      -0.00873922         149.114
0.531                  -0.423882        -136.861         -57.6834         174.191         -57.6833         174.183      -0.00882202         149.046
0.532                  -0.436086        -137.363         -57.4861         172.113          -57.486         172.105      -0.00890592         148.978
0.533                  -0.448563        -137.869         -57.2879         170.039         -57.2878         170.031      -0.00899093          148.91
0.534                  -0.461318        -138.377         -57.0888         167.969         -57.0888         167.962      -0.00907707         148.842
0.535                   -0.47436        -138.887         -56.8891         165.904          -56.889         165.896      -0.00916435         148.774
0.536                  -0.487696        -139.401         -56.6888         163.841         -56.6887         163.834       -0.0092528         148.705
0.537                  -0.501333        -139.918          -56.488         161.781         -56.4879         161.774      -0.00934243         148.637
0.538                  -0.515278        -140.437         -56.2868         159.724         -56.2867         159.717      -0.00943325         148.568
0.539                   -0.52954        -140.959         -56.0854         157.669         -56.0853         157.663       -0.0095253           148.5
0.54                   -0.544125        -141.484         -55.8837         155.616         -55.8836          155.61      -0.00961857         148.431
0.541                  -0.559042        -142.013          -55.682         153.565         -55.6819         153.558       -0.0097131         148.362
0.542                  -0.574299        -142.544         -55.4802         151.514         -55.4801         151.508       -0.0098089         148.293
0.543                  -0.589903        -143.077         -55.2786         149.464         -55.2785         149.458        -0.009906         148.224
0.544                  -0.605863        -143.614         -55.0771         147.414          -55.077         147.408       -0.0100044         148.154
0.545                  -0.622187        -144.154         -54.8758         145.364         -54.8758         145.358       -0.0101041         148.085
0.546                  -0.638883        -144.697         -54.6749         143.313         -54.6749         143.308       -0.0102052         148.016
0.547                  -0.655959        -145.242         -54.4744         141.261         -54.4744         141.256       -0.0103077         147.946
0.548                  -0.673424        -145.791         -54.2744         139.208         -54.2744         139.203       -0.0104115         147.876
0.549                  -0.691286        -146.342          -54.075         137.153         -54.0749         137.149       -0.0105168         147.807
0.55                   -0.709554        -146.897         -53.8762         135.096         -53.8761         135.092       -0.0106235         147.737
0.551                  -0.728236        -147.454          -53.678         133.037          -53.678         133.033       -0.0107316         147.667
0.552                  -0.747341        -148.014         -53.4807         130.976         -53.4806         130.972       -0.0108413         147.597
0.553                  -0.766878        -148.577         -53.2842         128.911         -53.2841         128.908       -0.0109524         147.526
0.554                  -0.786856        -149.143         -53.0885         126.843         -53.0885          126.84        -0.011065         147.456
0.555                  -0.807283        -149.712         -52.8939         124.772         -52.8938         124.769       -0.0111792         147.385
0.556                  -0.828168        -150.284         -52.7002         122.697         -52.7002         122.694        -0.011295         147.315
0.557                  -0.849521        -150.859         -52.5077         120.618         -52.5076         120.616       -0.0114123         147.244
0.558                   -0.87135        -151.436         -52.3162         118.535         -52.3162         118.533       -0.0115313         147.173
0.559                  -0.893664        -152.017          -52.126         116.448          -52.126         116.446       -0.0116519         147.102
0.56                   -0.916473          -152.6          -51.937         114.356          -51.937         114.354       -0.0117742         147.031
0.561                  -0.939785        -153.186         -51.7493          112.26         -51.7493         112.258       -0.0118981          146.96
0.562                   -0.96361        -153.775         -51.5629         110.159         -51.5629         110.158       -0.0120238         146.888
0.563                  -0.987957        -154.367         -51.3779         108.053         -51.3779         108.052       -0.0121512         146.817
0.564                   -1.01283        -154.962         -51.1944         105.942         -51.1944         105.942       -0.0122804         146.745
0.565                   -1.03825        -155.559         -51.0124         103.827         -51.0124         103.826       -0.0124114         146.673
0.566                   -1.06422        -156.159         -50.8318         101.706         -50.8319         101.706       -0.0125442         146.601
0.567                   -1.09075        -156.762         -50.6529         99.5807         -50.6529         99.5809       -0.0126789         146.529
0.568                   -1.11784        -157.368         -50.4755         97.4503         -50.4755         97.4507       -0.0128154         146.457
0.569                   -1.14551        -157.976         -50.2998         95.3149         -50.2998         95.3156       -0.0129539         146.385
0.57                    -1.17377        -158.587         -50.1258         93.1747         -50.1258         93.1756       -0.0130942         146.312
0.571                   -1.20263        -159.201         -49.9534         91.0297         -49.9534         91.0308       -0.0132366          146.24
0.572                   -1.23208        -159.818         -49.7828         88.8799         -49.7828         88.8812       -0.0133809         146.167
0.573                   -1.26216        -160.437         -49.6139         86.7255         -49.6139          86.727       -0.0135273         146.094
0.574                   -1.29285        -161.058         -49.4468         84.5667         -49.4468         84.5683       -0.0136757         146.021
0.575                   -1.32418        -161.682         -49.2815         82.4034         -49.2815         82.4053       -0.0138262         145.948
0.576                   -1.35615        -162.309          -49.118          80.236          -49.118          80.238       -0.0139789         145.874
0.577                   -1.38877        -162.938         -48.9564         78.0645         -48.9564         78.0667       -0.0141336         145.801
0.578                   -1.42204         -163.57         -48.7965         75.8891         -48.7965         75.8914       -0.0142906         145.727
0.579                   -1.45599        -164.204         -48.6385         73.7101         -48.6386         73.7125       -0.0144498         145.653
0.58                    -1.49061         -164.84         -48.4824         71.5275         -48.4824         71.5301       -0.0146112         145.579
0.581                   -1.52592        -165.479         -48.3281         69.3417         -48.3281         69.3445        -0.014775         145.505
0.582                   -1.56192        -166.121         -48.1757         67.1529         -48.1757         67.1558        -0.014941         145.431
0.583                   -1.59863        -166.764         -48.0251         64.9613         -48.0251         64.9642       -0.0151095         145.356
0.584                   -1.63605         -167.41         -47.8763          62.767         -47.8763         62.7701       -0.0152803         145.282
0.585                   -1.67418        -168.058         -47.7293         60.5704         -47.7293         60.5736       -0.0154536         145.207
0.586                   -1.71305        -168.708         -47.5842         58.3717         -47.5842         58.3749       -0.0156293         145.132
0.587                   -1.75265         -169.36         -47.4408         56.1712         -47.4408         56.1744       -0.0158075         145.057
0.588                     -1.793        -170.015         -47.2992          53.969         -47.2992         53.9723       -0.0159883         144.981
0.589                    -1.8341        -170.671         -47.1594         51.7654         -47.1593         51.7688       -0.0161717         144.906
0.59                    -1.87596         -171.33         -47.0212         49.5607         -47.0212         49.5641       -0.0163578          144.83
0.591                   -1.91859         -171.99         -46.8848         47.3551         -46.8847         47.3585       -0.0165465         144.754
0.592                   -1.96199        -172.653           -46.75         45.1488         -46.7499         45.1522       -0.0167379         144.678
0.593                   -2.00618        -173.317         -46.6168          42.942         -46.6167         42.9455       -0.0169321         144.602
0.594                   -2.05117        -173.984         -46.4852         40.7351         -46.4851         40.7385       -0.0171291         144.526
0.595                   -2.09695        -174.652         -46.3551         38.5281          -46.355         38.5315        -0.017329         144.449
0.596                   -2.14354        -175.321         -46.2266         36.3213         -46.2265         36.3247       -0.0175317         144.373
0.597                   -2.19094        -175.993         -46.0995          34.115         -46.0994         34.1183       -0.0177374         144.296
0.598                   -2.23917        -176.666         -45.9738         31.9092         -45.9737         31.9125       -0.0179461         144.219
0.599                   -2.28822        -177.341         -45.8494         29.7041         -45.8493         29.7074       -0.0181579         144.141
0.6                     -2.33811        -178.017         -45.7264            27.5         -45.7263         27.5033       -0.0183727         144.064
0.601                   -2.38884        -178.695         -45.6047          25.297         -45.6046         25.3002       -0.0185907         143.986
0.602                   -2.44043        -179.374         -45.4841         23.0952          -45.484         23.0983       -0.0188119         143.908
0.603                   -2.49287         179.945         -45.3647         20.8947         -45.3646         20.8978       -0.0190363          143.83
0.604                   -2.54617         179.263         -45.2464         18.6957         -45.2463         18.6987        -0.019264         143.752
0.605                   -2.60034         178.579         -45.1292         16.4983         -45.1291         16.5012       -0.0194951         143.673
0.606                   -2.65539         177.894          -45.013         14.3025         -45.0129         14.3053       -0.0197296         143.595
0.607                   -2.71132         177.208         -44.8977         12.1085         -44.8976         12.1112       -0.0199676         143.516
0.608                   -2.76813         176.521         -44.7833         9.91627         -44.7832         9.91891       -0.0202091         143.437
0.609                   -2.82585         175.832         -44.6697         7.72591         -44.6696         7.72845       -0.0204543         143.357
0.61                    -2.88447         175.142         -44.5569         5.53744         -44.5568         5.53988        -0.020703         143.278
0.611                   -2.94399         174.452         -44.4449          3.3509         -44.4448         3.35323       -0.0209555         143.198
0.612                   -3.00443          173.76         -44.3335         1.16629         -44.3334         1.16852       -0.0212118         143.118
0.613                   -3.06579         173.067         -44.2227        -1.01637         -44.2226        -1.01426       -0.0214719         143.038
0.614                   -3.12807         172.374         -44.1125        -3.19711         -44.1123        -3.19511       -0.0217359         142.957
0.615                   -3.19129         171.679         -44.0028        -5.37594         -44.0026        -5.37405       -0.0220039         142.877
0.616                   -3.25545         170.984         -43.8935        -7.55289         -43.8934        -7.55112       -0.0222759         142.796
0.617                   -3.32056         170.287         -43.7847        -9.72802         -43.7845        -9.72636       -0.0225521         142.715
0.618                   -3.38662          169.59         -43.6762        -11.9014          -43.676        -11.8998       -0.0228324         142.633
0.619                   -3.45363         168.892          -43.568         -14.073         -43.5679        -14.0716       -0.0231171         142.552
0.62                    -3.52162         168.194         -43.4601         -16.243           -43.46        -16.2417        -0.023406          142.47
0.621                   -3.59057         167.495         -43.3524        -18.4114         -43.3523        -18.4102       -0.0236994         142.388
0.622                   -3.66051         166.795         -43.2449        -20.5784         -43.2448        -20.5773       -0.0239973         142.305
0.623                   -3.73143         166.094         -43.1375         -22.744         -43.1374         -22.743       -0.0242998         142.223
0.624                   -3.80334         165.393         -43.0302        -24.9083         -43.0301        -24.9074       -0.0246069          142.14
0.625                   -3.87626         164.692         -42.9229        -27.0715         -42.9228        -27.0707       -0.0249188         142.057
0.626                   -3.95019          163.99         -42.8157        -29.2336         -42.8156         -29.233       -0.0252355         141.973
0.627                   -4.02513         163.287         -42.7085        -31.3949         -42.7084        -31.3943       -0.0255572         141.889
0.628                    -4.1011         162.584         -42.6012        -33.5553         -42.6011        -33.5549       -0.0258838         141.806
0.629                    -4.1781         161.881         -42.4938        -35.7152         -42.4937        -35.7148       -0.0262156         141.721
