! TOUCHSTONE file generated by CST MICROWAVE STUDIO
! Date and time: Fri Oct  2 19:10:14 2020
! Project name: Scenario_1_Free_Space_out_of_line.cst
! Parameters = {Lambda=346.42; Step_1=17.321; dy1=104.866; dx1=866; L_HA=400; MT=2.54; Rad_Dielectric=30; Rad_Lower=7.3; Rad_Upper=30; a_HA=580; a_WG=246; b_HA=500; b_WG=121; c_HA=0; c_WG=187; d_feed=85; h_feed=15; h_lower=18; h_upper=40}
! Header version: 2018
! Port assignment regex: !\s*Touchstone port\s*([0-9]+)\s*=\s*(CST MWS port|CST DS port)\s*([0-9]+|Zmin|Zmax)\s*\(\"(.*)\"\)(\s*mode\s*([0-9]+))?.*
! Touchstone port assignment:
! Touchstone port 1 = CST MWS port 1 ("")
! Touchstone port 2 = CST MWS port 2 ("")
# GHz S DB R 50
0.5                    -0.147279        -122.286         -63.4467         141.938         -63.4467         141.938      -0.00657005         151.147
0.501                   -0.15244          -122.7         -63.5144         139.586         -63.5143         139.586      -0.00663354         151.082
0.502                  -0.157763        -123.116         -63.5758         137.176         -63.5756         137.175      -0.00669782         151.017
0.503                  -0.163254        -123.536         -63.6301         134.707         -63.6298         134.707      -0.00676291         150.951
0.504                  -0.168916        -123.958         -63.6766         132.182         -63.6762         132.181       -0.0068288         150.886
0.505                  -0.174755        -124.382         -63.7148         129.603         -63.7143         129.601      -0.00689551          150.82
0.506                  -0.180774         -124.81         -63.7439          126.97         -63.7433         126.969      -0.00696304         150.755
0.507                  -0.186977         -125.24         -63.7633         124.288         -63.7626         124.287       -0.0070314         150.689
0.508                   -0.19337        -125.673         -63.7723          121.56         -63.7714         121.559       -0.0071006         150.623
0.509                  -0.199957        -126.108         -63.7703          118.79         -63.7693         118.788      -0.00717064         150.558
0.51                   -0.206743        -126.546         -63.7568         115.981         -63.7558          115.98      -0.00724153         150.492
0.511                  -0.213733        -126.987         -63.7314          113.14         -63.7302         113.139      -0.00731328         150.426
0.512                  -0.220931        -127.431         -63.6936         110.271         -63.6923          110.27      -0.00738589          150.36
0.513                  -0.228343        -127.878         -63.6432          107.38         -63.6418         107.379      -0.00745937         150.293
0.514                  -0.235974        -128.327         -63.5799         104.473         -63.5784         104.472      -0.00753374         150.227
0.515                  -0.243828        -128.779         -63.5037         101.555         -63.5021         101.555      -0.00760899         150.161
0.516                  -0.251912        -129.234         -63.4145         98.6337         -63.4129         98.6337      -0.00768514         150.095
0.517                   -0.26023        -129.692         -63.3126         95.7138         -63.3109         95.7142       -0.0077622         150.028
0.518                  -0.268788        -130.153         -63.1981         92.8014         -63.1963         92.8022      -0.00784016         149.962
0.519                  -0.277592        -130.617         -63.0713         89.9021         -63.0694         89.9033      -0.00791905         149.895
0.52                   -0.286646        -131.083         -62.9326         87.0209         -62.9307         87.0225      -0.00799887         149.828
0.521                  -0.295958        -131.553         -62.7825         84.1626         -62.7805         84.1647      -0.00807962         149.761
0.522                  -0.305532        -132.025         -62.6215         81.3315         -62.6195          81.334      -0.00816132         149.695
0.523                  -0.315374          -132.5         -62.4503         78.5312         -62.4483         78.5341      -0.00824398         149.628
0.524                  -0.325491        -132.978         -62.2694          75.765         -62.2674         75.7684       -0.0083276         149.561
0.525                  -0.335889        -133.459         -62.0795         73.0356         -62.0775         73.0393      -0.00841219         149.493
0.526                  -0.346573        -133.943         -61.8814         70.3449         -61.8794         70.3491      -0.00849777         149.426
0.527                  -0.357549         -134.43         -61.6756         67.6947         -61.6736         67.6992      -0.00858434         149.359
0.528                  -0.368825         -134.92         -61.4628          65.086         -61.4608         65.0908      -0.00867191         149.291
0.529                  -0.380407        -135.413         -61.2438         62.5194         -61.2418         62.5246       -0.0087605         149.224
0.53                     -0.3923        -135.909          -61.019         59.9952          -61.017         60.0007       -0.0088501         149.156
0.531                  -0.404513        -136.408         -60.7892         57.5132         -60.7873         57.5189      -0.00894074         149.089
0.532                   -0.41705         -136.91         -60.5549         55.0729          -60.553         55.0789      -0.00903243         149.021
0.533                   -0.42992        -137.415         -60.3167         52.6736         -60.3148         52.6798      -0.00912516         148.953
0.534                  -0.443128        -137.922          -60.075         50.3143         -60.0732         50.3206      -0.00921896         148.885
0.535                  -0.456683        -138.433         -59.8304         47.9936         -59.8286         48.0001      -0.00931384         148.817
0.536                   -0.47059        -138.947         -59.5833         45.7104         -59.5814          45.717       -0.0094098         148.749
0.537                  -0.484857        -139.464          -59.334         43.4629         -59.3322         43.4696      -0.00950686          148.68
0.538                  -0.499491        -139.984         -59.0829         41.2496         -59.0812         41.2564      -0.00960503         148.612
0.539                    -0.5145        -140.506         -58.8304         39.0689         -58.8287         39.0757      -0.00970433         148.544
0.54                    -0.52989        -141.032         -58.5768         36.9189         -58.5752         36.9257      -0.00980475         148.475
0.541                  -0.545669        -141.561         -58.3224         34.7979         -58.3208         34.8047      -0.00990632         148.406
0.542                  -0.561845        -142.093         -58.0673          32.704         -58.0657         32.7108        -0.010009         148.337
0.543                  -0.578425        -142.628         -57.8119         30.6355         -57.8103         30.6422       -0.0101129         148.269
0.544                  -0.595417        -143.166         -57.5562         28.5905         -57.5547         28.5972        -0.010218           148.2
0.545                  -0.612828        -143.707         -57.3005         26.5673          -57.299         26.5738       -0.0103243          148.13
0.546                  -0.630667         -144.25          -57.045         24.5641         -57.0435         24.5705       -0.0104318         148.061
0.547                   -0.64894        -144.797         -56.7897         22.5791         -56.7883         22.5854       -0.0105405         147.992
0.548                  -0.667656        -145.347         -56.5348         20.6107         -56.5334         20.6169       -0.0106505         147.923
0.549                  -0.686824          -145.9         -56.2804         18.6572         -56.2791         18.6632       -0.0107617         147.853
0.55                    -0.70645        -146.456         -56.0265          16.717         -56.0253         16.7229       -0.0108741         147.783
0.551                  -0.726543        -147.015         -55.7734         14.7885         -55.7722         14.7942       -0.0109879         147.714
0.552                  -0.747111        -147.576          -55.521         12.8702         -55.5198         12.8757       -0.0111029         147.644
0.553                  -0.768163        -148.141         -55.2694         10.9606         -55.2683         10.9659       -0.0112193         147.574
0.554                  -0.789706        -148.709         -55.0187         9.05828         -55.0176         9.06329        -0.011337         147.504
0.555                  -0.811749        -149.279         -54.7689         7.16176         -54.7678         7.16654        -0.011456         147.433
0.556                  -0.834301        -149.853           -54.52         5.26972          -54.519         5.27425       -0.0115764         147.363
0.557                  -0.857369        -150.429         -54.2721         3.38083         -54.2712         3.38512       -0.0116982         147.293
0.558                  -0.880962        -151.008         -54.0253         1.49383         -54.0244         1.49786       -0.0118213         147.222
0.559                  -0.905088         -151.59         -53.7796       -0.392547         -53.7787       -0.388783       -0.0119459         147.151
0.56                   -0.929756        -152.175         -53.5349        -2.27949          -53.534          -2.276       -0.0120719         147.081
0.561                  -0.954975        -152.763         -53.2914        -4.16818         -53.2906        -4.16496       -0.0121993          147.01
0.562                  -0.980753        -153.354          -53.049        -6.05973         -53.0482         -6.0568       -0.0123282         146.939
0.563                    -1.0071        -153.947         -52.8078        -7.95526         -52.8071        -7.95262       -0.0124586         146.867
0.564                   -1.03402        -154.543         -52.5678        -9.85582         -52.5671        -9.85347       -0.0125905         146.796
0.565                   -1.06152        -155.142         -52.3291        -11.7625         -52.3284        -11.7604       -0.0127239         146.725
0.566                   -1.08962        -155.744         -52.0916        -13.6762          -52.091        -13.6744       -0.0128588         146.653
0.567                   -1.11833        -156.348         -51.8554        -15.5979         -51.8548        -15.5964       -0.0129953         146.581
0.568                   -1.14764        -156.955         -51.6205        -17.5286           -51.62        -17.5274       -0.0131334         146.509
0.569                   -1.17757        -157.565         -51.3871        -19.4692         -51.3866        -19.4683        -0.013273         146.438
0.57                    -1.20813        -158.177          -51.155        -21.4205         -51.1545          -21.42       -0.0134143         146.365
0.571                   -1.23932        -158.792         -50.9243        -23.3835         -50.9239        -23.3832       -0.0135573         146.293
0.572                   -1.27116        -159.409         -50.6951        -25.3588         -50.6947        -25.3589       -0.0137019         146.221
0.573                   -1.30365        -160.029         -50.4674        -27.3473         -50.4671        -27.3477       -0.0138482         146.148
0.574                   -1.33681        -160.652         -50.2413        -29.3498          -50.241        -29.3505       -0.0139962         146.076
0.575                   -1.37063        -161.277         -50.0168         -31.367         -50.0166        -31.3679        -0.014146         146.003
0.576                   -1.40514        -161.904          -49.794        -33.3994         -49.7938        -33.4007       -0.0142975          145.93
0.577                   -1.44033        -162.534         -49.5728        -35.4479         -49.5727        -35.4494       -0.0144508         145.857
0.578                   -1.47622        -163.166         -49.3535        -37.5129         -49.3535        -37.5147       -0.0146059         145.783
0.579                   -1.51281          -163.8          -49.136        -39.5951          -49.136        -39.5972       -0.0147629          145.71
0.58                    -1.55012        -164.437         -48.9205        -41.6949         -48.9205        -41.6973       -0.0149217         145.636
0.581                   -1.58814        -165.076         -48.7069         -43.813          -48.707        -43.8156       -0.0150824         145.563
0.582                    -1.6269        -165.717         -48.4954        -45.9496         -48.4955        -45.9525        -0.015245         145.489
0.583                   -1.66639        -166.361          -48.286        -48.1052         -48.2862        -48.1084       -0.0154096         145.415
0.584                   -1.70663        -167.006         -48.0788        -50.2802         -48.0791        -50.2836       -0.0155761         145.341
0.585                   -1.74763        -167.654          -47.874        -52.4748         -47.8742        -52.4785       -0.0157447         145.266
0.586                   -1.78938        -168.304         -47.6715        -54.6893         -47.6718        -54.6932       -0.0159153         145.192
0.587                   -1.83191        -168.955         -47.4715        -56.9238         -47.4719        -56.9279       -0.0160879         145.117
0.588                   -1.87521        -169.609         -47.2741        -59.1786         -47.2745        -59.1829       -0.0162627         145.042
0.589                    -1.9193        -170.264         -47.0793        -61.4536         -47.0798        -61.4581       -0.0164395         144.968
0.59                    -1.96418        -170.922         -46.8873        -63.7489         -46.8879        -63.7535       -0.0166186         144.892
0.591                   -2.00987        -171.581         -46.6981        -66.0644         -46.6988        -66.0692       -0.0167998         144.817
0.592                   -2.05636        -172.242         -46.5119        -68.3999         -46.5126        -68.4049       -0.0169833         144.742
0.593                   -2.10367        -172.904         -46.3288        -70.7554         -46.3295        -70.7605        -0.017169         144.666
0.594                   -2.15181        -173.568         -46.1487        -73.1305         -46.1495        -73.1357       -0.0173571          144.59
0.595                   -2.20077        -174.234         -45.9719        -75.5249         -45.9727        -75.5302       -0.0175474         144.514
0.596                   -2.25058        -174.901         -45.7984        -77.9383         -45.7993        -77.9437       -0.0177402         144.438
0.597                   -2.30123         -175.57         -45.6283        -80.3701         -45.6292        -80.3756       -0.0179354         144.362
0.598                   -2.35273        -176.241         -45.4616        -82.8199         -45.4626        -82.8254        -0.018133         144.285
0.599                    -2.4051        -176.912         -45.2985         -85.287         -45.2995        -85.2925       -0.0183331         144.208
0.6                     -2.45833        -177.585          -45.139        -87.7708         -45.1401        -87.7764       -0.0185358         144.131
0.601                   -2.51244         -178.26         -44.9832        -90.2707         -44.9843        -90.2762        -0.018741         144.054
0.602                   -2.56743        -178.935         -44.8311        -92.7857         -44.8323        -92.7913       -0.0189489         143.977
0.603                   -2.62331        -179.612         -44.6828        -95.3152          -44.684        -95.3207       -0.0191594         143.899
0.604                   -2.68009          179.71         -44.5383        -97.8582         -44.5395        -97.8637       -0.0193727         143.822
0.605                   -2.73777         179.032         -44.3976        -100.414         -44.3989        -100.419       -0.0195887         143.744
0.606                   -2.79636         178.352         -44.2607        -102.981         -44.2621        -102.986       -0.0198075         143.666
0.607                   -2.85586         177.671         -44.1277        -105.559         -44.1291        -105.564       -0.0200292         143.587
0.608                   -2.91628          176.99         -43.9986        -108.147              -44        -108.152       -0.0202538         143.509
0.609                   -2.97764         176.307         -43.8733        -110.743         -43.8747        -110.748       -0.0204814          143.43
0.61                    -3.03993         175.624         -43.7518        -113.347         -43.7532        -113.352        -0.020712         143.351
0.611                   -3.10316          174.94         -43.6341        -115.958         -43.6355        -115.963       -0.0209456         143.272
0.612                   -3.16735         174.256           -43.52        -118.574         -43.5215        -118.578       -0.0211824         143.193
0.613                   -3.23248         173.571         -43.4096        -121.195         -43.4112        -121.199       -0.0214224         143.113
0.614                   -3.29858         172.886         -43.3028        -123.819         -43.3044        -123.823       -0.0216656         143.034
0.615                   -3.36565           172.2         -43.1995        -126.445         -43.2011        -126.449       -0.0219121         142.954
0.616                   -3.43369         171.513         -43.0996        -129.073         -43.1012        -129.077        -0.022162         142.873
0.617                   -3.50272         170.827          -43.003        -131.702         -43.0046        -131.705       -0.0224154         142.793
0.618                   -3.57273          170.14         -42.9096         -134.33         -42.9112        -134.333       -0.0226722         142.712
0.619                   -3.64373         169.453         -42.8193        -136.957         -42.8208         -136.96       -0.0229326         142.631
0.62                    -3.71574         168.766         -42.7319        -139.582         -42.7334        -139.585       -0.0231967          142.55
0.621                   -3.78875         168.079         -42.6473        -142.204         -42.6488        -142.207       -0.0234645         142.469
0.622                   -3.86278         167.391         -42.5653        -144.822         -42.5669        -144.825       -0.0237361         142.387
0.623                   -3.93783         166.704         -42.4859        -147.437         -42.4875        -147.439       -0.0240115         142.305
0.624                   -4.01391         166.017         -42.4089        -150.046         -42.4104        -150.049        -0.024291         142.223
0.625                   -4.09102         165.331         -42.3341         -152.65         -42.3356        -152.652       -0.0245744         142.141
0.626                   -4.16917         164.644         -42.2614        -155.248         -42.2629         -155.25        -0.024862         142.058
0.627                   -4.24837         163.958         -42.1906         -157.84         -42.1921        -157.842       -0.0251538         141.975
0.628                   -4.32863         163.272         -42.1216        -160.424          -42.123        -160.426       -0.0254499         141.892
0.629                   -4.40995         162.587         -42.0541        -163.002         -42.0556        -163.004       -0.0257504         141.808
