! TOUCHSTONE file generated by CST MICROWAVE STUDIO
! Date and time: Fri Oct  2 18:56:36 2020
! Project name: Scenario_1_Free_Space_out_of_line.cst
! Parameters = {Lambda=346.42; Step_1=17.321; dy1=104.866; dx1=1039; L_HA=400; MT=2.54; Rad_Dielectric=30; Rad_Lower=7.3; Rad_Upper=30; a_HA=580; a_WG=246; b_HA=500; b_WG=121; c_HA=0; c_WG=187; d_feed=85; h_feed=15; h_lower=18; h_upper=40}
! Header version: 2018
! Port assignment regex: !\s*Touchstone port\s*([0-9]+)\s*=\s*(CST MWS port|CST DS port)\s*([0-9]+|Zmin|Zmax)\s*\(\"(.*)\"\)(\s*mode\s*([0-9]+))?.*
! Touchstone port assignment:
! Touchstone port 1 = CST MWS port 1 ("")
! Touchstone port 2 = CST MWS port 2 ("")
# GHz S DB R 50
0.5                    -0.147819        -122.546         -63.8669         45.2731         -63.8669         45.2731      -0.00673906         151.125
0.501                  -0.152228        -122.978         -63.9716         42.2682         -63.9733         42.2694      -0.00678753          151.06
0.502                  -0.156835        -123.413         -64.0632         39.1907         -64.0666         39.1923      -0.00683703         150.995
0.503                  -0.161646         -123.85         -64.1405         36.0458         -64.1456          36.047      -0.00688757         150.929
0.504                  -0.166664         -124.29         -64.2024         32.8401         -64.2093           32.84      -0.00693914         150.863
0.505                  -0.171893        -124.732          -64.248         29.5812         -64.2566          29.579      -0.00699177         150.798
0.506                  -0.177338        -125.176         -64.2763         26.2777         -64.2866         26.2725      -0.00704545         150.732
0.507                  -0.183003        -125.623         -64.2868          22.939         -64.2987           22.93      -0.00710021         150.666
0.508                  -0.188892        -126.072         -64.2789         19.5753         -64.2923         19.5617      -0.00715604           150.6
0.509                  -0.195011        -126.524         -64.2522         16.1971         -64.2671         16.1781      -0.00721296         150.535
0.51                   -0.201362        -126.978         -64.2069         12.8151         -64.2231         12.7902      -0.00727097         150.469
0.511                  -0.207951        -127.435          -64.143         9.43991         -64.1604         9.40859      -0.00733009         150.402
0.512                  -0.214783        -127.894         -64.0609         6.08176         -64.0794         6.04364      -0.00739032         150.336
0.513                  -0.221862        -128.355         -63.9611         2.75029         -63.9806         2.70513      -0.00745168          150.27
0.514                  -0.229192        -128.819         -63.8446       -0.545688         -63.8648       -0.597985      -0.00751418         150.204
0.515                  -0.236778        -129.285          -63.712        -3.79832         -63.7329        -3.85774      -0.00757782         150.137
0.516                  -0.244625        -129.754         -63.5645        -7.00086         -63.5859        -7.06724      -0.00764261         150.071
0.517                  -0.252738        -130.226         -63.4031        -10.1477          -63.425        -10.2208      -0.00770857         150.004
0.518                  -0.261121        -130.699          -63.229        -13.2344         -63.2511        -13.3138      -0.00777571         149.937
0.519                  -0.269779        -131.176         -63.0434        -16.2576         -63.0657         -16.343      -0.00784403          149.87
0.52                   -0.278718        -131.654         -62.8473        -19.2151         -62.8697         -19.306      -0.00791355         149.804
0.521                  -0.287941        -132.135         -62.6419        -22.1056         -62.6643        -22.2015      -0.00798428         149.737
0.522                  -0.297454        -132.619         -62.4284        -24.9289         -62.4506        -25.0291      -0.00805623         149.669
0.523                  -0.307262        -133.105         -62.2076        -27.6852         -62.2297        -27.7892      -0.00812941         149.602
0.524                   -0.31737        -133.594         -61.9805        -30.3758         -62.0024         -30.483      -0.00820383         149.535
0.525                  -0.327782        -134.085         -61.7481        -33.0021         -61.7697         -33.112       -0.0082795         149.468
0.526                  -0.338503        -134.578          -61.511        -35.5665         -61.5324        -35.6783      -0.00835644           149.4
0.527                  -0.349539        -135.074         -61.2701        -38.0712         -61.2911        -38.1844      -0.00843465         149.333
0.528                  -0.360895        -135.573         -61.0258         -40.519         -61.0465        -40.6331      -0.00851416         149.265
0.529                  -0.372575        -136.074         -60.7788        -42.9128         -60.7991        -43.0273      -0.00859497         149.197
0.53                   -0.384585        -136.577         -60.5295        -45.2559         -60.5495        -45.3701      -0.00867709          149.13
0.531                  -0.396929        -137.083         -60.2785        -47.5512          -60.298        -47.6647      -0.00876053         149.062
0.532                  -0.409614        -137.591         -60.0259        -49.8022          -60.045        -49.9145      -0.00884532         148.994
0.533                  -0.422642        -138.102         -59.7721         -52.012         -59.7908        -52.1226      -0.00893145         148.926
0.534                  -0.436021        -138.615         -59.5174         -54.184         -59.5356        -54.2925      -0.00901895         148.857
0.535                  -0.449754        -139.131         -59.2619        -56.3214         -59.2797        -56.4273      -0.00910783         148.789
0.536                  -0.463847        -139.649         -59.0059        -58.4274         -59.0232        -58.5305       -0.0091981         148.721
0.537                  -0.478305        -140.169         -58.7494        -60.5053         -58.7662        -60.6051      -0.00928978         148.652
0.538                  -0.493133        -140.692         -58.4925        -62.5582         -58.5088        -62.6544      -0.00938287         148.584
0.539                  -0.508335        -141.218         -58.2353        -64.5893         -58.2512        -64.6815       -0.0094774         148.515
0.54                   -0.523917        -141.745         -57.9779        -66.6016         -57.9932        -66.6896      -0.00957338         148.446
0.541                  -0.539884        -142.275         -57.7202        -68.5983          -57.735        -68.6818      -0.00967082         148.377
0.542                  -0.556241        -142.808         -57.4623        -70.5823         -57.4765        -70.6611      -0.00976973         148.308
0.543                  -0.572992        -143.343         -57.2041        -72.5568         -57.2178        -72.6306      -0.00987014         148.239
0.544                  -0.590142         -143.88         -56.9457        -74.5247         -56.9588        -74.5934      -0.00997205          148.17
0.545                  -0.607697         -144.42         -56.6871        -76.4891         -56.6995        -76.5524       -0.0100755           148.1
0.546                   -0.62566        -144.962         -56.4282        -78.4529         -56.4399        -78.5108       -0.0101805         148.031
0.547                  -0.644037        -145.506         -56.1689        -80.4193           -56.18        -80.4717        -0.010287         147.961
0.548                  -0.662833        -146.053         -55.9094        -82.3914         -55.9196        -82.4381       -0.0103951         147.891
0.549                  -0.682051        -146.602         -55.6495        -84.3721          -55.659        -84.4133       -0.0105048         147.822
0.55                   -0.701697        -147.153         -55.3894        -86.3647         -55.3979        -86.4003        -0.010616         147.752
0.551                  -0.721775        -147.706         -55.1289        -88.3723         -55.1366        -88.4025       -0.0107289         147.682
0.552                   -0.74229        -148.262         -54.8682        -90.3982          -54.875         -90.423       -0.0108435         147.611
0.553                  -0.763245         -148.82         -54.6074        -92.4454         -54.6131        -92.4651       -0.0109597         147.541
0.554                  -0.784646         -149.38         -54.3466        -94.5173         -54.3512        -94.5322       -0.0110775         147.471
0.555                  -0.806497        -149.943         -54.0858        -96.6171         -54.0893        -96.6275       -0.0111971           147.4
0.556                  -0.828801        -150.508         -53.8253         -98.748         -53.8276        -98.7543       -0.0113183          147.33
0.557                  -0.851563        -151.075         -53.5654        -100.913         -53.5665        -100.916       -0.0114413         147.259
0.558                  -0.874786        -151.644         -53.3062        -103.116          -53.306        -103.115        -0.011566         147.188
0.559                  -0.898476        -152.215         -53.0482        -105.358         -53.0467        -105.356       -0.0116925         147.117
0.56                   -0.922635        -152.789         -52.7917        -107.644         -52.7889         -107.64       -0.0118208         147.046
0.561                  -0.947267        -153.365         -52.5371        -109.975          -52.533         -109.97       -0.0119508         146.974
0.562                  -0.972376        -153.942          -52.285        -112.354         -52.2796        -112.349       -0.0120827         146.903
0.563                  -0.997966        -154.522          -52.036        -114.782         -52.0292        -114.778       -0.0122165         146.832
0.564                   -1.02404        -155.104         -51.7906        -117.261         -51.7826        -117.259        -0.012352          146.76
0.565                    -1.0506        -155.689         -51.5495        -119.792         -51.5403        -119.792       -0.0124895         146.688
0.566                   -1.07765        -156.275         -51.3134        -122.374         -51.3031        -122.378       -0.0126289         146.616
0.567                    -1.1052        -156.863          -51.083        -125.007         -51.0716        -125.015       -0.0127701         146.544
0.568                   -1.13324        -157.454          -50.859         -127.69         -50.8468        -127.703       -0.0129134         146.472
0.569                   -1.16178        -158.046         -50.6422         -130.42         -50.6292        -130.439       -0.0130586           146.4
0.57                    -1.19083        -158.641         -50.4332        -133.195         -50.4196        -133.221       -0.0132057         146.327
0.571                   -1.22038        -159.237         -50.2326        -136.011         -50.2186        -136.043       -0.0133549         146.254
0.572                   -1.25043        -159.836         -50.0409        -138.863         -50.0268        -138.902       -0.0135061         146.182
0.573                     -1.281        -160.436         -49.8587        -141.746         -49.8445        -141.792       -0.0136594         146.109
0.574                   -1.31208        -161.039         -49.6861        -144.655         -49.6721        -144.707       -0.0138147         146.036
0.575                   -1.34368        -161.643         -49.5234        -147.582         -49.5098        -147.642       -0.0139722         145.962
0.576                   -1.37579         -162.25         -49.3706        -150.523         -49.3575        -150.588       -0.0141318         145.889
0.577                   -1.40842        -162.858         -49.2276         -153.47         -49.2151        -153.541       -0.0142935         145.816
0.578                   -1.44158        -163.469          -49.094        -156.418         -49.0823        -156.493       -0.0144574         145.742
0.579                   -1.47525        -164.081         -48.9696         -159.36         -48.9587        -159.438       -0.0146234         145.668
0.58                    -1.50945        -164.696         -48.8536        -162.292         -48.8438        -162.372       -0.0147917         145.594
0.581                   -1.54418        -165.312         -48.7457        -165.208         -48.7368        -165.289       -0.0149623          145.52
0.582                   -1.57944        -165.931         -48.6449        -168.104         -48.6371        -168.186       -0.0151351         145.446
0.583                   -1.61522        -166.551         -48.5505        -170.977         -48.5437        -171.058       -0.0153102         145.371
0.584                   -1.65154        -167.174         -48.4617        -173.824         -48.4559        -173.904       -0.0154877         145.297
0.585                   -1.68839        -167.798         -48.3777        -176.645         -48.3728        -176.722       -0.0156675         145.222
0.586                   -1.72578        -168.425         -48.2976        -179.437         -48.2936        -179.511       -0.0158496         145.147
0.587                    -1.7637        -169.053         -48.2206           177.8         -48.2174         177.729       -0.0160342         145.072
0.588                   -1.80215        -169.684          -48.146         175.065         -48.1436         174.998       -0.0162212         144.997
0.589                   -1.84115        -170.317         -48.0731         172.357         -48.0713         172.294       -0.0164107         144.921
0.59                    -1.88069        -170.952         -48.0011         169.676         -47.9999         169.618       -0.0166026         144.846
0.591                   -1.92077        -171.588         -47.9295         167.019         -47.9288         166.966        -0.016797          144.77
0.592                   -1.96139        -172.228         -47.8578         164.385         -47.8574         164.336        -0.016994         144.694
0.593                   -2.00256        -172.869         -47.7855         161.772         -47.7854         161.727       -0.0171935         144.618
0.594                   -2.04427        -173.513         -47.7121         159.177         -47.7123         159.137       -0.0173956         144.542
0.595                   -2.08654        -174.158         -47.6375         156.598         -47.6379         156.563       -0.0176003         144.465
0.596                   -2.12936        -174.807         -47.5612         154.033         -47.5617         154.002       -0.0178076         144.388
0.597                   -2.17273        -175.457          -47.483         151.479         -47.4836         151.452       -0.0180176         144.312
0.598                   -2.21666         -176.11         -47.4028         148.935         -47.4034         148.912       -0.0182302         144.235
0.599                   -2.26116        -176.766         -47.3204         146.398         -47.3211         146.378       -0.0184455         144.157
0.6                     -2.30622        -177.424         -47.2358         143.867         -47.2364          143.85       -0.0186636          144.08
0.601                   -2.35185        -178.085         -47.1489         141.338         -47.1494         141.325       -0.0188843         144.002
0.602                   -2.39806        -178.749         -47.0596         138.812         -47.0601         138.801       -0.0191078         143.924
0.603                   -2.44484        -179.415         -46.9679         136.285         -46.9683         136.276       -0.0193341         143.846
0.604                   -2.49222         179.915          -46.874         133.757         -46.8743          133.75       -0.0195631         143.768
0.605                   -2.54019         179.243         -46.7777         131.226         -46.7779         131.222       -0.0197948          143.69
0.606                   -2.58877         178.567         -46.6792         128.691         -46.6794         128.689       -0.0200293         143.611
0.607                   -2.63797         177.888         -46.5786         126.152         -46.5786          126.15       -0.0202666         143.532
0.608                   -2.68779         177.206         -46.4759         123.607         -46.4758         123.606       -0.0205066         143.453
0.609                   -2.73825          176.52         -46.3712         121.055         -46.3711         121.055       -0.0207493         143.374
0.61                    -2.78936         175.831         -46.2647         118.496         -46.2645         118.497       -0.0209947         143.295
0.611                   -2.84114         175.137         -46.1564         115.929         -46.1561         115.931       -0.0212427         143.215
0.612                   -2.89361          174.44         -46.0464         113.354         -46.0461         113.356       -0.0214933         143.135
0.613                   -2.94678         173.739          -45.935          110.77         -45.9346         110.773       -0.0217464         143.055
0.614                   -3.00069         173.033         -45.8221         108.178         -45.8217         108.182        -0.022002         142.974
0.615                   -3.05535         172.323         -45.7079         105.577         -45.7075         105.581       -0.0222599         142.894
0.616                   -3.11079         171.608         -45.5926         102.968         -45.5921         102.971       -0.0225201         142.813
0.617                   -3.16705         170.888         -45.4762         100.349         -45.4757         100.353       -0.0227824         142.732
0.618                   -3.22415         170.164         -45.3589         97.7217         -45.3584         97.7251       -0.0230466         142.651
0.619                   -3.28215         169.434         -45.2408         95.0858         -45.2404         95.0891       -0.0233128         142.569
0.62                    -3.34108         168.698         -45.1221         92.4416         -45.1216         92.4447       -0.0235807         142.487
0.621                   -3.40098         167.957         -45.0027         89.7892         -45.0023         89.7921       -0.0238506         142.405
0.622                   -3.46192          167.21         -44.8829         87.1291         -44.8825         87.1317       -0.0241224         142.323
0.623                   -3.52395         166.457         -44.7627         84.4614         -44.7623         84.4638       -0.0243967          142.24
0.624                   -3.58713         165.698         -44.6423         81.7868          -44.642         81.7888       -0.0246743         142.157
0.625                   -3.65152         164.932         -44.5218         79.1055         -44.5214         79.1072       -0.0249568         142.074
0.626                   -3.71722          164.16         -44.4011          76.418         -44.4009         76.4194       -0.0252464          141.99
0.627                   -3.78429         163.381         -44.2806         73.7248         -44.2803         73.7259       -0.0255465         141.906
0.628                   -3.85283         162.596         -44.1601         71.0263         -44.1599         71.0272       -0.0258609         141.822
0.629                   -3.92293         161.803         -44.0398         68.3231         -44.0397         68.3237       -0.0261937         141.737
