! TOUCHSTONE file generated by CST MICROWAVE STUDIO
! Date and time: Fri Oct  2 16:30:49 2020
! Project name: Scenario_1_Free_Space_out_of_line.cst
! Parameters = {Lambda=346.42; Step_1=17.321; dy1=87.525; dx1=346; L_HA=400; MT=2.54; Rad_Dielectric=30; Rad_Lower=7.3; Rad_Upper=30; a_HA=580; a_WG=246; b_HA=500; b_WG=121; c_HA=0; c_WG=187; d_feed=85; h_feed=15; h_lower=18; h_upper=40}
! Header version: 2018
! Port assignment regex: !\s*Touchstone port\s*([0-9]+)\s*=\s*(CST MWS port|CST DS port)\s*([0-9]+|Zmin|Zmax)\s*\(\"(.*)\"\)(\s*mode\s*([0-9]+))?.*
! Touchstone port assignment:
! Touchstone port 1 = CST MWS port 1 ("")
! Touchstone port 2 = CST MWS port 2 ("")
# GHz S DB R 50
0.5                    -0.143214        -122.747         -59.3089         77.3705         -59.3089         77.3705      -0.00660586         151.134
0.501                  -0.151106        -123.204         -59.0963         75.9733         -59.0963         75.9733      -0.00670335         151.069
0.502                  -0.159191        -123.663         -58.8838         74.5662         -58.8838         74.5662      -0.00680128         151.003
0.503                  -0.167472        -124.122         -58.6713         73.1491         -58.6713         73.1491      -0.00689962         150.938
0.504                  -0.175949        -124.583         -58.4588         71.7218         -58.4588         71.7218      -0.00699836         150.872
0.505                  -0.184622        -125.045         -58.2465         70.2841         -58.2465         70.2841      -0.00709749         150.807
0.506                  -0.193492        -125.509         -58.0343          68.836         -58.0343          68.836      -0.00719699         150.741
0.507                   -0.20256        -125.973         -57.8223         67.3773         -57.8223         67.3773      -0.00729685         150.675
0.508                  -0.211826        -126.439         -57.6105          65.908         -57.6105          65.908      -0.00739705         150.609
0.509                  -0.221291        -126.907         -57.3989         64.4279         -57.3989         64.4279      -0.00749758         150.543
0.51                   -0.230955        -127.375         -57.1876          62.937         -57.1876          62.937      -0.00759844         150.477
0.511                   -0.24082        -127.845         -56.9766         61.4351         -56.9766         61.4351      -0.00769959         150.411
0.512                  -0.250886        -128.316         -56.7659         59.9221         -56.7659         59.9221      -0.00780104         150.345
0.513                  -0.261154        -128.789         -56.5556         58.3981         -56.5556         58.3981      -0.00790277         150.278
0.514                  -0.271625        -129.263         -56.3457          56.863         -56.3457          56.863      -0.00800476         150.212
0.515                  -0.282298        -129.738         -56.1362         55.3166         -56.1362         55.3166        -0.008107         150.146
0.516                  -0.293176        -130.215         -55.9273          53.759         -55.9273          53.759      -0.00820948         150.079
0.517                  -0.304259        -130.693         -55.7188         52.1901         -55.7188         52.1901      -0.00831218         150.013
0.518                  -0.315547        -131.172          -55.511           50.61          -55.511           50.61       -0.0084151         149.946
0.519                  -0.327042        -131.653         -55.3037         49.0186         -55.3037         49.0186      -0.00851822         149.879
0.52                   -0.338745        -132.135         -55.0971         47.4159         -55.0971         47.4159      -0.00862153         149.812
0.521                  -0.350655        -132.619         -54.8913          45.802         -54.8913          45.802      -0.00872502         149.745
0.522                  -0.362775        -133.104         -54.6861          44.177         -54.6861          44.177      -0.00882867         149.678
0.523                  -0.375105         -133.59         -54.4818         42.5408         -54.4818         42.5408      -0.00893247         149.611
0.524                  -0.387647        -134.078         -54.2783         40.8935         -54.2783         40.8935      -0.00903642         149.544
0.525                    -0.4004        -134.568         -54.0758         39.2353         -54.0758         39.2353       -0.0091405         149.477
0.526                  -0.413366        -135.059         -53.8741         37.5662         -53.8741         37.5662       -0.0092447          149.41
0.527                  -0.426547        -135.551         -53.6735         35.8864         -53.6735         35.8864      -0.00934902         149.342
0.528                  -0.439943        -136.046         -53.4739          34.196         -53.4739          34.196      -0.00945344         149.275
0.529                  -0.453556        -136.541         -53.2754         32.4952         -53.2754         32.4952      -0.00955795         149.207
0.53                   -0.467386        -137.038          -53.078         30.7841          -53.078         30.7841      -0.00966254          149.14
0.531                  -0.481436        -137.537         -52.8818          29.063         -52.8818          29.063      -0.00976721         149.072
0.532                  -0.495705        -138.038         -52.6868          27.332         -52.6868          27.332      -0.00987195         149.004
0.533                  -0.510196         -138.54         -52.4931         25.5914         -52.4931         25.5914      -0.00997676         148.936
0.534                   -0.52491        -139.043         -52.3007         23.8414         -52.3007         23.8414       -0.0100816         148.868
0.535                  -0.539849        -139.549         -52.1097         22.0823         -52.1097         22.0823       -0.0101865           148.8
0.536                  -0.555013        -140.056           -51.92         20.3143           -51.92         20.3143       -0.0102915         148.732
0.537                  -0.570404        -140.565         -51.7318         18.5379         -51.7318         18.5379       -0.0103965         148.663
0.538                  -0.586025        -141.075         -51.5451         16.7532         -51.5451         16.7532       -0.0105015         148.595
0.539                  -0.601876        -141.587         -51.3599         14.9606         -51.3599         14.9606       -0.0106065         148.526
0.54                   -0.617959        -142.101         -51.1762         13.1605         -51.1762         13.1605       -0.0107116         148.458
0.541                  -0.634277        -142.617         -50.9941         11.3532         -50.9941         11.3532       -0.0108167         148.389
0.542                   -0.65083        -143.135         -50.8136         9.53906         -50.8136         9.53906       -0.0109219          148.32
0.543                  -0.667622        -143.655         -50.6347          7.7185         -50.6347          7.7185       -0.0110271         148.251
0.544                  -0.684653        -144.176         -50.4575          5.8919         -50.4575          5.8919       -0.0111323         148.182
0.545                  -0.701926        -144.699         -50.2819         4.05967         -50.2819         4.05967       -0.0112375         148.113
0.546                  -0.719444        -145.224         -50.1081          2.2222         -50.1081          2.2222       -0.0113428         148.044
0.547                  -0.737207        -145.752         -49.9359        0.379917         -49.9359        0.379917       -0.0114481         147.974
0.548                   -0.75522        -146.281         -49.7654        -1.46675         -49.7654        -1.46675       -0.0115535         147.905
0.549                  -0.773484        -146.812         -49.5967        -3.31739         -49.5967        -3.31739       -0.0116589         147.835
0.55                   -0.792002        -147.345         -49.4296        -5.17156         -49.4296        -5.17156       -0.0117644         147.765
0.551                  -0.810776        -147.881         -49.2643        -7.02883         -49.2643        -7.02883         -0.01187         147.696
0.552                   -0.82981        -148.418         -49.1007        -8.88878         -49.1007        -8.88878       -0.0119757         147.626
0.553                  -0.849106        -148.958         -48.9388         -10.751         -48.9388         -10.751       -0.0120815         147.556
0.554                  -0.868667        -149.499         -48.7786         -12.615         -48.7786         -12.615       -0.0121873         147.485
0.555                  -0.888496        -150.043         -48.6201        -14.4805         -48.6201        -14.4805       -0.0122934         147.415
0.556                  -0.908597         -150.59         -48.4632        -16.3469         -48.4632        -16.3469       -0.0123996         147.345
0.557                  -0.928972        -151.138          -48.308        -18.2139          -48.308        -18.2139       -0.0125059         147.274
0.558                  -0.949627        -151.689         -48.1544        -20.0812         -48.1544        -20.0812       -0.0126125         147.203
0.559                  -0.970563        -152.242         -48.0025        -21.9482         -48.0025        -21.9482       -0.0127193         147.133
0.56                   -0.991786        -152.798          -47.852        -23.8148          -47.852        -23.8148       -0.0128263         147.062
0.561                    -1.0133        -153.356         -47.7031        -25.6804         -47.7031        -25.6804       -0.0129336         146.991
0.562                   -1.03511        -153.916         -47.5558        -27.5447         -47.5558        -27.5447       -0.0130413         146.919
0.563                   -1.05721        -154.479         -47.4098        -29.4075         -47.4098        -29.4075       -0.0131493         146.848
0.564                   -1.07962        -155.045         -47.2653        -31.2685         -47.2653        -31.2685       -0.0132576         146.777
0.565                   -1.10234        -155.613         -47.1222        -33.1272         -47.1222        -33.1272       -0.0133664         146.705
0.566                   -1.12537        -156.184         -46.9804        -34.9835         -46.9804        -34.9835       -0.0134757         146.633
0.567                   -1.14872        -156.757         -46.8399        -36.8372         -46.8399        -36.8372       -0.0135855         146.561
0.568                   -1.17239        -157.333         -46.7007        -38.6878         -46.7007        -38.6878       -0.0136958         146.489
0.569                   -1.19639        -157.912         -46.5626        -40.5353         -46.5626        -40.5353       -0.0138068         146.417
0.57                    -1.22073        -158.494         -46.4258        -42.3795         -46.4258        -42.3795       -0.0139184         146.345
0.571                    -1.2454        -159.079           -46.29        -44.2201           -46.29        -44.2201       -0.0140308         146.272
0.572                   -1.27043        -159.667         -46.1552        -46.0571         -46.1552        -46.0571       -0.0141439           146.2
0.573                   -1.29581        -160.257         -46.0215        -47.8901         -46.0215        -47.8901       -0.0142579         146.127
0.574                   -1.32155        -160.851         -45.8887        -49.7193         -45.8887        -49.7193       -0.0143728         146.054
0.575                   -1.34766        -161.448         -45.7568        -51.5444         -45.7568        -51.5444       -0.0144887         145.981
0.576                   -1.37415        -162.048         -45.6258        -53.3654         -45.6258        -53.3654       -0.0146057         145.908
0.577                   -1.40102        -162.651         -45.4955        -55.1821         -45.4955        -55.1821       -0.0147238         145.834
0.578                   -1.42828        -163.258          -45.366        -56.9947          -45.366        -56.9947       -0.0148431         145.761
0.579                   -1.45595        -163.868         -45.2372        -58.8029         -45.2372        -58.8029       -0.0149638         145.687
0.58                    -1.48402        -164.481         -45.1091         -60.607         -45.1091         -60.607       -0.0150858         145.613
0.581                   -1.51252        -165.098         -44.9815        -62.4067         -44.9815        -62.4067       -0.0152093         145.539
0.582                   -1.54145        -165.718         -44.8545        -64.2022         -44.8545        -64.2022       -0.0153344         145.465
0.583                   -1.57082        -166.342          -44.728        -65.9935          -44.728        -65.9935       -0.0154612         145.391
0.584                   -1.60064         -166.97         -44.6019        -67.7807         -44.6019        -67.7807       -0.0155898         145.316
0.585                   -1.63092        -167.601         -44.4763        -69.5639         -44.4763        -69.5639       -0.0157202         145.241
0.586                   -1.66168        -168.236          -44.351         -71.343          -44.351         -71.343       -0.0158527         145.166
0.587                   -1.69292        -168.875         -44.2261        -73.1183         -44.2261        -73.1183       -0.0159873         145.091
0.588                   -1.72467        -169.519         -44.1014        -74.8898         -44.1014        -74.8898       -0.0161242         145.016
0.589                   -1.75694        -170.166          -43.977        -76.6577          -43.977        -76.6577       -0.0162634         144.941
0.59                    -1.78973        -170.817         -43.8528        -78.4221         -43.8528        -78.4221       -0.0164051         144.865
0.591                   -1.82307        -171.473         -43.7287        -80.1831         -43.7287        -80.1831       -0.0165494         144.789
0.592                   -1.85697        -172.133         -43.6048         -81.941         -43.6048         -81.941       -0.0166964         144.713
0.593                   -1.89145        -172.797         -43.4811        -83.6957         -43.4811        -83.6957       -0.0168464         144.637
0.594                   -1.92653        -173.466         -43.3574        -85.4477         -43.3574        -85.4477       -0.0169993          144.56
0.595                   -1.96222         -174.14         -43.2337        -87.1969         -43.2337        -87.1969       -0.0171555         144.484
0.596                   -1.99855        -174.818         -43.1101        -88.9436         -43.1101        -88.9436       -0.0173149         144.407
0.597                   -2.03554        -175.501         -42.9864         -90.688         -42.9864         -90.688       -0.0174778          144.33
0.598                   -2.07321        -176.189         -42.8628        -92.4304         -42.8628        -92.4304       -0.0176443         144.253
0.599                   -2.11158        -176.882         -42.7391        -94.1708         -42.7391        -94.1708       -0.0178145         144.175
0.6                     -2.15068         -177.58         -42.6153        -95.9095         -42.6153        -95.9095       -0.0179886         144.098
0.601                   -2.19053        -178.283         -42.4915        -97.6468         -42.4915        -97.6468       -0.0181667          144.02
0.602                   -2.23118        -178.991         -42.3675        -99.3827         -42.3675        -99.3827       -0.0183491         143.942
0.603                   -2.27263        -179.706         -42.2435        -101.118         -42.2435        -101.118       -0.0185357         143.864
0.604                   -2.31494         179.575         -42.1193        -102.852         -42.1193        -102.852       -0.0187269         143.785
0.605                   -2.35812         178.849          -41.995        -104.585          -41.995        -104.585       -0.0189227         143.707
0.606                   -2.40223         178.118         -41.8706        -106.318         -41.8706        -106.318       -0.0191233         143.628
0.607                    -2.4473         177.381          -41.746        -108.051          -41.746        -108.051       -0.0193288         143.549
0.608                   -2.49337         176.638         -41.6213        -109.784         -41.6213        -109.784       -0.0195394         143.469
0.609                   -2.54049         175.889         -41.4964        -111.518         -41.4964        -111.518       -0.0197553          143.39
0.61                    -2.58871         175.133         -41.3714        -113.251         -41.3714        -113.251       -0.0199764          143.31
0.611                   -2.63808         174.371         -41.2462        -114.986         -41.2462        -114.986       -0.0202031          143.23
0.612                   -2.68866         173.603         -41.1209        -116.721         -41.1209        -116.721       -0.0204354          143.15
0.613                   -2.74051         172.827         -40.9955        -118.458         -40.9955        -118.458       -0.0206734          143.07
0.614                    -2.7937         172.046         -40.8699        -120.196         -40.8699        -120.196       -0.0209174         142.989
0.615                    -2.8483         171.257         -40.7442        -121.936         -40.7442        -121.936       -0.0211673         142.908
0.616                   -2.90439         170.462         -40.6184        -123.677         -40.6184        -123.677       -0.0214233         142.827
0.617                   -2.96204         169.659         -40.4925         -125.42         -40.4925         -125.42       -0.0216855         142.745
0.618                   -3.02135          168.85         -40.3665        -127.165         -40.3665        -127.165        -0.021954         142.664
0.619                   -3.08241         168.034         -40.2404        -128.913         -40.2404        -128.913       -0.0222289         142.582
0.62                    -3.14532         167.212         -40.1143        -130.663         -40.1143        -130.663       -0.0225102           142.5
0.621                   -3.21019         166.383         -39.9882        -132.416         -39.9882        -132.416       -0.0227981         142.417
0.622                   -3.27711         165.548          -39.862        -134.172          -39.862        -134.172       -0.0230927         142.335
0.623                    -3.3462         164.706         -39.7359         -135.93         -39.7359         -135.93       -0.0233939         142.252
0.624                   -3.41758         163.859         -39.6097        -137.692         -39.6097        -137.692       -0.0237018         142.169
0.625                   -3.49135         163.007         -39.4837        -139.457         -39.4837        -139.457       -0.0240165         142.086
0.626                   -3.56763          162.15         -39.3577        -141.226         -39.3577        -141.226        -0.024338         142.002
0.627                   -3.64651         161.289         -39.2318        -142.998         -39.2318        -142.998       -0.0246663         141.918
0.628                   -3.72811         160.424         -39.1061        -144.773         -39.1061        -144.773       -0.0250014         141.834
0.629                   -3.81251         159.558         -38.9805        -146.552         -38.9805        -146.552       -0.0253434          141.75
