! TOUCHSTONE file generated by CST MICROWAVE STUDIO
! Date and time: Fri Oct  2 16:38:43 2020
! Project name: Scenario_1_Free_Space_out_of_line.cst
! Parameters = {Lambda=346.42; Step_1=17.321; dy1=87.525; dx1=520; L_HA=400; MT=2.54; Rad_Dielectric=30; Rad_Lower=7.3; Rad_Upper=30; a_HA=580; a_WG=246; b_HA=500; b_WG=121; c_HA=0; c_WG=187; d_feed=85; h_feed=15; h_lower=18; h_upper=40}
! Header version: 2018
! Port assignment regex: !\s*Touchstone port\s*([0-9]+)\s*=\s*(CST MWS port|CST DS port)\s*([0-9]+|Zmin|Zmax)\s*\(\"(.*)\"\)(\s*mode\s*([0-9]+))?.*
! Touchstone port assignment:
! Touchstone port 1 = CST MWS port 1 ("")
! Touchstone port 2 = CST MWS port 2 ("")
# GHz S DB R 50
0.5                    -0.150659         -122.56         -61.1243        -20.7353         -61.1243        -20.7353      -0.00668415         151.119
0.501                  -0.154458        -123.016         -61.0118         -22.265         -61.0116        -22.2629      -0.00673103         151.053
0.502                  -0.158513        -123.474         -60.8962        -23.8077         -60.8959        -23.8035      -0.00677911         150.988
0.503                  -0.162828        -123.933         -60.7777        -25.3632         -60.7773         -25.357      -0.00682842         150.922
0.504                  -0.167406        -124.395         -60.6562        -26.9312         -60.6556        -26.9231      -0.00687895         150.856
0.505                  -0.172248        -124.858         -60.5316        -28.5115          -60.531        -28.5015       -0.0069307         150.791
0.506                  -0.177359        -125.323         -60.4041        -30.1038         -60.4033         -30.092       -0.0069837         150.725
0.507                   -0.18274        -125.789         -60.2736        -31.7079         -60.2727        -31.6943      -0.00703793         150.659
0.508                  -0.188394        -126.258           -60.14        -33.3234          -60.139        -33.3081      -0.00709342         150.593
0.509                  -0.194324        -126.728         -60.0035        -34.9501         -60.0024        -34.9332      -0.00715016         150.527
0.51                   -0.200533          -127.2          -59.864        -36.5878         -59.8628        -36.5694      -0.00720817         150.461
0.511                  -0.207024        -127.674         -59.7215        -38.2361         -59.7202        -38.2163      -0.00726745         150.394
0.512                  -0.213799         -128.15         -59.5761        -39.8949         -59.5747        -39.8737      -0.00732801         150.328
0.513                  -0.220862        -128.628         -59.4278        -41.5639         -59.4264        -41.5414      -0.00738986         150.262
0.514                  -0.228214        -129.107         -59.2766        -43.2429         -59.2751        -43.2192        -0.007453         150.195
0.515                  -0.235859        -129.589         -59.1225        -44.9316          -59.121        -44.9067      -0.00751745         150.128
0.516                    -0.2438        -130.072         -58.9657        -46.6298         -58.9641        -46.6039       -0.0075832         150.062
0.517                  -0.252039        -130.557         -58.8061        -48.3374         -58.8045        -48.3105      -0.00765027         149.995
0.518                   -0.26058        -131.044         -58.6438        -50.0541         -58.6422        -50.0263      -0.00771867         149.928
0.519                  -0.269424        -131.532         -58.4789        -51.7797         -58.4772        -51.7512       -0.0077884         149.861
0.52                   -0.278575        -132.023         -58.3113        -53.5141         -58.3096        -53.4849      -0.00785948         149.794
0.521                  -0.288035        -132.515         -58.1413        -55.2572         -58.1395        -55.2274       -0.0079319         149.727
0.522                  -0.297808        -133.009         -57.9687        -57.0088          -57.967        -56.9785      -0.00800569          149.66
0.523                  -0.307896        -133.505         -57.7938        -58.7688          -57.792         -58.738      -0.00808084         149.593
0.524                  -0.318302        -134.002         -57.6165         -60.537         -57.6147        -60.5059      -0.00815737         149.525
0.525                  -0.329028        -134.502          -57.437        -62.3135         -57.4352        -62.2821      -0.00823528         149.458
0.526                  -0.340078        -135.003         -57.2553        -64.0981         -57.2535        -64.0666      -0.00831459          149.39
0.527                  -0.351455        -135.506         -57.0715        -65.8907         -57.0697        -65.8591      -0.00839531         149.323
0.528                   -0.36316        -136.011         -56.8857        -67.6914         -56.8839        -67.6598      -0.00847744         149.255
0.529                  -0.375198        -136.518          -56.698        -69.5001         -56.6961        -69.4685      -0.00856099         149.187
0.53                    -0.38757        -137.027         -56.5084        -71.3167         -56.5066        -71.2853      -0.00864597         149.119
0.531                   -0.40028        -137.537         -56.3172        -73.1413         -56.3153        -73.1101      -0.00873239         149.051
0.532                   -0.41333        -138.049         -56.1242        -74.9739         -56.1224         -74.943      -0.00882027         148.983
0.533                  -0.426723        -138.563         -55.9298        -76.8145         -55.9279        -76.7839      -0.00890961         148.915
0.534                  -0.440462        -139.079         -55.7338        -78.6631          -55.732        -78.6329      -0.00900042         148.847
0.535                   -0.45455        -139.597         -55.5366        -80.5197         -55.5348        -80.4901      -0.00909271         148.778
0.536                  -0.468989        -140.116         -55.3381        -82.3845         -55.3363        -82.3553       -0.0091865          148.71
0.537                  -0.483783        -140.638         -55.1385        -84.2573         -55.1367        -84.2288      -0.00928179         148.641
0.538                  -0.498934        -141.161         -54.9378        -86.1383          -54.936        -86.1105       -0.0093786         148.572
0.539                  -0.514446        -141.685         -54.7362        -88.0276         -54.7345        -88.0005      -0.00947693         148.504
0.54                    -0.53032        -142.212         -54.5339        -89.9251         -54.5321        -89.8988      -0.00957679         148.435
0.541                  -0.546559        -142.741         -54.3308         -91.831         -54.3291        -91.8055      -0.00967821         148.366
0.542                  -0.563168        -143.271         -54.1272        -93.7452         -54.1255        -93.7206      -0.00978118         148.297
0.543                  -0.580148        -143.803          -53.923        -95.6679         -53.9214        -95.6442      -0.00988573         148.227
0.544                  -0.597502        -144.337         -53.7186         -97.599          -53.717        -97.5762      -0.00999185         148.158
0.545                  -0.615233        -144.873         -53.5139        -99.5385         -53.5123        -99.5167       -0.0100996         148.089
0.546                  -0.633344         -145.41         -53.3091        -101.487         -53.3075        -101.466       -0.0102089         148.019
0.547                  -0.651838         -145.95         -53.1042        -103.443         -53.1028        -103.423       -0.0103199         147.949
0.548                  -0.670718        -146.491         -52.8995        -105.408         -52.8981        -105.389       -0.0104324          147.88
0.549                  -0.689987        -147.034          -52.695        -107.381         -52.6937        -107.364       -0.0105467          147.81
0.55                   -0.709647        -147.579         -52.4909        -109.363         -52.4896        -109.347       -0.0106625          147.74
0.551                  -0.729702        -148.126         -52.2872        -111.353         -52.2859        -111.338       -0.0107801          147.67
0.552                  -0.750154        -148.674          -52.084        -113.352         -52.0828        -113.338       -0.0108993         147.599
0.553                  -0.771008        -149.224         -51.8816        -115.358         -51.8804        -115.345       -0.0110202         147.529
0.554                  -0.792264        -149.777         -51.6799        -117.373         -51.6788        -117.361       -0.0111429         147.459
0.555                  -0.813927        -150.331         -51.4791        -119.395         -51.4781        -119.385       -0.0112673         147.388
0.556                     -0.836        -150.886         -51.2794        -121.426         -51.2784        -121.416       -0.0113934         147.317
0.557                  -0.858486        -151.444         -51.0807        -123.463         -51.0798        -123.455       -0.0115212         147.247
0.558                  -0.881388        -152.004         -50.8832        -125.508         -50.8824        -125.501       -0.0116508         147.176
0.559                  -0.904708        -152.565          -50.687         -127.56         -50.6864        -127.553       -0.0117822         147.105
0.56                   -0.928451        -153.128         -50.4923        -129.619         -50.4917        -129.613       -0.0119154         147.033
0.561                  -0.952619        -153.693          -50.299        -131.684         -50.2985        -131.679       -0.0120505         146.962
0.562                  -0.977216         -154.26         -50.1073        -133.755         -50.1068        -133.751       -0.0121873         146.891
0.563                   -1.00225        -154.829         -49.9172        -135.832         -49.9169        -135.829        -0.012326         146.819
0.564                   -1.02771          -155.4         -49.7288        -137.914         -49.7286        -137.913       -0.0124665         146.747
0.565                   -1.05361        -155.973         -49.5423        -140.001         -49.5422        -140.001       -0.0126089         146.676
0.566                   -1.07996        -156.547         -49.3576        -142.093         -49.3576        -142.093       -0.0127532         146.604
0.567                   -1.10675        -157.124         -49.1748        -144.189         -49.1749         -144.19       -0.0128995         146.532
0.568                   -1.13399        -157.702         -48.9941        -146.289         -48.9942        -146.291       -0.0130476         146.459
0.569                   -1.16168        -158.283         -48.8153        -148.392         -48.8156        -148.394       -0.0131977         146.387
0.57                    -1.18983        -158.865         -48.6386        -150.497          -48.639        -150.501       -0.0133497         146.314
0.571                   -1.21844        -159.449          -48.464        -152.605         -48.4645        -152.609       -0.0135037         146.242
0.572                   -1.24752        -160.035         -48.2916        -154.715         -48.2921        -154.719       -0.0136598         146.169
0.573                   -1.27706        -160.623         -48.1212        -156.826         -48.1219        -156.831       -0.0138178         146.096
0.574                   -1.30708        -161.213         -47.9531        -158.937         -47.9539        -158.943       -0.0139778         146.023
0.575                   -1.33757        -161.806         -47.7871        -161.049          -47.788        -161.055       -0.0141399          145.95
0.576                   -1.36854          -162.4         -47.6234        -163.161         -47.6243        -163.167       -0.0143041         145.876
0.577                       -1.4        -162.996         -47.4618        -165.272         -47.4628        -165.279       -0.0144704         145.803
0.578                   -1.43195        -163.594         -47.3023        -167.381         -47.3035        -167.388       -0.0146388         145.729
0.579                   -1.46439        -164.194          -47.145        -169.489         -47.1463        -169.497       -0.0148093         145.655
0.58                    -1.49733        -164.797         -46.9899        -171.595         -46.9912        -171.603       -0.0149819         145.582
0.581                   -1.53078        -165.401         -46.8368        -173.698         -46.8382        -173.706       -0.0151567         145.507
0.582                   -1.56473        -166.008         -46.6858        -175.798         -46.6873        -175.806       -0.0153337         145.433
0.583                    -1.5992        -166.616         -46.5368        -177.895         -46.5384        -177.903       -0.0155129         145.359
0.584                   -1.63418        -167.227         -46.3898        -179.987         -46.3914        -179.995       -0.0156944         145.284
0.585                   -1.66969         -167.84         -46.2448         177.924         -46.2465         177.916       -0.0158781         145.209
0.586                   -1.70573        -168.455         -46.1016          175.84         -46.1033         175.832       -0.0160641         145.134
0.587                   -1.74231        -169.073         -45.9603         173.761         -45.9621         173.753       -0.0162524         145.059
0.588                   -1.77943        -169.692         -45.8207         171.687         -45.8225         171.679        -0.016443         144.984
0.589                    -1.8171        -170.314         -45.6829         169.618         -45.6847         169.611       -0.0166359         144.909
0.59                    -1.85532        -170.938         -45.5466         167.555         -45.5485         167.548       -0.0168312         144.833
0.591                    -1.8941        -171.565          -45.412         165.498         -45.4139         165.491       -0.0170289         144.757
0.592                   -1.93346        -172.194         -45.2788         163.447         -45.2808          163.44       -0.0172291         144.681
0.593                   -1.97339        -172.825         -45.1471         161.402         -45.1491         161.395       -0.0174316         144.605
0.594                    -2.0139        -173.459         -45.0168         159.363         -45.0188         159.356       -0.0176367         144.529
0.595                     -2.055        -174.095         -44.8877         157.331         -44.8897         157.324       -0.0178442         144.453
0.596                    -2.0967        -174.733         -44.7599         155.305         -44.7619         155.298       -0.0180543         144.376
0.597                   -2.13901        -175.374         -44.6332         153.285         -44.6352         153.279       -0.0182669         144.299
0.598                   -2.18194        -176.018         -44.5076         151.271         -44.5096         151.266        -0.018482         144.222
0.599                   -2.22549        -176.664          -44.383         149.264         -44.3849         149.259       -0.0186998         144.145
0.6                     -2.26967        -177.313         -44.2593         147.263         -44.2612         147.258       -0.0189202         144.068
0.601                    -2.3145        -177.964         -44.1365         145.269         -44.1384         145.264       -0.0191433          143.99
0.602                   -2.35999        -178.618         -44.0144          143.28         -44.0163         143.276        -0.019369         143.912
0.603                   -2.40614        -179.275         -43.8931         141.298          -43.895         141.293       -0.0195975         143.834
0.604                   -2.45296        -179.934         -43.7724         139.321         -43.7743         139.317       -0.0198287         143.756
0.605                   -2.50048         179.404         -43.6524          137.35         -43.6542         137.346       -0.0200627         143.678
0.606                   -2.54869         178.738         -43.5328         135.384         -43.5346         135.381       -0.0202995         143.599
0.607                   -2.59762          178.07         -43.4137         133.423         -43.4155          133.42       -0.0205391          143.52
0.608                   -2.64727         177.399         -43.2951         131.468         -43.2967         131.465       -0.0207816         143.441
0.609                   -2.69767         176.726         -43.1768         129.517         -43.1784         129.515       -0.0210271         143.362
0.61                    -2.74882         176.049         -43.0587         127.571         -43.0603         127.569       -0.0212754         143.283
0.611                   -2.80074         175.369          -42.941         125.629         -42.9425         125.627       -0.0215268         143.203
0.612                   -2.85344         174.685         -42.8234         123.691         -42.8249         123.689       -0.0217812         143.123
0.613                   -2.90695         173.999          -42.706         121.757         -42.7074         121.755       -0.0220386         143.043
0.614                   -2.96127         173.309         -42.5887         119.826         -42.5901         119.824       -0.0222991         142.963
0.615                   -3.01644         172.617         -42.4715         117.898         -42.4728         117.897       -0.0225628         142.882
0.616                   -3.07246          171.92         -42.3543         115.973         -42.3556         115.972       -0.0228297         142.801
0.617                   -3.12935         171.221         -42.2371          114.05         -42.2383         114.049       -0.0230998          142.72
0.618                   -3.18714         170.518         -42.1199          112.13          -42.121         112.129       -0.0233732         142.639
0.619                   -3.24585         169.811         -42.0027         110.211         -42.0037         110.211       -0.0236499         142.557
0.62                    -3.30551         169.101         -41.8853         108.294         -41.8863         108.294         -0.02393         142.476
0.621                   -3.36613         168.388         -41.7679         106.378         -41.7688         106.378       -0.0242135         142.394
0.622                   -3.42773          167.67         -41.6503         104.463         -41.6511         104.463       -0.0245005         142.311
0.623                   -3.49036         166.949         -41.5325         102.548         -41.5333         102.548       -0.0247911         142.229
0.624                   -3.55403         166.225         -41.4147         100.634         -41.4154         100.634       -0.0250854         142.146
0.625                   -3.61877         165.496         -41.2966          98.719         -41.2973         98.7191       -0.0253833         142.063
0.626                   -3.68462         164.763         -41.1783         96.8039         -41.1789         96.8041        -0.025685          141.98
0.627                    -3.7516         164.027         -41.0599          94.888         -41.0605         94.8882       -0.0259905         141.896
0.628                   -3.81975         163.286         -40.9413          92.971         -40.9418         92.9713       -0.0263001         141.812
0.629                   -3.88911         162.542         -40.8224         91.0526         -40.8229         91.0529       -0.0266136         141.728
