! TOUCHSTONE file generated by CST MICROWAVE STUDIO
! Date and time: Fri Oct  2 16:56:25 2020
! Project name: Scenario_1_Free_Space_out_of_line.cst
! Parameters = {Lambda=346.42; Step_1=17.321; dy1=87.525; dx1=693; L_HA=400; MT=2.54; Rad_Dielectric=30; Rad_Lower=7.3; Rad_Upper=30; a_HA=580; a_WG=246; b_HA=500; b_WG=121; c_HA=0; c_WG=187; d_feed=85; h_feed=15; h_lower=18; h_upper=40}
! Header version: 2018
! Port assignment regex: !\s*Touchstone port\s*([0-9]+)\s*=\s*(CST MWS port|CST DS port)\s*([0-9]+|Zmin|Zmax)\s*\(\"(.*)\"\)(\s*mode\s*([0-9]+))?.*
! Touchstone port assignment:
! Touchstone port 1 = CST MWS port 1 ("")
! Touchstone port 2 = CST MWS port 2 ("")
# GHz S DB R 50
0.5                    -0.146906        -122.712          -62.492        -118.261          -62.492        -118.261      -0.00669155         151.136
0.501                  -0.153941        -123.152         -62.3136        -120.538          -62.307        -120.571      -0.00676965         151.071
0.502                  -0.161122        -123.594         -62.1331          -122.8         -62.1202        -122.863      -0.00684821         151.005
0.503                  -0.168453        -124.037         -61.9509        -125.049         -61.9319         -125.14      -0.00692721          150.94
0.504                  -0.175935        -124.482         -61.7669        -127.285         -61.7423          -127.4      -0.00700664         150.874
0.505                   -0.18357        -124.929         -61.5814        -129.508         -61.5515        -129.646      -0.00708648         150.809
0.506                  -0.191362        -125.378         -61.3946        -131.719         -61.3596        -131.876       -0.0071667         150.743
0.507                  -0.199312        -125.829         -61.2066        -133.918          -61.167        -134.092      -0.00724731         150.677
0.508                  -0.207423        -126.282         -61.0176        -136.104         -60.9736        -136.295      -0.00732826         150.611
0.509                  -0.215697        -126.736         -60.8277         -138.28         -60.7797        -138.484      -0.00740956         150.545
0.51                   -0.224137        -127.193          -60.637        -140.445         -60.5854        -140.662      -0.00749117         150.479
0.511                  -0.232746        -127.651         -60.4457          -142.6         -60.3908        -142.827      -0.00757309         150.413
0.512                  -0.241526        -128.111         -60.2539        -144.745          -60.196        -144.981      -0.00765529         150.347
0.513                   -0.25048        -128.573         -60.0617        -146.881         -60.0011        -147.125      -0.00773776         150.281
0.514                   -0.25961        -129.038         -59.8692        -149.009         -59.8062         -149.26      -0.00782047         150.215
0.515                   -0.26892        -129.504         -59.6765        -151.129         -59.6115        -151.385      -0.00790343         150.148
0.516                  -0.278413        -129.972         -59.4837        -153.241         -59.4169        -153.501       -0.0079866         150.082
0.517                   -0.28809        -130.442         -59.2909        -155.346         -59.2226         -155.61      -0.00806997         150.015
0.518                  -0.297956        -130.915         -59.0982        -157.444         -59.0286        -157.711      -0.00815353         149.949
0.519                  -0.308012        -131.389         -58.9056        -159.537         -58.8351        -159.806      -0.00823725         149.882
0.52                   -0.318263        -131.865         -58.7132        -161.624         -58.6421        -161.894      -0.00832114         149.815
0.521                  -0.328711        -132.344         -58.5212        -163.707         -58.4496        -163.977      -0.00840517         149.748
0.522                   -0.33936        -132.824         -58.3295        -165.785         -58.2576        -166.055      -0.00848934         149.681
0.523                  -0.350213        -133.307         -58.1382        -167.859         -58.0664        -168.128      -0.00857363         149.614
0.524                  -0.361273        -133.792         -57.9474        -169.929         -57.8758        -170.197      -0.00865803         149.547
0.525                  -0.372543        -134.279         -57.7571        -171.997         -57.6859        -172.263      -0.00874253          149.48
0.526                  -0.384027        -134.768         -57.5674        -174.061         -57.4968        -174.325      -0.00882713         149.412
0.527                  -0.395729        -135.259         -57.3784        -176.124         -57.3086        -176.385      -0.00891182         149.345
0.528                  -0.407652        -135.753           -57.19        -178.185         -57.1211        -178.443       -0.0089966         149.278
0.529                    -0.4198        -136.249         -57.0023         179.755         -56.9346         179.501      -0.00908146          149.21
0.53                   -0.432177        -136.747         -56.8154         177.697         -56.7489         177.446      -0.00916641         149.142
0.531                  -0.444786        -137.247         -56.6293         175.639         -56.5641         175.393      -0.00925145         149.074
0.532                  -0.457631         -137.75          -56.444         173.582         -56.3803          173.34      -0.00933658         149.007
0.533                  -0.470717        -138.255         -56.2595         171.524         -56.1975         171.287      -0.00942181         148.939
0.534                  -0.484048        -138.762         -56.0759         169.466         -56.0156         169.235      -0.00950715          148.87
0.535                  -0.497628        -139.271         -55.8933         167.408         -55.8348         167.182      -0.00959261         148.802
0.536                  -0.511461        -139.783         -55.7116         165.349          -55.655         165.129       -0.0096782         148.734
0.537                  -0.525552        -140.298         -55.5308         163.289         -55.4762         163.075      -0.00976396         148.666
0.538                  -0.539906        -140.814          -55.351         161.228         -55.2985         161.019      -0.00984988         148.597
0.539                  -0.554526        -141.333         -55.1722         159.165         -55.1218         158.963      -0.00993601         148.528
0.54                   -0.569418        -141.855         -54.9945           157.1         -54.9462         156.905       -0.0100224          148.46
0.541                  -0.584587        -142.379         -54.8178         155.034         -54.7716         154.846        -0.010109         148.391
0.542                  -0.600038        -142.905         -54.6421         152.966         -54.5982         152.784       -0.0101959         148.322
0.543                  -0.615776        -143.435         -54.4675         150.895         -54.4258         150.721       -0.0102832         148.253
0.544                  -0.631807        -143.966          -54.294         148.822         -54.2546         148.656       -0.0103708         148.184
0.545                  -0.648135          -144.5         -54.1216         146.747         -54.0844         146.588       -0.0104589         148.115
0.546                  -0.664767        -145.037         -53.9503          144.67         -53.9154         144.518       -0.0105474         148.045
0.547                  -0.681709        -145.576         -53.7801         142.589         -53.7474         142.446       -0.0106365         147.976
0.548                  -0.698965        -146.118         -53.6111         140.506         -53.5806         140.371       -0.0107261         147.906
0.549                  -0.716544        -146.663         -53.4431         138.421         -53.4148         138.293       -0.0108165         147.836
0.55                    -0.73445         -147.21         -53.2763         136.332         -53.2502         136.213       -0.0109075         147.766
0.551                   -0.75269         -147.76         -53.1106         134.241         -53.0866          134.13       -0.0109994         147.696
0.552                  -0.771272        -148.313         -52.9461         132.147         -52.9242         132.044       -0.0110921         147.626
0.553                  -0.790202        -148.868         -52.7826         130.051         -52.7628         129.956       -0.0111858         147.556
0.554                  -0.809486        -149.426         -52.6204         127.951         -52.6025         127.864       -0.0112805         147.486
0.555                  -0.829134        -149.987         -52.4592         125.849         -52.4433          125.77       -0.0113763         147.415
0.556                  -0.849151        -150.551         -52.2992         123.744         -52.2852         123.673       -0.0114733         147.345
0.557                  -0.869547        -151.118         -52.1403         121.636         -52.1281         121.574       -0.0115717         147.274
0.558                  -0.890328        -151.687         -51.9825         119.525          -51.972         119.471       -0.0116714         147.203
0.559                  -0.911504        -152.259         -51.8258         117.412          -51.817         117.366       -0.0117726         147.132
0.56                   -0.933083        -152.835         -51.6702         115.296         -51.6631         115.258       -0.0118755         147.061
0.561                  -0.955073        -153.413         -51.5157         113.177         -51.5101         113.148         -0.01198          146.99
0.562                  -0.977485        -153.994         -51.3623         111.056         -51.3582         111.034       -0.0120863         146.918
0.563                   -1.00033        -154.578           -51.21         108.933         -51.2072         108.919       -0.0121945         146.847
0.564                   -1.02361        -155.166         -51.0587         106.807         -51.0572           106.8       -0.0123047         146.775
0.565                   -1.04734        -155.756         -50.9085         104.679         -50.9082          104.68        -0.012417         146.703
0.566                   -1.07154        -156.349         -50.7592         102.549         -50.7601         102.556       -0.0125315         146.631
0.567                    -1.0962        -156.945          -50.611         100.416         -50.6129         100.431       -0.0126484         146.559
0.568                   -1.12135        -157.545         -50.4638          98.282         -50.4667          98.303       -0.0127676         146.487
0.569                     -1.147        -158.147         -50.3176         96.1456         -50.3213         96.1729       -0.0128894         146.414
0.57                    -1.17315        -158.753         -50.1723         94.0074         -50.1768         94.0407       -0.0130138         146.342
0.571                   -1.19981        -159.362         -50.0279         91.8674         -50.0332         91.9064       -0.0131409         146.269
0.572                   -1.22701        -159.974         -49.8845         89.7256         -49.8904         89.7701       -0.0132707         146.196
0.573                   -1.25476        -160.589         -49.7419         87.5823         -49.7484         87.6319       -0.0134035         146.123
0.574                   -1.28306        -161.208         -49.6002         85.4374         -49.6071         85.4918       -0.0135392          146.05
0.575                   -1.31194        -161.829         -49.4594         83.2911         -49.4667           83.35        -0.013678         145.976
0.576                    -1.3414        -162.454         -49.3193         81.1434          -49.327         81.2064       -0.0138199         145.903
0.577                   -1.37147        -163.082         -49.1801         78.9944         -49.1881         79.0611        -0.013965         145.829
0.578                   -1.40215        -163.714         -49.0417         76.8442         -49.0498         76.9143       -0.0141133         145.755
0.579                   -1.43346        -164.348          -48.904         74.6929         -48.9123         74.7659        -0.014265         145.682
0.58                    -1.46543        -164.986          -48.767         72.5404         -48.7754          72.616         -0.01442         145.607
0.581                   -1.49806        -165.627         -48.6308          70.387         -48.6391         70.4648       -0.0145785         145.533
0.582                   -1.53138        -166.272         -48.4952         68.2326         -48.5035         68.3122       -0.0147405         145.459
0.583                    -1.5654        -166.919         -48.3603         66.0773         -48.3685         66.1584       -0.0149059         145.384
0.584                   -1.60013         -167.57          -48.226         63.9211         -48.2341         64.0033       -0.0150749         145.309
0.585                   -1.63561        -168.224         -48.0923         61.7641         -48.1002          61.847       -0.0152475         145.234
0.586                   -1.67184        -168.881         -47.9592         59.6064         -47.9669         59.6895       -0.0154237         145.159
0.587                   -1.70885        -169.541         -47.8266          57.448         -47.8341          57.531       -0.0156036         145.084
0.588                   -1.74666        -170.205         -47.6946         55.2888         -47.7018         55.3714        -0.015787         145.009
0.589                   -1.78529        -170.871         -47.5631          53.129           -47.57         53.2108       -0.0159741         144.933
0.59                    -1.82476        -171.541         -47.4321         50.9686         -47.4386         51.0493       -0.0161649         144.857
0.591                   -1.86508        -172.214         -47.3015         48.8076         -47.3077         48.8867       -0.0163593         144.781
0.592                   -1.90629        -172.889         -47.1714         46.6459         -47.1773         46.7233       -0.0165574         144.705
0.593                   -1.94839        -173.568         -47.0417         44.4837         -47.0472         44.5589       -0.0167591         144.629
0.594                   -1.99143        -174.249         -46.9125         42.3208         -46.9175         42.3937       -0.0169644         144.553
0.595                    -2.0354        -174.933         -46.7836         40.1574         -46.7882         40.2276       -0.0171734         144.476
0.596                   -2.08035         -175.62          -46.655         37.9934         -46.6593         38.0607        -0.017386         144.399
0.597                   -2.12628        -176.309         -46.5269         35.8288         -46.5308         35.8929       -0.0176022         144.322
0.598                   -2.17322        -177.001          -46.399         33.6637         -46.4025         33.7243        -0.017822         144.245
0.599                   -2.22119        -177.695         -46.2715         31.4979         -46.2746         31.5549       -0.0180453         144.168
0.6                     -2.27022        -178.391         -46.1443         29.3315          -46.147         29.3847       -0.0182722          144.09
0.601                   -2.32031        -179.089         -46.0173         27.1644         -46.0197         27.2137       -0.0185027         144.012
0.602                    -2.3715        -179.789         -45.8907         24.9967         -45.8927          25.042       -0.0187366         143.935
0.603                   -2.42379         179.509         -45.7643         22.8283          -45.766         22.8694        -0.018974         143.856
0.604                   -2.47721         178.805         -45.6381         20.6592         -45.6396          20.696       -0.0192149         143.778
0.605                   -2.53177           178.1         -45.5122         18.4893         -45.5134         18.5218       -0.0194593           143.7
0.606                   -2.58749         177.393         -45.3866         16.3187         -45.3875         16.3468        -0.019707         143.621
0.607                   -2.64437         176.686         -45.2611         14.1473         -45.2618          14.171       -0.0199583         143.542
0.608                   -2.70244         175.977         -45.1359         11.9751         -45.1364         11.9944       -0.0202129         143.463
0.609                    -2.7617         175.268         -45.0109         9.80208         -45.0112           9.817       -0.0204709         143.383
0.61                    -2.82215         174.559         -44.8861         7.62817         -44.8862         7.63877       -0.0207324         143.304
0.611                   -2.88381         173.849         -44.7615         5.45338         -44.7615         5.45972       -0.0209972         143.224
0.612                   -2.94668         173.139         -44.6371         3.27767          -44.637         3.27985       -0.0212655         143.144
0.613                   -3.01075         172.429         -44.5129         1.10102         -44.5128         1.09915       -0.0215371         143.064
0.614                   -3.07603          171.72          -44.389        -1.07659         -44.3887        -1.08238       -0.0218122         142.984
0.615                    -3.1425         171.011         -44.2652        -3.25517          -44.265        -3.26474       -0.0220907         142.903
0.616                   -3.21017         170.303         -44.1416        -5.43476         -44.1414        -5.44792       -0.0223726         142.822
0.617                   -3.27903         169.596         -44.0182        -7.61535          -44.018        -7.63193        -0.022658         142.741
0.618                   -3.34905          168.89         -43.8951        -9.79697         -43.8949        -9.81675       -0.0229469          142.66
0.619                   -3.42022         168.185         -43.7721        -11.9796          -43.772        -12.0024       -0.0232393         142.578
0.62                    -3.49253         167.482         -43.6494        -14.1633         -43.6494        -14.1888       -0.0235352         142.496
0.621                   -3.56596         166.781         -43.5269         -16.348          -43.527        -16.3761       -0.0238348         142.414
0.622                   -3.64047         166.082         -43.4046        -18.5337         -43.4048        -18.5641        -0.024138         142.332
0.623                   -3.71605         165.385         -43.2825        -20.7205         -43.2829        -20.7529       -0.0244449         142.249
0.624                   -3.79268         164.689         -43.1607        -22.9083         -43.1612        -22.9424       -0.0247556         142.166
0.625                   -3.87031         163.996         -43.0391        -25.0971         -43.0398        -25.1327       -0.0250702         142.083
0.626                   -3.94892         163.305         -42.9177        -27.2868         -42.9186        -27.3237       -0.0253886             142
0.627                   -4.02849         162.617         -42.7966        -29.4775         -42.7976        -29.5154        -0.025711         141.916
0.628                   -4.10898          161.93         -42.6758        -31.6691          -42.677        -31.7077       -0.0260375         141.832
0.629                   -4.19037         161.246         -42.5552        -33.8616         -42.5566        -33.9006       -0.0263682         141.748
