! TOUCHSTONE file generated by CST MICROWAVE STUDIO
! Date and time: Fri Oct  2 18:56:46 2020
! Project name: Scenario_1_Free_Space_out_of_line.cst
! Parameters = {Lambda=346.42; Step_1=17.321; dy1=87.525; dx1=1039; L_HA=400; MT=2.54; Rad_Dielectric=30; Rad_Lower=7.3; Rad_Upper=30; a_HA=580; a_WG=246; b_HA=500; b_WG=121; c_HA=0; c_WG=187; d_feed=85; h_feed=15; h_lower=18; h_upper=40}
! Header version: 2018
! Port assignment regex: !\s*Touchstone port\s*([0-9]+)\s*=\s*(CST MWS port|CST DS port)\s*([0-9]+|Zmin|Zmax)\s*\(\"(.*)\"\)(\s*mode\s*([0-9]+))?.*
! Touchstone port assignment:
! Touchstone port 1 = CST MWS port 1 ("")
! Touchstone port 2 = CST MWS port 2 ("")
# GHz S DB R 50
0.5                    -0.147775        -122.522         -63.7553          45.705         -63.7553          45.705      -0.00673631         151.129
0.501                  -0.150164        -122.942         -63.6619         43.0907         -63.6619         43.0953      -0.00680834         151.063
0.502                  -0.152838        -123.365         -63.5621         40.4669         -63.5621         40.4759      -0.00688122         150.998
0.503                  -0.155802        -123.791          -63.456         37.8354          -63.456         37.8486      -0.00695494         150.932
0.504                  -0.159059         -124.22         -63.3435          35.198         -63.3436         35.2151      -0.00702951         150.867
0.505                  -0.162613        -124.652         -63.2248         32.5563          -63.225         32.5772      -0.00710489         150.801
0.506                  -0.166468        -125.087         -63.1001         29.9121         -63.1005         29.9364       -0.0071811         150.735
0.507                  -0.170627        -125.525         -62.9695         27.2669           -62.97         27.2943      -0.00725813          150.67
0.508                  -0.175095        -125.966         -62.8332          24.622         -62.8339         24.6522      -0.00733595         150.604
0.509                  -0.179874        -126.411         -62.6913         21.9788         -62.6922         22.0116      -0.00741456         150.538
0.51                    -0.18497        -126.858          -62.544         19.3384         -62.5451         19.3735      -0.00749394         150.472
0.511                  -0.190385        -127.309         -62.3916         16.7021          -62.393         16.7392      -0.00757409         150.406
0.512                  -0.196123        -127.762         -62.2343         14.0706         -62.2359         14.1094      -0.00765499         150.339
0.513                  -0.202189        -128.219         -62.0724         11.4449         -62.0741         11.4852      -0.00773661         150.273
0.514                  -0.208586        -128.678          -61.906         8.82555          -61.908         8.86704      -0.00781893         150.207
0.515                  -0.215318        -129.141         -61.7353         6.21321         -61.7376         6.25565      -0.00790195          150.14
0.516                  -0.222389        -129.606         -61.5608         3.60831         -61.5632         3.65145      -0.00798562         150.074
0.517                  -0.229802        -130.075         -61.3825         1.01115         -61.3851         1.05476      -0.00806992         150.007
0.518                  -0.237562        -130.546         -61.2008        -1.57805         -61.2036        -1.53418      -0.00815482         149.941
0.519                  -0.245672        -131.021         -61.0158        -4.15918         -61.0188        -4.11526      -0.00824029         149.874
0.52                   -0.254135        -131.498         -60.8279        -6.73225          -60.831        -6.68846      -0.00832628         149.807
0.521                  -0.262956        -131.979         -60.6372        -9.29734         -60.6405        -9.25387      -0.00841275          149.74
0.522                  -0.272139        -132.462          -60.444        -11.8546         -60.4475        -11.8116      -0.00849965         149.673
0.523                  -0.281687        -132.948         -60.2486        -14.4044         -60.2521         -14.362      -0.00858693         149.606
0.524                  -0.291603        -133.437          -60.051        -16.9469         -60.0547        -16.9053      -0.00867452         149.539
0.525                  -0.301892        -133.929         -59.8517        -19.4826         -59.8554        -19.4418      -0.00876236         149.472
0.526                  -0.312556        -134.424         -59.6506         -22.012         -59.6544        -21.9721      -0.00885037         149.404
0.527                  -0.323601        -134.921         -59.4482        -24.5354          -59.452        -24.4966      -0.00893846         149.337
0.528                  -0.335028        -135.422         -59.2445        -27.0534         -59.2483        -27.0158      -0.00902655         149.269
0.529                  -0.346842        -135.925         -59.0397        -29.5666         -59.0436        -29.5302      -0.00911453         149.202
0.53                   -0.359046        -136.431          -58.834        -32.0756         -58.8379        -32.0405      -0.00920229         149.134
0.531                  -0.371643        -136.939         -58.6277         -34.581         -58.6315        -34.5472       -0.0092897         149.066
0.532                  -0.384637        -137.451         -58.4207        -37.0834         -58.4245        -37.0509      -0.00937664         148.998
0.533                  -0.398032        -137.965         -58.2134        -39.5834         -58.2171        -39.5523      -0.00946297          148.93
0.534                  -0.411829        -138.481         -58.0059        -42.0817         -58.0095         -42.052      -0.00954852         148.862
0.535                  -0.426033        -139.001         -57.7982        -44.5789         -57.8018        -44.5506      -0.00963316         148.794
0.536                  -0.440647        -139.522         -57.5906        -47.0757         -57.5941        -47.0487      -0.00971672         148.726
0.537                  -0.455673        -140.047         -57.3832        -49.5726         -57.3865        -49.5471      -0.00979904         148.657
0.538                  -0.471115        -140.574          -57.176        -52.0702         -57.1793        -52.0461      -0.00987999         148.589
0.539                  -0.486976        -141.104         -56.9693        -54.5693         -56.9724        -54.5466      -0.00995942          148.52
0.54                   -0.503258        -141.636         -56.7632        -57.0702         -56.7661        -57.0489       -0.0100372         148.452
0.541                  -0.519964         -142.17         -56.5577        -59.5737         -56.5605        -59.5537       -0.0101134         148.383
0.542                  -0.537097        -142.707          -56.353        -62.0801         -56.3556        -62.0615       -0.0101879         148.314
0.543                  -0.554659        -143.247         -56.1491        -64.5901         -56.1516        -64.5728       -0.0102608         148.245
0.544                  -0.572653        -143.788         -55.9462        -67.1041         -55.9485         -67.088       -0.0103322         148.176
0.545                  -0.591082        -144.333         -55.7444        -69.6224         -55.7466        -69.6077       -0.0104026         148.106
0.546                  -0.609947        -144.879         -55.5438        -72.1456         -55.5457        -72.1321       -0.0104722         148.037
0.547                  -0.629251        -145.428         -55.3444         -74.674         -55.3461        -74.6617       -0.0105417         147.967
0.548                  -0.648996        -145.979         -55.1463         -77.208         -55.1479        -77.1968       -0.0106118         147.898
0.549                  -0.669184        -146.532         -54.9497        -79.7478         -54.9511        -79.7377       -0.0106834         147.828
0.55                   -0.689817        -147.088         -54.7545        -82.2937         -54.7557        -82.2846       -0.0107572         147.758
0.551                  -0.710897        -147.646         -54.5609        -84.8459          -54.562        -84.8379       -0.0108345         147.688
0.552                  -0.732425        -148.206          -54.369        -87.4047         -54.3698        -87.3977       -0.0109161         147.617
0.553                  -0.754404        -148.768         -54.1787        -89.9702         -54.1794        -89.9641        -0.011003         147.547
0.554                  -0.776835        -149.332         -53.9902        -92.5424         -53.9907        -92.5372       -0.0110959         147.476
0.555                  -0.799719        -149.898         -53.8035        -95.1215         -53.8039        -95.1172       -0.0111956         147.405
0.556                  -0.823058        -150.467         -53.6187        -97.7076         -53.6189         -97.704       -0.0113024         147.335
0.557                  -0.846853        -151.037         -53.4359        -100.301         -53.4359        -100.298       -0.0114164         147.264
0.558                  -0.871104         -151.61          -53.255          -102.9         -53.2548        -102.898       -0.0115375         147.192
0.559                  -0.895814        -152.184         -53.0761        -105.507         -53.0758        -105.506       -0.0116654         147.121
0.56                   -0.920984        -152.761         -52.8992         -108.12         -52.8988         -108.12       -0.0117998          147.05
0.561                  -0.946613        -153.339         -52.7244         -110.74         -52.7238         -110.74       -0.0119399         146.978
0.562                  -0.972703        -153.919         -52.5518        -113.367          -52.551        -113.367       -0.0120852         146.907
0.563                  -0.999255        -154.502         -52.3812        -115.999         -52.3804            -116        -0.012235         146.835
0.564                   -1.02627        -155.086         -52.2128        -118.638         -52.2119        -118.639       -0.0123887         146.763
0.565                   -1.05375        -155.672         -52.0466        -121.282         -52.0455        -121.284       -0.0125456         146.691
0.566                   -1.08169         -156.26         -51.8825        -123.932         -51.8813        -123.934       -0.0127052         146.619
0.567                   -1.11009         -156.85         -51.7206        -126.587         -51.7193        -126.589        -0.012867         146.547
0.568                   -1.13896        -157.441         -51.5608        -129.247         -51.5594         -129.25       -0.0130307         146.475
0.569                   -1.16829        -158.035         -51.4032        -131.911         -51.4017        -131.914       -0.0131958         146.402
0.57                    -1.19809         -158.63         -51.2477         -134.58         -51.2462        -134.583       -0.0133623          146.33
0.571                   -1.22836        -159.227         -51.0943        -137.252         -51.0928        -137.256       -0.0135297         146.257
0.572                   -1.25908        -159.826          -50.943        -139.928         -50.9415        -139.932        -0.013698         146.185
0.573                   -1.29028        -160.427         -50.7938        -142.607         -50.7922        -142.611       -0.0138671         146.112
0.574                   -1.32194        -161.029         -50.6467        -145.289          -50.645        -145.293       -0.0140369         146.039
0.575                   -1.35406        -161.633         -50.5015        -147.973         -50.4998        -147.977       -0.0142074         145.966
0.576                   -1.38666         -162.24         -50.3582         -150.66         -50.3565        -150.664       -0.0143785         145.892
0.577                   -1.41972        -162.847         -50.2169        -153.348         -50.2152        -153.352       -0.0145502         145.819
0.578                   -1.45324        -163.457         -50.0774        -156.037         -50.0757        -156.041       -0.0147225         145.745
0.579                   -1.48723        -164.069         -49.9398        -158.727         -49.9381        -158.732       -0.0148956         145.672
0.58                     -1.5217        -164.682         -49.8038        -161.418         -49.8021        -161.422       -0.0150694         145.598
0.581                   -1.55662        -165.297         -49.6696         -164.11         -49.6679        -164.114       -0.0152439         145.524
0.582                   -1.59202        -165.915          -49.537        -166.801         -49.5353        -166.805       -0.0154193         145.449
0.583                   -1.62789        -166.534         -49.4059        -169.492         -49.4043        -169.496       -0.0155956         145.375
0.584                   -1.66423        -167.155         -49.2763        -172.182         -49.2747        -172.186       -0.0157728         145.301
0.585                   -1.70104        -167.778         -49.1481        -174.872         -49.1466        -174.875        -0.015951         145.226
0.586                   -1.73833        -168.402         -49.0213         -177.56         -49.0198        -177.564       -0.0161303         145.151
0.587                   -1.77609        -169.029         -48.8957         179.753         -48.8943         179.749       -0.0163108         145.076
0.588                   -1.81432        -169.658         -48.7714         177.067           -48.77         177.064       -0.0164925         145.001
0.589                   -1.85304        -170.289         -48.6482         174.383         -48.6469          174.38       -0.0166755         144.926
0.59                    -1.89224        -170.923          -48.526         171.701         -48.5248         171.698       -0.0168598          144.85
0.591                   -1.93192        -171.558         -48.4048         169.021         -48.4037         169.018       -0.0170457         144.774
0.592                   -1.97209        -172.196         -48.2846         166.343         -48.2835          166.34        -0.017233         144.699
0.593                   -2.01276        -172.836         -48.1652         163.667         -48.1641         163.665        -0.017422         144.622
0.594                   -2.05392        -173.478         -48.0465         160.994         -48.0455         160.991       -0.0176126         144.546
0.595                   -2.09558        -174.123         -47.9286         158.322         -47.9277          158.32       -0.0178051          144.47
0.596                   -2.13775         -174.77         -47.8113         155.654         -47.8104         155.652       -0.0179994         144.393
0.597                   -2.18044         -175.42         -47.6945         152.988         -47.6938         152.986       -0.0181956         144.316
0.598                   -2.22364        -176.072         -47.5783         150.324         -47.5776         150.322       -0.0183939         144.239
0.599                   -2.26738        -176.727         -47.4625         147.662         -47.4619         147.661       -0.0185944         144.162
0.6                     -2.31165        -177.385         -47.3471         145.003         -47.3466         145.002        -0.018797         144.085
0.601                   -2.35646        -178.046         -47.2321         142.347         -47.2316         142.346       -0.0190021         144.007
0.602                   -2.40184         -178.71         -47.1173         139.692         -47.1169         139.692       -0.0192095         143.929
0.603                   -2.44778        -179.377         -47.0028          137.04         -47.0024          137.04       -0.0194196         143.851
0.604                   -2.49431         179.953         -46.8884          134.39         -46.8881          134.39       -0.0196322         143.773
0.605                   -2.54143          179.28         -46.7742         131.742          -46.774         131.742       -0.0198477         143.695
0.606                   -2.58916         178.603         -46.6601         129.096         -46.6599         129.096       -0.0200661         143.616
0.607                   -2.63752         177.922          -46.546         126.452         -46.5459         126.452       -0.0202875         143.537
0.608                   -2.68653         177.238          -46.432         123.809         -46.4319         123.809        -0.020512         143.458
0.609                    -2.7362         176.551         -46.3179         121.168         -46.3179         121.168       -0.0207399         143.379
0.61                    -2.78657         175.859         -46.2039         118.528         -46.2039         118.528       -0.0209712           143.3
0.611                   -2.83765         175.163         -46.0898          115.89         -46.0899          115.89        -0.021206          143.22
0.612                   -2.88946         174.463         -45.9756         113.252         -45.9757         113.252       -0.0214446          143.14
0.613                   -2.94205         173.759         -45.8614         110.615         -45.8615         110.616       -0.0216871          143.06
0.614                   -2.99543         173.051          -45.747         107.979         -45.7471          107.98       -0.0219336         142.979
0.615                   -3.04964         172.338         -45.6325         105.344         -45.6327         105.344       -0.0221842         142.898
0.616                   -3.10472          171.62         -45.5179         102.709         -45.5181         102.709       -0.0224393         142.818
0.617                   -3.16071         170.898         -45.4032         100.074         -45.4034         100.074       -0.0226988         142.736
0.618                   -3.21764          170.17         -45.2884         97.4387         -45.2886         97.4393       -0.0229631         142.655
0.619                   -3.27556         169.438         -45.1734         94.8036         -45.1736         94.8042       -0.0232322         142.573
0.62                    -3.33452         168.701         -45.0584         92.1682         -45.0586         92.1688       -0.0235064         142.491
0.621                   -3.39457         167.958         -44.9432         89.5323         -44.9434         89.5328       -0.0237858         142.409
0.622                   -3.45577          167.21         -44.8279         86.8958         -44.8281         86.8963       -0.0240706         142.327
0.623                   -3.51816         166.456         -44.7126         84.2584         -44.7128         84.2589        -0.024361         142.244
0.624                   -3.58182         165.697         -44.5972         81.6202         -44.5974         81.6207       -0.0246572         142.161
0.625                   -3.64681         164.933         -44.4818         78.9808         -44.4819         78.9813       -0.0249593         142.078
0.626                   -3.71319         164.162         -44.3663         76.3403         -44.3664         76.3407       -0.0252675         141.995
0.627                   -3.78105         163.386         -44.2508         73.6985         -44.2509         73.6988        -0.025582         141.911
0.628                   -3.85046         162.605         -44.1354         71.0552         -44.1355         71.0555       -0.0259029         141.827
0.629                    -3.9215         161.818           -44.02         68.4104         -44.0201         68.4107       -0.0262304         141.742
