! TOUCHSTONE file generated by CST MICROWAVE STUDIO
! Date and time: Fri Oct  2 18:39:50 2020
! Project name: Scenario_1_Free_Space_out_of_line.cst
! Parameters = {Lambda=346.42; Step_1=17.321; dy1=70.184; dx1=173; L_HA=400; MT=2.54; Rad_Dielectric=30; Rad_Lower=7.3; Rad_Upper=30; a_HA=580; a_WG=246; b_HA=500; b_WG=121; c_HA=0; c_WG=187; d_feed=85; h_feed=15; h_lower=18; h_upper=40}
! Header version: 2018
! Port assignment regex: !\s*Touchstone port\s*([0-9]+)\s*=\s*(CST MWS port|CST DS port)\s*([0-9]+|Zmin|Zmax)\s*\(\"(.*)\"\)(\s*mode\s*([0-9]+))?.*
! Touchstone port assignment:
! Touchstone port 1 = CST MWS port 1 ("")
! Touchstone port 2 = CST MWS port 2 ("")
# GHz S DB R 50
0.5                    -0.158174        -122.778         -56.5467         165.211         -56.5467         165.211      -0.00676077          151.12
0.501                  -0.166014        -123.211         -56.3941         163.589          -56.394         163.588      -0.00676958         151.055
0.502                  -0.173898        -123.645         -56.2398         161.978         -56.2395         161.977      -0.00677963          150.99
0.503                   -0.18183         -124.08         -56.0838         160.379         -56.0834         160.378      -0.00679097         150.924
0.504                  -0.189812        -124.518         -55.9263         158.791         -55.9259          158.79      -0.00680362         150.859
0.505                  -0.197845        -124.957         -55.7675         157.214         -55.7669         157.213      -0.00681761         150.793
0.506                  -0.205933        -125.398         -55.6073         155.648         -55.6066         155.646      -0.00683297         150.728
0.507                  -0.214078        -125.841         -55.4458         154.092         -55.4451         154.091      -0.00684972         150.662
0.508                  -0.222282        -126.286         -55.2833         152.547         -55.2824         152.546       -0.0068679         150.596
0.509                   -0.23055        -126.733         -55.1196         151.013         -55.1187         151.011      -0.00688754          150.53
0.51                   -0.238884        -127.182          -54.955         149.488          -54.954         149.487      -0.00690866         150.464
0.511                  -0.247287        -127.633         -54.7895         147.973         -54.7884         147.972       -0.0069313         150.398
0.512                  -0.255763        -128.086         -54.6231         146.468          -54.622         146.466      -0.00695549         150.331
0.513                  -0.264315        -128.542          -54.456         144.971         -54.4548          144.97      -0.00698125         150.265
0.514                  -0.272947        -128.999         -54.2881         143.484         -54.2869         143.482      -0.00700861         150.199
0.515                  -0.281663        -129.459         -54.1197         142.005         -54.1183         142.003      -0.00703761         150.132
0.516                  -0.290466        -129.921         -53.9506         140.534         -53.9492         140.532      -0.00706828         150.066
0.517                  -0.299363        -130.385          -53.781         139.071         -53.7796         139.069      -0.00710064         149.999
0.518                  -0.308355        -130.851         -53.6109         137.615         -53.6095         137.614      -0.00713473         149.932
0.519                  -0.317449         -131.32         -53.4404         136.167         -53.4389         136.165      -0.00717057         149.865
0.52                    -0.32665        -131.792         -53.2695         134.725          -53.268         134.724       -0.0072082         149.798
0.521                  -0.335961        -132.266         -53.0983          133.29         -53.0968         133.289      -0.00724765         149.731
0.522                  -0.345389        -132.742         -52.9268         131.861         -52.9252          131.86      -0.00728895         149.664
0.523                  -0.354938        -133.221          -52.755         130.438         -52.7534         130.437      -0.00733212         149.596
0.524                  -0.364615        -133.702          -52.583         129.021         -52.5814         129.019      -0.00737721         149.529
0.525                  -0.374424        -134.186         -52.4108         127.609         -52.4092         127.607      -0.00742423         149.462
0.526                  -0.384374        -134.673         -52.2384         126.201         -52.2368           126.2      -0.00747323         149.394
0.527                  -0.394468        -135.163         -52.0659         124.798         -52.0643         124.797      -0.00752423         149.326
0.528                  -0.404715        -135.655         -51.8934         123.399         -51.8917         123.398      -0.00757727         149.258
0.529                  -0.415121         -136.15         -51.7207         122.004         -51.7191         122.003      -0.00763237          149.19
0.53                   -0.425693        -136.648          -51.548         120.613         -51.5464         120.612      -0.00768957         149.122
0.531                  -0.436438        -137.148         -51.3753         119.225         -51.3736         119.224       -0.0077489         149.054
0.532                  -0.447363        -137.652         -51.2026          117.84         -51.2009         117.838      -0.00781039         148.986
0.533                  -0.458478        -138.159         -51.0299         116.457         -51.0282         116.456      -0.00787407         148.918
0.534                  -0.469788        -138.668         -50.8572         115.077         -50.8556         115.076      -0.00793998         148.849
0.535                  -0.481304        -139.181         -50.6847         113.699          -50.683         113.697      -0.00800814         148.781
0.536                  -0.493034        -139.697         -50.5121         112.322         -50.5105         112.321      -0.00807859         148.712
0.537                  -0.504986        -140.216         -50.3397         110.947         -50.3381         110.946      -0.00815136         148.643
0.538                  -0.517169        -140.738         -50.1674         109.574         -50.1658         109.572      -0.00822649         148.574
0.539                  -0.529595        -141.263         -49.9953         108.201         -49.9937         108.199        -0.008304         148.505
0.54                   -0.542271        -141.792         -49.8232         106.828         -49.8217         106.827      -0.00838392         148.436
0.541                  -0.555208        -142.324         -49.6513         105.457         -49.6498         105.455       -0.0084663         148.367
0.542                  -0.568418        -142.859         -49.4796         104.085         -49.4781         104.084      -0.00855115         148.298
0.543                   -0.58191        -143.397         -49.3081         102.713         -49.3066         102.712      -0.00863852         148.228
0.544                  -0.595695        -143.939         -49.1368         101.341         -49.1353          101.34      -0.00872843         148.159
0.545                  -0.609786        -144.485         -48.9656         99.9686         -48.9642         99.9673      -0.00882093         148.089
0.546                  -0.624194        -145.033         -48.7947         98.5952         -48.7933         98.5939      -0.00891603         148.019
0.547                  -0.638931        -145.586         -48.6241         97.2207         -48.6227         97.2193      -0.00901378         147.949
0.548                   -0.65401        -146.142         -48.4536         95.8449         -48.4522         95.8435      -0.00911421         147.879
0.549                  -0.669443        -146.701         -48.2834         94.4676         -48.2821         94.4663      -0.00921734         147.809
0.55                   -0.685244        -147.264         -48.1135         93.0887         -48.1122         93.0873      -0.00932321         147.739
0.551                  -0.701427        -147.831         -47.9438         91.7079         -47.9425         91.7065      -0.00943186         147.669
0.552                  -0.718005        -148.401         -47.7744         90.3249         -47.7732         90.3235      -0.00954331         147.598
0.553                  -0.734992        -148.975         -47.6053         88.9397         -47.6041         88.9383       -0.0096576         147.528
0.554                  -0.752404        -149.553         -47.4366         87.5521         -47.4354         87.5506      -0.00977476         147.457
0.555                  -0.770255        -150.134         -47.2681         86.1618         -47.2669         86.1603      -0.00989483         147.386
0.556                  -0.788562        -150.719         -47.0999         84.7686         -47.0988         84.7671       -0.0100178         147.315
0.557                  -0.807339        -151.308         -46.9321         83.3725          -46.931          83.371       -0.0101438         147.244
0.558                  -0.826603        -151.901         -46.7646         81.9732         -46.7636         81.9717       -0.0102728         147.173
0.559                  -0.846371        -152.497         -46.5975         80.5706         -46.5965         80.5691       -0.0104047         147.101
0.56                    -0.86666        -153.098         -46.4307         79.1646         -46.4297          79.163       -0.0105398          147.03
0.561                  -0.887486        -153.702         -46.2643         77.7549         -46.2633         77.7533       -0.0106779         146.958
0.562                  -0.908868         -154.31         -46.0983         76.3415         -46.0974         76.3399       -0.0108192         146.886
0.563                  -0.930824        -154.922         -45.9326         74.9242         -45.9318         74.9226       -0.0109636         146.814
0.564                  -0.953372        -155.537         -45.7674         73.5029         -45.7666         73.5013       -0.0111112         146.742
0.565                  -0.976531        -156.156         -45.6026         72.0774         -45.6018         72.0758       -0.0112621          146.67
0.566                   -1.00032         -156.78         -45.4382         70.6478         -45.4375         70.6461       -0.0114161         146.598
0.567                   -1.02476        -157.407         -45.2743         69.2137         -45.2736         69.2121       -0.0115735         146.525
0.568                   -1.04987        -158.037         -45.1108         67.7752         -45.1101         67.7736       -0.0117341         146.453
0.569                   -1.07567        -158.672         -44.9478         66.3321         -44.9471         66.3305       -0.0118981          146.38
0.57                    -1.10217         -159.31         -44.7852         64.8844         -44.7846         64.8828       -0.0120655         146.307
0.571                   -1.12941        -159.952         -44.6232         63.4319         -44.6226         63.4303       -0.0122362         146.234
0.572                    -1.1574        -160.597         -44.4616         61.9747          -44.461          61.973       -0.0124104         146.161
0.573                   -1.18617        -161.247         -44.3005         60.5125            -44.3         60.5109        -0.012588         146.088
0.574                   -1.21572        -161.899           -44.14         59.0454         -44.1395         59.0438       -0.0127691         146.014
0.575                    -1.2461        -162.556           -43.98         57.5733         -43.9795         57.5717       -0.0129536         145.941
0.576                   -1.27731        -163.215         -43.8206         56.0961         -43.8201         56.0945       -0.0131417         145.867
0.577                   -1.30938        -163.879         -43.6617         54.6139         -43.6613         54.6123       -0.0133334         145.793
0.578                   -1.34233        -164.545         -43.5034         53.1264          -43.503         53.1248       -0.0135286         145.719
0.579                   -1.37619        -165.215         -43.3457         51.6338         -43.3453         51.6323       -0.0137274         145.645
0.58                    -1.41097        -165.888         -43.1885          50.136         -43.1882         50.1345       -0.0139298         145.571
0.581                    -1.4467        -166.564          -43.032          48.633         -43.0317         48.6315       -0.0141359         145.496
0.582                   -1.48341        -167.244         -42.8762         47.1247         -42.8759         47.1232       -0.0143456         145.422
0.583                    -1.5211        -167.926         -42.7209         45.6113         -42.7207         45.6098        -0.014559         145.347
0.584                   -1.55982        -168.611         -42.5664         44.0925         -42.5661          44.091       -0.0147761         145.272
0.585                   -1.59957        -169.299         -42.4125         42.5686         -42.4122         42.5671       -0.0149969         145.197
0.586                   -1.64037        -169.989         -42.2593         41.0394         -42.2591          41.038       -0.0152214         145.121
0.587                   -1.68226        -170.682         -42.1067         39.5051         -42.1066         39.5037       -0.0154497         145.046
0.588                   -1.72526        -171.377         -41.9549         37.9656         -41.9548         37.9642       -0.0156817          144.97
0.589                   -1.76937        -172.075         -41.8038          36.421         -41.8037         36.4196       -0.0159175         144.895
0.59                    -1.81463        -172.775         -41.6535         34.8713         -41.6534           34.87        -0.016157         144.819
0.591                   -1.86105        -173.476         -41.5039         33.3165         -41.5038         33.3153       -0.0164004         144.743
0.592                   -1.90866        -174.179         -41.3551         31.7568          -41.355         31.7556       -0.0166475         144.666
0.593                   -1.95747        -174.884          -41.207         30.1922         -41.2069         30.1911       -0.0168985          144.59
0.594                    -2.0075        -175.591         -41.0597         28.6228         -41.0597         28.6217       -0.0171532         144.513
0.595                   -2.05877        -176.298         -40.9132         27.0486         -40.9132         27.0475       -0.0174117         144.437
0.596                   -2.11129        -177.007         -40.7675         25.4697         -40.7675         25.4687       -0.0176741          144.36
0.597                   -2.16509        -177.717         -40.6227         23.8863         -40.6227         23.8853       -0.0179402         144.282
0.598                   -2.22017        -178.427         -40.4787         22.2983         -40.4786         22.2973       -0.0182101         144.205
0.599                   -2.27655        -179.137         -40.3355          20.706         -40.3355          20.705       -0.0184838         144.128
0.6                     -2.33425        -179.848         -40.1931         19.1093         -40.1931         19.1084       -0.0187613          144.05
0.601                   -2.39328         179.441         -40.0516         17.5085         -40.0516         17.5076       -0.0190426         143.972
0.602                   -2.45364          178.73          -39.911         15.9036          -39.911         15.9028       -0.0193276         143.894
0.603                   -2.51534          178.02         -39.7712         14.2948         -39.7712          14.294       -0.0196164         143.816
0.604                    -2.5784         177.311         -39.6323         12.6822         -39.6323         12.6814       -0.0199088         143.737
0.605                   -2.64282         176.602         -39.4943         11.0658         -39.4943         11.0651        -0.020205         143.659
0.606                   -2.70861         175.895         -39.3572         9.44596         -39.3572         9.44527       -0.0205048          143.58
0.607                   -2.77577         175.189         -39.2209         7.82266          -39.221         7.82201       -0.0208083         143.501
0.608                   -2.84429         174.485         -39.0856         6.19608         -39.0856         6.19546       -0.0211154         143.422
0.609                   -2.91419         173.783         -38.9512         4.56637         -38.9512         4.56579       -0.0214261         143.342
0.61                    -2.98545         173.084         -38.8176         2.93368         -38.8177         2.93313       -0.0217404         143.262
0.611                   -3.05808         172.387          -38.685         1.29816          -38.685         1.29764       -0.0220581         143.183
0.612                   -3.13206         171.692         -38.5532       -0.340049         -38.5532       -0.340544       -0.0223794         143.103
0.613                    -3.2074         171.001         -38.4223        -1.98079         -38.4224        -1.98125       -0.0227041         143.022
0.614                   -3.28407         170.314         -38.2924         -3.6239         -38.2924        -3.62434       -0.0230322         142.942
0.615                   -3.36208          169.63         -38.1633        -5.26922         -38.1634        -5.26965       -0.0233636         142.861
0.616                   -3.44139          168.95         -38.0351        -6.91661         -38.0352        -6.91702       -0.0236984          142.78
0.617                     -3.522         168.274         -37.9078        -8.56591         -37.9079        -8.56629       -0.0240364         142.699
0.618                   -3.60389         167.604         -37.7814        -10.2169         -37.7815        -10.2173       -0.0243776         142.618
0.619                   -3.68703         166.937         -37.6559        -11.8696         -37.6559        -11.8699        -0.024722         142.536
0.62                     -3.7714         166.277         -37.5312        -13.5236         -37.5312         -13.524       -0.0250695         142.454
0.621                   -3.85698         165.621         -37.4074         -15.179         -37.4074        -15.1793       -0.0254201         142.372
0.622                   -3.94373         164.971         -37.2844        -16.8354         -37.2844        -16.8358       -0.0257736          142.29
0.623                   -4.03162         164.327         -37.1623        -18.4929         -37.1623        -18.4932       -0.0261301         142.207
0.624                   -4.12061          163.69          -37.041        -20.1511          -37.041        -20.1514       -0.0264896         142.124
0.625                   -4.21068         163.059         -36.9205        -21.8101         -36.9205        -21.8104       -0.0268519         142.041
0.626                   -4.30178         162.434         -36.8008        -23.4695         -36.8008        -23.4698        -0.027217         141.958
0.627                   -4.39386         161.817         -36.6819        -25.1294         -36.6819        -25.1297        -0.027585         141.874
0.628                   -4.48688         161.207         -36.5638        -26.7894         -36.5638        -26.7898       -0.0279556         141.791
0.629                   -4.58081         160.604         -36.4465        -28.4496         -36.4464          -28.45        -0.028329         141.706
