! TOUCHSTONE file generated by CST MICROWAVE STUDIO
! Date and time: Fri Oct  2 16:30:34 2020
! Project name: Scenario_1_Free_Space_out_of_line.cst
! Parameters = {Lambda=346.42; Step_1=17.321; dy1=70.184; dx1=346; L_HA=400; MT=2.54; Rad_Dielectric=30; Rad_Lower=7.3; Rad_Upper=30; a_HA=580; a_WG=246; b_HA=500; b_WG=121; c_HA=0; c_WG=187; d_feed=85; h_feed=15; h_lower=18; h_upper=40}
! Header version: 2018
! Port assignment regex: !\s*Touchstone port\s*([0-9]+)\s*=\s*(CST MWS port|CST DS port)\s*([0-9]+|Zmin|Zmax)\s*\(\"(.*)\"\)(\s*mode\s*([0-9]+))?.*
! Touchstone port assignment:
! Touchstone port 1 = CST MWS port 1 ("")
! Touchstone port 2 = CST MWS port 2 ("")
# GHz S DB R 50
0.5                    -0.143073        -122.758         -59.1952         78.3824         -59.1952         78.3824      -0.00660371         151.122
0.501                  -0.148361          -123.2         -58.9826         77.0001         -58.9825         76.9998      -0.00667653         151.057
0.502                  -0.153835        -123.645           -58.77         75.6068         -58.7699         75.6064      -0.00675062         150.991
0.503                  -0.159505        -124.092         -58.5575         74.2026         -58.5574          74.202      -0.00682602         150.925
0.504                  -0.165376        -124.541         -58.3452         72.7874          -58.345         72.7866      -0.00690275          150.86
0.505                  -0.171457        -124.993         -58.1329         71.3611         -58.1327         71.3601       -0.0069808         150.794
0.506                  -0.177755        -125.447         -57.9209         69.9237         -57.9206         69.9225      -0.00706022         150.728
0.507                  -0.184278        -125.904          -57.709          68.475         -57.7086         68.4737        -0.007141         150.663
0.508                  -0.191034        -126.363         -57.4973         67.0151         -57.4969         67.0136      -0.00722317         150.597
0.509                  -0.198031        -126.824         -57.2858         65.5439         -57.2854         65.5422      -0.00730673         150.531
0.51                   -0.205278        -127.288         -57.0746         64.0613         -57.0742         64.0595      -0.00739169         150.464
0.511                  -0.212781        -127.754         -56.8637         62.5672         -56.8633         62.5653      -0.00747806         150.398
0.512                   -0.22055        -128.223         -56.6532         61.0618         -56.6527         61.0598      -0.00756585         150.332
0.513                  -0.228593        -128.694          -56.443         59.5448         -56.4426         59.5427      -0.00765506         150.266
0.514                  -0.236917        -129.167         -56.2332         58.0164         -56.2328         58.0142      -0.00774568         150.199
0.515                   -0.24553        -129.643         -56.0239         56.4765         -56.0235         56.4743      -0.00783772         150.133
0.516                   -0.25444        -130.121         -55.8151         54.9251         -55.8146         54.9228      -0.00793117         150.066
0.517                  -0.263656        -130.601         -55.6067         53.3622         -55.6063         53.3598      -0.00802602             150
0.518                  -0.273184        -131.084          -55.399         51.7878         -55.3986         51.7854      -0.00812225         149.933
0.519                  -0.283032        -131.568         -55.1919          50.202         -55.1914         50.1996      -0.00821986         149.866
0.52                   -0.293207        -132.055         -54.9854         48.6047          -54.985         48.6023      -0.00831881         149.799
0.521                  -0.303716        -132.545         -54.7796         46.9962         -54.7792         46.9937      -0.00841909         149.732
0.522                  -0.314566        -133.036         -54.5745         45.3763         -54.5741         45.3739      -0.00852067         149.665
0.523                  -0.325761        -133.529         -54.3702         43.7453         -54.3699         43.7429      -0.00862352         149.598
0.524                  -0.337309        -134.025         -54.1668         42.1031         -54.1664         42.1007      -0.00872759         149.531
0.525                  -0.349215        -134.522         -53.9642           40.45         -53.9639         40.4476      -0.00883286         149.464
0.526                  -0.361483        -135.022         -53.7626         38.7859         -53.7623         38.7836      -0.00893928         149.396
0.527                  -0.374118        -135.524         -53.5619         37.1112         -53.5616         37.1089       -0.0090468         149.329
0.528                  -0.387123        -136.027         -53.3623         35.4258          -53.362         35.4235      -0.00915536         149.261
0.529                  -0.400503        -136.532         -53.1637           33.73         -53.1634         33.7278      -0.00926492         149.194
0.53                   -0.414259        -137.039         -52.9662          32.024         -52.9659         32.0218      -0.00937541         149.126
0.531                  -0.428393        -137.548         -52.7698         30.3079         -52.7696         30.3058      -0.00948677         149.058
0.532                  -0.442908        -138.059         -52.5747          28.582         -52.5745           28.58      -0.00959893          148.99
0.533                  -0.457803        -138.571         -52.3808         26.8464         -52.3806         26.8446      -0.00971183         148.922
0.534                  -0.473079        -139.084         -52.1882         25.1016          -52.188         25.0998      -0.00982539         148.854
0.535                  -0.488735          -139.6         -51.9969         23.3476         -51.9968         23.3459      -0.00993953         148.786
0.536                   -0.50477        -140.116          -51.807         21.5849         -51.8069         21.5833       -0.0100542         148.718
0.537                  -0.521181        -140.635         -51.6185         19.8136         -51.6184         19.8121       -0.0101693         148.649
0.538                  -0.537967        -141.154         -51.4314         18.0341         -51.4313         18.0327       -0.0102847         148.581
0.539                  -0.555123        -141.675         -51.2459         16.2468         -51.2458         16.2455       -0.0104005         148.512
0.54                   -0.572646        -142.198         -51.0618         14.4518         -51.0617         14.4507       -0.0105164         148.444
0.541                  -0.590531        -142.721         -50.8793         12.6497         -50.8792         12.6487       -0.0106325         148.375
0.542                  -0.608772        -143.246         -50.6983         10.8408         -50.6983         10.8399       -0.0107485         148.306
0.543                  -0.627363        -143.772          -50.519         9.02542          -50.519         9.02457       -0.0108646         148.237
0.544                  -0.646299        -144.299         -50.3413         7.20395         -50.3413         7.20321       -0.0109806         148.168
0.545                  -0.665572        -144.828         -50.1652          5.3768         -50.1652         5.37617       -0.0110963         148.099
0.546                  -0.685175        -145.357         -49.9908         3.54437         -49.9908         3.54384       -0.0112119          148.03
0.547                    -0.7051        -145.888         -49.8181         1.70706         -49.8181         1.70664       -0.0113271          147.96
0.548                  -0.725338         -146.42         -49.6471       -0.134695         -49.6471       -0.135017        -0.011442         147.891
0.549                  -0.745883        -146.953         -49.4778        -1.98049         -49.4778        -1.98072       -0.0115565         147.821
0.55                   -0.766724        -147.487         -49.3101        -3.82991         -49.3102        -3.83004       -0.0116705         147.752
0.551                  -0.787853        -148.023         -49.1442        -5.68252         -49.1443        -5.68257        -0.011784         147.682
0.552                  -0.809262        -148.559           -48.98        -7.53791         -48.9801        -7.53787        -0.011897         147.612
0.553                  -0.830942        -149.097         -48.8175        -9.39565         -48.8176        -9.39553       -0.0120095         147.542
0.554                  -0.852884        -149.636         -48.6567        -11.2553         -48.6568        -11.2551       -0.0121213         147.472
0.555                   -0.87508        -150.176         -48.4976        -13.1165         -48.4977        -13.1162       -0.0122326         147.402
0.556                  -0.897521        -150.718         -48.3402        -14.9788         -48.3402        -14.9785       -0.0123433         147.331
0.557                    -0.9202        -151.261         -48.1844        -16.8418         -48.1844        -16.8414       -0.0124535         147.261
0.558                   -0.94311        -151.806         -48.0302        -18.7051         -48.0303        -18.7047       -0.0125631          147.19
0.559                  -0.966242        -152.352         -47.8777        -20.5684         -47.8777        -20.5679       -0.0126721          147.12
0.56                   -0.989591        -152.899         -47.7268        -22.4312         -47.7268        -22.4307       -0.0127806         147.049
0.561                   -1.01315        -153.449         -47.5773        -24.2932         -47.5774        -24.2927       -0.0128887         146.978
0.562                   -1.03692            -154         -47.4295        -26.1541         -47.4295        -26.1535       -0.0129963         146.907
0.563                   -1.06088        -154.553         -47.2831        -28.0134         -47.2831        -28.0129       -0.0131036         146.835
0.564                   -1.08505        -155.108         -47.1382         -29.871         -47.1382        -29.8704       -0.0132105         146.764
0.565                   -1.10941        -155.665         -46.9946        -31.7265         -46.9946        -31.7259       -0.0133172         146.692
0.566                   -1.13396        -156.224         -46.8525        -33.5796         -46.8525         -33.579       -0.0134238         146.621
0.567                   -1.15871        -156.785         -46.7117          -35.43         -46.7117        -35.4294       -0.0135302         146.549
0.568                   -1.18365        -157.349         -46.5721        -37.2775         -46.5721         -37.277       -0.0136367         146.477
0.569                   -1.20878        -157.915         -46.4339        -39.1219         -46.4339        -39.1214       -0.0137432         146.405
0.57                    -1.23411        -158.484         -46.2968        -40.9629         -46.2968        -40.9624         -0.01385         146.332
0.571                   -1.25963        -159.056         -46.1608        -42.8004         -46.1608        -42.7999        -0.013957          146.26
0.572                   -1.28536         -159.63          -46.026        -44.6342          -46.026        -44.6337       -0.0140645         146.187
0.573                    -1.3113        -160.208         -45.8922         -46.464         -45.8921        -46.4636       -0.0141725         146.115
0.574                   -1.33746        -160.788         -45.7594        -48.2899         -45.7593        -48.2895       -0.0142811         146.042
0.575                   -1.36384        -161.372         -45.6275        -50.1116         -45.6275        -50.1113       -0.0143904         145.969
0.576                   -1.39045        -161.959         -45.4965        -51.9292         -45.4965        -51.9289       -0.0145007         145.895
0.577                    -1.4173         -162.55         -45.3664        -53.7423         -45.3664        -53.7421       -0.0146119         145.822
0.578                   -1.44441        -163.144         -45.2371        -55.5512         -45.2371         -55.551       -0.0147243         145.749
0.579                   -1.47179        -163.742         -45.1085        -57.3556         -45.1085        -57.3554       -0.0148379         145.675
0.58                    -1.49944        -164.344         -44.9806        -59.1555         -44.9806        -59.1555       -0.0149529         145.601
0.581                    -1.5274         -164.95         -44.8534        -60.9511         -44.8533         -60.951       -0.0150695         145.527
0.582                   -1.55566        -165.561         -44.7267        -62.7421         -44.7267        -62.7422       -0.0151877         145.453
0.583                   -1.58425        -166.175         -44.6006        -64.5288         -44.6006        -64.5289       -0.0153077         145.378
0.584                    -1.6132        -166.794          -44.475        -66.3111          -44.475        -66.3112       -0.0154296         145.304
0.585                   -1.64251        -167.418         -44.3499         -68.089         -44.3498        -68.0892       -0.0155536         145.229
0.586                   -1.67221        -168.046         -44.2251        -69.8627         -44.2251         -69.863       -0.0156798         145.154
0.587                   -1.70232        -168.679         -44.1007        -71.6323         -44.1007        -71.6325       -0.0158084         145.079
0.588                   -1.73287        -169.317         -43.9767        -73.3977         -43.9766        -73.3981       -0.0159394         145.004
0.589                   -1.76387         -169.96         -43.8529        -75.1592         -43.8529        -75.1596        -0.016073         144.928
0.59                    -1.79537        -170.608         -43.7293        -76.9169         -43.7293        -76.9173       -0.0162094         144.852
0.591                   -1.82737        -171.261          -43.606        -78.6709          -43.606        -78.6713       -0.0163487         144.777
0.592                   -1.85992         -171.92         -43.4828        -80.4212         -43.4828        -80.4217        -0.016491         144.701
0.593                   -1.89303        -172.584         -43.3597        -82.1682         -43.3597        -82.1687       -0.0166364         144.624
0.594                   -1.92675        -173.253         -43.2368         -83.912         -43.2368        -83.9125       -0.0167852         144.548
0.595                   -1.96109        -173.928         -43.1139        -85.6526         -43.1139        -85.6532       -0.0169374         144.471
0.596                   -1.99611        -174.609          -42.991        -87.3904         -42.9911         -87.391       -0.0170931         144.394
0.597                   -2.03182        -175.296         -42.8682        -89.1254         -42.8682         -89.126       -0.0172526         144.317
0.598                   -2.06826        -175.989         -42.7453         -90.858         -42.7454        -90.8586       -0.0174159          144.24
0.599                   -2.10548        -176.687         -42.6224        -92.5882         -42.6224        -92.5888       -0.0175831         144.163
0.6                     -2.14351        -177.392         -42.4994        -94.3163         -42.4995        -94.3169       -0.0177545         144.085
0.601                   -2.18238        -178.102         -42.3764        -96.0425         -42.3764        -96.0431       -0.0179301         144.007
0.602                   -2.22214        -178.819         -42.2532         -97.767         -42.2532        -97.7676         -0.01811         143.929
0.603                   -2.26283        -179.542         -42.1299          -99.49         -42.1299        -99.4907       -0.0182944         143.851
0.604                   -2.30449         179.729         -42.0064        -101.212         -42.0065        -101.212       -0.0184835         143.772
0.605                   -2.34717         178.994         -41.8828        -102.933         -41.8829        -102.933       -0.0186773         143.694
0.606                    -2.3909         178.253         -41.7591        -104.653         -41.7591        -104.653       -0.0188759         143.615
0.607                   -2.43575         177.505         -41.6351        -106.372         -41.6352        -106.373       -0.0190795         143.536
0.608                   -2.48174         176.752          -41.511        -108.091         -41.5111        -108.092       -0.0192883         143.456
0.609                   -2.52894         175.991         -41.3867         -109.81         -41.3867        -109.811       -0.0195023         143.377
0.61                    -2.57739         175.225         -41.2622        -111.529         -41.2622         -111.53       -0.0197216         143.297
0.611                   -2.62714         174.453         -41.1375        -113.249         -41.1375        -113.249       -0.0199464         143.217
0.612                   -2.67825         173.674         -41.0126        -114.969         -41.0126        -114.969       -0.0201767         143.137
0.613                   -2.73077          172.89         -40.8875        -116.689         -40.8875         -116.69       -0.0204128         143.056
0.614                   -2.78475         172.099         -40.7622        -118.411         -40.7622        -118.412       -0.0206546         142.976
0.615                   -2.84024         171.302         -40.6367        -120.134         -40.6368        -120.135       -0.0209024         142.895
0.616                   -2.89732           170.5          -40.511        -121.859         -40.5111        -121.859       -0.0211562         142.813
0.617                   -2.95603         169.692         -40.3852        -123.585         -40.3853        -123.585       -0.0214161         142.732
0.618                   -3.01643         168.878         -40.2592        -125.313         -40.2593        -125.314       -0.0216821          142.65
0.619                   -3.07858         168.059         -40.1331        -127.044         -40.1332        -127.044       -0.0219545         142.568
0.62                    -3.14255         167.234         -40.0068        -128.776         -40.0069        -128.776       -0.0222333         142.486
0.621                    -3.2084         166.404         -39.8804        -130.511         -39.8805        -130.511       -0.0225186         142.404
0.622                   -3.27619         165.569          -39.754        -132.249          -39.754        -132.249       -0.0228104         142.321
0.623                   -3.34598          164.73         -39.6274        -133.989         -39.6275        -133.989       -0.0231088         142.238
0.624                   -3.41784         163.886         -39.5008        -135.733         -39.5008        -135.733       -0.0234139         142.155
0.625                   -3.49183         163.038         -39.3741         -137.48         -39.3742         -137.48       -0.0237258         142.072
0.626                   -3.56803         162.185         -39.2474         -139.23         -39.2475         -139.23       -0.0240446         141.988
0.627                   -3.64649         161.329         -39.1207        -140.983         -39.1208        -140.983       -0.0243702         141.904
0.628                    -3.7273          160.47         -38.9941        -142.741         -38.9941        -142.741       -0.0247027          141.82
0.629                    -3.8105         159.607         -38.8675        -144.502         -38.8676        -144.502       -0.0250423         141.736
