! TOUCHSTONE file generated by CST MICROWAVE STUDIO
! Date and time: Fri Oct  2 16:38:35 2020
! Project name: Scenario_1_Free_Space_out_of_line.cst
! Parameters = {Lambda=346.42; Step_1=17.321; dy1=70.184; dx1=520; L_HA=400; MT=2.54; Rad_Dielectric=30; Rad_Lower=7.3; Rad_Upper=30; a_HA=580; a_WG=246; b_HA=500; b_WG=121; c_HA=0; c_WG=187; d_feed=85; h_feed=15; h_lower=18; h_upper=40}
! Header version: 2018
! Port assignment regex: !\s*Touchstone port\s*([0-9]+)\s*=\s*(CST MWS port|CST DS port)\s*([0-9]+|Zmin|Zmax)\s*\(\"(.*)\"\)(\s*mode\s*([0-9]+))?.*
! Touchstone port assignment:
! Touchstone port 1 = CST MWS port 1 ("")
! Touchstone port 2 = CST MWS port 2 ("")
# GHz S DB R 50
0.5                    -0.151391        -122.639         -61.0123        -19.6173         -61.0123        -19.6173      -0.00666824         151.137
0.501                   -0.15389        -123.094         -60.8813        -21.4906         -60.8813        -21.4906      -0.00670881         151.071
0.502                  -0.156688         -123.55         -60.7469        -23.3622          -60.747        -23.3621       -0.0067508         151.006
0.503                  -0.159785        -124.009         -60.6093        -25.2318         -60.6094        -25.2316      -0.00679424          150.94
0.504                  -0.163186         -124.47         -60.4686        -27.0988         -60.4686        -27.0986      -0.00683912         150.875
0.505                  -0.166894        -124.932         -60.3247        -28.9629         -60.3248        -28.9627      -0.00688545         150.809
0.506                  -0.170911        -125.397         -60.1779        -30.8239          -60.178        -30.8237      -0.00693323         150.743
0.507                  -0.175241        -125.863         -60.0282        -32.6814         -60.0283        -32.6812      -0.00698248         150.677
0.508                  -0.179886        -126.332         -59.8757        -34.5353         -59.8758         -34.535       -0.0070332         150.611
0.509                  -0.184851        -126.802         -59.7206        -36.3853         -59.7207         -36.385       -0.0070854         150.545
0.51                   -0.190136        -127.275         -59.5629        -38.2312         -59.5629        -38.2309      -0.00713908         150.479
0.511                  -0.195746        -127.749         -59.4027        -40.0731         -59.4028        -40.0728      -0.00719425         150.413
0.512                  -0.201684        -128.225         -59.2401        -41.9108         -59.2402        -41.9105      -0.00725091         150.346
0.513                  -0.207952        -128.703         -59.0753        -43.7443         -59.0754        -43.7439      -0.00730908          150.28
0.514                  -0.214553        -129.184         -58.9083        -45.5735         -58.9084        -45.5732      -0.00736875         150.214
0.515                   -0.22149        -129.666         -58.7392        -47.3986         -58.7393        -47.3983      -0.00742995         150.147
0.516                  -0.228766        -130.149         -58.5682        -49.2196         -58.5683        -49.2192      -0.00749266          150.08
0.517                  -0.236384        -130.635         -58.3953        -51.0366         -58.3954        -51.0362      -0.00755691         150.014
0.518                  -0.244346        -131.123         -58.2206        -52.8497         -58.2207        -52.8493      -0.00762269         149.947
0.519                  -0.252655        -131.613         -58.0442         -54.659         -58.0443        -54.6586      -0.00769001          149.88
0.52                   -0.261315        -132.104         -57.8663        -56.4648         -57.8664        -56.4644      -0.00775889         149.813
0.521                  -0.270326        -132.597         -57.6869        -58.2673          -57.687        -58.2669      -0.00782932         149.746
0.522                  -0.279694        -133.093          -57.506        -60.0666         -57.5061        -60.0662      -0.00790131         149.679
0.523                  -0.289418         -133.59         -57.3239        -61.8631          -57.324        -61.8627      -0.00797488         149.612
0.524                  -0.299504        -134.089         -57.1405        -63.6569         -57.1406        -63.6565      -0.00805003         149.544
0.525                  -0.309952        -134.589          -56.956        -65.4484         -56.9561        -65.4479      -0.00812676         149.477
0.526                  -0.320766        -135.092         -56.7704        -67.2377         -56.7705        -67.2373      -0.00820508          149.41
0.527                  -0.331949        -135.596         -56.5838        -69.0253         -56.5839        -69.0249      -0.00828501         149.342
0.528                  -0.343501        -136.103         -56.3964        -70.8115         -56.3964        -70.8111      -0.00836654         149.274
0.529                  -0.355427        -136.611         -56.2081        -72.5964         -56.2081         -72.596      -0.00844969         149.206
0.53                   -0.367728        -137.121          -56.019        -74.3806         -56.0191        -74.3802      -0.00853445         149.139
0.531                  -0.380407        -137.632         -55.8292        -76.1642         -55.8293        -76.1638      -0.00862085         149.071
0.532                  -0.393466        -138.146         -55.6389        -77.9477         -55.6389        -77.9473      -0.00870889         149.003
0.533                  -0.406908        -138.661          -55.448        -79.7313          -55.448        -79.7309      -0.00879857         148.934
0.534                  -0.420735        -139.178         -55.2566        -81.5155         -55.2567        -81.5151       -0.0088899         148.866
0.535                  -0.434948        -139.697         -55.0648        -83.3005         -55.0649           -83.3      -0.00898289         148.798
0.536                  -0.449551        -140.218         -54.8727        -85.0866         -54.8728        -85.0862      -0.00907755         148.729
0.537                  -0.464545         -140.74         -54.6803        -86.8743         -54.6803        -86.8739      -0.00917388         148.661
0.538                  -0.479933        -141.264         -54.4877        -88.6638         -54.4877        -88.6634       -0.0092719         148.592
0.539                  -0.495717         -141.79         -54.2949        -90.4555         -54.2949         -90.455      -0.00937161         148.523
0.54                   -0.511898        -142.318         -54.1021        -92.2496         -54.1021        -92.2492      -0.00947301         148.455
0.541                   -0.52848        -142.847         -53.9092        -94.0466         -53.9092        -94.0462      -0.00957612         148.386
0.542                  -0.545463        -143.379         -53.7163        -95.8467         -53.7163        -95.8463      -0.00968095         148.317
0.543                  -0.562851        -143.912         -53.5235        -97.6502         -53.5235        -97.6498       -0.0097875         148.247
0.544                  -0.580645        -144.446         -53.3308        -99.4574         -53.3308         -99.457      -0.00989578         148.178
0.545                  -0.598846        -144.983         -53.1384        -101.269         -53.1383        -101.268       -0.0100058         148.109
0.546                  -0.617458        -145.521         -52.9462        -103.084         -52.9461        -103.084       -0.0101176         148.039
0.547                  -0.636482        -146.061         -52.7543        -104.904         -52.7542        -104.904       -0.0102311          147.97
0.548                   -0.65592        -146.602         -52.5627        -106.729         -52.5627        -106.728       -0.0103464           147.9
0.549                  -0.675773        -147.146         -52.3716        -108.559         -52.3715        -108.558       -0.0104634          147.83
0.55                   -0.696044        -147.691         -52.1809        -110.393         -52.1808        -110.393       -0.0105823          147.76
0.551                  -0.716735        -148.237         -51.9908        -112.234         -51.9907        -112.233       -0.0107029          147.69
0.552                  -0.737848        -148.786         -51.8012         -114.08         -51.8011        -114.079       -0.0108253          147.62
0.553                  -0.759384        -149.336         -51.6123        -115.932         -51.6122        -115.931       -0.0109495          147.55
0.554                  -0.781344        -149.888          -51.424        -117.789         -51.4239        -117.789       -0.0110756         147.479
0.555                  -0.803733        -150.441         -51.2365        -119.653         -51.2363        -119.653       -0.0112034         147.409
0.556                   -0.82655        -150.997         -51.0497        -121.523         -51.0496        -121.523       -0.0113331         147.338
0.557                  -0.849797        -151.554         -50.8638          -123.4         -50.8636        -123.399       -0.0114646         147.267
0.558                  -0.873478        -152.113         -50.6787        -125.282         -50.6785        -125.282        -0.011598         147.197
0.559                  -0.897593        -152.673         -50.4945        -127.172         -50.4944        -127.171       -0.0117332         147.126
0.56                   -0.922145        -153.235         -50.3114        -129.067         -50.3112        -129.067       -0.0118703         147.055
0.561                  -0.947135        -153.799         -50.1292         -130.97          -50.129        -130.969       -0.0120093         146.983
0.562                  -0.972565        -154.365         -49.9481        -132.879         -49.9479        -132.878       -0.0121502         146.912
0.563                  -0.998438        -154.932         -49.7681        -134.794         -49.7679        -134.794       -0.0122929          146.84
0.564                   -1.02475        -155.502         -49.5892        -136.716          -49.589        -136.716       -0.0124376         146.769
0.565                   -1.05152        -156.072         -49.4115        -138.645         -49.4114        -138.645       -0.0125842         146.697
0.566                   -1.07873        -156.645         -49.2351         -140.58         -49.2349         -140.58       -0.0127326         146.625
0.567                   -1.10639         -157.22         -49.0599        -142.521         -49.0597        -142.521       -0.0128831         146.553
0.568                   -1.13451        -157.796          -48.886        -144.469         -48.8858        -144.469       -0.0130354         146.481
0.569                   -1.16308        -158.374         -48.7134        -146.423         -48.7132        -146.423       -0.0131897         146.409
0.57                     -1.1921        -158.954         -48.5422        -148.383          -48.542        -148.383        -0.013346         146.336
0.571                   -1.22159        -159.536         -48.3724        -150.349         -48.3722        -150.348       -0.0135042         146.264
0.572                   -1.25154        -160.119          -48.204         -152.32         -48.2038         -152.32       -0.0136644         146.191
0.573                   -1.28195        -160.705         -48.0371        -154.297         -48.0369        -154.297       -0.0138266         146.118
0.574                   -1.31283        -161.292         -47.8716        -156.279         -47.8714        -156.279       -0.0139909         146.045
0.575                   -1.34418        -161.881         -47.7077        -158.267         -47.7075        -158.267       -0.0141571         145.972
0.576                     -1.376        -162.472         -47.5452        -160.259          -47.545        -160.259       -0.0143253         145.899
0.577                    -1.4083        -163.065         -47.3842        -162.256          -47.384        -162.256       -0.0144955         145.826
0.578                   -1.44107         -163.66         -47.2248        -164.257         -47.2246        -164.257       -0.0146678         145.752
0.579                   -1.47433        -164.257          -47.067        -166.263         -47.0668        -166.263       -0.0148422         145.678
0.58                    -1.50807        -164.856         -46.9106        -168.272         -46.9104        -168.272       -0.0150186         145.604
0.581                    -1.5423        -165.457         -46.7559        -170.285         -46.7557        -170.285       -0.0151971          145.53
0.582                   -1.57702        -166.059         -46.6027        -172.301         -46.6025        -172.301       -0.0153777         145.456
0.583                   -1.61224        -166.664          -46.451         -174.32         -46.4508         -174.32       -0.0155603         145.382
0.584                   -1.64795        -167.271         -46.3009        -176.342         -46.3007        -176.342       -0.0157451         145.307
0.585                   -1.68417        -167.881         -46.1524        -178.367         -46.1522        -178.367        -0.015932         145.233
0.586                    -1.7209        -168.492         -46.0053         179.607         -46.0051         179.607        -0.016121         145.158
0.587                   -1.75814        -169.105         -45.8598         177.578         -45.8596         177.578       -0.0163122         145.083
0.588                    -1.7959        -169.721         -45.7158         175.548         -45.7156         175.548       -0.0165055         145.008
0.589                   -1.83417        -170.339         -45.5732         173.517          -45.573         173.517        -0.016701         144.933
0.59                    -1.87298        -170.959         -45.4321         171.485         -45.4319         171.485       -0.0168987         144.857
0.591                   -1.91232        -171.581         -45.2924         169.452         -45.2923         169.452       -0.0170986         144.782
0.592                   -1.95219        -172.206         -45.1542         167.418          -45.154         167.418       -0.0173007         144.706
0.593                   -1.99261        -172.833         -45.0173         165.385         -45.0171         165.385       -0.0175051          144.63
0.594                   -2.03358        -173.463         -44.8817         163.351         -44.8815         163.351       -0.0177117         144.554
0.595                   -2.07511        -174.095         -44.7474         161.318         -44.7472         161.318       -0.0179205         144.477
0.596                    -2.1172        -174.729         -44.6144         159.285         -44.6142         159.285       -0.0181317         144.401
0.597                   -2.15987        -175.366         -44.4826         157.253         -44.4825         157.253       -0.0183451         144.324
0.598                   -2.20311        -176.006          -44.352         155.222         -44.3519         155.222       -0.0185608         144.247
0.599                   -2.24694        -176.648         -44.2225         153.193         -44.2224         153.192       -0.0187789          144.17
0.6                     -2.29137        -177.293         -44.0942         151.164          -44.094         151.164       -0.0189994         144.093
0.601                   -2.33641        -177.941         -43.9668         149.137         -43.9667         149.137       -0.0192222         144.015
0.602                   -2.38206        -178.592         -43.8405         147.112         -43.8404         147.111       -0.0194474         143.938
0.603                   -2.42833        -179.245         -43.7152         145.088         -43.7151         145.088       -0.0196751          143.86
0.604                   -2.47525        -179.901         -43.5908         143.067         -43.5907         143.066       -0.0199052         143.782
0.605                    -2.5228          179.44         -43.4672         141.047         -43.4671         141.047       -0.0201378         143.704
0.606                   -2.57102         178.777         -43.3444         139.029         -43.3443         139.029       -0.0203729         143.625
0.607                   -2.61991         178.112         -43.2225         137.014         -43.2224         137.014       -0.0206106         143.547
0.608                   -2.66948         177.443         -43.1012         135.001         -43.1011         135.001       -0.0208508         143.468
0.609                   -2.71976         176.772         -42.9806          132.99         -42.9806          132.99       -0.0210936         143.389
0.61                    -2.77074         176.097         -42.8607         130.982         -42.8606         130.981       -0.0213391         143.309
0.611                   -2.82245         175.419         -42.7413         128.975         -42.7412         128.975       -0.0215873          143.23
0.612                   -2.87491         174.737         -42.6225         126.971         -42.6224         126.971       -0.0218382          143.15
0.613                   -2.92813         174.052         -42.5041          124.97         -42.5041          124.97       -0.0220919          143.07
0.614                   -2.98212         173.363         -42.3862         122.971         -42.3862          122.97       -0.0223484          142.99
0.615                   -3.03691         172.671         -42.2687         120.973         -42.2687         120.973       -0.0226078          142.91
0.616                   -3.09252         171.975         -42.1516         118.978         -42.1515         118.978       -0.0228702         142.829
0.617                   -3.14897         171.275         -42.0348         116.986         -42.0347         116.986       -0.0231356         142.748
0.618                   -3.20628         170.572         -41.9183         114.995         -41.9182         114.995        -0.023404         142.667
0.619                   -3.26446         169.865          -41.802         113.006         -41.8019         113.006       -0.0236756         142.585
0.62                    -3.32356         169.153         -41.6859         111.019         -41.6858         111.019       -0.0239504         142.504
0.621                   -3.38358         168.438           -41.57         109.033         -41.5699         109.033       -0.0242285         142.422
0.622                   -3.44457         167.719         -41.4542          107.05         -41.4542          107.05       -0.0245101          142.34
0.623                   -3.50654         166.995         -41.3385         105.067         -41.3385         105.067       -0.0247951         142.257
0.624                   -3.56952         166.267         -41.2229         103.086         -41.2229         103.086       -0.0250837         142.175
0.625                   -3.63356         165.535         -41.1074         101.106         -41.1074         101.106       -0.0253761         142.092
0.626                   -3.69867         164.798         -40.9919         99.1274         -40.9919         99.1274       -0.0256723         142.009
0.627                   -3.76489         164.057         -40.8764         97.1494         -40.8764         97.1494       -0.0259725         141.925
0.628                   -3.83226         163.312         -40.7609          95.172         -40.7609          95.172       -0.0262768         141.842
0.629                   -3.90082         162.562         -40.6453         93.1952         -40.6453         93.1952       -0.0265854         141.758
