! TOUCHSTONE file generated by CST MICROWAVE STUDIO
! Date and time: Fri Oct  2 16:56:34 2020
! Project name: Scenario_1_Free_Space_out_of_line.cst
! Parameters = {Lambda=346.42; Step_1=17.321; dy1=70.184; dx1=693; L_HA=400; MT=2.54; Rad_Dielectric=30; Rad_Lower=7.3; Rad_Upper=30; a_HA=580; a_WG=246; b_HA=500; b_WG=121; c_HA=0; c_WG=187; d_feed=85; h_feed=15; h_lower=18; h_upper=40}
! Header version: 2018
! Port assignment regex: !\s*Touchstone port\s*([0-9]+)\s*=\s*(CST MWS port|CST DS port)\s*([0-9]+|Zmin|Zmax)\s*\(\"(.*)\"\)(\s*mode\s*([0-9]+))?.*
! Touchstone port assignment:
! Touchstone port 1 = CST MWS port 1 ("")
! Touchstone port 2 = CST MWS port 2 ("")
# GHz S DB R 50
0.5                    -0.146382        -122.607         -62.4262        -117.593         -62.4262        -117.593      -0.00669054          151.13
0.501                  -0.153935        -123.047         -62.2203        -120.241         -62.2196        -120.258       -0.0067622         151.064
0.502                  -0.161619        -123.489         -62.0135        -122.846         -62.0119        -122.879      -0.00683429         150.999
0.503                  -0.169436        -123.932          -61.806         -125.41         -61.8036        -125.457       -0.0069068         150.934
0.504                  -0.177386        -124.377         -61.5981        -127.934          -61.595        -127.993      -0.00697972         150.868
0.505                  -0.185471        -124.824         -61.3902         -130.42         -61.3864         -130.49      -0.00705307         150.802
0.506                  -0.193695        -125.273         -61.1825        -132.869          -61.178         -132.95      -0.00712684         150.737
0.507                  -0.202057        -125.723         -60.9752        -135.285           -60.97        -135.374      -0.00720103         150.671
0.508                  -0.210562        -126.175         -60.7684        -137.667         -60.7626        -137.765      -0.00727564         150.605
0.509                   -0.21921        -126.629         -60.5624        -140.019          -60.556        -140.123      -0.00735067         150.539
0.51                   -0.228004        -127.084         -60.3572        -142.342         -60.3503        -142.452      -0.00742612         150.473
0.511                  -0.236945        -127.541          -60.153        -144.637         -60.1457        -144.752        -0.007502         150.407
0.512                  -0.246037        -128.001         -59.9499        -146.906         -59.9421        -147.025      -0.00757829         150.341
0.513                  -0.255282        -128.461          -59.748        -149.151         -59.7398        -149.274      -0.00765502         150.275
0.514                  -0.264682        -128.924         -59.5473        -151.372         -59.5387        -151.498      -0.00773216         150.209
0.515                   -0.27424        -129.389         -59.3478        -153.572          -59.339          -153.7      -0.00780974         150.142
0.516                  -0.283957        -129.856         -59.1498        -155.752         -59.1407        -155.882      -0.00788773         150.076
0.517                  -0.293838        -130.324          -58.953        -157.913         -58.9438        -158.044      -0.00796616         150.009
0.518                  -0.303885        -130.795         -58.7577        -160.056         -58.7483        -160.188      -0.00804502         149.943
0.519                    -0.3141        -131.267         -58.5638        -162.182         -58.5543        -162.314      -0.00812431         149.876
0.52                   -0.324487        -131.742         -58.3713        -164.294         -58.3617        -164.425      -0.00820403         149.809
0.521                  -0.335048        -132.218         -58.1802        -166.391         -58.1706        -166.522      -0.00828418         149.742
0.522                  -0.345788        -132.697         -57.9906        -168.474         -57.9809        -168.604      -0.00836478         149.675
0.523                  -0.356708        -133.177         -57.8024        -170.545         -57.7927        -170.674      -0.00844581         149.608
0.524                  -0.367814         -133.66         -57.6156        -172.605          -57.606        -172.733      -0.00852729         149.541
0.525                  -0.379107        -134.145         -57.4302        -174.655         -57.4207         -174.78      -0.00860921         149.474
0.526                  -0.390592        -134.632         -57.2461        -176.694         -57.2368        -176.818      -0.00869158         149.406
0.527                  -0.402273        -135.121         -57.0635        -178.725         -57.0542        -178.847       -0.0087744         149.339
0.528                  -0.414154        -135.612         -56.8822         179.252         -56.8731         179.133      -0.00885769         149.271
0.529                  -0.426237        -136.106         -56.7022         177.237         -56.6933          177.12      -0.00894143         149.204
0.53                   -0.438528        -136.602         -56.5235         175.228         -56.5148         175.114      -0.00902564         149.136
0.531                  -0.451031          -137.1         -56.3461         173.225         -56.3376         173.114      -0.00911033         149.068
0.532                  -0.463751          -137.6           -56.17         171.227         -56.1617         171.119      -0.00919549             149
0.533                  -0.476691        -138.103          -55.995         169.234          -55.987          169.13      -0.00928115         148.932
0.534                  -0.489856        -138.608         -55.8213         167.246         -55.8135         167.144      -0.00936729         148.864
0.535                  -0.503252        -139.115         -55.6488         165.261         -55.6412         165.163      -0.00945394         148.796
0.536                  -0.516883        -139.625         -55.4773         163.279         -55.4701         163.184       -0.0095411         148.728
0.537                  -0.530755        -140.138          -55.307           161.3         -55.3001         161.208      -0.00962878         148.659
0.538                  -0.544873        -140.652         -55.1378         159.322         -55.1311         159.234        -0.009717         148.591
0.539                  -0.559241         -141.17         -54.9697         157.347         -54.9633         157.262      -0.00980576         148.522
0.54                   -0.573867        -141.689         -54.8025         155.372         -54.7964         155.292      -0.00989508         148.453
0.541                  -0.588756        -142.212         -54.6364         153.399         -54.6306         153.322      -0.00998497         148.385
0.542                  -0.603914        -142.737         -54.4713         151.426         -54.4658         151.352       -0.0100754         148.316
0.543                  -0.619347        -143.264         -54.3071         149.453         -54.3019         149.383       -0.0101665         148.247
0.544                  -0.635061        -143.794         -54.1438         147.479         -54.1389         147.413       -0.0102582         148.177
0.545                  -0.651064        -144.327         -53.9815         145.505         -53.9769         145.443       -0.0103506         148.108
0.546                  -0.667362        -144.863           -53.82         143.531         -53.8157         143.472       -0.0104436         148.039
0.547                  -0.683961        -145.401         -53.6594         141.554         -53.6553         141.499       -0.0105373         147.969
0.548                  -0.700871        -145.942         -53.4996         139.577         -53.4958         139.525       -0.0106317           147.9
0.549                  -0.718097        -146.485         -53.3406         137.597         -53.3371         137.549       -0.0107269          147.83
0.55                   -0.735647        -147.032         -53.1824         135.615         -53.1792         135.571       -0.0108228          147.76
0.551                   -0.75353        -147.581          -53.025         133.631          -53.022          133.59       -0.0109195          147.69
0.552                  -0.771754        -148.133         -52.8683         131.645         -52.8656         131.607       -0.0110171          147.62
0.553                  -0.790326        -148.688         -52.7124         129.655         -52.7099         129.621       -0.0111156          147.55
0.554                  -0.809257        -149.246         -52.5571         127.663         -52.5549         127.632       -0.0112149         147.479
0.555                  -0.828554        -149.807         -52.4026         125.667         -52.4006         125.639       -0.0113153         147.409
0.556                  -0.848227         -150.37         -52.2487         123.668          -52.247         123.643       -0.0114166         147.338
0.557                  -0.868285        -150.937         -52.0955         121.665          -52.094         121.644        -0.011519         147.268
0.558                  -0.888738        -151.507          -51.943         119.659         -51.9417         119.641       -0.0116225         147.197
0.559                  -0.909596        -152.079         -51.7911         117.648           -51.79         117.633       -0.0117271         147.126
0.56                   -0.930869        -152.655         -51.6398         115.634         -51.6389         115.622        -0.011833         147.055
0.561                  -0.952568        -153.234         -51.4891         113.616         -51.4884         113.606       -0.0119402         146.983
0.562                  -0.974704        -153.816         -51.3391         111.593         -51.3385         111.586       -0.0120488         146.912
0.563                  -0.997286          -154.4         -51.1896         109.566         -51.1892         109.561       -0.0121587         146.841
0.564                   -1.02033        -154.988         -51.0407         107.534         -51.0405         107.532       -0.0122702         146.769
0.565                   -1.04384        -155.579         -50.8924         105.498         -50.8923         105.499       -0.0123833         146.697
0.566                   -1.06784        -156.174         -50.7446         103.457         -50.7447          103.46       -0.0124981         146.625
0.567                   -1.09233        -156.771         -50.5974         101.411         -50.5976         101.417       -0.0126146         146.553
0.568                   -1.11732        -157.371         -50.4508         99.3607         -50.4511         99.3683        -0.012733         146.481
0.569                   -1.14284        -157.975         -50.3047         97.3054         -50.3051         97.3151       -0.0128533         146.408
0.57                    -1.16889        -158.582         -50.1591         95.2453         -50.1596         95.2569       -0.0129757         146.336
0.571                   -1.19549        -159.192         -50.0141         93.1802         -50.0147         93.1937       -0.0131002         146.263
0.572                   -1.22265        -159.805         -49.8696         91.1101         -49.8703         91.1254       -0.0132271          146.19
0.573                   -1.25038        -160.421         -49.7257         89.0351         -49.7264         89.0521       -0.0133563         146.117
0.574                    -1.2787        -161.041         -49.5822         86.9552          -49.583         86.9737        -0.013488         146.044
0.575                   -1.30763        -161.663         -49.4394         84.8703         -49.4402         84.8902       -0.0136223         145.971
0.576                   -1.33717        -162.289          -49.297         82.7804         -49.2978         82.8018       -0.0137594         145.897
0.577                   -1.36735        -162.918         -49.1552         80.6857          -49.156         80.7082       -0.0138994         145.824
0.578                   -1.39817         -163.55         -49.0139          78.586         -49.0148         78.6097       -0.0140423          145.75
0.579                   -1.42966        -164.186         -48.8731         76.4815          -48.874         76.5063       -0.0141883         145.676
0.58                    -1.46183        -164.824         -48.7329         74.3722         -48.7338         74.3979       -0.0143375         145.602
0.581                   -1.49469        -165.465         -48.5931         72.2581         -48.5941         72.2847       -0.0144901         145.528
0.582                   -1.52827         -166.11          -48.454         70.1394         -48.4549         70.1667       -0.0146462         145.453
0.583                   -1.56258        -166.757         -48.3153          68.016         -48.3162         68.0439       -0.0148058         145.379
0.584                   -1.59763        -167.408         -48.1772          65.888         -48.1781         65.9166       -0.0149691         145.304
0.585                   -1.63344        -168.061         -48.0396         63.7556         -48.0405         63.7846       -0.0151362         145.229
0.586                   -1.67003        -168.718         -47.9026         61.6189         -47.9035         61.6482       -0.0153071         145.154
0.587                   -1.70742        -169.377         -47.7661         59.4778         -47.7669         59.5075        -0.015482         145.079
0.588                   -1.74562        -170.039         -47.6302         57.3326          -47.631         57.3624        -0.015661         145.003
0.589                   -1.78465        -170.704         -47.4948         55.1833         -47.4955         55.2132       -0.0158441         144.928
0.59                    -1.82452        -171.372         -47.3599         53.0301         -47.3606           53.06       -0.0160314         144.852
0.591                   -1.86526        -172.042         -47.2256          50.873         -47.2263         50.9029       -0.0162229         144.776
0.592                   -1.90688        -172.715         -47.0919         48.7122         -47.0925          48.742       -0.0164187           144.7
0.593                   -1.94939        -173.391         -46.9587         46.5479         -46.9593         46.5775       -0.0166188         144.624
0.594                   -1.99282        -174.069          -46.826         44.3801         -46.8266         44.4094       -0.0168232         144.547
0.595                   -2.03717        -174.749         -46.6939          42.209         -46.6944          42.238       -0.0170319          144.47
0.596                   -2.08248        -175.431         -46.5624         40.0348         -46.5629         40.0634        -0.017245         144.394
0.597                   -2.12874        -176.116         -46.4314         37.8576         -46.4318         37.8857       -0.0174624         144.317
0.598                   -2.17598        -176.803          -46.301         35.6775         -46.3014         35.7051       -0.0176841         144.239
0.599                   -2.22421        -177.492         -46.1712         33.4947         -46.1715         33.5217         -0.01791         144.162
0.6                     -2.27345        -178.183         -46.0419         31.3093         -46.0421         31.3357       -0.0181401         144.084
0.601                   -2.32371        -178.875         -45.9131         29.1216         -45.9133         29.1473       -0.0183744         144.007
0.602                     -2.375        -179.569         -45.7849         26.9316         -45.7851         26.9566       -0.0186128         143.929
0.603                   -2.42734         179.735         -45.6572         24.7395         -45.6574         24.7638       -0.0188552         143.851
0.604                   -2.48073         179.038         -45.5301         22.5455         -45.5302          22.569       -0.0191015         143.772
0.605                   -2.53519         178.339         -45.4035         20.3497         -45.4036         20.3724       -0.0193517         143.694
0.606                   -2.59074          177.64         -45.2775         18.1523         -45.2775         18.1742       -0.0196057         143.615
0.607                   -2.64737         176.939          -45.152         15.9535          -45.152         15.9745       -0.0198635         143.536
0.608                    -2.7051         176.238          -45.027         13.7534         -45.0269         13.7735       -0.0201249         143.457
0.609                   -2.76393         175.535         -44.9025         11.5521         -44.9024         11.5714       -0.0203898         143.378
0.61                    -2.82387         174.832         -44.7785         9.34985         -44.7784         9.36818       -0.0206583         143.298
0.611                   -2.88493         174.129         -44.6551         7.14674         -44.6549         7.16415       -0.0209302         143.218
0.612                   -2.94712         173.425         -44.5321         4.94293         -44.5319         4.95942       -0.0212055         143.138
0.613                   -3.01042         172.722         -44.4096         2.73856         -44.4094         2.75412       -0.0214841         143.058
0.614                   -3.07485         172.018         -44.2876        0.533769         -44.2874        0.548409        -0.021766         142.978
0.615                    -3.1404         171.314          -44.166        -1.67131         -44.1658        -1.65759       -0.0220511         142.897
0.616                   -3.20708         170.611         -44.0449        -3.87655         -44.0447        -3.86375       -0.0223395         142.816
0.617                   -3.27488         169.907         -43.9242        -6.08183          -43.924        -6.06993        -0.022631         142.735
0.618                   -3.34379         169.205          -43.804        -8.28703         -43.8037        -8.27602       -0.0229258         142.654
0.619                   -3.41383         168.503         -43.6841         -10.492         -43.6839        -10.4819       -0.0232237         142.572
0.62                    -3.48496         167.802         -43.5647        -12.6968         -43.5645        -12.6875       -0.0235248         142.491
0.621                    -3.5572         167.102         -43.4456        -14.9011         -43.4454        -14.8926       -0.0238292         142.409
0.622                   -3.63053         166.403          -43.327        -17.1049         -43.3267        -17.0973       -0.0241368         142.326
0.623                   -3.70495         165.705         -43.2086        -19.3081         -43.2084        -19.3013       -0.0244478         142.244
0.624                   -3.78043         165.008         -43.0907        -21.5107         -43.0904        -21.5047       -0.0247621         142.161
0.625                   -3.85698         164.313          -42.973        -23.7126         -42.9728        -23.7073       -0.0250799         142.078
0.626                   -3.93457         163.619         -42.8556        -25.9137         -42.8555        -25.9091       -0.0254012         141.995
0.627                    -4.0132         162.926         -42.7386        -28.1139         -42.7384          -28.11       -0.0257262         141.911
0.628                   -4.09284         162.235         -42.6218        -30.3132         -42.6217          -30.31       -0.0260548         141.827
0.629                    -4.1735         161.546         -42.5053        -32.5116         -42.5052         -32.509       -0.0263873         141.743
