! TOUCHSTONE file generated by CST MICROWAVE STUDIO
! Date and time: Fri Oct  2 19:10:29 2020
! Project name: Scenario_1_Free_Space_out_of_line.cst
! Parameters = {Lambda=346.42; Step_1=17.321; dy1=70.184; dx1=866; L_HA=400; MT=2.54; Rad_Dielectric=30; Rad_Lower=7.3; Rad_Upper=30; a_HA=580; a_WG=246; b_HA=500; b_WG=121; c_HA=0; c_WG=187; d_feed=85; h_feed=15; h_lower=18; h_upper=40}
! Header version: 2018
! Port assignment regex: !\s*Touchstone port\s*([0-9]+)\s*=\s*(CST MWS port|CST DS port)\s*([0-9]+|Zmin|Zmax)\s*\(\"(.*)\"\)(\s*mode\s*([0-9]+))?.*
! Touchstone port assignment:
! Touchstone port 1 = CST MWS port 1 ("")
! Touchstone port 2 = CST MWS port 2 ("")
# GHz S DB R 50
0.5                    -0.147564         -122.28         -63.2392         143.016         -63.2392         143.016      -0.00655869         151.138
0.501                  -0.152241        -122.739         -63.0912         141.065         -63.0908          141.07      -0.00662486         151.073
0.502                  -0.157209        -123.199         -62.9407         139.102         -62.9399         139.111        -0.006692         151.007
0.503                  -0.162469        -123.662         -62.7877         137.125         -62.7866         137.139      -0.00676013         150.942
0.504                  -0.168023        -124.125         -62.6322         135.137         -62.6308         135.155      -0.00682923         150.876
0.505                  -0.173871        -124.591         -62.4743         133.135         -62.4726         133.158       -0.0068993         150.811
0.506                  -0.180015        -125.058         -62.3141         131.121         -62.3121         131.148      -0.00697034         150.745
0.507                  -0.186456        -125.526         -62.1516         129.095         -62.1493         129.126      -0.00704235         150.679
0.508                  -0.193195        -125.996         -61.9867         127.057         -61.9842         127.091      -0.00711533         150.613
0.509                  -0.200234        -126.468         -61.8197         125.006         -61.8169         125.044      -0.00718927         150.547
0.51                   -0.207572        -126.941         -61.6505         122.943         -61.6475         122.984      -0.00726418         150.481
0.511                  -0.215212        -127.416         -61.4792         120.868          -61.476         120.912      -0.00734004         150.415
0.512                  -0.223155        -127.892         -61.3059         118.781         -61.3024         118.828      -0.00741687         150.349
0.513                    -0.2314         -128.37         -61.1306         116.682          -61.127         116.731      -0.00749465         150.283
0.514                  -0.239949        -128.849         -60.9534          114.57         -60.9496         114.622      -0.00757338         150.217
0.515                  -0.248803         -129.33         -60.7744         112.447         -60.7704         112.501      -0.00765307          150.15
0.516                  -0.257962        -129.813         -60.5937         110.311         -60.5895         110.368      -0.00773371         150.084
0.517                  -0.267427        -130.297         -60.4113         108.163         -60.4069         108.222      -0.00781529         150.017
0.518                  -0.277199        -130.782         -60.2273         106.004         -60.2228         106.064      -0.00789783         149.951
0.519                  -0.287278        -131.269         -60.0418         103.832         -60.0372         103.894      -0.00798131         149.884
0.52                   -0.297665        -131.757         -59.8549         101.648         -59.8502         101.712      -0.00806574         149.817
0.521                  -0.308361        -132.247         -59.6667         99.4519         -59.6618         99.5169      -0.00815111          149.75
0.522                  -0.319365        -132.738         -59.4772         97.2438         -59.4723         97.3098      -0.00823742         149.683
0.523                  -0.330678        -133.231         -59.2867         95.0235         -59.2817         95.0903      -0.00832467         149.616
0.524                  -0.342301        -133.726         -59.0951          92.791           -59.09         92.8586      -0.00841287         149.549
0.525                  -0.354233        -134.221         -58.9026         90.5464         -58.8975         90.6145        -0.008502         149.482
0.526                  -0.366476        -134.719         -58.7093         88.2897         -58.7041         88.3581      -0.00859207         149.415
0.527                  -0.379028        -135.218         -58.5154         86.0209         -58.5101         86.0893      -0.00868307         149.347
0.528                  -0.391892        -135.718         -58.3208         83.7399         -58.3154         83.8083      -0.00877501          149.28
0.529                  -0.405065         -136.22         -58.1257         81.4469         -58.1203         81.5151      -0.00886788         149.212
0.53                    -0.41855        -136.723         -57.9302         79.1418         -57.9248         79.2096      -0.00896169         149.145
0.531                  -0.432345        -137.228         -57.7345         76.8248         -57.7291         76.8921      -0.00905643         149.077
0.532                  -0.446451        -137.734         -57.5387         74.4958         -57.5332         74.5624       -0.0091521         149.009
0.533                  -0.460868        -138.242         -57.3428         72.1551         -57.3373         72.2208       -0.0092487         148.941
0.534                  -0.475596        -138.751          -57.147         69.8026         -57.1415         69.8674      -0.00934624         148.873
0.535                  -0.490635        -139.262         -56.9514         67.4386         -56.9459         67.5023       -0.0094447         148.805
0.536                  -0.505984        -139.774         -56.7561         65.0632         -56.7506         65.1256       -0.0095441         148.737
0.537                  -0.521644        -140.288         -56.5612         62.6765         -56.5558         62.7376      -0.00964442         148.669
0.538                  -0.537615        -140.803         -56.3669         60.2788         -56.3615         60.3384      -0.00974567           148.6
0.539                  -0.553896         -141.32         -56.1732         57.8703         -56.1678         57.9284      -0.00984786         148.532
0.54                   -0.570487        -141.839         -55.9803         55.4513          -55.975         55.5077      -0.00995097         148.463
0.541                  -0.587389        -142.359         -55.7883         53.0219          -55.783         53.0766        -0.010055         148.395
0.542                  -0.604601         -142.88         -55.5972         50.5827         -55.5919         50.6354         -0.01016         148.326
0.543                  -0.622123        -143.404         -55.4072         48.1337          -55.402         48.1846       -0.0102659         148.257
0.544                  -0.639955        -143.928         -55.2183         45.6755         -55.2133         45.7245       -0.0103727         148.188
0.545                  -0.658097        -144.455         -55.0308         43.2085         -55.0258         43.2554       -0.0104805         148.119
0.546                  -0.676549        -144.983         -54.8446         40.7329         -54.8397         40.7778       -0.0105892          148.05
0.547                  -0.695311        -145.513         -54.6598         38.2493          -54.655         38.2922       -0.0106988          147.98
0.548                  -0.714383        -146.044         -54.4766         35.7582         -54.4719         35.7989       -0.0108094         147.911
0.549                  -0.733765        -146.577         -54.2949           33.26         -54.2904         33.2986       -0.0109209         147.841
0.55                   -0.753458        -147.112          -54.115         30.7552         -54.1105         30.7917       -0.0110334         147.772
0.551                  -0.773461        -147.649         -53.9367         28.2444         -53.9324         28.2788       -0.0111468         147.702
0.552                  -0.793775        -148.187         -53.7603         25.7281         -53.7561         25.7603       -0.0112611         147.632
0.553                    -0.8144        -148.727         -53.5857         23.2069         -53.5817          23.237       -0.0113764         147.562
0.554                  -0.835337        -149.269          -53.413         20.6813         -53.4092         20.7093       -0.0114927         147.492
0.555                  -0.856586        -149.813         -53.2422         18.1519         -53.2386         18.1779       -0.0116099         147.422
0.556                  -0.878149        -150.358         -53.0734         15.6192         -53.0699         15.6433       -0.0117281         147.352
0.557                  -0.900025        -150.906         -52.9066          13.084         -52.9033         13.1061       -0.0118472         147.281
0.558                  -0.922216        -151.456         -52.7418         10.5468         -52.7386          10.567       -0.0119673         147.211
0.559                  -0.944724        -152.007         -52.5789         8.00806          -52.576         8.02645       -0.0120884          147.14
0.56                   -0.967548        -152.561         -52.4181         5.46849         -52.4154         5.48511       -0.0122104         147.069
0.561                  -0.990692        -153.117         -52.2593         2.92863         -52.2567         2.94355       -0.0123335         146.998
0.562                   -1.01416        -153.674         -52.1025        0.389016         -52.1001        0.402313       -0.0124576         146.927
0.563                   -1.03794        -154.234         -51.9477        -2.14979         -51.9455        -2.13805       -0.0125826         146.856
0.564                   -1.06206        -154.797         -51.7949        -4.68728         -51.7928        -4.67701       -0.0127087         146.785
0.565                    -1.0865        -155.361         -51.6439        -7.22295         -51.6421        -7.21407       -0.0128358         146.713
0.566                   -1.11126        -155.928         -51.4949        -9.75631         -51.4932        -9.74874        -0.012964         146.642
0.567                   -1.13637        -156.497         -51.3477        -12.2869         -51.3462        -12.2806       -0.0130932          146.57
0.568                   -1.16181        -157.068         -51.2023        -14.8143          -51.201        -14.8091       -0.0132235         146.498
0.569                   -1.18759        -157.642         -51.0587        -17.3382         -51.0576         -17.334       -0.0133548         146.426
0.57                    -1.21371        -158.219         -50.9168         -19.858         -50.9159        -19.8549       -0.0134873         146.354
0.571                   -1.24019        -158.798         -50.7765        -22.3736         -50.7758        -22.3714       -0.0136209         146.282
0.572                   -1.26701         -159.38         -50.6379        -24.8847         -50.6372        -24.8832       -0.0137556          146.21
0.573                    -1.2942        -159.964         -50.5007        -27.3908         -50.5002        -27.3901       -0.0138916         146.137
0.574                   -1.32176        -160.551          -50.365        -29.8919         -50.3647        -29.8919       -0.0140286         146.064
0.575                   -1.34968        -161.142         -50.2307        -32.3876         -50.2305        -32.3882        -0.014167         145.992
0.576                   -1.37799        -161.735         -50.0977        -34.8779         -50.0977         -34.879       -0.0143065         145.919
0.577                   -1.40668        -162.331          -49.966        -37.3626         -49.9661        -37.3641       -0.0144474         145.846
0.578                   -1.43577         -162.93         -49.8355        -39.8415         -49.8356        -39.8435       -0.0145896         145.772
0.579                   -1.46527        -163.532          -49.706        -42.3147         -49.7063         -42.317       -0.0147331         145.699
0.58                    -1.49518        -164.138         -49.5776        -44.7821          -49.578        -44.7846        -0.014878         145.625
0.581                   -1.52552        -164.747         -49.4502        -47.2436         -49.4507        -47.2464       -0.0150244         145.552
0.582                   -1.55629        -165.359         -49.3237        -49.6993         -49.3243        -49.7022       -0.0151722         145.478
0.583                   -1.58751        -165.975         -49.1981        -52.1492         -49.1987        -52.1523       -0.0153217         145.404
0.584                    -1.6192        -166.594         -49.0732        -54.5935         -49.0739        -54.5966       -0.0154727          145.33
0.585                   -1.65136        -167.217          -48.949        -57.0321         -48.9497        -57.0353       -0.0156254         145.255
0.586                   -1.68401        -167.844         -48.8254        -59.4653         -48.8262        -59.4685       -0.0157798         145.181
0.587                   -1.71718        -168.474         -48.7025        -61.8931         -48.7033        -61.8963        -0.015936         145.106
0.588                   -1.75087        -169.108           -48.58        -64.3158         -48.5809        -64.3189       -0.0160941         145.031
0.589                   -1.78511        -169.747         -48.4581        -66.7334          -48.459        -66.7365       -0.0162542         144.956
0.59                    -1.81991        -170.389         -48.3366        -69.1463         -48.3375        -69.1492       -0.0164164         144.881
0.591                    -1.8553        -171.036         -48.2154        -71.5546         -48.2164        -71.5574       -0.0165807         144.806
0.592                   -1.89129        -171.687         -48.0946        -73.9585         -48.0955        -73.9612       -0.0167472          144.73
0.593                   -1.92792        -172.342         -47.9741        -76.3584          -47.975        -76.3609       -0.0169161         144.654
0.594                   -1.96521        -173.002         -47.8538        -78.7543         -47.8547        -78.7567       -0.0170874         144.578
0.595                   -2.00319        -173.666         -47.7337        -81.1467         -47.7346        -81.1488       -0.0172614         144.502
0.596                   -2.04188        -174.335         -47.6138        -83.5356         -47.6147        -83.5376        -0.017438         144.426
0.597                   -2.08131        -175.008          -47.494        -85.9216         -47.4949        -85.9234       -0.0176174          144.35
0.598                   -2.12152        -175.686         -47.3743        -88.3047         -47.3752        -88.3063       -0.0177998         144.273
0.599                   -2.16254        -176.369         -47.2548        -90.6852         -47.2556        -90.6867       -0.0179853         144.196
0.6                      -2.2044        -177.056         -47.1353        -93.0635         -47.1361        -93.0648        -0.018174         144.119
0.601                   -2.24715        -177.749         -47.0158        -95.4399         -47.0166        -95.4409        -0.018366         144.042
0.602                   -2.29081        -178.446         -46.8964        -97.8145         -46.8971        -97.8154       -0.0185616         143.964
0.603                   -2.33543        -179.148         -46.7771        -100.188         -46.7777        -100.188       -0.0187608         143.887
0.604                   -2.38105        -179.855         -46.6577         -102.56         -46.6583         -102.56       -0.0189637         143.809
0.605                   -2.42771         179.433         -46.5383        -104.931         -46.5389        -104.931       -0.0191706         143.731
0.606                   -2.47546         178.717          -46.419        -107.301         -46.4195        -107.301       -0.0193815         143.652
0.607                   -2.52434         177.995         -46.2997        -109.671         -46.3001        -109.671       -0.0195967         143.574
0.608                   -2.57441         177.269         -46.1803        -112.041         -46.1807        -112.041       -0.0198161         143.495
0.609                    -2.6257         176.538          -46.061        -114.411         -46.0613        -114.411         -0.02004         143.416
0.61                    -2.67827         175.803         -45.9417        -116.781          -45.942        -116.781       -0.0202684         143.337
0.611                   -2.73217         175.063         -45.8224        -119.152         -45.8226        -119.151       -0.0205015         143.258
0.612                   -2.78745         174.318         -45.7032        -121.523         -45.7033        -121.523       -0.0207393         143.179
0.613                   -2.84416          173.57          -45.584        -123.895         -45.5841        -123.895        -0.020982         143.099
0.614                   -2.90235         172.817         -45.4648        -126.268         -45.4649        -126.268       -0.0212296         143.019
0.615                   -2.96208         172.061         -45.3458        -128.643         -45.3458        -128.642       -0.0214822         142.939
0.616                    -3.0234           171.3         -45.2268        -131.018         -45.2268        -131.018       -0.0217397         142.858
0.617                   -3.08636         170.537          -45.108        -133.396         -45.1079        -133.395       -0.0220024         142.778
0.618                     -3.151          169.77         -44.9893        -135.774         -44.9891        -135.774       -0.0222701         142.697
0.619                   -3.21739         169.001         -44.8707        -138.155         -44.8705        -138.154       -0.0225429         142.616
0.62                    -3.28556         168.229         -44.7523        -140.537         -44.7521        -140.536       -0.0228208         142.534
0.621                   -3.35556         167.455         -44.6342        -142.921         -44.6339         -142.92       -0.0231038         142.453
0.622                   -3.42743         166.679         -44.5162        -145.307         -44.5159        -145.306       -0.0233918         142.371
0.623                   -3.50121         165.902         -44.3985        -147.695         -44.3981        -147.694       -0.0236849         142.289
0.624                   -3.57695         165.124         -44.2811        -150.084         -44.2806        -150.084        -0.023983         142.207
0.625                   -3.65467         164.345         -44.1639        -152.476         -44.1635        -152.475        -0.024286         142.124
0.626                    -3.7344         163.567         -44.0471        -154.869         -44.0466        -154.869        -0.024594         142.041
0.627                   -3.81616         162.789         -43.9306        -157.265         -43.9301        -157.264       -0.0249068         141.958
0.628                   -3.89998         162.012         -43.8144        -159.662         -43.8139        -159.662       -0.0252245         141.875
0.629                   -3.98587         161.237         -43.6986        -162.061         -43.6981        -162.061        -0.025547         141.791
