! TOUCHSTONE file generated by CST MICROWAVE STUDIO
! Date and time: Fri Oct  2 18:56:54 2020
! Project name: Scenario_1_Free_Space_out_of_line.cst
! Parameters = {Lambda=346.42; Step_1=17.321; dy1=70.184; dx1=1039; L_HA=400; MT=2.54; Rad_Dielectric=30; Rad_Lower=7.3; Rad_Upper=30; a_HA=580; a_WG=246; b_HA=500; b_WG=121; c_HA=0; c_WG=187; d_feed=85; h_feed=15; h_lower=18; h_upper=40}
! Header version: 2018
! Port assignment regex: !\s*Touchstone port\s*([0-9]+)\s*=\s*(CST MWS port|CST DS port)\s*([0-9]+|Zmin|Zmax)\s*\(\"(.*)\"\)(\s*mode\s*([0-9]+))?.*
! Touchstone port assignment:
! Touchstone port 1 = CST MWS port 1 ("")
! Touchstone port 2 = CST MWS port 2 ("")
# GHz S DB R 50
0.5                    -0.147795        -122.525         -63.6522         46.1301         -63.6522         46.1301      -0.00672674         151.121
0.501                  -0.155487         -122.98         -63.5403         43.6309         -63.5393         43.6339      -0.00680833         151.056
0.502                  -0.163405        -123.436         -63.4235         41.1217         -63.4215         41.1278      -0.00688991         150.991
0.503                  -0.171551        -123.894         -63.3019         38.6037          -63.299         38.6128      -0.00697144         150.925
0.504                  -0.179923        -124.352         -63.1754         36.0778         -63.1717         36.0901      -0.00705285          150.86
0.505                  -0.188523        -124.812         -63.0443         33.5452         -63.0398         33.5606      -0.00713407         150.794
0.506                  -0.197348        -125.273         -62.9085         31.0068         -62.9034         31.0253      -0.00721505         150.729
0.507                    -0.2064        -125.736         -62.7683         28.4636         -62.7625         28.4851      -0.00729572         150.663
0.508                  -0.215676        -126.199         -62.6236         25.9164         -62.6172         25.9408      -0.00737601         150.597
0.509                  -0.225176        -126.664         -62.4747          23.366         -62.4678         23.3933      -0.00745585         150.531
0.51                   -0.234899         -127.13         -62.3217         20.8132         -62.3143         20.8432      -0.00753519         150.465
0.511                  -0.244843        -127.596         -62.1646         18.2587         -62.1569         18.2913      -0.00761395         150.399
0.512                  -0.255006        -128.064         -62.0038         15.7031         -61.9956         15.7382      -0.00769206         150.333
0.513                  -0.265386        -128.533         -61.8392         13.1469         -61.8308         13.1843      -0.00776948         150.267
0.514                   -0.27598        -129.004         -61.6711         10.5907         -61.6625         10.6302      -0.00784613         150.201
0.515                  -0.286786        -129.475         -61.4997          8.0348         -61.4908          8.0763      -0.00792197         150.134
0.516                  -0.297799        -129.947         -61.3251         5.47958         -61.3161         5.52284      -0.00799694         150.068
0.517                  -0.309017        -130.421         -61.1474         2.92531         -61.1383         2.97013        -0.008071         150.002
0.518                  -0.320434        -130.895         -60.9669        0.372199         -60.9578        0.418373      -0.00814413         149.935
0.519                  -0.332046         -131.37         -60.7838        -2.17961         -60.7746        -2.13228      -0.00821629         149.868
0.52                   -0.343847        -131.847         -60.5982        -4.73004          -60.589        -4.68176      -0.00828748         149.802
0.521                   -0.35583        -132.324         -60.4102        -7.27905          -60.401        -7.23002       -0.0083577         149.735
0.522                   -0.36799        -132.803         -60.2201        -9.82666          -60.211        -9.77709      -0.00842697         149.668
0.523                  -0.380318        -133.283         -60.0281        -12.3729          -60.019         -12.323      -0.00849532         149.601
0.524                  -0.392807        -133.763         -59.8342         -14.918         -59.8253         -14.868       -0.0085628         149.534
0.525                  -0.405445        -134.245         -59.6387         -17.462         -59.6299         -17.412      -0.00862948         149.466
0.526                  -0.418225        -134.728         -59.4417        -20.0052         -59.4331        -19.9554      -0.00869544         149.399
0.527                  -0.431134        -135.211         -59.2434        -22.5477          -59.235        -22.4983      -0.00876081         149.332
0.528                  -0.444161        -135.696          -59.044        -25.0898         -59.0358         -25.041       -0.0088257         149.264
0.529                  -0.457292        -136.183         -58.8436        -27.6318         -58.8356        -27.5838      -0.00889026         149.197
0.53                   -0.470515         -136.67         -58.6423         -30.174         -58.6345        -30.1268      -0.00895467         149.129
0.531                  -0.483814        -137.159         -58.4404        -32.7167         -58.4328        -32.6705      -0.00901911         149.061
0.532                  -0.497175        -137.649         -58.2379        -35.2601         -58.2306        -35.2151      -0.00908379         148.993
0.533                  -0.510581         -138.14          -58.035        -37.8047         -58.0279         -37.761      -0.00914892         148.925
0.534                  -0.524016        -138.633         -57.8319        -40.3508          -57.825        -40.3084      -0.00921473         148.857
0.535                  -0.537465        -139.128         -57.6286        -42.8986          -57.622        -42.8578      -0.00928147         148.788
0.536                  -0.550911        -139.624         -57.4253        -45.4485          -57.419        -45.4093      -0.00934936          148.72
0.537                  -0.564339        -140.123         -57.2222        -48.0009         -57.2161        -47.9633      -0.00941867         148.651
0.538                  -0.577737        -140.624         -57.0193        -50.5561         -57.0135        -50.5202      -0.00948963         148.583
0.539                  -0.591093        -141.127         -56.8167        -53.1143         -56.8113        -53.0802      -0.00956249         148.514
0.54                   -0.604399        -141.633         -56.6147        -55.6759         -56.6095        -55.6436      -0.00963746         148.445
0.541                  -0.617654        -142.143         -56.4132        -58.2411         -56.4084        -58.2107      -0.00971477         148.376
0.542                  -0.630858        -142.655         -56.2125        -60.8102         -56.2079        -60.7816      -0.00979462         148.307
0.543                  -0.644021        -143.172         -56.0126        -63.3834         -56.0083        -63.3568      -0.00987718         148.238
0.544                  -0.657163        -143.693         -55.8135        -65.9609         -55.8095        -65.9362      -0.00996263         148.168
0.545                   -0.67031        -144.218         -55.6155         -68.543         -55.6118        -68.5202       -0.0100511         148.099
0.546                  -0.683501        -144.748         -55.4186        -71.1298         -55.4152        -71.1089       -0.0101427         148.029
0.547                  -0.696789        -145.284         -55.2229        -73.7214         -55.2198        -73.7024       -0.0102375          147.96
0.548                  -0.710236        -145.825         -55.0285         -76.318         -55.0256        -76.3009       -0.0103357          147.89
0.549                  -0.723919        -146.373         -54.8354        -78.9197         -54.8329        -78.9044       -0.0104372          147.82
0.55                   -0.737925        -146.927         -54.6438        -81.5265         -54.6415         -81.513        -0.010542          147.75
0.551                   -0.75235        -147.487         -54.4537        -84.1385         -54.4517        -84.1267       -0.0106502          147.68
0.552                    -0.7673        -148.054         -54.2651        -86.7556         -54.2634        -86.7455       -0.0107618         147.609
0.553                  -0.782881        -148.627         -54.0783        -89.3779         -54.0768        -89.3694       -0.0108767         147.539
0.554                  -0.799198        -149.207         -53.8931        -92.0053         -53.8918        -91.9984       -0.0109949         147.468
0.555                  -0.816353        -149.792         -53.7097        -94.6378         -53.7086        -94.6323       -0.0111164         147.398
0.556                  -0.834436        -150.383          -53.528        -97.2752         -53.5273        -97.2711       -0.0112409         147.327
0.557                  -0.853523        -150.978         -53.3483        -99.9174         -53.3478        -99.9147       -0.0113686         147.256
0.558                  -0.873671        -151.578         -53.1705        -102.564         -53.1701        -102.563       -0.0114992         147.185
0.559                  -0.894919        -152.181         -52.9945        -105.216         -52.9944        -105.216       -0.0116327         147.114
0.56                   -0.917285        -152.787         -52.8206        -107.871         -52.8207        -107.872        -0.011769         147.043
0.561                  -0.940766        -153.395         -52.6487        -110.531          -52.649        -110.533       -0.0119081         146.971
0.562                  -0.965342        -154.004         -52.4787        -113.195         -52.4792        -113.198       -0.0120497           146.9
0.563                  -0.990976        -154.614         -52.3108        -115.863         -52.3115        -115.866       -0.0121938         146.828
0.564                   -1.01762        -155.225          -52.145        -118.533         -52.1458        -118.538       -0.0123403         146.756
0.565                   -1.04521        -155.835         -51.9812        -121.207         -51.9822        -121.213       -0.0124892         146.685
0.566                   -1.07369        -156.445         -51.8194        -123.884         -51.8205         -123.89       -0.0126403         146.613
0.567                   -1.10299        -157.055         -51.6597        -126.564          -51.661         -126.57       -0.0127935         146.541
0.568                   -1.13304        -157.663          -51.502        -129.245         -51.5034        -129.252       -0.0129488         146.468
0.569                   -1.16377        -158.271         -51.3464        -131.929         -51.3479        -131.936       -0.0131061         146.396
0.57                    -1.19514        -158.878         -51.1927        -134.614         -51.1943        -134.622       -0.0132653         146.323
0.571                   -1.22708        -159.484         -51.0411        -137.301         -51.0427        -137.309       -0.0134263         146.251
0.572                   -1.25954        -160.089         -50.8914        -139.989         -50.8931        -139.997       -0.0135891         146.178
0.573                   -1.29248        -160.694         -50.7435        -142.678         -50.7453        -142.686       -0.0137537         146.105
0.574                   -1.32586        -161.298         -50.5976        -145.367         -50.5995        -145.375       -0.0139199         146.032
0.575                   -1.35965        -161.902         -50.4535        -148.056         -50.4554        -148.065       -0.0140878         145.959
0.576                   -1.39383        -162.505         -50.3113        -150.746         -50.3132        -150.754       -0.0142572         145.886
0.577                   -1.42837        -163.109         -50.1707        -153.435         -50.1727        -153.443       -0.0144283         145.812
0.578                   -1.46326        -163.714         -50.0319        -156.124         -50.0339        -156.132       -0.0146008         145.739
0.579                   -1.49849        -164.318         -49.8947        -158.812         -49.8967        -158.819       -0.0147748         145.665
0.58                    -1.53404        -164.924         -49.7592        -161.499         -49.7611        -161.506       -0.0149503         145.591
0.581                   -1.56992         -165.53         -49.6251        -164.185         -49.6271        -164.192       -0.0151273         145.517
0.582                   -1.60611        -166.138         -49.4926        -166.869         -49.4945        -166.876       -0.0153057         145.443
0.583                   -1.64263        -166.746         -49.3614        -169.552         -49.3633        -169.559       -0.0154855         145.368
0.584                   -1.67947        -167.356         -49.2317        -172.233         -49.2335         -172.24       -0.0156668         145.294
0.585                   -1.71663        -167.968         -49.1032        -174.913         -49.1049        -174.919       -0.0158495         145.219
0.586                   -1.75413        -168.581         -48.9759         -177.59         -48.9776        -177.596       -0.0160337         145.144
0.587                   -1.79197        -169.196         -48.8498         179.734         -48.8515         179.729       -0.0162193         145.069
0.588                   -1.83015        -169.813         -48.7249         177.061         -48.7265         177.056       -0.0164063         144.994
0.589                   -1.86868        -170.433         -48.6009          174.39         -48.6025         174.385       -0.0165949         144.919
0.59                    -1.90759        -171.054          -48.478         171.721         -48.4794         171.716       -0.0167849         144.843
0.591                   -1.94687        -171.678         -48.3559         169.054         -48.3573          169.05       -0.0169764         144.768
0.592                   -1.98653        -172.304         -48.2348         166.389         -48.2361         166.386       -0.0171695         144.692
0.593                    -2.0266        -172.933         -48.1144         163.727         -48.1156         163.724       -0.0173642         144.616
0.594                   -2.06708        -173.565         -47.9947         161.067         -47.9959         161.064       -0.0175606          144.54
0.595                   -2.10799        -174.199         -47.8757         158.409         -47.8768         158.407       -0.0177586         144.463
0.596                   -2.14934        -174.837         -47.7574         155.754         -47.7584         155.751       -0.0179583         144.387
0.597                   -2.19115        -175.477         -47.6396           153.1         -47.6405         153.098       -0.0181598          144.31
0.598                   -2.23343        -176.121         -47.5224         150.449         -47.5232         150.447       -0.0183631         144.233
0.599                    -2.2762        -176.768         -47.4056           147.8         -47.4063         147.798       -0.0185683         144.156
0.6                     -2.31947        -177.418         -47.2892         145.152         -47.2898         145.151       -0.0187755         144.078
0.601                   -2.36328        -178.072         -47.1732         142.506         -47.1738         142.505       -0.0189848         144.001
0.602                   -2.40763        -178.729         -47.0575         139.862          -47.058         139.861       -0.0191962         143.923
0.603                   -2.45254         -179.39         -46.9422          137.22         -46.9426         137.219       -0.0194098         143.845
0.604                   -2.49804         179.945          -46.827         134.579         -46.8274         134.578       -0.0196257         143.767
0.605                   -2.54415         179.276         -46.7121         131.939         -46.7124         131.939       -0.0198441         143.689
0.606                   -2.59089         178.603         -46.5974           129.3         -46.5976           129.3       -0.0200649          143.61
0.607                   -2.63828         177.926         -46.4829         126.663          -46.483         126.663       -0.0202885         143.531
0.608                   -2.68636         177.245         -46.3684         124.026         -46.3685         124.026       -0.0205148         143.452
0.609                   -2.73516          176.56         -46.2541          121.39         -46.2542          121.39       -0.0207441         143.373
0.61                    -2.78469          175.87         -46.1399         118.754         -46.1399         118.755       -0.0209764         143.294
0.611                   -2.83498         175.176         -46.0257         116.119         -46.0257          116.12       -0.0212119         143.214
0.612                   -2.88608         174.477         -45.9116         113.484         -45.9115         113.485       -0.0214508         143.134
0.613                   -2.93802         173.773         -45.7976          110.85         -45.7974          110.85       -0.0216932         143.054
0.614                   -2.99083         173.065         -45.6835         108.215         -45.6834         108.216       -0.0219393         142.974
0.615                   -3.04454         172.352         -45.5695          105.58         -45.5693         105.581       -0.0221894         142.893
0.616                    -3.0992         171.634         -45.4555         102.945         -45.4553         102.946       -0.0224435         142.812
0.617                   -3.15486          170.91         -45.3415          100.31         -45.3413          100.31       -0.0227019         142.731
0.618                   -3.21154         170.182         -45.2275         97.6735         -45.2273         97.6743       -0.0229648          142.65
0.619                   -3.26931         169.448         -45.1135         95.0367         -45.1133         95.0375       -0.0232324         142.568
0.62                    -3.32821          168.71         -44.9996          92.399         -44.9994         92.3998        -0.023505         142.486
0.621                   -3.38828         167.966         -44.8857         89.7604         -44.8855         89.7612       -0.0237826         142.404
0.622                   -3.44959         167.216         -44.7718         87.1208         -44.7716         87.1216       -0.0240657         142.322
0.623                   -3.51219         166.461         -44.6579           84.48         -44.6578         84.4809       -0.0243542         142.239
0.624                   -3.57615         165.701         -44.5442          81.838          -44.544         81.8389       -0.0246486         142.156
0.625                   -3.64152         164.935         -44.4305         79.1947         -44.4303         79.1956        -0.024949         142.073
0.626                   -3.70836         164.164         -44.3168           76.55         -44.3167         76.5509       -0.0252556          141.99
0.627                   -3.77676         163.388         -44.2033         73.9038         -44.2032         73.9047       -0.0255686         141.906
0.628                   -3.84677         162.606         -44.0899         71.2561         -44.0899         71.2571       -0.0258882         141.822
0.629                   -3.91848          161.82         -43.9767         68.6069         -43.9767         68.6079       -0.0262147         141.738
