! TOUCHSTONE file generated by CST MICROWAVE STUDIO
! Date and time: Fri Oct  2 18:39:40 2020
! Project name: Scenario_1_Free_Space_out_of_line.cst
! Parameters = {Lambda=346.42; Step_1=17.321; dy1=52.843; dx1=173; L_HA=400; MT=2.54; Rad_Dielectric=30; Rad_Lower=7.3; Rad_Upper=30; a_HA=580; a_WG=246; b_HA=500; b_WG=121; c_HA=0; c_WG=187; d_feed=85; h_feed=15; h_lower=18; h_upper=40}
! Header version: 2018
! Port assignment regex: !\s*Touchstone port\s*([0-9]+)\s*=\s*(CST MWS port|CST DS port)\s*([0-9]+|Zmin|Zmax)\s*\(\"(.*)\"\)(\s*mode\s*([0-9]+))?.*
! Touchstone port assignment:
! Touchstone port 1 = CST MWS port 1 ("")
! Touchstone port 2 = CST MWS port 2 ("")
# GHz S DB R 50
0.5                    -0.158535        -122.667         -56.3756         166.596         -56.3756         166.596      -0.00681257         151.078
0.501                  -0.160401        -123.098         -56.1437         164.753         -56.1426         164.765      -0.00683423         151.012
0.502                  -0.162523        -123.532         -55.9145         162.954         -55.9125         162.976      -0.00685714         150.947
0.503                  -0.164906        -123.969          -55.688         161.194         -55.6852         161.226      -0.00688131         150.881
0.504                  -0.167555        -124.407         -55.4643         159.473         -55.4608         159.514      -0.00690674         150.815
0.505                  -0.170474        -124.849         -55.2434         157.786         -55.2393         157.835      -0.00693345          150.75
0.506                  -0.173669        -125.293         -55.0253         156.131         -55.0208         156.188      -0.00696144         150.684
0.507                  -0.177146        -125.739         -54.8101         154.507         -54.8052         154.571      -0.00699073         150.618
0.508                  -0.180909        -126.188         -54.5978         152.911         -54.5926         152.981      -0.00702131         150.552
0.509                  -0.184964        -126.639         -54.3883         151.341         -54.3829         151.416      -0.00705321         150.486
0.51                   -0.189316        -127.092         -54.1817         149.795          -54.176         149.875      -0.00708643         150.419
0.511                  -0.193971        -127.549         -53.9778         148.272          -53.972         148.356      -0.00712098         150.353
0.512                  -0.198935        -128.007         -53.7767          146.77         -53.7707         146.857      -0.00715688         150.287
0.513                  -0.204212        -128.468         -53.5782         145.287         -53.5722         145.377      -0.00719412          150.22
0.514                  -0.209809        -128.932         -53.3824         143.822         -53.3764         143.915      -0.00723273         150.154
0.515                  -0.215731        -129.398         -53.1892         142.373         -53.1832         142.468       -0.0072727         150.087
0.516                  -0.221983        -129.866         -52.9985          140.94         -52.9925         141.037      -0.00731407         150.021
0.517                  -0.228573        -130.337         -52.8103         139.521         -52.8044         139.619      -0.00735682         149.954
0.518                  -0.235504        -130.811         -52.6245         138.116         -52.6187         138.214      -0.00740098         149.887
0.519                  -0.242784        -131.287         -52.4411         136.722         -52.4353          136.82      -0.00744656          149.82
0.52                   -0.250418        -131.765         -52.2599         135.339         -52.2543         135.437      -0.00749357         149.753
0.521                  -0.258411        -132.246          -52.081         133.966         -52.0755         134.064      -0.00754201         149.686
0.522                  -0.266771        -132.729         -51.9043         132.603         -51.8989           132.7      -0.00759191         149.619
0.523                  -0.275503        -133.215         -51.7297         131.248         -51.7245         131.344      -0.00764328         149.551
0.524                  -0.284612        -133.703         -51.5571         129.901         -51.5521         129.996      -0.00769612         149.484
0.525                  -0.294106        -134.194         -51.3865         128.561         -51.3817         128.654      -0.00775044         149.416
0.526                  -0.303989        -134.687         -51.2178         127.228         -51.2132         127.318      -0.00780627         149.349
0.527                  -0.314269        -135.182         -51.0511           125.9         -51.0466         125.988      -0.00786362         149.281
0.528                   -0.32495         -135.68         -50.8861         124.577         -50.8818         124.663      -0.00792249         149.213
0.529                  -0.336041        -136.181         -50.7229         123.259         -50.7188         123.342      -0.00798291         149.146
0.53                   -0.347546        -136.683         -50.5614         121.945         -50.5575         122.025      -0.00804488         149.078
0.531                  -0.359471        -137.188         -50.4015         120.634         -50.3978         120.711      -0.00810842          149.01
0.532                  -0.371824        -137.696         -50.2433         119.326         -50.2398           119.4      -0.00817355         148.941
0.533                   -0.38461        -138.206         -50.0865         118.021         -50.0833         118.092      -0.00824027         148.873
0.534                  -0.397835        -138.718         -49.9313         116.718         -49.9282         116.785      -0.00830861         148.805
0.535                  -0.411506        -139.232         -49.7775         115.417         -49.7746          115.48      -0.00837857         148.736
0.536                  -0.425629        -139.749         -49.6251         114.117         -49.6224         114.177      -0.00845018         148.668
0.537                   -0.44021        -140.268          -49.474         112.819         -49.4716         112.874      -0.00852345         148.599
0.538                  -0.455256         -140.79         -49.3242          111.52          -49.322         111.572      -0.00859839          148.53
0.539                  -0.470772        -141.313         -49.1756         110.223         -49.1737         110.269      -0.00867503         148.461
0.54                   -0.486766        -141.839         -49.0283         108.925         -49.0265         108.967      -0.00875337         148.392
0.541                  -0.503242        -142.367         -48.8821         107.626         -48.8805         107.664      -0.00883344         148.323
0.542                  -0.520208        -142.898          -48.737         106.328         -48.7356         106.361      -0.00891524         148.254
0.543                   -0.53767        -143.431          -48.593         105.028         -48.5918         105.057      -0.00899881         148.185
0.544                  -0.555633        -143.965           -48.45         103.727          -48.449         103.751      -0.00908416         148.115
0.545                  -0.574104        -144.502         -48.3079         102.425         -48.3072         102.444       -0.0091713         148.046
0.546                   -0.59309        -145.041         -48.1668         101.121         -48.1663         101.135      -0.00926026         147.976
0.547                  -0.612596        -145.583         -48.0266         99.8146         -48.0263         99.8245      -0.00935104         147.907
0.548                  -0.632628        -146.126         -47.8873         98.5067         -47.8871         98.5116      -0.00944368         147.837
0.549                  -0.653192        -146.671         -47.7488         97.1964         -47.7488         97.1964      -0.00953819         147.767
0.55                   -0.674295        -147.219         -47.6111         95.8836         -47.6112         95.8786      -0.00963459         147.697
0.551                  -0.695943        -147.768         -47.4741         94.5681         -47.4744         94.5582      -0.00973291         147.626
0.552                  -0.718141         -148.32         -47.3378         93.2497         -47.3383         93.2348      -0.00983315         147.556
0.553                  -0.740895        -148.873         -47.2022         91.9283         -47.2029         91.9083      -0.00993535         147.486
0.554                  -0.764211        -149.429         -47.0672         90.6036         -47.0681         90.5787       -0.0100395         147.415
0.555                  -0.788096        -149.986         -46.9329         89.2756         -46.9339         89.2456       -0.0101457         147.344
0.556                  -0.812554        -150.545         -46.7991          87.944         -46.8003         87.9091       -0.0102539         147.274
0.557                  -0.837591        -151.106         -46.6658         86.6088         -46.6672         86.5688       -0.0103641         147.203
0.558                  -0.863214        -151.669         -46.5331         85.2697         -46.5346         85.2248       -0.0104764         147.132
0.559                  -0.889427        -152.234         -46.4008         83.9267         -46.4025         83.8768       -0.0105908          147.06
0.56                   -0.916236          -152.8          -46.269         82.5796         -46.2708         82.5248       -0.0107073         146.989
0.561                  -0.943647        -153.368         -46.1376         81.2284         -46.1396         81.1687       -0.0108259         146.918
0.562                  -0.971665        -153.938         -46.0065         79.8728         -46.0087         79.8083       -0.0109467         146.846
0.563                    -1.0003        -154.509         -45.8759         78.5129         -45.8782         78.4435       -0.0110697         146.774
0.564                   -1.02954        -155.082         -45.7455         77.1484         -45.7479         77.0742       -0.0111949         146.702
0.565                   -1.05941        -155.657         -45.6155         75.7793          -45.618         75.7005       -0.0113223          146.63
0.566                   -1.08991        -156.233         -45.4857         74.4056         -45.4884          74.322        -0.011452         146.558
0.567                   -1.12104        -156.811         -45.3562          73.027          -45.359         72.9389        -0.011584         146.486
0.568                   -1.15281        -157.391         -45.2269         71.6436         -45.2298         71.5509       -0.0117183         146.414
0.569                   -1.18522        -157.971         -45.0978         70.2553         -45.1008         70.1581       -0.0118549         146.341
0.57                    -1.21828        -158.553         -44.9688         68.8619          -44.972         68.7603        -0.011994         146.269
0.571                   -1.25199        -159.137           -44.84         67.4635         -44.8433         67.3576       -0.0121354         146.196
0.572                   -1.28636        -159.722         -44.7114         66.0599         -44.7147         65.9498       -0.0122793         146.123
0.573                   -1.32138        -160.308         -44.5828         64.6512         -44.5862         64.5369       -0.0124257          146.05
0.574                   -1.35707        -160.895         -44.4543         63.2372         -44.4578         63.1188       -0.0125745         145.976
0.575                   -1.39344        -161.484         -44.3258         61.8179         -44.3295         61.6955       -0.0127259         145.903
0.576                   -1.43047        -162.074         -44.1974         60.3933         -44.2012          60.267       -0.0128799          145.83
0.577                   -1.46818        -162.665          -44.069         58.9632         -44.0729         58.8332       -0.0130364         145.756
0.578                   -1.50658        -163.257         -43.9407         57.5278         -43.9446          57.394       -0.0131956         145.682
0.579                   -1.54566         -163.85         -43.8122         56.0869         -43.8162         55.9496       -0.0133575         145.608
0.58                    -1.58543        -164.444         -43.6838         54.6406         -43.6879         54.4997       -0.0135221         145.534
0.581                   -1.62589        -165.039         -43.5553         53.1887         -43.5594         53.0444       -0.0136894          145.46
0.582                   -1.66705        -165.635         -43.4267         51.7313         -43.4309         51.5838       -0.0138595         145.385
0.583                   -1.70891        -166.232          -43.298         50.2683         -43.3023         50.1177       -0.0140324          145.31
0.584                   -1.75147         -166.83         -43.1692         48.7998         -43.1736         48.6461       -0.0142082         145.236
0.585                   -1.79474        -167.428         -43.0403         47.3257         -43.0447         47.1691       -0.0143868         145.161
0.586                   -1.83872        -168.027         -42.9112          45.846         -42.9157         45.6867       -0.0145684         145.086
0.587                   -1.88341        -168.628          -42.782         44.3607         -42.7866         44.1987        -0.014753          145.01
0.588                   -1.92882        -169.228         -42.6527         42.8698         -42.6573         42.7053       -0.0149406         144.935
0.589                   -1.97495         -169.83         -42.5231         41.3734         -42.5278         41.2065       -0.0151313         144.859
0.59                     -2.0218        -170.432         -42.3934         39.8713         -42.3981         39.7022        -0.015325         144.784
0.591                   -2.06937        -171.034         -42.2635         38.3637         -42.2683         38.1924        -0.015522         144.708
0.592                   -2.11767        -171.637         -42.1334         36.8505         -42.1382         36.6772       -0.0157221         144.631
0.593                    -2.1667        -172.241         -42.0031         35.3317         -42.0079         35.1566       -0.0159254         144.555
0.594                   -2.21647        -172.844         -41.8725         33.8073         -41.8775         33.6305       -0.0161321         144.479
0.595                   -2.26696        -173.449         -41.7418         32.2775         -41.7467         32.0991       -0.0163421         144.402
0.596                    -2.3182        -174.053         -41.6108         30.7421         -41.6158         30.5623       -0.0165555         144.325
0.597                   -2.37017        -174.658         -41.4796         29.2012         -41.4846         29.0201       -0.0167723         144.248
0.598                   -2.42289        -175.263         -41.3481         27.6549         -41.3531         27.4726       -0.0169926         144.171
0.599                   -2.47635        -175.869         -41.2164         26.1031         -41.2215         25.9198       -0.0172165         144.093
0.6                     -2.53055        -176.474         -41.0844         24.5459         -41.0895         24.3618        -0.017444         144.016
0.601                   -2.58551         -177.08         -40.9522         22.9833         -40.9573         22.7985       -0.0176751         143.938
0.602                   -2.64121        -177.686         -40.8197         21.4153         -40.8249         21.2299       -0.0179099          143.86
0.603                   -2.69766        -178.292          -40.687          19.842         -40.6922         19.6563       -0.0181486         143.782
0.604                   -2.75487        -178.898          -40.554         18.2635         -40.5593         18.0774        -0.018391         143.703
0.605                   -2.81283        -179.503         -40.4208         16.6797         -40.4261         16.4935       -0.0186373         143.625
0.606                   -2.87155         179.891         -40.2874         15.0906         -40.2927         14.9045       -0.0188877         143.546
0.607                   -2.93103         179.285         -40.1537         13.4965          -40.159         13.3105        -0.019142         143.467
0.608                   -2.99127          178.68         -40.0197         11.8972         -40.0251         11.7115       -0.0194004         143.387
0.609                   -3.05227         178.074         -39.8855         10.2928         -39.8909         10.1075       -0.0196629         143.308
0.61                    -3.11404         177.469         -39.7511         8.68332         -39.7566         8.49868       -0.0199297         143.228
0.611                   -3.17657         176.864         -39.6165          7.0689          -39.622         6.88499       -0.0202008         143.148
0.612                   -3.23987          176.26         -39.4817         5.44953         -39.4872         5.26649       -0.0204762         143.068
0.613                   -3.30394         175.656         -39.3467         3.82527         -39.3521         3.64324       -0.0207561         142.988
0.614                   -3.36877         175.052         -39.2114         2.19616         -39.2169         2.01528       -0.0210405         142.907
0.615                   -3.43439         174.448          -39.076         0.56227         -39.0815        0.382666       -0.0213294         142.826
0.616                   -3.50077         173.845         -38.9404        -1.07636          -38.946        -1.25456       -0.0216231         142.745
0.617                   -3.56793         173.243         -38.8047        -2.71968         -38.8102        -2.89633       -0.0219214         142.664
0.618                   -3.63587         172.641         -38.6688        -4.36762         -38.6743        -4.54261       -0.0222246         142.583
0.619                   -3.70459         172.039         -38.5328        -6.02014         -38.5383        -6.19333       -0.0225327         142.501
0.62                    -3.77409         171.438         -38.3966        -7.67716         -38.4022        -7.84844       -0.0228458         142.419
0.621                   -3.84437         170.838         -38.2603        -9.33864         -38.2659        -9.50789        -0.023164         142.337
0.622                   -3.91544         170.239          -38.124        -11.0045         -38.1295        -11.1716       -0.0234874         142.254
0.623                    -3.9873          169.64         -37.9875        -12.6747         -37.9931        -12.8396        -0.023816         142.171
0.624                   -4.05994         169.042          -37.851        -14.3492         -37.8566        -14.5117         -0.02415         142.088
0.625                   -4.13338         168.444         -37.7145        -16.0279           -37.72        -16.1878       -0.0244895         142.005
0.626                   -4.20761         167.848         -37.5779        -17.7107         -37.5834        -17.8681       -0.0248345         141.922
0.627                   -4.28264         167.252         -37.4413        -19.3976         -37.4469        -19.5523       -0.0251852         141.838
0.628                   -4.35847         166.657         -37.3047        -21.0885         -37.3103        -21.2404       -0.0255416         141.754
0.629                    -4.4351         166.063         -37.1681        -22.7833         -37.1737        -22.9324       -0.0259039         141.669
