! TOUCHSTONE file generated by CST MICROWAVE STUDIO
! Date and time: Fri Oct  2 16:38:26 2020
! Project name: Scenario_1_Free_Space_out_of_line.cst
! Parameters = {Lambda=346.42; Step_1=17.321; dy1=52.843; dx1=520; L_HA=400; MT=2.54; Rad_Dielectric=30; Rad_Lower=7.3; Rad_Upper=30; a_HA=580; a_WG=246; b_HA=500; b_WG=121; c_HA=0; c_WG=187; d_feed=85; h_feed=15; h_lower=18; h_upper=40}
! Header version: 2018
! Port assignment regex: !\s*Touchstone port\s*([0-9]+)\s*=\s*(CST MWS port|CST DS port)\s*([0-9]+|Zmin|Zmax)\s*\(\"(.*)\"\)(\s*mode\s*([0-9]+))?.*
! Touchstone port assignment:
! Touchstone port 1 = CST MWS port 1 ("")
! Touchstone port 2 = CST MWS port 2 ("")
# GHz S DB R 50
0.5                    -0.151412         -122.63         -60.9503        -18.8198         -60.9503        -18.8198      -0.00664381         151.149
0.501                  -0.156819        -123.068          -60.762        -20.3576         -60.7629        -20.3743      -0.00669563         151.084
0.502                  -0.162374        -123.508         -60.5719        -21.9123         -60.5738        -21.9436      -0.00674787         151.019
0.503                  -0.168081         -123.95         -60.3801        -23.4844         -60.3832        -23.5281      -0.00680053         150.953
0.504                  -0.173943        -124.394         -60.1869        -25.0745         -60.1912        -25.1284      -0.00685366         150.888
0.505                  -0.179964         -124.84         -59.9924        -26.6828          -59.998        -26.7448      -0.00690728         150.822
0.506                  -0.186148        -125.289         -59.7969        -28.3096         -59.8037        -28.3776      -0.00696141         150.756
0.507                    -0.1925         -125.74         -59.6006        -29.9551         -59.6086        -30.0269      -0.00701609         150.691
0.508                  -0.199024        -126.192         -59.4038        -31.6192         -59.4129        -31.6929      -0.00707135         150.625
0.509                  -0.205724        -126.648         -59.2065        -33.3017         -59.2167        -33.3755      -0.00712722         150.559
0.51                   -0.212605        -127.105         -59.0092        -35.0023         -59.0202        -35.0746      -0.00718374         150.493
0.511                   -0.21967        -127.565         -58.8119        -36.7205         -58.8236        -36.7899      -0.00724093         150.427
0.512                  -0.226926        -128.027         -58.6149        -38.4557         -58.6272         -38.521      -0.00729883         150.361
0.513                  -0.234376        -128.491         -58.4184        -40.2072         -58.4311        -40.2673      -0.00735749         150.294
0.514                  -0.242026        -128.958         -58.2226         -41.974         -58.2355        -42.0283      -0.00741693         150.228
0.515                  -0.249881        -129.427         -58.0277        -43.7553         -58.0405        -43.8033      -0.00747719         150.161
0.516                  -0.257945        -129.898         -57.8337          -45.55         -57.8463        -45.5913      -0.00753832         150.095
0.517                  -0.266225        -130.372         -57.6408        -47.3569         -57.6531        -47.3915      -0.00760036         150.028
0.518                  -0.274725        -130.848         -57.4491        -49.1749         -57.4608         -49.203      -0.00766334         149.962
0.519                  -0.283451        -131.327         -57.2587        -51.0028         -57.2697        -51.0248      -0.00772731         149.895
0.52                    -0.29241        -131.808         -57.0696        -52.8394         -57.0798        -52.8557      -0.00779232         149.828
0.521                  -0.301606        -132.292         -56.8819        -54.6837         -56.8912        -54.6948      -0.00785841         149.761
0.522                  -0.311045        -132.778         -56.6956        -56.5344         -56.7039        -56.5411      -0.00792563         149.694
0.523                  -0.320734        -133.266         -56.5107        -58.3905         -56.5178        -58.3936      -0.00799402         149.627
0.524                  -0.330679        -133.757         -56.3271         -60.251         -56.3332        -60.2512      -0.00806363         149.559
0.525                  -0.340887        -134.251         -56.1448        -62.1151         -56.1498        -62.1131      -0.00813451         149.492
0.526                  -0.351363        -134.747         -55.9638        -63.9818         -55.9677        -63.9784      -0.00820672         149.425
0.527                  -0.362114        -135.245          -55.784        -65.8504         -55.7868        -65.8464       -0.0082803         149.357
0.528                  -0.373147        -135.746         -55.6053        -67.7204         -55.6071        -67.7163       -0.0083553         149.289
0.529                  -0.384469         -136.25         -55.4278        -69.5911         -55.4286        -69.5876      -0.00843179         149.222
0.53                   -0.396087        -136.756         -55.2512        -71.4621         -55.2511        -71.4597      -0.00850981         149.154
0.531                  -0.408008        -137.265         -55.0755        -73.3331         -55.0746        -73.3321      -0.00858942         149.086
0.532                  -0.420239        -137.776         -54.9006        -75.2037         -54.8991        -75.2046      -0.00867068         149.018
0.533                  -0.432787         -138.29         -54.7265        -77.0739         -54.7243        -77.0768      -0.00875363         148.949
0.534                  -0.445661        -138.807         -54.5531        -78.9434         -54.5504        -78.9486      -0.00883834         148.881
0.535                  -0.458866        -139.326         -54.3803        -80.8123         -54.3771        -80.8198      -0.00892487         148.813
0.536                  -0.472413        -139.848         -54.2081        -82.6805         -54.2045        -82.6904      -0.00901326         148.744
0.537                  -0.486307        -140.372         -54.0363        -84.5482         -54.0325        -84.5604      -0.00910358         148.676
0.538                  -0.500557        -140.899         -53.8649        -86.4154         -53.8609        -86.4298      -0.00919588         148.607
0.539                  -0.515171        -141.428          -53.694        -88.2823         -53.6898        -88.2988      -0.00929023         148.538
0.54                   -0.530158         -141.96         -53.5233        -90.1491         -53.5191        -90.1675      -0.00938667         148.469
0.541                  -0.545524        -142.495         -53.3529         -92.016         -53.3487        -92.0361      -0.00948526           148.4
0.542                  -0.561279        -143.032         -53.1828        -93.8832         -53.1787        -93.9047      -0.00958606         148.331
0.543                  -0.577431        -143.572         -53.0129        -95.7511         -53.0089        -95.7737      -0.00968911         148.262
0.544                  -0.593988        -144.115         -52.8433        -97.6197         -52.8394        -97.6433      -0.00979448         148.192
0.545                  -0.610959         -144.66         -52.6738        -99.4896         -52.6701        -99.5138      -0.00990221         148.123
0.546                  -0.628352        -145.208         -52.5045        -101.361          -52.501        -101.385       -0.0100124         148.053
0.547                  -0.646176        -145.758         -52.3353        -103.234          -52.332        -103.258        -0.010125         147.984
0.548                  -0.664439         -146.31         -52.1664        -105.109         -52.1633        -105.133       -0.0102401         147.914
0.549                   -0.68315        -146.866         -51.9976        -106.986         -51.9948         -107.01       -0.0103577         147.844
0.55                   -0.702317        -147.423          -51.829        -108.865         -51.8264        -108.889        -0.010478         147.774
0.551                  -0.721948        -147.984         -51.6605        -110.747         -51.6583         -110.77       -0.0106008         147.704
0.552                  -0.742053        -148.546         -51.4923        -112.633         -51.4903        -112.654       -0.0107264         147.633
0.553                   -0.76264        -149.111         -51.3243        -114.521         -51.3226        -114.541       -0.0108546         147.563
0.554                  -0.783717        -149.679         -51.1566        -116.413         -51.1551        -116.432       -0.0109855         147.493
0.555                  -0.805291        -150.249         -50.9891        -118.308         -50.9878        -118.325       -0.0111192         147.422
0.556                  -0.827372        -150.821         -50.8219        -120.207         -50.8209        -120.223       -0.0112556         147.351
0.557                  -0.849968        -151.395         -50.6551         -122.11         -50.6542        -122.124       -0.0113948          147.28
0.558                  -0.873085        -151.972         -50.4886        -124.017         -50.4879        -124.029       -0.0115368         147.209
0.559                  -0.896732        -152.551         -50.3224        -125.929         -50.3219        -125.939       -0.0116816         147.138
0.56                   -0.920916        -153.133         -50.1567        -127.844         -50.1563        -127.853       -0.0118291         147.067
0.561                  -0.945645        -153.716         -49.9914        -129.764         -49.9911        -129.771       -0.0119795         146.996
0.562                  -0.970924        -154.302         -49.8266        -131.689         -49.8264        -131.693       -0.0121326         146.924
0.563                  -0.996762        -154.889         -49.6623        -133.618         -49.6622         -133.62       -0.0122885         146.853
0.564                   -1.02316        -155.479         -49.4985        -135.551         -49.4985        -135.551       -0.0124471         146.781
0.565                   -1.05014        -156.071         -49.3353        -137.489         -49.3353        -137.488       -0.0126084         146.709
0.566                   -1.07769        -156.665         -49.1727        -139.432         -49.1728        -139.428       -0.0127724         146.637
0.567                   -1.10582         -157.26         -49.0107        -141.379         -49.0108        -141.374        -0.012939         146.565
0.568                   -1.13453        -157.858         -48.8494        -143.331         -48.8495        -143.324       -0.0131083         146.493
0.569                   -1.16384        -158.457         -48.6888        -145.287         -48.6889        -145.278       -0.0132801          146.42
0.57                    -1.19374        -159.058         -48.5289        -147.247         -48.5291        -147.237       -0.0134543         146.348
0.571                   -1.22424        -159.661         -48.3698        -149.212         -48.3699        -149.201       -0.0136311         146.275
0.572                   -1.25534        -160.265         -48.2115        -151.181         -48.2116        -151.168       -0.0138102         146.203
0.573                   -1.28705        -160.871          -48.054        -153.155          -48.054         -153.14       -0.0139916          146.13
0.574                   -1.31936        -161.478         -47.8973        -155.132         -47.8973        -155.116       -0.0141753         146.057
0.575                   -1.35228        -162.087         -47.7415        -157.113         -47.7414        -157.096       -0.0143612         145.983
0.576                   -1.38581        -162.698         -47.5866        -159.098         -47.5864         -159.08       -0.0145492          145.91
0.577                   -1.41994         -163.31         -47.4326        -161.086         -47.4323        -161.068       -0.0147392         145.837
0.578                   -1.45469        -163.923         -47.2796        -163.078         -47.2792        -163.059       -0.0149311         145.763
0.579                   -1.49004        -164.537         -47.1274        -165.073          -47.127        -165.053       -0.0151249         145.689
0.58                    -1.52599        -165.152         -46.9763        -167.071         -46.9757        -167.051       -0.0153206         145.616
0.581                   -1.56256        -165.769         -46.8261        -169.072         -46.8254        -169.051       -0.0155179         145.542
0.582                   -1.59972        -166.387         -46.6768        -171.076         -46.6761        -171.055       -0.0157169         145.467
0.583                   -1.63747        -167.006         -46.5286        -173.082         -46.5278        -173.061       -0.0159175         145.393
0.584                   -1.67583        -167.626         -46.3814         -175.09         -46.3805        -175.069       -0.0161195         145.319
0.585                   -1.71477        -168.247         -46.2352        -177.101         -46.2342        -177.079        -0.016323         145.244
0.586                   -1.75429        -168.869           -46.09        -179.113         -46.0889        -179.092       -0.0165278         145.169
0.587                   -1.79439        -169.492         -45.9458         178.873         -45.9447         178.894       -0.0167339         145.094
0.588                   -1.83506        -170.116         -45.8026         176.858         -45.8014         176.879       -0.0169412         145.019
0.589                    -1.8763        -170.741         -45.6604         174.841         -45.6591         174.862       -0.0171497         144.944
0.59                     -1.9181        -171.367         -45.5191         172.824         -45.5179         172.844       -0.0173593         144.869
0.591                   -1.96045        -171.994         -45.3789         170.805         -45.3776         170.825         -0.01757         144.793
0.592                   -2.00334        -172.621         -45.2397         168.786         -45.2383         168.805       -0.0177817         144.717
0.593                   -2.04677         -173.25         -45.1014         166.767            -45.1         166.785       -0.0179945         144.641
0.594                   -2.09073         -173.88          -44.964         164.747         -44.9626         164.765       -0.0182082         144.565
0.595                   -2.13521         -174.51         -44.8276         162.727         -44.8262         162.744       -0.0184229         144.489
0.596                    -2.1802        -175.142         -44.6922         160.708         -44.6907         160.724       -0.0186386         144.413
0.597                    -2.2257        -175.775         -44.5576         158.688         -44.5561         158.704       -0.0188552         144.336
0.598                   -2.27169        -176.409         -44.4238         156.669         -44.4224         156.684       -0.0190729         144.259
0.599                   -2.31818        -177.044          -44.291         154.651         -44.2895         154.665       -0.0192915         144.182
0.6                     -2.36515         -177.68          -44.159         152.633         -44.1575         152.647       -0.0195112         144.105
0.601                   -2.41259        -178.318         -44.0277         150.617         -44.0263         150.629       -0.0197319         144.028
0.602                   -2.46051        -178.957         -43.8973         148.601         -43.8959         148.613       -0.0199538          143.95
0.603                    -2.5089        -179.598         -43.7676         146.586         -43.7663         146.597       -0.0201768         143.872
0.604                   -2.55776          179.76         -43.6387         144.573         -43.6373         144.583        -0.020401         143.794
0.605                   -2.60707         179.116         -43.5104         142.561         -43.5091          142.57       -0.0206266         143.716
0.606                   -2.65685          178.47         -43.3829          140.55         -43.3816         140.558       -0.0208535         143.638
0.607                   -2.70709         177.822         -43.2559          138.54         -43.2547         138.548        -0.021082         143.559
0.608                   -2.75779         177.171         -43.1296         136.532         -43.1285          136.54        -0.021312          143.48
0.609                   -2.80895         176.519         -43.0039         134.526         -43.0028         134.533       -0.0215437         143.401
0.61                    -2.86059         175.863         -42.8787         132.521         -42.8777         132.527       -0.0217772         143.322
0.611                    -2.9127         175.206         -42.7541         130.518         -42.7531         130.523       -0.0220126         143.242
0.612                    -2.9653         174.545         -42.6299         128.516         -42.6291         128.521       -0.0222501         143.162
0.613                    -3.0184         173.881         -42.5063         126.516         -42.5055          126.52       -0.0224897         143.082
0.614                     -3.072         173.214         -42.3831         124.518         -42.3823         124.521       -0.0227317         143.002
0.615                   -3.12613         172.544         -42.2602         122.521         -42.2596         122.524       -0.0229762         142.922
0.616                   -3.18079          171.87         -42.1378         120.526         -42.1372         120.528       -0.0232234         142.841
0.617                   -3.23602         171.193         -42.0158         118.532         -42.0152         118.534       -0.0234733          142.76
0.618                   -3.29183         170.511          -41.894         116.539         -41.8936         116.541       -0.0237263         142.679
0.619                   -3.34825         169.825         -41.7726         114.548         -41.7723         114.549       -0.0239824         142.598
0.62                    -3.40531         169.135         -41.6515         112.558         -41.6512         112.559       -0.0242418         142.516
0.621                   -3.46303         168.441         -41.5306         110.569         -41.5304          110.57       -0.0245048         142.434
0.622                   -3.52144         167.741           -41.41         108.582         -41.4098         108.582       -0.0247716         142.352
0.623                    -3.5806         167.037         -41.2896         106.595         -41.2895         106.595       -0.0250422         142.269
0.624                   -3.64053         166.327         -41.1693          104.61         -41.1693         104.609        -0.025317         142.186
0.625                   -3.70127         165.612         -41.0493         102.625         -41.0494         102.624       -0.0255962         142.103
0.626                   -3.76287         164.892         -40.9294         100.641         -40.9295          100.64       -0.0258798          142.02
0.627                   -3.82539         164.166         -40.8097         98.6576         -40.8099         98.6566       -0.0261683         141.936
0.628                   -3.88886         163.434         -40.6901         96.6746         -40.6903         96.6735       -0.0264618         141.853
0.629                   -3.95334         162.696         -40.5706          94.692         -40.5709         94.6907       -0.0267604         141.768
