! TOUCHSTONE file generated by CST MICROWAVE STUDIO
! Date and time: Fri Oct  2 16:56:43 2020
! Project name: Scenario_1_Free_Space_out_of_line.cst
! Parameters = {Lambda=346.42; Step_1=17.321; dy1=52.843; dx1=693; L_HA=400; MT=2.54; Rad_Dielectric=30; Rad_Lower=7.3; Rad_Upper=30; a_HA=580; a_WG=246; b_HA=500; b_WG=121; c_HA=0; c_WG=187; d_feed=85; h_feed=15; h_lower=18; h_upper=40}
! Header version: 2018
! Port assignment regex: !\s*Touchstone port\s*([0-9]+)\s*=\s*(CST MWS port|CST DS port)\s*([0-9]+|Zmin|Zmax)\s*\(\"(.*)\"\)(\s*mode\s*([0-9]+))?.*
! Touchstone port assignment:
! Touchstone port 1 = CST MWS port 1 ("")
! Touchstone port 2 = CST MWS port 2 ("")
# GHz S DB R 50
0.5                    -0.145389        -122.374         -62.4175        -116.911         -62.4175        -116.911      -0.00661341         151.152
0.501                  -0.152497        -122.818         -62.2286        -118.632         -62.2285        -118.632       -0.0066875         151.087
0.502                  -0.159771        -123.263         -62.0384        -120.369         -62.0383        -120.368      -0.00676176         151.021
0.503                  -0.167211        -123.709         -61.8471        -122.122         -61.8469        -122.121      -0.00683621         150.956
0.504                   -0.17482        -124.157         -61.6547        -123.891         -61.6544         -123.89      -0.00691084         150.891
0.505                  -0.182598        -124.607         -61.4612        -125.676         -61.4609        -125.675      -0.00698564         150.825
0.506                  -0.190546        -125.059         -61.2668        -127.478         -61.2664        -127.477      -0.00706063          150.76
0.507                  -0.198666        -125.512         -61.0715        -129.296         -61.0711        -129.295      -0.00713581         150.694
0.508                  -0.206958        -125.966         -60.8755        -131.131          -60.875         -131.13      -0.00721116         150.629
0.509                  -0.215425        -126.422         -60.6787        -132.982         -60.6782        -132.981      -0.00728671         150.563
0.51                   -0.224067         -126.88         -60.4813         -134.85         -60.4807        -134.848      -0.00736244         150.497
0.511                  -0.232886         -127.34         -60.2834        -136.734         -60.2827        -136.732      -0.00743837         150.431
0.512                  -0.241882        -127.801          -60.085        -138.634         -60.0843        -138.632      -0.00751449         150.365
0.513                  -0.251058        -128.264         -59.8863        -140.551         -59.8856        -140.549       -0.0075908         150.299
0.514                  -0.260415        -128.728         -59.6873        -142.484         -59.6865        -142.482      -0.00766732         150.233
0.515                  -0.269954        -129.194         -59.4881        -144.433         -59.4874        -144.431      -0.00774404         150.167
0.516                  -0.279677        -129.662         -59.2889        -146.398         -59.2882        -146.397      -0.00782097         150.101
0.517                  -0.289585        -130.132         -59.0898        -148.379          -59.089        -148.378      -0.00789812         150.034
0.518                  -0.299681        -130.604         -58.8908        -150.376         -58.8899        -150.375      -0.00797548         149.968
0.519                  -0.309965        -131.077          -58.692        -152.389         -58.6911        -152.387      -0.00805307         149.901
0.52                   -0.320439        -131.552         -58.4935        -154.417         -58.4927        -154.415      -0.00813089         149.835
0.521                  -0.331106        -132.029         -58.2956        -156.459         -58.2947        -156.458      -0.00820894         149.768
0.522                  -0.341967        -132.508         -58.0981        -158.517         -58.0972        -158.516      -0.00828724         149.701
0.523                  -0.353025        -132.989         -57.9013        -160.589         -57.9004        -160.588      -0.00836579         149.634
0.524                   -0.36428        -133.471         -57.7053        -162.675         -57.7044        -162.674      -0.00844461         149.567
0.525                  -0.375736        -133.956           -57.51        -164.775         -57.5092        -164.774      -0.00852369           149.5
0.526                  -0.387394        -134.442         -57.3157        -166.888         -57.3149        -166.887      -0.00860306         149.433
0.527                  -0.399257         -134.93         -57.1225        -169.013         -57.1216        -169.013      -0.00868272         149.366
0.528                  -0.411327        -135.421         -56.9303        -171.151         -56.9295        -171.151      -0.00876268         149.299
0.529                  -0.423607        -135.913         -56.7394        -173.301         -56.7385        -173.301      -0.00884296         149.231
0.53                   -0.436099        -136.408         -56.5497        -175.462         -56.5489        -175.462      -0.00892357         149.164
0.531                  -0.448806        -136.904         -56.3614        -177.634         -56.3606        -177.634      -0.00900452         149.096
0.532                  -0.461731        -137.403         -56.1745        -179.816         -56.1737        -179.816      -0.00908583         149.028
0.533                  -0.474876        -137.903         -55.9891         177.992         -55.9883         177.992      -0.00916752          148.96
0.534                  -0.488245        -138.406         -55.8052         175.792         -55.8045         175.792      -0.00924961         148.893
0.535                  -0.501841        -138.911          -55.623         173.583         -55.6222         173.583       -0.0093321         148.825
0.536                  -0.515667        -139.418         -55.4424         171.367         -55.4417         171.367      -0.00941504         148.756
0.537                  -0.529727        -139.928         -55.2635         169.144         -55.2628         169.143      -0.00949843         148.688
0.538                  -0.544025        -140.439         -55.0864         166.914         -55.0857         166.914      -0.00958229          148.62
0.539                  -0.558563        -140.953          -54.911         164.679         -54.9104         164.679      -0.00966667         148.551
0.54                   -0.573347         -141.47         -54.7374         162.439         -54.7368         162.439      -0.00975157         148.483
0.541                   -0.58838        -141.988         -54.5656         160.195          -54.565         160.194      -0.00983703         148.414
0.542                  -0.603667        -142.509         -54.3956         157.947         -54.3951         157.947      -0.00992307         148.346
0.543                  -0.619211        -143.033         -54.2275         155.697          -54.227         155.696       -0.0100097         148.277
0.544                  -0.635019        -143.559         -54.0612         153.444         -54.0607         153.443        -0.010097         148.208
0.545                  -0.651095        -144.087         -53.8966         151.189         -53.8961         151.189        -0.010185         148.139
0.546                  -0.667444        -144.618         -53.7339         148.934         -53.7334         148.933       -0.0102738         148.069
0.547                  -0.684072        -145.151         -53.5729         146.678         -53.5725         146.677       -0.0103632             148
0.548                  -0.700984        -145.687         -53.4136         144.423         -53.4132         144.422       -0.0104535         147.931
0.549                  -0.718187        -146.226         -53.2561         142.168         -53.2557         142.167       -0.0105446         147.861
0.55                   -0.735686        -146.767         -53.1002         139.914         -53.0998         139.914       -0.0106367         147.792
0.551                  -0.753488        -147.311         -52.9459         137.663         -52.9456         137.662       -0.0107296         147.722
0.552                    -0.7716        -147.858         -52.7932         135.413         -52.7929         135.412       -0.0108235         147.652
0.553                  -0.790029        -148.407          -52.642         133.166         -52.6417         133.166       -0.0109185         147.582
0.554                  -0.808783        -148.959         -52.4923         130.922          -52.492         130.922       -0.0110146         147.512
0.555                  -0.827869        -149.514         -52.3439         128.682         -52.3437         128.681       -0.0111118         147.442
0.556                  -0.847295        -150.072          -52.197         126.445         -52.1968         126.445       -0.0112102         147.371
0.557                   -0.86707        -150.633         -52.0513         124.213         -52.0511         124.212       -0.0113098         147.301
0.558                  -0.887203        -151.197         -51.9068         121.984         -51.9067         121.984       -0.0114108          147.23
0.559                  -0.907703        -151.764         -51.7635          119.76         -51.7634          119.76       -0.0115132         147.159
0.56                    -0.92858        -152.334         -51.6213         117.541         -51.6212          117.54       -0.0116171         147.088
0.561                  -0.949844        -152.907         -51.4801         115.326           -51.48         115.326       -0.0117224         147.017
0.562                  -0.971504        -153.483         -51.3399         113.117         -51.3398         113.116       -0.0118294         146.946
0.563                  -0.993574        -154.062         -51.2006         110.912         -51.2005         110.912       -0.0119381         146.875
0.564                   -1.01606        -154.644         -51.0621         108.712          -51.062         108.712       -0.0120485         146.804
0.565                   -1.03898         -155.23         -50.9244         106.517         -50.9243         106.517       -0.0121607         146.732
0.566                   -1.06235        -155.819         -50.7873         104.327         -50.7873         104.327       -0.0122749          146.66
0.567                   -1.08617        -156.411          -50.651         102.143         -50.6509         102.142        -0.012391         146.589
0.568                   -1.11046        -157.006         -50.5152         99.9625         -50.5152         99.9624       -0.0125093         146.517
0.569                   -1.13523        -157.605         -50.3799         97.7872         -50.3799         97.7871       -0.0126296         146.444
0.57                     -1.1605        -158.207         -50.2452         95.6165         -50.2452         95.6164       -0.0127523         146.372
0.571                   -1.18629        -158.813         -50.1108         93.4503         -50.1108         93.4503       -0.0128772           146.3
0.572                    -1.2126        -159.421         -49.9769         91.2885         -49.9769         91.2884       -0.0130046         146.227
0.573                   -1.23946        -160.034         -49.8433         89.1308         -49.8433         89.1308       -0.0131345         146.155
0.574                   -1.26688        -160.649           -49.71          86.977           -49.71          86.977        -0.013267         146.082
0.575                   -1.29487        -161.269         -49.5769          84.827         -49.5769          84.827       -0.0134021         146.009
0.576                   -1.32347        -161.891          -49.444         82.6805          -49.444         82.6806         -0.01354         145.936
0.577                   -1.35267        -162.517         -49.3113         80.5373         -49.3113         80.5374       -0.0136808         145.862
0.578                    -1.3825        -163.147         -49.1788         78.3972         -49.1788         78.3973       -0.0138245         145.789
0.579                   -1.41299         -163.78         -49.0464         76.2599         -49.0464           76.26       -0.0139712         145.715
0.58                    -1.44414        -164.416         -48.9141         74.1252         -48.9141         74.1253        -0.014121         145.642
0.581                   -1.47599        -165.056         -48.7818         71.9927         -48.7819         71.9929        -0.014274         145.568
0.582                   -1.50854          -165.7         -48.6497         69.8624         -48.6497         69.8625       -0.0144302         145.494
0.583                   -1.54182        -166.347         -48.5175         67.7338         -48.5175          67.734       -0.0145898         145.419
0.584                   -1.57586        -166.997         -48.3854         65.6068         -48.3854         65.6069       -0.0147527         145.345
0.585                   -1.61067        -167.651         -48.2533          63.481         -48.2533         63.4812        -0.014919          145.27
0.586                   -1.64627        -168.308         -48.1212         61.3563         -48.1212         61.3565       -0.0150889         145.196
0.587                   -1.68269        -168.968         -47.9891         59.2323         -47.9891         59.2325       -0.0152623         145.121
0.588                   -1.71994        -169.632          -47.857         57.1089          -47.857         57.1091       -0.0154394         145.046
0.589                   -1.75806        -170.298         -47.7249         54.9858         -47.7249         54.9859       -0.0156201         144.971
0.59                    -1.79706        -170.968         -47.5928         52.8627         -47.5928         52.8629       -0.0158045         144.895
0.591                   -1.83696        -171.641         -47.4607         50.7395         -47.4607         50.7396       -0.0159926          144.82
0.592                    -1.8778        -172.317         -47.3286         48.6159         -47.3287          48.616       -0.0161844         144.744
0.593                   -1.91957        -172.996         -47.1966         46.4917         -47.1966         46.4918       -0.0163801         144.668
0.594                   -1.96232        -173.677         -47.0645         44.3667         -47.0646         44.3668       -0.0165795         144.592
0.595                   -2.00606        -174.362         -46.9326         42.2407         -46.9326         42.2408       -0.0167828         144.516
0.596                   -2.05082        -175.048         -46.8006         40.1136         -46.8006         40.1137       -0.0169899         144.439
0.597                    -2.0966        -175.737         -46.6688         37.9851         -46.6688         37.9852       -0.0172007         144.363
0.598                   -2.14344        -176.429          -46.537         35.8552          -46.537         35.8553       -0.0174154         144.286
0.599                   -2.19134        -177.123         -46.4053         33.7237         -46.4053         33.7238       -0.0176339         144.209
0.6                     -2.24034        -177.818         -46.2737         31.5905         -46.2737         31.5906       -0.0178562         144.132
0.601                   -2.29043        -178.516         -46.1423         29.4554         -46.1423         29.4555       -0.0180823         144.055
0.602                   -2.34165        -179.215         -46.0111         27.3184         -46.0111         27.3185       -0.0183121         143.977
0.603                   -2.39401        -179.916           -45.88         25.1794           -45.88         25.1794       -0.0185456           143.9
0.604                    -2.4475         179.382         -45.7491         23.0383         -45.7491         23.0383       -0.0187829         143.822
0.605                   -2.50216         178.679         -45.6184          20.895         -45.6184          20.895       -0.0190238         143.744
0.606                   -2.55799         177.974          -45.488         18.7496          -45.488         18.7495       -0.0192683         143.665
0.607                   -2.61499         177.269         -45.3579         16.6019         -45.3579         16.6018       -0.0195165         143.587
0.608                   -2.67318         176.563          -45.228         14.4519          -45.228         14.4519       -0.0197682         143.508
0.609                   -2.73256         175.857         -45.0984         12.2997         -45.0984         12.2997       -0.0200235         143.429
0.61                    -2.79312         175.151         -44.9692         10.1453         -44.9692         10.1452       -0.0202823          143.35
0.611                   -2.85488         174.444         -44.8403          7.9886         -44.8403         7.98856       -0.0205446         143.271
0.612                   -2.91783         173.738         -44.7118         5.82974         -44.7118         5.82969       -0.0208103         143.192
0.613                   -2.98197         173.032         -44.5836         3.66873         -44.5836         3.66867       -0.0210795         143.112
0.614                   -3.04729         172.326         -44.4558         1.50561         -44.4558         1.50555       -0.0213521         143.032
0.615                   -3.11378         171.621         -44.3285       -0.659539         -44.3285       -0.659601       -0.0216281         142.952
0.616                   -3.18145         170.917         -44.2016        -2.82665         -44.2016        -2.82672       -0.0219074         142.872
0.617                   -3.25027         170.215         -44.0751        -4.99565         -44.0751        -4.99572       -0.0221901         142.791
0.618                   -3.32023         169.513         -43.9491        -7.16645         -43.9491        -7.16652       -0.0224762         142.711
0.619                   -3.39133         168.813         -43.8235        -9.33895         -43.8235        -9.33902       -0.0227656          142.63
0.62                    -3.46353         168.114         -43.6984         -11.513         -43.6984        -11.5131       -0.0230585         142.548
0.621                   -3.53684         167.416         -43.5738        -13.6886         -43.5738        -13.6887       -0.0233547         142.467
0.622                   -3.61123         166.721         -43.4497        -15.8656         -43.4497        -15.8657       -0.0236543         142.385
0.623                   -3.68667         166.027          -43.326        -18.0439          -43.326        -18.0439       -0.0239574         142.303
0.624                   -3.76316         165.335         -43.2029        -20.2233         -43.2029        -20.2233        -0.024264         142.221
0.625                   -3.84067         164.646         -43.0802        -22.4037         -43.0802        -22.4038       -0.0245741         142.139
0.626                   -3.91917         163.958         -42.9581        -24.5851         -42.9581        -24.5851       -0.0248877         142.056
0.627                   -3.99866         163.272         -42.8364        -26.7672         -42.8364        -26.7673       -0.0252051         141.973
0.628                    -4.0791         162.588         -42.7152        -28.9501         -42.7152        -28.9501       -0.0255261          141.89
0.629                   -4.16047         161.906         -42.5945        -31.1335         -42.5945        -31.1335        -0.025851         141.806
