! TOUCHSTONE file generated by CST MICROWAVE STUDIO
! Date and time: Fri Oct  2 19:12:26 2020
! Project name: Scenario_1_Free_Space_out_of_line.cst
! Parameters = {Lambda=346.42; Step_1=17.321; dy1=52.843; dx1=866; L_HA=400; MT=2.54; Rad_Dielectric=30; Rad_Lower=7.3; Rad_Upper=30; a_HA=580; a_WG=246; b_HA=500; b_WG=121; c_HA=0; c_WG=187; d_feed=85; h_feed=15; h_lower=18; h_upper=40}
! Header version: 2018
! Port assignment regex: !\s*Touchstone port\s*([0-9]+)\s*=\s*(CST MWS port|CST DS port)\s*([0-9]+|Zmin|Zmax)\s*\(\"(.*)\"\)(\s*mode\s*([0-9]+))?.*
! Touchstone port assignment:
! Touchstone port 1 = CST MWS port 1 ("")
! Touchstone port 2 = CST MWS port 2 ("")
# GHz S DB R 50
0.5                    -0.147909        -122.369         -63.1812         143.238         -63.1812         143.238      -0.00650978          151.16
0.501                  -0.153022        -122.825         -63.0296         141.291         -63.0286         141.289      -0.00657392         151.095
0.502                  -0.158393        -123.283         -62.8757         139.331         -62.8737         139.328      -0.00663905          151.03
0.503                  -0.164025        -123.743         -62.7195         137.358         -62.7165         137.354      -0.00670518         150.964
0.504                  -0.169919        -124.204          -62.561         135.372         -62.5571         135.367      -0.00677231         150.899
0.505                  -0.176077        -124.667         -62.4002         133.374         -62.3954         133.368      -0.00684044         150.833
0.506                  -0.182502        -125.131         -62.2373         131.363         -62.2317         131.356      -0.00690958         150.767
0.507                  -0.189196        -125.597         -62.0722          129.34         -62.0658         129.333      -0.00697972         150.702
0.508                   -0.19616        -126.065          -61.905         127.305         -61.8979         127.296      -0.00705087         150.636
0.509                  -0.203398        -126.535         -61.7357         125.257         -61.7279         125.248      -0.00712303          150.57
0.51                    -0.21091        -127.006         -61.5645         123.196         -61.5561         123.187       -0.0071962         150.504
0.511                  -0.218698        -127.479         -61.3913         121.124         -61.3823         121.114      -0.00727037         150.438
0.512                  -0.226766        -127.954         -61.2162         119.039         -61.2067         119.029      -0.00734556         150.372
0.513                  -0.235114         -128.43         -61.0394         116.941         -61.0293         116.931      -0.00742176         150.306
0.514                  -0.243744        -128.908         -60.8608         114.832         -60.8503         114.822      -0.00749898          150.24
0.515                  -0.252659        -129.387         -60.6805         112.709         -60.6696           112.7      -0.00757721         150.173
0.516                  -0.261859        -129.869         -60.4986         110.575         -60.4874         110.565      -0.00765646         150.107
0.517                  -0.271348        -130.351         -60.3152         108.428         -60.3037         108.418      -0.00773672          150.04
0.518                  -0.281126        -130.836         -60.1304         106.269         -60.1186         106.259      -0.00781801         149.974
0.519                  -0.291195        -131.322         -59.9443         104.097         -59.9322         104.088      -0.00790031         149.907
0.52                   -0.301556         -131.81         -59.7568         101.913         -59.7446         101.904      -0.00798364         149.841
0.521                  -0.312212        -132.299         -59.5683          99.717         -59.5558         99.7077      -0.00806798         149.774
0.522                  -0.323164        -132.791         -59.3786         97.5082          -59.366         97.4991      -0.00815335         149.707
0.523                  -0.334413        -133.283         -59.1879          95.287         -59.1753         95.2781      -0.00823975          149.64
0.524                  -0.345961        -133.778         -58.9964         93.0533         -58.9837         93.0446      -0.00832716         149.573
0.525                  -0.357809        -134.274         -58.8041         90.8072         -58.7914         90.7988      -0.00841561         149.506
0.526                  -0.369959        -134.771         -58.6111         88.5487         -58.5984         88.5405      -0.00850507         149.438
0.527                  -0.382411        -135.271         -58.4175         86.2779         -58.4049         86.2699      -0.00859557         149.371
0.528                  -0.395168        -135.771         -58.2234         83.9947         -58.2109         83.9869      -0.00868709         149.304
0.529                   -0.40823        -136.274          -58.029         81.6992         -58.0165         81.6917      -0.00877964         149.236
0.53                   -0.421598        -136.778         -57.8343         79.3915          -57.822         79.3842      -0.00887321         149.169
0.531                  -0.435274        -137.284         -57.6394         77.0716         -57.6273         77.0646      -0.00896781         149.101
0.532                  -0.449259        -137.791         -57.4445         74.7396         -57.4325         74.7329      -0.00906344         149.033
0.533                  -0.463554          -138.3         -57.2497         72.3957         -57.2379         72.3892       -0.0091601         148.965
0.534                  -0.478159        -138.811          -57.055           70.04         -57.0435         70.0337      -0.00925778         148.897
0.535                  -0.493077        -139.323         -56.8607         67.6727         -56.8493         67.6666      -0.00935649         148.829
0.536                  -0.508307        -139.837         -56.6667         65.2939         -56.6556          65.288      -0.00945623         148.761
0.537                   -0.52385        -140.353         -56.4732         62.9037         -56.4624         62.8981      -0.00955699         148.693
0.538                  -0.539708         -140.87         -56.2803         60.5026         -56.2698         60.4972      -0.00965878         148.624
0.539                  -0.555881        -141.389         -56.0882         58.0906          -56.078         58.0855       -0.0097616         148.556
0.54                   -0.572371         -141.91         -55.8969         55.6681          -55.887         55.6632      -0.00986544         148.487
0.541                  -0.589177        -142.432         -55.7065         53.2353         -55.6969         53.2307       -0.0099703         148.419
0.542                  -0.606301        -142.956         -55.5171         50.7927         -55.5078         50.7883       -0.0100762          148.35
0.543                  -0.623743        -143.481         -55.3288         48.3405         -55.3199         48.3364       -0.0101831         148.281
0.544                  -0.641504        -144.008         -55.1418         45.8792         -55.1332         45.8754        -0.010291         148.212
0.545                  -0.659584        -144.537          -54.956         43.4091         -54.9478         43.4056       -0.0103999         148.143
0.546                  -0.677985        -145.068         -54.7717         40.9307         -54.7638         40.9274       -0.0105099         148.074
0.547                  -0.696707          -145.6         -54.5888         38.4444         -54.5813         38.4414       -0.0106209         148.005
0.548                   -0.71575        -146.134         -54.4075         35.9508         -54.4003         35.9481       -0.0107329         147.935
0.549                  -0.735116         -146.67         -54.2278         33.4502         -54.2209         33.4478       -0.0108459         147.866
0.55                   -0.754804        -147.208         -54.0497         30.9433         -54.0432         30.9412       -0.0109599         147.796
0.551                  -0.774816        -147.747         -53.8734         28.4305         -53.8672         28.4287       -0.0110749         147.727
0.552                  -0.795152        -148.288         -53.6989         25.9124         -53.6931          25.911       -0.0111909         147.657
0.553                  -0.815814        -148.831         -53.5263         23.3896         -53.5207         23.3885       -0.0113079         147.587
0.554                  -0.836801        -149.376         -53.3555         20.8627         -53.3503         20.8619       -0.0114259         147.517
0.555                  -0.858114        -149.923         -53.1866         18.3321         -53.1817         18.3316       -0.0115449         147.447
0.556                  -0.879755        -150.471         -53.0197         15.7986         -53.0151         15.7984       -0.0116649         147.377
0.557                  -0.901725        -151.022         -52.8547         13.2626         -52.8504         13.2628       -0.0117859         147.306
0.558                  -0.924024        -151.574         -52.6917         10.7248         -52.6877         10.7253       -0.0119079         147.236
0.559                  -0.946653        -152.128         -52.5307         8.18572          -52.527         8.18652       -0.0120309         147.165
0.56                   -0.969614        -152.685         -52.3717         5.64595         -52.3682         5.64706       -0.0121549         147.094
0.561                  -0.992909        -153.243         -52.2147         3.10605         -52.2114         3.10745       -0.0122798         147.023
0.562                   -1.01654        -153.804         -52.0596         0.56655         -52.0566        0.568236       -0.0124058         146.952
0.563                    -1.0405        -154.366         -51.9064        -1.97201         -51.9037        -1.97005       -0.0125327         146.881
0.564                   -1.06481        -154.931         -51.7552        -4.50913         -51.7527        -4.50691       -0.0126606          146.81
0.565                   -1.08945        -155.498         -51.6059        -7.04431         -51.6036        -7.04185       -0.0127895         146.739
0.566                   -1.11444        -156.067         -51.4584         -9.5771         -51.4563        -9.57441       -0.0129194         146.667
0.567                   -1.13977        -156.638         -51.3127         -12.107         -51.3108        -12.1042       -0.0130502         146.596
0.568                   -1.16544        -157.212         -51.1688        -14.6337         -51.1671        -14.6307       -0.0131821         146.524
0.569                   -1.19147        -157.788         -51.0267        -17.1568         -51.0251        -17.1536        -0.013315         146.452
0.57                    -1.21786        -158.367         -50.8862        -19.6759         -50.8848        -19.6725       -0.0134488          146.38
0.571                    -1.2446        -158.948         -50.7473        -22.1906          -50.746        -22.1871       -0.0135837         146.308
0.572                    -1.2717        -159.531         -50.6099        -24.7008         -50.6088        -24.6972       -0.0137196         146.236
0.573                   -1.29917        -160.117         -50.4741        -27.2061         -50.4731        -27.2024       -0.0138565         146.163
0.574                   -1.32701        -160.706         -50.3396        -29.7063         -50.3387        -29.7026       -0.0139945          146.09
0.575                   -1.35522        -161.297         -50.2066        -32.2012         -50.2058        -32.1974       -0.0141335         146.018
0.576                   -1.38382        -161.892         -50.0748        -34.6907         -50.0741        -34.6869       -0.0142737         145.945
0.577                   -1.41281        -162.489         -49.9443        -37.1746         -49.9436        -37.1708       -0.0144149         145.872
0.578                   -1.44219        -163.089         -49.8149        -39.6528         -49.8143         -39.649       -0.0145572         145.799
0.579                   -1.47198        -163.692         -49.6866        -42.1253         -49.6861        -42.1216       -0.0147008         145.725
0.58                    -1.50217        -164.298         -49.5593        -44.5919         -49.5589        -44.5883       -0.0148455         145.652
0.581                   -1.53279        -164.908          -49.433        -47.0528         -49.4327        -47.0493       -0.0149915         145.578
0.582                   -1.56385         -165.52         -49.3076        -49.5079         -49.3073        -49.5045       -0.0151387         145.504
0.583                   -1.59534        -166.136          -49.183        -51.9573         -49.1828         -51.954       -0.0152873         145.431
0.584                   -1.62729        -166.756         -49.0592         -54.401          -49.059        -54.3979       -0.0154373         145.356
0.585                    -1.6597        -167.379         -48.9361        -56.8391         -48.9359        -56.8361       -0.0155888         145.282
0.586                   -1.69259        -168.005         -48.8136        -59.2718         -48.8135         -59.269       -0.0157417         145.208
0.587                   -1.72598        -168.636         -48.6918        -61.6992         -48.6917        -61.6965       -0.0158963         145.133
0.588                   -1.75988         -169.27         -48.5704        -64.1214         -48.5703        -64.1189       -0.0160526         145.058
0.589                   -1.79431        -169.908         -48.4496        -66.5386         -48.4495        -66.5363       -0.0162106         144.983
0.59                    -1.82929        -170.549         -48.3291         -68.951         -48.3291        -68.9489       -0.0163706         144.908
0.591                   -1.86484        -171.195         -48.2091        -71.3588          -48.209        -71.3569       -0.0165325         144.833
0.592                   -1.90097        -171.846         -48.0894        -73.7622         -48.0893        -73.7605       -0.0166966         144.757
0.593                   -1.93772          -172.5           -47.97        -76.1614         -47.9699          -76.16       -0.0168629         144.682
0.594                    -1.9751        -173.159         -47.8508        -78.5568         -47.8508        -78.5555       -0.0170316         144.606
0.595                   -2.01314        -173.822         -47.7319        -80.9484         -47.7319        -80.9473       -0.0172027          144.53
0.596                   -2.05188         -174.49         -47.6131        -83.3366         -47.6131        -83.3357       -0.0173766         144.454
0.597                   -2.09133        -175.162         -47.4945        -85.7216         -47.4945         -85.721       -0.0175532         144.377
0.598                   -2.13154        -175.839         -47.3761        -88.1037         -47.3761        -88.1032       -0.0177328         144.301
0.599                   -2.17253         -176.52         -47.2578        -90.4832         -47.2577        -90.4829       -0.0179155         144.224
0.6                     -2.21433        -177.207         -47.1395        -92.8602         -47.1395        -92.8601       -0.0181016         144.147
0.601                     -2.257        -177.898         -47.0213        -95.2352         -47.0213        -95.2352        -0.018291          144.07
0.602                   -2.30056        -178.595         -46.9032        -97.6082         -46.9032        -97.6084       -0.0184841         143.992
0.603                   -2.34506        -179.296         -46.7851        -99.9796         -46.7851        -99.9799        -0.018681         143.915
0.604                   -2.39053         179.998         -46.6671         -102.35          -46.667         -102.35       -0.0188818         143.837
0.605                   -2.43703         179.287         -46.5491        -104.719          -46.549        -104.719       -0.0190866         143.759
0.606                    -2.4846         178.571         -46.4311        -107.087          -46.431        -107.087       -0.0192958         143.681
0.607                   -2.53328          177.85         -46.3131        -109.454          -46.313        -109.455       -0.0195093         143.602
0.608                   -2.58314         177.124         -46.1952        -111.821         -46.1951        -111.822       -0.0197272         143.524
0.609                   -2.63421         176.393         -46.0773        -114.188         -46.0771        -114.189       -0.0199499         143.445
0.61                    -2.68654         175.657         -45.9594        -116.555         -45.9592        -116.556       -0.0201772         143.366
0.611                   -2.74021         174.917         -45.8415        -118.922         -45.8413        -118.923       -0.0204093         143.287
0.612                   -2.79525         174.172         -45.7237         -121.29         -45.7235         -121.29       -0.0206464         143.207
0.613                   -2.85172         173.423         -45.6059        -123.658         -45.6057        -123.659       -0.0208884         143.127
0.614                   -2.90968         172.669         -45.4882        -126.026          -45.488        -126.027       -0.0211354         143.048
0.615                   -2.96918         171.911         -45.3706        -128.396         -45.3704        -128.397       -0.0213874         142.967
0.616                   -3.03029          171.15         -45.2531        -130.767         -45.2529        -130.768       -0.0216445         142.887
0.617                   -3.09304         170.385         -45.1357        -133.139         -45.1355         -133.14       -0.0219067         142.807
0.618                    -3.1575         169.617         -45.0185        -135.512         -45.0182        -135.513       -0.0221739         142.726
0.619                   -3.22372         168.846         -44.9014        -137.887          -44.901        -137.888       -0.0224462         142.645
0.62                    -3.29175         168.072         -44.7844        -140.263         -44.7841        -140.264       -0.0227235         142.563
0.621                   -3.36163         167.296         -44.6677        -142.641         -44.6673        -142.641       -0.0230058         142.482
0.622                   -3.43341         166.518         -44.5511         -145.02         -44.5507         -145.02        -0.023293           142.4
0.623                   -3.50714         165.739         -44.4348        -147.401         -44.4344        -147.401       -0.0235852         142.318
0.624                   -3.58284         164.959         -44.3187        -149.783         -44.3183        -149.783       -0.0238822         142.236
0.625                   -3.66056         164.178          -44.203        -152.167         -44.2025        -152.167       -0.0241841         142.154
0.626                   -3.74031         163.398         -44.0875        -154.553          -44.087        -154.553       -0.0244907         142.071
0.627                   -3.82213         162.618         -43.9723         -156.94         -43.9718         -156.94       -0.0248021         141.988
0.628                   -3.90603         161.839         -43.8574        -159.329         -43.8569        -159.329       -0.0251182         141.905
0.629                   -3.99203         161.061         -43.7429         -161.72         -43.7424         -161.72        -0.025439         141.821
