! TOUCHSTONE file generated by CST MICROWAVE STUDIO
! Date and time: Fri Oct  2 18:57:02 2020
! Project name: Scenario_1_Free_Space_out_of_line.cst
! Parameters = {Lambda=346.42; Step_1=17.321; dy1=52.843; dx1=1039; L_HA=400; MT=2.54; Rad_Dielectric=30; Rad_Lower=7.3; Rad_Upper=30; a_HA=580; a_WG=246; b_HA=500; b_WG=121; c_HA=0; c_WG=187; d_feed=85; h_feed=15; h_lower=18; h_upper=40}
! Header version: 2018
! Port assignment regex: !\s*Touchstone port\s*([0-9]+)\s*=\s*(CST MWS port|CST DS port)\s*([0-9]+|Zmin|Zmax)\s*\(\"(.*)\"\)(\s*mode\s*([0-9]+))?.*
! Touchstone port assignment:
! Touchstone port 1 = CST MWS port 1 ("")
! Touchstone port 2 = CST MWS port 2 ("")
# GHz S DB R 50
0.5                    -0.148016        -122.564         -63.5737         46.2123         -63.5737         46.2123       -0.0067089         151.143
0.501                  -0.153745        -122.992         -63.4704          43.764         -63.4704         43.7636      -0.00674804         151.078
0.502                  -0.159584        -123.422         -63.3621         41.3012         -63.3622         41.3003      -0.00678861         151.013
0.503                   -0.16554        -123.854         -63.2489         38.8251          -63.249         38.8237      -0.00683061         150.947
0.504                  -0.171618        -124.289         -63.1308         36.3366         -63.1309         36.3348      -0.00687404         150.882
0.505                  -0.177824        -124.727         -63.0077         33.8371         -63.0078         33.8348       -0.0069189         150.816
0.506                  -0.184165        -125.166         -62.8798         31.3275         -62.8799         31.3249       -0.0069652          150.75
0.507                  -0.190646        -125.609         -62.7472          28.809         -62.7473          28.806      -0.00701294         150.685
0.508                  -0.197274        -126.054         -62.6098         26.2826         -62.6099         26.2792      -0.00706212         150.619
0.509                  -0.204054        -126.501         -62.4678         23.7493         -62.4679         23.7456      -0.00711275         150.553
0.51                   -0.210995        -126.951         -62.3213           21.21         -62.3215         21.2061      -0.00716483         150.487
0.511                  -0.218101        -127.404         -62.1705         18.6658         -62.1706         18.6615      -0.00721836         150.421
0.512                   -0.22538        -127.859         -62.0154         16.1173         -62.0155         16.1128      -0.00727334         150.355
0.513                  -0.232839        -128.317         -61.8562         13.5654         -61.8563         13.5606      -0.00732978         150.289
0.514                  -0.240484        -128.778          -61.693         11.0107         -61.6931         11.0057      -0.00738768         150.222
0.515                  -0.248322        -129.241          -61.526         8.45396         -61.5261          8.4488      -0.00744705         150.156
0.516                  -0.256361        -129.707         -61.3554         5.89567         -61.3555         5.89034      -0.00750789         150.089
0.517                  -0.264606        -130.175         -61.1813         3.33634         -61.1814         3.33087      -0.00757021         150.023
0.518                  -0.273066        -130.646          -61.004        0.776393         -61.0041        0.770794        -0.007634         149.956
0.519                  -0.281748         -131.12         -60.8235        -1.78382         -60.8235        -1.78952      -0.00769927         149.889
0.52                   -0.290658        -131.597           -60.64        -4.34402         -60.6401        -4.34979      -0.00776604         149.823
0.521                  -0.299804        -132.076         -60.4538        -6.90397         -60.4539         -6.9098      -0.00783429         149.756
0.522                  -0.309194        -132.558         -60.2651        -9.46353         -60.2651         -9.4694      -0.00790404         149.689
0.523                  -0.318834        -133.042         -60.0739        -12.0226          -60.074        -12.0285      -0.00797529         149.622
0.524                  -0.328733         -133.53         -59.8805        -14.5811         -59.8806         -14.587      -0.00804805         149.554
0.525                  -0.338898         -134.02         -59.6852        -17.1391         -59.6852         -17.145      -0.00812232         149.487
0.526                  -0.349336        -134.513         -59.4879        -19.6967          -59.488        -19.7025      -0.00819811          149.42
0.527                  -0.360055        -135.008         -59.2891        -22.2539         -59.2891        -22.2596      -0.00827542         149.352
0.528                  -0.371063        -135.506         -59.0887        -24.8108         -59.0887        -24.8165      -0.00835426         149.285
0.529                  -0.382367        -136.007          -58.887        -27.3677          -58.887        -27.3734      -0.00843463         149.217
0.53                   -0.393974        -136.511         -58.6842        -29.9248         -58.6842        -29.9304      -0.00851655         149.149
0.531                  -0.405893        -137.017         -58.4805        -32.4824         -58.4805        -32.4877      -0.00860001         149.081
0.532                  -0.418131        -137.526         -58.2759        -35.0405         -58.2759        -35.0458      -0.00868502         149.013
0.533                  -0.430696        -138.038         -58.0707        -37.5996         -58.0707        -37.6047       -0.0087716         148.945
0.534                  -0.443595        -138.552         -57.8651        -40.1599          -57.865        -40.1649      -0.00885974         148.877
0.535                  -0.456836         -139.07         -57.6591        -42.7218          -57.659        -42.7266      -0.00894945         148.809
0.536                  -0.470427        -139.589         -57.4529        -45.2855         -57.4529        -45.2901      -0.00904075         148.741
0.537                  -0.484374        -140.112         -57.2467        -47.8512         -57.2467        -47.8557      -0.00913363         148.672
0.538                  -0.498686        -140.637         -57.0407        -50.4194         -57.0407        -50.4237      -0.00922811         148.604
0.539                   -0.51337        -141.165         -56.8349        -52.9904         -56.8349        -52.9945      -0.00932419         148.535
0.54                   -0.528433        -141.695         -56.6295        -55.5643         -56.6295        -55.5682      -0.00942188         148.466
0.541                  -0.543882        -142.228         -56.4246        -58.1415         -56.4246        -58.1452       -0.0095212         148.397
0.542                  -0.559725        -142.764         -56.2204        -60.7222         -56.2204        -60.7257      -0.00962214         148.328
0.543                  -0.575969        -143.302         -56.0169        -63.3067         -56.0169          -63.31      -0.00972471         148.259
0.544                  -0.592621        -143.842         -55.8144        -65.8951         -55.8144        -65.8982      -0.00982893          148.19
0.545                  -0.609688        -144.386         -55.6128        -68.4878         -55.6128        -68.4907      -0.00993481         148.121
0.546                  -0.627177        -144.931         -55.4124        -71.0849         -55.4124        -71.0876       -0.0100423         148.051
0.547                  -0.645093         -145.48         -55.2132        -73.6865         -55.2132         -73.689       -0.0101516         147.982
0.548                  -0.663445         -146.03         -55.0153        -76.2927         -55.0153         -76.295       -0.0102624         147.912
0.549                  -0.682238        -146.583         -54.8189        -78.9037         -54.8188        -78.9058        -0.010375         147.842
0.55                   -0.701478        -147.139         -54.6239        -81.5196         -54.6239        -81.5214       -0.0104893         147.772
0.551                  -0.721172        -147.697         -54.4305        -84.1403         -54.4305         -84.142       -0.0106053         147.702
0.552                  -0.741325        -148.257         -54.2388         -86.766         -54.2388        -86.7674        -0.010723         147.632
0.553                  -0.761943         -148.82         -54.0489        -89.3965         -54.0488        -89.3978       -0.0108425         147.562
0.554                  -0.783033        -149.385         -53.8607        -92.0319         -53.8607         -92.033       -0.0109637         147.492
0.555                  -0.804598        -149.952         -53.6745        -94.6721         -53.6744         -94.673       -0.0110866         147.421
0.556                  -0.826645        -150.522         -53.4902         -97.317         -53.4901        -97.3177       -0.0112113         147.351
0.557                  -0.849178        -151.094         -53.3078        -99.9665         -53.3078         -99.967       -0.0113378          147.28
0.558                  -0.872202        -151.668         -53.1276         -102.62         -53.1275        -102.621       -0.0114661         147.209
0.559                  -0.895721        -152.244         -52.9494        -105.279         -52.9493        -105.279       -0.0115962         147.138
0.56                    -0.91974        -152.822         -52.7733        -107.941         -52.7733        -107.941       -0.0117281         147.067
0.561                  -0.944263        -153.403         -52.5994        -110.607         -52.5993        -110.607       -0.0118618         146.996
0.562                  -0.969294        -153.985         -52.4277        -113.277         -52.4276        -113.277       -0.0119974         146.925
0.563                  -0.994835         -154.57         -52.2581         -115.95         -52.2581         -115.95       -0.0121348         146.853
0.564                   -1.02089        -155.156         -52.0908        -118.627         -52.0907        -118.626       -0.0122741         146.781
0.565                   -1.04746        -155.745         -51.9257        -121.306         -51.9256        -121.305       -0.0124153          146.71
0.566                   -1.07456        -156.335         -51.7628        -123.988         -51.7627        -123.987       -0.0125583         146.638
0.567                   -1.10217        -156.928         -51.6021        -126.672          -51.602        -126.671       -0.0127033         146.566
0.568                   -1.13031        -157.522         -51.4436        -129.359         -51.4435        -129.358       -0.0128502         146.494
0.569                   -1.15898        -158.119         -51.2873        -132.047         -51.2872        -132.046        -0.012999         146.421
0.57                    -1.18818        -158.717         -51.1331        -134.736          -51.133        -134.735       -0.0131498         146.349
0.571                    -1.2179        -159.317         -50.9811        -137.427          -50.981        -137.425       -0.0133026         146.277
0.572                   -1.24816        -159.919         -50.8312        -140.118         -50.8311        -140.117       -0.0134573         146.204
0.573                   -1.27895        -160.522         -50.6834         -142.81         -50.6833        -142.809        -0.013614         146.131
0.574                   -1.31027        -161.128         -50.5376        -145.502         -50.5375        -145.501       -0.0137728         146.058
0.575                   -1.34213        -161.735         -50.3938        -148.195         -50.3937        -148.193       -0.0139336         145.985
0.576                   -1.37451        -162.344         -50.2519        -150.887         -50.2518        -150.885       -0.0140964         145.912
0.577                   -1.40743        -162.954         -50.1119        -153.578         -50.1118        -153.576       -0.0142613         145.838
0.578                   -1.44089        -163.567         -49.9738        -156.269         -49.9736        -156.267       -0.0144283         145.765
0.579                   -1.47487        -164.181         -49.8374        -158.958         -49.8372        -158.957       -0.0145973         145.691
0.58                    -1.50939        -164.797         -49.7027        -161.647         -49.7026        -161.645       -0.0147685         145.617
0.581                   -1.54444        -165.414         -49.5697        -164.334         -49.5695        -164.332       -0.0149419         145.543
0.582                   -1.58002        -166.033         -49.4382        -167.019         -49.4381        -167.018       -0.0151174         145.469
0.583                   -1.61613        -166.654         -49.3083        -169.703         -49.3081        -169.701        -0.015295         145.394
0.584                   -1.65277        -167.277         -49.1798        -172.385         -49.1796        -172.383       -0.0154749          145.32
0.585                   -1.68993        -167.901         -49.0527        -175.065         -49.0525        -175.063        -0.015657         145.245
0.586                   -1.72762        -168.527         -48.9268        -177.742         -48.9267        -177.741       -0.0158413          145.17
0.587                   -1.76583        -169.155         -48.8023         179.582         -48.8021         179.584       -0.0160278         145.095
0.588                   -1.80456        -169.785         -48.6789         176.909         -48.6787          176.91       -0.0162166          145.02
0.589                   -1.84382        -170.416         -48.5565         174.238         -48.5564         174.239       -0.0164078         144.945
0.59                     -1.8836         -171.05         -48.4353          171.57         -48.4351         171.571       -0.0166012         144.869
0.591                   -1.92389        -171.685         -48.3149         168.903         -48.3147         168.905       -0.0167969         144.794
0.592                   -1.96471        -172.322         -48.1955          166.24         -48.1953         166.241        -0.016995         144.718
0.593                   -2.00604        -172.962         -48.0769         163.578         -48.0767         163.579       -0.0171955         144.642
0.594                   -2.04789        -173.603          -47.959         160.919         -47.9588          160.92       -0.0173983         144.566
0.595                   -2.09027        -174.247         -47.8419         158.262         -47.8417         158.263       -0.0176036         144.489
0.596                   -2.13316        -174.892         -47.7253         155.607         -47.7252         155.609       -0.0178113         144.413
0.597                   -2.17657         -175.54         -47.6094         152.955         -47.6092         152.956       -0.0180214         144.336
0.598                   -2.22051        -176.191          -47.494         150.305         -47.4938         150.305        -0.018234         144.259
0.599                   -2.26497        -176.843          -47.379         147.656         -47.3788         147.657        -0.018449         144.182
0.6                     -2.30996        -177.499         -47.2645         145.009         -47.2643          145.01       -0.0186666         144.104
0.601                   -2.35549        -178.157         -47.1503         142.365         -47.1501         142.365       -0.0188867         144.027
0.602                   -2.40156        -178.817         -47.0364         139.721         -47.0363         139.722       -0.0191094         143.949
0.603                   -2.44817        -179.481         -46.9229          137.08         -46.9227          137.08       -0.0193346         143.871
0.604                   -2.49535         179.852         -46.8095         134.439         -46.8094          134.44       -0.0195623         143.793
0.605                   -2.54308         179.182         -46.6964           131.8         -46.6962           131.8       -0.0197927         143.715
0.606                    -2.5914         178.509         -46.5834         129.162         -46.5833         129.162       -0.0200256         143.636
0.607                    -2.6403         177.833         -46.4706         126.525         -46.4704         126.525       -0.0202612         143.557
0.608                   -2.68981         177.152         -46.3578         123.888         -46.3577         123.889       -0.0204994         143.479
0.609                   -2.73994         176.469         -46.2452         121.253         -46.2451         121.253       -0.0207403         143.399
0.61                    -2.79071         175.781         -46.1326         118.617         -46.1325         118.618       -0.0209838          143.32
0.611                   -2.84214         175.089           -46.02         115.982         -46.0199         115.982         -0.02123          143.24
0.612                   -2.89426         174.393         -45.9075         113.347         -45.9074         113.348        -0.021479          143.16
0.613                    -2.9471         173.692          -45.795         110.713         -45.7949         110.713       -0.0217306          143.08
0.614                   -3.00068         172.987         -45.6824         108.078         -45.6823         108.078        -0.021985             143
0.615                   -3.05503         172.277         -45.5699         105.443         -45.5698         105.443       -0.0222421          142.92
0.616                   -3.11021         171.561         -45.4574         102.807         -45.4573         102.807       -0.0225021         142.839
0.617                   -3.16624         170.841         -45.3448         100.171         -45.3447         100.171       -0.0227649         142.758
0.618                   -3.22317         170.116         -45.2322         97.5345         -45.2321         97.5345       -0.0230305         142.677
0.619                   -3.28105         169.385         -45.1196         94.8971         -45.1196         94.8971       -0.0232992         142.595
0.62                    -3.33993         168.648          -45.007         92.2588          -45.007         92.2587       -0.0235709         142.513
0.621                   -3.39987         167.905         -44.8944         89.6195         -44.8944         89.6194       -0.0238459         142.431
0.622                   -3.46093         167.156         -44.7819         86.9791         -44.7818          86.979       -0.0241242         142.349
0.623                   -3.52318         166.402         -44.6693         84.3376         -44.6693         84.3375       -0.0244061         142.266
0.624                   -3.58669         165.641         -44.5568         81.6948         -44.5567         81.6947        -0.024692         142.184
0.625                   -3.65154         164.873         -44.4443         79.0507         -44.4443         79.0506       -0.0249822           142.1
0.626                    -3.7178           164.1         -44.3319         76.4053         -44.3319         76.4051       -0.0252772         142.017
0.627                   -3.78557          163.32         -44.2196         73.7584         -44.2196         73.7583       -0.0255778         141.933
0.628                   -3.85493         162.533         -44.1074         71.1101         -44.1074         71.1099       -0.0258848         141.849
0.629                   -3.92598          161.74         -43.9954         68.4603         -43.9954         68.4601       -0.0261991         141.765
