! TOUCHSTONE file generated by CST MICROWAVE STUDIO
! Date and time: Fri Oct  2 18:39:29 2020
! Project name: Scenario_1_Free_Space_out_of_line.cst
! Parameters = {Lambda=346.42; Step_1=17.321; dy1=35.502; dx1=173; L_HA=400; MT=2.54; Rad_Dielectric=30; Rad_Lower=7.3; Rad_Upper=30; a_HA=580; a_WG=246; b_HA=500; b_WG=121; c_HA=0; c_WG=187; d_feed=85; h_feed=15; h_lower=18; h_upper=40}
! Header version: 2018
! Port assignment regex: !\s*Touchstone port\s*([0-9]+)\s*=\s*(CST MWS port|CST DS port)\s*([0-9]+|Zmin|Zmax)\s*\(\"(.*)\"\)(\s*mode\s*([0-9]+))?.*
! Touchstone port assignment:
! Touchstone port 1 = CST MWS port 1 ("")
! Touchstone port 2 = CST MWS port 2 ("")
# GHz S DB R 50
0.5                    -0.159606         -122.73         -56.1677         168.099         -56.1677         168.099      -0.00685584         151.098
0.501                   -0.16574        -123.167         -55.9635         166.829         -55.9635          166.83      -0.00689876         151.033
0.502                  -0.171991        -123.606         -55.7603         165.545         -55.7603         165.547      -0.00694158         150.967
0.503                  -0.178359        -124.046         -55.5582         164.249         -55.5581         164.252      -0.00698434         150.902
0.504                  -0.184846        -124.488         -55.3572         162.941         -55.3571         162.945      -0.00702707         150.836
0.505                  -0.191455        -124.932         -55.1574         161.622         -55.1572         161.626      -0.00706979         150.771
0.506                  -0.198186        -125.378         -54.9587         160.292         -54.9585         160.296      -0.00711254         150.705
0.507                  -0.205042        -125.826         -54.7612         158.951          -54.761         158.956      -0.00715536         150.639
0.508                  -0.212025        -126.275          -54.565         157.601         -54.5648         157.606      -0.00719827         150.574
0.509                  -0.219137        -126.727         -54.3701         156.241         -54.3698         156.246      -0.00724132         150.508
0.51                   -0.226379         -127.18         -54.1765         154.872         -54.1761         154.877      -0.00728454         150.442
0.511                  -0.233755        -127.636         -53.9842         153.494         -53.9838           153.5      -0.00732796         150.376
0.512                  -0.241266        -128.093         -53.7932         152.109         -53.7928         152.114      -0.00737163         150.309
0.513                  -0.248915        -128.553         -53.6035         150.715         -53.6031         150.721      -0.00741558         150.243
0.514                  -0.256705        -129.014         -53.4152         149.315         -53.4148          149.32      -0.00745985         150.177
0.515                  -0.264638        -129.478         -53.2282         147.908         -53.2278         147.914      -0.00750448          150.11
0.516                  -0.272716        -129.944         -53.0426         146.495         -53.0421           146.5      -0.00754952         150.044
0.517                  -0.280943        -130.411         -52.8583         145.077         -52.8579         145.082        -0.007595         149.977
0.518                  -0.289322        -130.882         -52.6754         143.653         -52.6749         143.658      -0.00764097          149.91
0.519                  -0.297856        -131.354         -52.4938         142.224         -52.4933         142.229      -0.00768747         149.843
0.52                   -0.306548        -131.828         -52.3135         140.791          -52.313         140.796      -0.00773455         149.776
0.521                  -0.315401        -132.305         -52.1345         139.354          -52.134         139.358      -0.00778226         149.709
0.522                  -0.324419        -132.784         -51.9567         137.914         -51.9563         137.918      -0.00783063         149.642
0.523                  -0.333606        -133.266         -51.7803          136.47         -51.7799         136.474      -0.00787973         149.575
0.524                  -0.342966         -133.75          -51.605         135.024         -51.6046         135.027       -0.0079296         149.508
0.525                  -0.352502        -134.236          -51.431         133.575         -51.4306         133.578      -0.00798029          149.44
0.526                  -0.362218        -134.725         -51.2581         132.124         -51.2578         132.127      -0.00803185         149.373
0.527                   -0.37212        -135.216         -51.0864         130.672         -51.0861         130.674      -0.00808434         149.305
0.528                  -0.382211         -135.71         -50.9158         129.217         -50.9155         129.219      -0.00813781         149.237
0.529                  -0.392496        -136.206         -50.7463         127.762         -50.7461         127.764      -0.00819231         149.169
0.53                   -0.402981        -136.705         -50.5779         126.306         -50.5776         126.307      -0.00824791         149.102
0.531                  -0.413669        -137.207         -50.4104         124.849         -50.4102          124.85      -0.00830466         149.033
0.532                  -0.424567        -137.711         -50.2439         123.391         -50.2437         123.392      -0.00836261         148.965
0.533                   -0.43568        -138.218         -50.0784         121.934         -50.0782         121.934      -0.00842184         148.897
0.534                  -0.447014        -138.727         -49.9137         120.476         -49.9136         120.476       -0.0084824         148.829
0.535                  -0.458575         -139.24         -49.7499         119.018         -49.7498         119.019      -0.00854435          148.76
0.536                  -0.470368        -139.755         -49.5869         117.561         -49.5869         117.561      -0.00860776         148.692
0.537                  -0.482401        -140.273         -49.4247         116.104         -49.4247         116.104       -0.0086727         148.623
0.538                   -0.49468        -140.794         -49.2632         114.647         -49.2633         114.647      -0.00873923         148.554
0.539                  -0.507212        -141.318         -49.1025         113.191         -49.1025         113.191      -0.00880742         148.485
0.54                   -0.520004        -141.845         -48.9423         111.736         -48.9424         111.736      -0.00887734         148.416
0.541                  -0.533064        -142.375         -48.7828         110.282          -48.783         110.281      -0.00894906         148.347
0.542                    -0.5464        -142.908         -48.6239         108.828         -48.6241         108.827      -0.00902266         148.278
0.543                  -0.560019        -143.444         -48.4655         107.375         -48.4657         107.374       -0.0090982         148.208
0.544                  -0.573932        -143.984         -48.3076         105.923         -48.3078         105.922      -0.00917576         148.139
0.545                  -0.588145        -144.526         -48.1502         104.472         -48.1504         104.471      -0.00925541         148.069
0.546                  -0.602669        -145.072         -47.9932         103.021         -47.9935         103.021      -0.00933724         147.999
0.547                  -0.617512        -145.621         -47.8366         101.572         -47.8369         101.571      -0.00942133         147.929
0.548                  -0.632686        -146.173         -47.6803         100.123         -47.6807         100.122      -0.00950774         147.859
0.549                  -0.648199        -146.729         -47.5244          98.675         -47.5247         98.6741      -0.00959657         147.789
0.55                   -0.664063        -147.288         -47.3688         97.2276         -47.3691         97.2267       -0.0096879         147.719
0.551                  -0.680289        -147.851         -47.2134         95.7808         -47.2138         95.7799       -0.0097818         147.649
0.552                  -0.696888        -148.417         -47.0583         94.3344         -47.0587         94.3336      -0.00987836         147.578
0.553                  -0.713872        -148.986         -46.9033         92.8886         -46.9037         92.8877      -0.00997767         147.507
0.554                  -0.731253        -149.559         -46.7486          91.443          -46.749         91.4422       -0.0100798         147.437
0.555                  -0.749045        -150.136          -46.594         89.9976         -46.5944         89.9968       -0.0101849         147.366
0.556                   -0.76726        -150.716         -46.4395         88.5523         -46.4399         88.5516       -0.0102929         147.295
0.557                  -0.785913          -151.3         -46.2851         87.1069         -46.2855         87.1063       -0.0104041         147.224
0.558                  -0.805017        -151.888         -46.1308         85.6614         -46.1312         85.6608       -0.0105184         147.152
0.559                  -0.824588        -152.479         -45.9766         84.2155          -45.977         84.2149        -0.010636         147.081
0.56                    -0.84464        -153.074         -45.8224         82.7691         -45.8228         82.7686        -0.010757         147.009
0.561                  -0.865189        -153.673         -45.6682         81.3222         -45.6687         81.3217       -0.0108814         146.938
0.562                  -0.886253        -154.276         -45.5141         79.8744         -45.5145          79.874       -0.0110093         146.866
0.563                  -0.907847        -154.883         -45.3599         78.4257         -45.3603         78.4254       -0.0111409         146.794
0.564                  -0.929989        -155.494         -45.2058         76.9759         -45.2062         76.9756       -0.0112762         146.722
0.565                  -0.952698        -156.108         -45.0516         75.5248          -45.052         75.5246       -0.0114153          146.65
0.566                  -0.975992        -156.726         -44.8973         74.0723         -44.8977         74.0721       -0.0115583         146.577
0.567                   -0.99989        -157.349         -44.7431         72.6181         -44.7435          72.618       -0.0117052         146.505
0.568                   -1.02441        -157.975         -44.5888         71.1622         -44.5891         71.1621       -0.0118562         146.432
0.569                   -1.04958        -158.606         -44.4344         69.7042         -44.4348         69.7042       -0.0120114         146.359
0.57                    -1.07541         -159.24           -44.28         68.2441         -44.2803         68.2441       -0.0121707         146.286
0.571                   -1.10193        -159.878         -44.1255         66.7816         -44.1258         66.7817       -0.0123344         146.213
0.572                   -1.12917        -160.521         -43.9709         65.3166         -43.9713         65.3167       -0.0125025          146.14
0.573                   -1.15713        -161.167         -43.8163         63.8489         -43.8167          63.849        -0.012675         146.067
0.574                   -1.18585        -161.817         -43.6617         62.3783          -43.662         62.3785        -0.012852         145.993
0.575                   -1.21536        -162.471          -43.507         60.9047         -43.5073         60.9049       -0.0130337         145.919
0.576                   -1.24567         -163.13         -43.3523         59.4278         -43.3525          59.428         -0.01322         145.846
0.577                   -1.27681        -163.792         -43.1975         57.9475         -43.1978         57.9477       -0.0134111         145.772
0.578                   -1.30881        -164.458         -43.0427         56.4635          -43.043         56.4638       -0.0136069         145.698
0.579                   -1.34169        -165.128         -42.8879         54.9759         -42.8881         54.9761       -0.0138076         145.623
0.58                    -1.37549        -165.802         -42.7331         53.4842         -42.7333         53.4845       -0.0140132         145.549
0.581                   -1.41023         -166.48         -42.5783         51.9885         -42.5785         51.9888       -0.0142237         145.474
0.582                   -1.44594        -167.161         -42.4236         50.4885         -42.4237         50.4888       -0.0144392           145.4
0.583                   -1.48264        -167.846         -42.2689         48.9841          -42.269         48.9844       -0.0146598         145.325
0.584                   -1.52038        -168.535         -42.1142         47.4751         -42.1143         47.4754       -0.0148854          145.25
0.585                   -1.55917        -169.227         -41.9596         45.9614         -41.9598         45.9617        -0.015116         145.175
0.586                   -1.59905        -169.922         -41.8052         44.4429         -41.8053         44.4431       -0.0153517         145.099
0.587                   -1.64005        -170.621         -41.6508         42.9194         -41.6509         42.9196       -0.0155926         145.024
0.588                    -1.6822        -171.323         -41.4966         41.3907         -41.4967         41.3909       -0.0158385         144.948
0.589                   -1.72553        -172.029         -41.3426         39.8568         -41.3427          39.857       -0.0160896         144.872
0.59                    -1.77008        -172.737         -41.1887         38.3176         -41.1888         38.3177       -0.0163457         144.796
0.591                   -1.81586        -173.448         -41.0351         36.7729         -41.0352          36.773       -0.0166068          144.72
0.592                   -1.86293        -174.161         -40.8818         35.2226         -40.8818         35.2227       -0.0168731         144.644
0.593                    -1.9113        -174.878         -40.7287         33.6667         -40.7287         33.6668       -0.0171443         144.568
0.594                     -1.961        -175.596         -40.5759         32.1051         -40.5759         32.1052       -0.0174204         144.491
0.595                   -2.01208        -176.316         -40.4235         30.5378         -40.4235         30.5378       -0.0177015         144.414
0.596                   -2.06456        -177.039         -40.2714         28.9645         -40.2714         28.9645       -0.0179874         144.337
0.597                   -2.11846        -177.763         -40.1198         27.3854         -40.1198         27.3854       -0.0182781          144.26
0.598                   -2.17382        -178.488         -39.9686         25.8004         -39.9685         25.8003       -0.0185735         144.183
0.599                   -2.23067        -179.215         -39.8178         24.2094         -39.8178         24.2093       -0.0188735         144.105
0.6                     -2.28903        -179.942         -39.6676         22.6125         -39.6675         22.6123       -0.0191781         144.028
0.601                   -2.34893          179.33         -39.5179         21.0096         -39.5178         21.0094        -0.019487          143.95
0.602                   -2.41039         178.602         -39.3687         19.4007         -39.3687         19.4005       -0.0198002         143.872
0.603                   -2.47344         177.873         -39.2202         17.7859         -39.2201         17.7857       -0.0201177         143.794
0.604                   -2.53809         177.145         -39.0723         16.1653         -39.0723          16.165       -0.0204392         143.716
0.605                   -2.60437         176.418         -38.9251         14.5388          -38.925         14.5385       -0.0207647         143.637
0.606                    -2.6723         175.692         -38.7786         12.9065         -38.7785         12.9062        -0.021094         143.558
0.607                   -2.74188         174.968         -38.6328         11.2685         -38.6328         11.2682       -0.0214269          143.48
0.608                   -2.81312         174.245         -38.4879         9.62497         -38.4878         9.62463       -0.0217634           143.4
0.609                   -2.88605         173.525         -38.3437         7.97589         -38.3437         7.97554       -0.0221033         143.321
0.61                    -2.96066         172.807         -38.2004         6.32142         -38.2003         6.32106       -0.0224464         143.242
0.611                   -3.03695         172.092          -38.058          4.6617         -38.0579         4.66132       -0.0227926         143.162
0.612                   -3.11492         171.382         -37.9165         2.99687         -37.9164         2.99647       -0.0231417         143.082
0.613                   -3.19458         170.675         -37.7759         1.32707         -37.7758         1.32666       -0.0234937         143.002
0.614                    -3.2759         169.972         -37.6363       -0.347515         -37.6362        -0.34793       -0.0238482         142.922
0.615                   -3.35888         169.275         -37.4977        -2.02671         -37.4976        -2.02713       -0.0242053         142.842
0.616                   -3.44349         168.583         -37.3601        -3.71033           -37.36        -3.71075       -0.0245647         142.761
0.617                   -3.52972         167.898         -37.2236        -5.39816         -37.2235        -5.39859       -0.0249263          142.68
0.618                   -3.61753         167.218         -37.0881           -7.09         -37.0881        -7.09042         -0.02529         142.599
0.619                   -3.70689         166.546         -36.9538        -8.78562         -36.9537        -8.78604       -0.0256556         142.518
0.62                    -3.79777         165.881         -36.8205        -10.4848         -36.8205        -10.4852       -0.0260231         142.436
0.621                   -3.89011         165.224         -36.6884        -12.1872         -36.6884        -12.1877       -0.0263923         142.355
0.622                   -3.98388         164.576         -36.5575        -13.8928         -36.5575        -13.8932        -0.026763         142.273
0.623                     -4.079         163.936         -36.4277        -15.6011         -36.4277        -15.6015       -0.0271353         142.191
0.624                   -4.17543         163.306         -36.2991        -17.3119         -36.2991        -17.3123       -0.0275091         142.108
0.625                    -4.2731         162.685         -36.1717        -19.0251         -36.1717        -19.0254       -0.0278842         142.025
0.626                   -4.37193         162.075         -36.0455        -20.7402         -36.0455        -20.7405       -0.0282606         141.943
0.627                   -4.47184         161.475         -35.9205         -22.457         -35.9205        -22.4573       -0.0286383         141.859
0.628                   -4.57275         160.886         -35.7967        -24.1753         -35.7967        -24.1756       -0.0290173         141.776
0.629                   -4.67458         160.308         -35.6741        -25.8947         -35.6741         -25.895       -0.0293975         141.692
