! TOUCHSTONE file generated by CST MICROWAVE STUDIO
! Date and time: Fri Oct  2 16:30:15 2020
! Project name: Scenario_1_Free_Space_out_of_line.cst
! Parameters = {Lambda=346.42; Step_1=17.321; dy1=35.502; dx1=346; L_HA=400; MT=2.54; Rad_Dielectric=30; Rad_Lower=7.3; Rad_Upper=30; a_HA=580; a_WG=246; b_HA=500; b_WG=121; c_HA=0; c_WG=187; d_feed=85; h_feed=15; h_lower=18; h_upper=40}
! Header version: 2018
! Port assignment regex: !\s*Touchstone port\s*([0-9]+)\s*=\s*(CST MWS port|CST DS port)\s*([0-9]+|Zmin|Zmax)\s*\(\"(.*)\"\)(\s*mode\s*([0-9]+))?.*
! Touchstone port assignment:
! Touchstone port 1 = CST MWS port 1 ("")
! Touchstone port 2 = CST MWS port 2 ("")
# GHz S DB R 50
0.5                    -0.142526        -122.659         -58.9713         80.1644         -58.9776         80.1931      -0.00662593         151.065
0.501                  -0.147698        -123.101         -58.7614         78.7909         -58.7671         78.8172      -0.00669471             151
0.502                   -0.15306        -123.547         -58.5514         77.4073         -58.5565         77.4314      -0.00676533         150.934
0.503                  -0.158619        -123.994         -58.3414         76.0135         -58.3459         76.0355      -0.00683778         150.869
0.504                  -0.164385        -124.444         -58.1313         74.6093         -58.1353         74.6293      -0.00691205         150.803
0.505                  -0.170364        -124.897         -57.9211         73.1947         -57.9247         73.2128      -0.00698815         150.737
0.506                  -0.176566        -125.352          -57.711         71.7695         -57.7141         71.7859      -0.00706605         150.671
0.507                  -0.182998        -125.809         -57.5009         70.3336         -57.5035         70.3483      -0.00714575         150.605
0.508                  -0.189668        -126.269         -57.2909         68.8869         -57.2931            68.9      -0.00722722         150.539
0.509                  -0.196585        -126.731         -57.0809         67.4294         -57.0827          67.441      -0.00731046         150.473
0.51                   -0.203757        -127.195         -56.8711         65.9608         -56.8725          65.971      -0.00739543         150.407
0.511                  -0.211193        -127.662         -56.6614         64.4811         -56.6625           64.49      -0.00748212         150.341
0.512                  -0.218902        -128.132         -56.4519         62.9903         -56.4527          62.998      -0.00757048         150.274
0.513                  -0.226891        -128.604         -56.2427         61.4883         -56.2431         61.4948       -0.0076605         150.208
0.514                  -0.235169        -129.078         -56.0337          59.975         -56.0339         59.9804      -0.00775214         150.141
0.515                  -0.243743        -129.554          -55.825         58.4503         -55.8249         58.4547      -0.00784537         150.075
0.516                  -0.252624        -130.033         -55.6166         56.9142         -55.6163         56.9176      -0.00794014         150.008
0.517                  -0.261817        -130.514         -55.4087         55.3667         -55.4082         55.3692      -0.00803641         149.941
0.518                  -0.271332        -130.998         -55.2012         53.8077         -55.2004         53.8093      -0.00813414         149.875
0.519                  -0.281174        -131.484         -54.9941         52.2372         -54.9932         52.2381      -0.00823328         149.808
0.52                   -0.291353        -131.972         -54.7876         50.6553         -54.7865         50.6554      -0.00833379         149.741
0.521                  -0.301875        -132.462         -54.5816         49.0618         -54.5804         49.0613      -0.00843561         149.674
0.522                  -0.312746        -132.954         -54.3763          47.457         -54.3749         47.4558      -0.00853868         149.606
0.523                  -0.323972        -133.448         -54.1716         45.8407         -54.1701         45.8389      -0.00864296         149.539
0.524                   -0.33556        -133.945         -53.9676          44.213          -53.966         44.2107      -0.00874838         149.472
0.525                  -0.347516        -134.443         -53.7644         42.5741         -53.7627         42.5713      -0.00885489         149.405
0.526                  -0.359843        -134.944          -53.562         40.9239         -53.5603         40.9206      -0.00896242         149.337
0.527                  -0.372546        -135.446         -53.3605         39.2626         -53.3587          39.259      -0.00907091          149.27
0.528                   -0.38563         -135.95         -53.1599         37.5904          -53.158         37.5863       -0.0091803         149.202
0.529                  -0.399097        -136.456         -52.9602         35.9072         -52.9583         35.9029      -0.00929052         149.134
0.53                   -0.412951        -136.964         -52.7616         34.2134         -52.7597         34.2087       -0.0094015         149.066
0.531                  -0.427192        -137.474          -52.564          32.509         -52.5621         32.5041      -0.00951318         148.998
0.532                  -0.441824        -137.985         -52.3676         30.7943         -52.3657         30.7891       -0.0096255          148.93
0.533                  -0.456846        -138.498         -52.1724         29.0694         -52.1705          29.064      -0.00973837         148.862
0.534                  -0.472258        -139.012         -51.9783         27.3345         -51.9764         27.3291      -0.00985174         148.794
0.535                   -0.48806        -139.528         -51.7856         25.5901         -51.7837         25.5844      -0.00996554         148.726
0.536                   -0.50425        -140.045         -51.5941         23.8361         -51.5923         23.8304       -0.0100797         148.658
0.537                  -0.520826        -140.564         -51.4041         22.0731         -51.4023         22.0673       -0.0101941         148.589
0.538                  -0.537786        -141.084         -51.2154         20.3012         -51.2137         20.2954       -0.0103088         148.521
0.539                  -0.555126        -141.605         -51.0282         18.5208         -51.0265          18.515       -0.0104236         148.452
0.54                   -0.572841        -142.128         -50.8425         16.7322         -50.8409         16.7265       -0.0105386         148.383
0.541                  -0.590927        -142.652         -50.6583         14.9358         -50.6568         14.9301       -0.0106535         148.314
0.542                  -0.609378        -143.177         -50.4758         13.1319         -50.4743         13.1263       -0.0107684         148.245
0.543                  -0.628188        -143.703         -50.2948         11.3209         -50.2933         11.3154       -0.0108833         148.176
0.544                   -0.64735         -144.23         -50.1154         9.50319         -50.1141         9.49781        -0.010998         148.107
0.545                  -0.666857        -144.758         -49.9377         7.67921         -49.9365         7.67397       -0.0111125         148.038
0.546                  -0.686702        -145.288         -49.7617         5.84935         -49.7605         5.84429       -0.0112267         147.969
0.547                  -0.706876        -145.818         -49.5875         4.01406         -49.5863         4.00918       -0.0113407         147.899
0.548                   -0.72737         -146.35         -49.4149         2.17375         -49.4139         2.16908       -0.0114543          147.83
0.549                  -0.748176        -146.882         -49.2441        0.328885         -49.2432        0.324437       -0.0115675          147.76
0.55                   -0.769285        -147.416         -49.0751        -1.52009         -49.0742         -1.5243       -0.0116804          147.69
0.551                  -0.790687        -147.951         -48.9078        -3.37272          -48.907        -3.37668       -0.0117928          147.62
0.552                  -0.812373        -148.486         -48.7424        -5.22854         -48.7416        -5.23225       -0.0119047          147.55
0.553                  -0.834334        -149.023         -48.5786        -7.08711          -48.578        -7.09054       -0.0120161          147.48
0.554                  -0.856559        -149.561         -48.4167        -8.94795         -48.4161         -8.9511        -0.012127          147.41
0.555                  -0.879041          -150.1         -48.2565        -10.8106          -48.256        -10.8135       -0.0122373          147.34
0.556                  -0.901769        -150.641         -48.0981        -12.6746         -48.0977        -12.6772       -0.0123471         147.269
0.557                  -0.924735        -151.182         -47.9414        -14.5396         -47.9411        -14.5419       -0.0124564         147.199
0.558                   -0.94793        -151.725         -47.7865         -16.405         -47.7862         -16.407       -0.0125652         147.128
0.559                  -0.971347         -152.27         -47.6332        -18.2705          -47.633        -18.2722       -0.0126734         147.057
0.56                   -0.994978        -152.815         -47.4817        -20.1357         -47.4815        -20.1371       -0.0127811         146.986
0.561                   -1.01882        -153.363         -47.3318             -22         -47.3316        -22.0011       -0.0128883         146.915
0.562                   -1.04285        -153.911         -47.1835        -23.8632         -47.1834         -23.864       -0.0129951         146.844
0.563                   -1.06709        -154.462         -47.0367        -25.7248         -47.0367        -25.7254       -0.0131014         146.772
0.564                   -1.09151        -155.014         -46.8916        -27.5846         -46.8916        -27.5848       -0.0132074         146.701
0.565                   -1.11612        -155.569         -46.7479         -29.442          -46.748         -29.442       -0.0133129         146.629
0.566                   -1.14091        -156.125         -46.6057        -31.2969         -46.6058        -31.2967       -0.0134182         146.558
0.567                   -1.16588        -156.683          -46.465        -33.1488         -46.4651        -33.1484       -0.0135233         146.486
0.568                   -1.19103        -157.244         -46.3256        -34.9976         -46.3257        -34.9969       -0.0136281         146.414
0.569                   -1.21635        -157.807         -46.1875        -36.8429         -46.1877         -36.842       -0.0137329         146.341
0.57                    -1.24186        -158.372         -46.0507        -38.6844         -46.0509        -38.6834       -0.0138376         146.269
0.571                   -1.26755         -158.94         -45.9152        -40.5221         -45.9154        -40.5208       -0.0139424         146.196
0.572                   -1.29342        -159.511         -45.7808        -42.3555          -45.781        -42.3541       -0.0140474         146.124
0.573                   -1.31947        -160.084         -45.6476        -44.1846         -45.6478         -44.183       -0.0141525         146.051
0.574                   -1.34572        -160.661         -45.5154        -46.0092         -45.5156        -46.0074        -0.014258         145.978
0.575                   -1.37217        -161.241         -45.3842        -47.8291         -45.3844        -47.8272       -0.0143639         145.905
0.576                   -1.39883        -161.823          -45.254        -49.6442         -45.2542        -49.6422       -0.0144704         145.831
0.577                    -1.4257         -162.41         -45.1246        -51.4544         -45.1249        -51.4524       -0.0145776         145.758
0.578                   -1.45279            -163         -44.9962        -53.2596         -44.9964        -53.2575       -0.0146855         145.684
0.579                   -1.48012        -163.593         -44.8685        -55.0598         -44.8687        -55.0577       -0.0147943         145.611
0.58                     -1.5077         -164.19         -44.7415        -56.8549         -44.7418        -56.8527       -0.0149042         145.537
0.581                   -1.53554        -164.792         -44.6153        -58.6449         -44.6155        -58.6427       -0.0150152         145.462
0.582                   -1.56366        -165.397         -44.4896        -60.4298         -44.4898        -60.4276       -0.0151276         145.388
0.583                   -1.59207        -166.006         -44.3645        -62.2096         -44.3647        -62.2074       -0.0152414         145.314
0.584                   -1.62079         -166.62           -44.24        -63.9843         -44.2402        -63.9821       -0.0153567         145.239
0.585                   -1.64984        -167.239         -44.1159         -65.754         -44.1161        -65.7519       -0.0154739         145.164
0.586                   -1.67923        -167.862         -43.9922        -67.5188         -43.9924        -67.5167       -0.0155929         145.089
0.587                   -1.70899         -168.49          -43.869        -69.2786         -43.8691        -69.2767       -0.0157139         145.014
0.588                   -1.73915        -169.122          -43.746        -71.0338         -43.7461        -71.0319       -0.0158372         144.939
0.589                   -1.76972         -169.76         -43.6233        -72.7842         -43.6234        -72.7824       -0.0159628         144.863
0.59                    -1.80073        -170.403         -43.5008        -74.5301         -43.5009        -74.5284       -0.0160909         144.787
0.591                    -1.8322        -171.051         -43.3785        -76.2716         -43.3786          -76.27       -0.0162217         144.711
0.592                   -1.86416        -171.704         -43.2564        -78.0089         -43.2565        -78.0074       -0.0163553         144.635
0.593                   -1.89665        -172.363         -43.1344        -79.7421         -43.1344        -79.7407       -0.0164919         144.559
0.594                   -1.92968        -173.028         -43.0124        -81.4713         -43.0125        -81.4701       -0.0166317         144.482
0.595                    -1.9633        -173.698         -42.8905        -83.1968         -42.8905        -83.1957       -0.0167748         144.405
0.596                   -1.99753        -174.374         -42.7686        -84.9188         -42.7686        -84.9178       -0.0169214         144.328
0.597                    -2.0324        -175.056         -42.6466        -86.6374         -42.6466        -86.6366       -0.0170716         144.251
0.598                   -2.06795        -175.744         -42.5246        -88.3529         -42.5246        -88.3522       -0.0172257         144.174
0.599                   -2.10423        -176.438         -42.4025        -90.0654         -42.4025        -90.0649       -0.0173837         144.096
0.6                     -2.14125        -177.138         -42.2803        -91.7752         -42.2802        -91.7749       -0.0175458         144.019
0.601                   -2.17907        -177.845         -42.1579        -93.4826         -42.1579        -93.4824       -0.0177122         143.941
0.602                   -2.21772        -178.558         -42.0354        -95.1877         -42.0353        -95.1876       -0.0178831         143.863
0.603                   -2.25724        -179.277         -41.9126        -96.8907         -41.9126        -96.8908       -0.0180585         143.784
0.604                   -2.29768         179.997         -41.7897         -98.592         -41.7896        -98.5922       -0.0182387         143.705
0.605                   -2.33908         179.265         -41.6666        -100.292         -41.6665        -100.292       -0.0184238         143.627
0.606                   -2.38148         178.526         -41.5432         -101.99         -41.5431        -101.991       -0.0186139         143.548
0.607                   -2.42493         177.781         -41.4195        -103.688         -41.4194        -103.688       -0.0188092         143.468
0.608                   -2.46949         177.029         -41.2956        -105.384         -41.2955        -105.385       -0.0190098         143.389
0.609                   -2.51519          176.27         -41.1714         -107.08         -41.1713        -107.081       -0.0192158         143.309
0.61                    -2.56209         175.505          -41.047        -108.776         -41.0469        -108.777       -0.0194275         143.229
0.611                   -2.61025         174.733         -40.9223        -110.472         -40.9221        -110.473       -0.0196449         143.149
0.612                   -2.65971         173.955         -40.7972        -112.168         -40.7971        -112.169       -0.0198681         143.069
0.613                   -2.71053          173.17         -40.6719        -113.864         -40.6718        -113.865       -0.0200973         142.988
0.614                   -2.76277         172.378         -40.5463        -115.561         -40.5462        -115.562       -0.0203325         142.907
0.615                   -2.81648          171.58         -40.4205        -117.259         -40.4204         -117.26        -0.020574         142.826
0.616                   -2.87173         170.775         -40.2943        -118.958         -40.2942        -118.959       -0.0208217         142.745
0.617                   -2.92858         169.964         -40.1679        -120.659         -40.1678         -120.66       -0.0210759         142.663
0.618                   -2.98708         169.146         -40.0412        -122.361         -40.0411        -122.362       -0.0213365         142.581
0.619                   -3.04731         168.322         -39.9143        -124.065         -39.9142        -124.066       -0.0216038         142.499
0.62                    -3.10932         167.493         -39.7871        -125.771          -39.787        -125.773       -0.0218778         142.417
0.621                   -3.17319         166.657         -39.6597         -127.48         -39.6596        -127.481       -0.0221585         142.334
0.622                   -3.23899         165.815         -39.5321        -129.191          -39.532        -129.192       -0.0224461         142.251
0.623                   -3.30677         164.968         -39.4043        -130.905         -39.4042        -130.906       -0.0227407         142.168
0.624                   -3.37662         164.115         -39.2763        -132.622         -39.2763        -132.623       -0.0230422         142.085
0.625                    -3.4486         163.257         -39.1482        -134.342         -39.1481        -134.343       -0.0233508         142.001
0.626                   -3.52279         162.394         -39.0199        -136.065         -39.0199        -136.066       -0.0236666         141.918
0.627                   -3.59927         161.526         -38.8915        -137.792         -38.8915        -137.793       -0.0239895         141.833
0.628                    -3.6781         160.654         -38.7631        -139.523          -38.763        -139.523       -0.0243197         141.749
0.629                   -3.75937         159.777         -38.6345        -141.257         -38.6345        -141.258       -0.0246572         141.664
