! TOUCHSTONE file generated by CST MICROWAVE STUDIO
! Date and time: Fri Oct  2 16:38:18 2020
! Project name: Scenario_1_Free_Space_out_of_line.cst
! Parameters = {Lambda=346.42; Step_1=17.321; dy1=35.502; dx1=520; L_HA=400; MT=2.54; Rad_Dielectric=30; Rad_Lower=7.3; Rad_Upper=30; a_HA=580; a_WG=246; b_HA=500; b_WG=121; c_HA=0; c_WG=187; d_feed=85; h_feed=15; h_lower=18; h_upper=40}
! Header version: 2018
! Port assignment regex: !\s*Touchstone port\s*([0-9]+)\s*=\s*(CST MWS port|CST DS port)\s*([0-9]+|Zmin|Zmax)\s*\(\"(.*)\"\)(\s*mode\s*([0-9]+))?.*
! Touchstone port assignment:
! Touchstone port 1 = CST MWS port 1 ("")
! Touchstone port 2 = CST MWS port 2 ("")
# GHz S DB R 50
0.5                    -0.150693          -122.4         -60.9722        -18.0998         -60.9704        -18.0889      -0.00657501         151.156
0.501                  -0.155883         -122.84         -60.8193        -19.8705         -60.8176        -19.8607      -0.00660983          151.09
0.502                  -0.161242        -123.282         -60.6644        -21.6407         -60.6628        -21.6318      -0.00664627         151.025
0.503                  -0.166771        -123.725         -60.5078        -23.4102         -60.5062        -23.4023      -0.00668432         150.959
0.504                  -0.172476        -124.171         -60.3493        -25.1791         -60.3478        -25.1721      -0.00672399         150.894
0.505                  -0.178359        -124.619          -60.189        -26.9472         -60.1877        -26.9411       -0.0067653         150.828
0.506                  -0.184423        -125.069         -60.0271        -28.7147         -60.0258        -28.7094      -0.00680823         150.763
0.507                  -0.190673        -125.521         -59.8636        -30.4815         -59.8624         -30.477      -0.00685281         150.697
0.508                  -0.197111        -125.975         -59.6985        -32.2477         -59.6973         -32.244      -0.00689904         150.631
0.509                  -0.203741        -126.431         -59.5319        -34.0132         -59.5308        -34.0103      -0.00694692         150.565
0.51                   -0.210568        -126.889         -59.3638        -35.7783         -59.3627         -35.776      -0.00699646         150.499
0.511                  -0.217595         -127.35         -59.1943        -37.5429         -59.1933        -37.5413      -0.00704767         150.433
0.512                  -0.224826        -127.813         -59.0235        -39.3071         -59.0226        -39.3062      -0.00710055         150.367
0.513                  -0.232266        -128.278         -58.8515        -41.0711         -58.8506        -41.0708      -0.00715511         150.301
0.514                  -0.239917        -128.745         -58.6782        -42.8349         -58.6773        -42.8352      -0.00721136         150.234
0.515                  -0.247785        -129.214         -58.5037        -44.5987         -58.5029        -44.5995      -0.00726931         150.168
0.516                  -0.255875        -129.686         -58.3281        -46.3626         -58.3274        -46.3639      -0.00732895         150.101
0.517                  -0.264189         -130.16         -58.1515        -48.1268         -58.1508        -48.1286       -0.0073903         150.035
0.518                  -0.272734        -130.636         -57.9739        -49.8914         -57.9732        -49.8936      -0.00745336         149.968
0.519                  -0.281513        -131.115         -57.7953        -51.6566         -57.7946        -51.6592      -0.00751814         149.901
0.52                   -0.290532        -131.596         -57.6158        -53.4225         -57.6152        -53.4255      -0.00758465         149.835
0.521                  -0.299795        -132.079         -57.4355        -55.1893         -57.4349        -55.1926      -0.00765288         149.768
0.522                  -0.309307        -132.564         -57.2545        -56.9572         -57.2539        -56.9608      -0.00772286         149.701
0.523                  -0.319074        -133.052         -57.0726        -58.7264         -57.0721        -58.7303      -0.00779457         149.634
0.524                    -0.3291        -133.542         -56.8901         -60.497         -56.8896        -60.5012      -0.00786804         149.566
0.525                  -0.339392        -134.035          -56.707        -62.2693         -56.7064        -62.2736      -0.00794326         149.499
0.526                  -0.349953         -134.53         -56.5232        -64.0434         -56.5227        -64.0479      -0.00802025         149.432
0.527                  -0.360791        -135.027          -56.339        -65.8195         -56.3385        -65.8242        -0.008099         149.364
0.528                  -0.371911        -135.527         -56.1542        -67.5979         -56.1537        -67.6027      -0.00817953         149.297
0.529                  -0.383318        -136.029          -55.969        -69.3786         -55.9686        -69.3836      -0.00826183         149.229
0.53                   -0.395018        -136.533         -55.7834         -71.162          -55.783        -71.1671      -0.00834592         149.161
0.531                  -0.407018         -137.04         -55.5975        -72.9482         -55.5971        -72.9534      -0.00843181         149.094
0.532                  -0.419323         -137.55         -55.4113        -74.7374         -55.4109        -74.7426      -0.00851949         149.026
0.533                  -0.431941        -138.062         -55.2248        -76.5298         -55.2244        -76.5351      -0.00860897         148.958
0.534                  -0.444876        -138.576         -55.0381        -78.3256         -55.0377        -78.3308      -0.00870026          148.89
0.535                  -0.458136        -139.093         -54.8513        -80.1249         -54.8509        -80.1302      -0.00879337         148.821
0.536                  -0.471728        -139.613         -54.6643         -81.928          -54.664        -81.9332       -0.0088883         148.753
0.537                  -0.485658        -140.134         -54.4773         -83.735          -54.477        -83.7401      -0.00898505         148.685
0.538                  -0.499933        -140.659         -54.2903        -85.5461           -54.29        -85.5511      -0.00908363         148.616
0.539                  -0.514561        -141.186         -54.1033        -87.3614          -54.103        -87.3664      -0.00918405         148.548
0.54                   -0.529547        -141.715         -53.9163        -89.1812         -53.9161         -89.186      -0.00928631         148.479
0.541                    -0.5449        -142.247         -53.7295        -91.0055         -53.7293        -91.0102      -0.00939041          148.41
0.542                  -0.560626        -142.781         -53.5429        -92.8345         -53.5426        -92.8391      -0.00949637         148.341
0.543                  -0.576734        -143.318         -53.3564        -94.6684         -53.3562        -94.6728      -0.00960418         148.272
0.544                   -0.59323        -143.857         -53.1702        -96.5072           -53.17        -96.5115      -0.00971386         148.203
0.545                  -0.610122        -144.399         -52.9843        -98.3511         -52.9841        -98.3553       -0.0098254         148.134
0.546                  -0.627419        -144.943         -52.7987          -100.2         -52.7985        -100.204      -0.00993881         148.065
0.547                  -0.645127         -145.49         -52.6135        -102.055         -52.6134        -102.058       -0.0100541         147.995
0.548                  -0.663254         -146.04         -52.4288        -103.915         -52.4286        -103.918       -0.0101713         147.926
0.549                   -0.68181        -146.591         -52.2445         -105.78         -52.2443        -105.783       -0.0102903         147.856
0.55                     -0.7008        -147.146         -52.0607        -107.651         -52.0605        -107.654       -0.0104112         147.786
0.551                  -0.720235        -147.702         -51.8774        -109.527         -51.8773         -109.53       -0.0105341         147.716
0.552                  -0.740121        -148.262         -51.6948        -111.409         -51.6946        -111.412       -0.0106588         147.646
0.553                  -0.760466        -148.823         -51.5127        -113.297         -51.5126          -113.3       -0.0107854         147.576
0.554                   -0.78128        -149.387         -51.3314         -115.19         -51.3313        -115.193        -0.010914         147.506
0.555                   -0.80257        -149.954         -51.1507         -117.09         -51.1506        -117.092       -0.0110444         147.436
0.556                  -0.824344        -150.523         -50.9709        -118.995         -50.9707        -118.996       -0.0111768         147.365
0.557                   -0.84661        -151.094         -50.7918        -120.905         -50.7916        -120.907        -0.011311         147.295
0.558                  -0.869376        -151.667         -50.6135        -122.822         -50.6134        -122.823       -0.0114472         147.224
0.559                  -0.892651        -152.243         -50.4361        -124.743          -50.436        -124.745       -0.0115853         147.153
0.56                   -0.916442        -152.821         -50.2596        -126.671         -50.2595        -126.672       -0.0117253         147.083
0.561                  -0.940758        -153.402          -50.084        -128.604         -50.0839        -128.605       -0.0118673         147.012
0.562                  -0.965605        -153.985         -49.9094        -130.543         -49.9093        -130.543       -0.0120112          146.94
0.563                  -0.990992         -154.57         -49.7358        -132.486         -49.7357        -132.487        -0.012157         146.869
0.564                   -1.01693        -155.157         -49.5632        -134.435         -49.5631        -134.436       -0.0123048         146.798
0.565                   -1.04341        -155.746         -49.3917         -136.39         -49.3916         -136.39       -0.0124544         146.726
0.566                   -1.07046        -156.337         -49.2213        -138.349         -49.2212        -138.349       -0.0126061         146.655
0.567                   -1.09808        -156.931          -49.052        -140.313         -49.0519        -140.313       -0.0127596         146.583
0.568                   -1.12627        -157.526         -48.8838        -142.282         -48.8837        -142.281       -0.0129152         146.511
0.569                   -1.15505        -158.123         -48.7168        -144.255         -48.7167        -144.254       -0.0130726         146.439
0.57                    -1.18441        -158.723          -48.551        -146.233         -48.5509        -146.232        -0.013232         146.367
0.571                   -1.21436        -159.324         -48.3864        -148.215         -48.3863        -148.214       -0.0133933         146.294
0.572                   -1.24492        -159.927          -48.223        -150.202         -48.2229          -150.2       -0.0135566         146.222
0.573                   -1.27607        -160.532         -48.0609        -152.192         -48.0607         -152.19       -0.0137219         146.149
0.574                   -1.30784        -161.139            -47.9        -154.185         -47.8998        -154.183       -0.0138891         146.077
0.575                   -1.34021        -161.747         -47.7403        -156.182         -47.7402         -156.18       -0.0140582         146.004
0.576                    -1.3732        -162.357          -47.582        -158.183         -47.5819         -158.18       -0.0142293         145.931
0.577                   -1.40681        -162.969         -47.4249        -160.186         -47.4248        -160.184       -0.0144023         145.858
0.578                   -1.44104        -163.582         -47.2692        -162.192          -47.269        -162.189       -0.0145773         145.785
0.579                   -1.47589        -164.196         -47.1147        -164.201         -47.1145        -164.198       -0.0147542         145.711
0.58                    -1.51137        -164.812         -46.9615        -166.212         -46.9613        -166.209       -0.0149331         145.638
0.581                   -1.54748         -165.43         -46.8096        -168.225         -46.8094        -168.222       -0.0151139         145.564
0.582                   -1.58421        -166.049         -46.6589         -170.24         -46.6587        -170.237       -0.0152967          145.49
0.583                   -1.62156        -166.669         -46.5096        -172.256         -46.5094        -172.253       -0.0154814         145.416
0.584                   -1.65954         -167.29         -46.3615        -174.274         -46.3613        -174.271       -0.0156681         145.342
0.585                   -1.69814        -167.912         -46.2147        -176.294         -46.2145        -176.291       -0.0158567         145.268
0.586                   -1.73737        -168.536         -46.0692        -178.314          -46.069        -178.311       -0.0160473         145.193
0.587                   -1.77721        -169.161         -45.9249         179.665         -45.9246         179.668       -0.0162398         145.118
0.588                   -1.81766        -169.787         -45.7818         177.644         -45.7815         177.647       -0.0164342         145.044
0.589                   -1.85873        -170.414         -45.6399         175.622         -45.6396         175.625       -0.0166306         144.969
0.59                     -1.9004        -171.041         -45.4992           173.6         -45.4989         173.604        -0.016829         144.894
0.591                   -1.94267         -171.67         -45.3596         171.578         -45.3594         171.582       -0.0170293         144.818
0.592                   -1.98553          -172.3         -45.2212         169.557         -45.2209          169.56       -0.0172315         144.743
0.593                   -2.02898        -172.931         -45.0839         167.536         -45.0836         167.539       -0.0174357         144.667
0.594                   -2.07301        -173.563         -44.9477         165.516         -44.9474         165.519       -0.0176418         144.591
0.595                   -2.11762        -174.195         -44.8125         163.496         -44.8123         163.499       -0.0178499         144.515
0.596                   -2.16279        -174.829         -44.6784         161.478         -44.6781         161.481         -0.01806         144.439
0.597                   -2.20852        -175.463         -44.5453          159.46          -44.545         159.463        -0.018272         144.363
0.598                    -2.2548        -176.099         -44.4131         157.444         -44.4129         157.447       -0.0184859         144.287
0.599                   -2.30163        -176.736         -44.2819         155.429         -44.2816         155.432       -0.0187018          144.21
0.6                     -2.34898        -177.373         -44.1516         153.416         -44.1513         153.419       -0.0189198         144.133
0.601                   -2.39687        -178.012         -44.0221         151.404         -44.0219         151.407       -0.0191396         144.056
0.602                   -2.44527        -178.652         -43.8935         149.394         -43.8933         149.397       -0.0193615         143.979
0.603                   -2.49419        -179.293         -43.7657         147.386         -43.7655         147.389       -0.0195854         143.901
0.604                   -2.54361        -179.936         -43.6387         145.379         -43.6384         145.382       -0.0198113         143.824
0.605                   -2.59353          179.42         -43.5124         143.375         -43.5121         143.377       -0.0200392         143.746
0.606                   -2.64394         178.775         -43.3868         141.372         -43.3865         141.375       -0.0202692         143.668
0.607                   -2.69484         178.128         -43.2618         139.371         -43.2616         139.374       -0.0205012          143.59
0.608                   -2.74623         177.479         -43.1375         137.373         -43.1372         137.375       -0.0207353         143.511
0.609                    -2.7981         176.828         -43.0138         135.376         -43.0135         135.379       -0.0209715         143.433
0.61                    -2.85046         176.175         -42.8906         133.382         -42.8903         133.384       -0.0212099         143.354
0.611                   -2.90331          175.52         -42.7679         131.389         -42.7677         131.391       -0.0214504         143.275
0.612                   -2.95664         174.863         -42.6458         129.398         -42.6456           129.4       -0.0216932         143.195
0.613                   -3.01046         174.203         -42.5241         127.409         -42.5239         127.411       -0.0219382         143.116
0.614                   -3.06479         173.541         -42.4028         125.423         -42.4026         125.425       -0.0221854         143.036
0.615                   -3.11962         172.875         -42.2819         123.438         -42.2817         123.439       -0.0224351         142.956
0.616                   -3.17498         172.206         -42.1614         121.454         -42.1612         121.456       -0.0226871         142.876
0.617                   -3.23087         171.535         -42.0413         119.473         -42.0411         119.475       -0.0229416         142.796
0.618                   -3.28731         170.859         -41.9214         117.493         -41.9212         117.495       -0.0231987         142.715
0.619                   -3.34432          170.18         -41.8018         115.515         -41.8016         115.516       -0.0234583         142.634
0.62                    -3.40192         169.497         -41.6825         113.538         -41.6823         113.539       -0.0237207         142.553
0.621                   -3.46015          168.81         -41.5634         111.562         -41.5632         111.564       -0.0239858         142.472
0.622                   -3.51901         168.118         -41.4445         109.588         -41.4443         109.589       -0.0242538          142.39
0.623                   -3.57856         167.422         -41.3258         107.615         -41.3256         107.616       -0.0245249         142.308
0.624                   -3.63882         166.721         -41.2072         105.643         -41.2071         105.644        -0.024799         142.226
0.625                   -3.69982         166.015         -41.0888         103.671         -41.0887         103.672       -0.0250764         142.144
0.626                   -3.76162         165.304         -40.9705         101.701         -40.9704         101.702       -0.0253572         142.061
0.627                   -3.82426         164.588         -40.8524         99.7311         -40.8523         99.7319       -0.0256415         141.978
0.628                   -3.88777         163.866         -40.7343         97.7616         -40.7342         97.7624       -0.0259296         141.895
0.629                   -3.95223         163.138         -40.6163         95.7925         -40.6162         95.7932       -0.0262215         141.812
