! TOUCHSTONE file generated by CST MICROWAVE STUDIO
! Date and time: Fri Oct  2 16:56:52 2020
! Project name: Scenario_1_Free_Space_out_of_line.cst
! Parameters = {Lambda=346.42; Step_1=17.321; dy1=35.502; dx1=693; L_HA=400; MT=2.54; Rad_Dielectric=30; Rad_Lower=7.3; Rad_Upper=30; a_HA=580; a_WG=246; b_HA=500; b_WG=121; c_HA=0; c_WG=187; d_feed=85; h_feed=15; h_lower=18; h_upper=40}
! Header version: 2018
! Port assignment regex: !\s*Touchstone port\s*([0-9]+)\s*=\s*(CST MWS port|CST DS port)\s*([0-9]+|Zmin|Zmax)\s*\(\"(.*)\"\)(\s*mode\s*([0-9]+))?.*
! Touchstone port assignment:
! Touchstone port 1 = CST MWS port 1 ("")
! Touchstone port 2 = CST MWS port 2 ("")
# GHz S DB R 50
0.5                    -0.146229        -122.639         -62.2961        -116.555         -62.2961        -116.555      -0.00668318         151.156
0.501                  -0.153635        -123.085          -62.098        -118.168          -62.098        -118.168      -0.00675888         151.091
0.502                  -0.161195        -123.532         -61.8989        -119.803         -61.8989        -119.803      -0.00683477         151.026
0.503                  -0.168912         -123.98         -61.6988        -121.462         -61.6988        -121.462      -0.00691084          150.96
0.504                  -0.176785         -124.43         -61.4978        -123.144         -61.4978        -123.144      -0.00698711         150.895
0.505                  -0.184816        -124.882         -61.2959        -124.848         -61.2959        -124.848      -0.00706356         150.829
0.506                  -0.193006        -125.335         -61.0934        -126.576         -61.0934        -126.576       -0.0071402         150.764
0.507                  -0.201356         -125.79         -60.8901        -128.327         -60.8901        -128.327      -0.00721703         150.698
0.508                  -0.209868        -126.246         -60.6863        -130.101         -60.6863          -130.1      -0.00729406         150.632
0.509                  -0.218542        -126.704         -60.4821        -131.897         -60.4821        -131.897      -0.00737129         150.566
0.51                   -0.227381        -127.164         -60.2775        -133.717         -60.2775        -133.716      -0.00744871           150.5
0.511                  -0.236385        -127.625         -60.0727        -135.559         -60.0727        -135.559      -0.00752635         150.434
0.512                  -0.245556        -128.088         -59.8678        -137.423         -59.8677        -137.423      -0.00760418         150.368
0.513                  -0.254895        -128.552         -59.6628        -139.311         -59.6628         -139.31      -0.00768223         150.302
0.514                  -0.264405        -129.018         -59.4579         -141.22         -59.4579         -141.22      -0.00776049         150.236
0.515                  -0.274086        -129.486         -59.2532        -143.151         -59.2532        -143.151      -0.00783898          150.17
0.516                   -0.28394        -129.955         -59.0489        -145.103         -59.0488        -145.103      -0.00791768         150.103
0.517                  -0.293969        -130.427         -58.8449        -147.077         -58.8449        -147.077      -0.00799662         150.037
0.518                  -0.304175          -130.9         -58.6416        -149.072         -58.6415        -149.072      -0.00807579          149.97
0.519                   -0.31456        -131.374         -58.4388        -151.087         -58.4388        -151.087       -0.0081552         149.904
0.52                   -0.325126        -131.851         -58.2369        -153.122         -58.2369        -153.122      -0.00823486         149.837
0.521                  -0.335875        -132.329         -58.0358        -155.176         -58.0358        -155.176      -0.00831477          149.77
0.522                  -0.346809         -132.81         -57.8358        -157.249         -57.8358        -157.249      -0.00839495         149.703
0.523                   -0.35793        -133.292         -57.6369        -159.341         -57.6368        -159.341       -0.0084754         149.636
0.524                  -0.369241        -133.776         -57.4391         -161.45         -57.4391         -161.45      -0.00855612         149.569
0.525                  -0.380743        -134.262         -57.2427        -163.576         -57.2427        -163.576      -0.00863714         149.502
0.526                  -0.392441         -134.75         -57.0477        -165.719         -57.0477        -165.718      -0.00871846         149.434
0.527                  -0.404336         -135.24         -56.8542        -167.876         -56.8542        -167.876      -0.00880008         149.367
0.528                  -0.416431        -135.732         -56.6623        -170.049         -56.6623        -170.049      -0.00888203           149.3
0.529                   -0.42873        -136.226         -56.4721        -172.235         -56.4721        -172.235      -0.00896432         149.232
0.53                   -0.441234        -136.722         -56.2836        -174.435         -56.2836        -174.435      -0.00904695         149.164
0.531                  -0.453948         -137.22          -56.097        -176.647          -56.097        -176.647      -0.00912995         149.097
0.532                  -0.466874         -137.72         -55.9122         -178.87         -55.9122         -178.87      -0.00921332         149.029
0.533                  -0.480016        -138.223         -55.7294         178.897         -55.7293         178.897      -0.00929709         148.961
0.534                  -0.493378        -138.727         -55.5485         176.654         -55.5485         176.654      -0.00938127         148.893
0.535                  -0.506963        -139.234         -55.3696         174.402         -55.3696         174.402      -0.00946588         148.824
0.536                  -0.520775        -139.743         -55.1928         172.143         -55.1928         172.143      -0.00955095         148.756
0.537                  -0.534818        -140.254         -55.0181         169.877         -55.0181         169.877      -0.00963648         148.688
0.538                  -0.549097        -140.768         -54.8454         167.606         -54.8454         167.606      -0.00972251         148.619
0.539                  -0.563616        -141.284         -54.6748         165.329         -54.6748         165.329      -0.00980906         148.551
0.54                   -0.578379        -141.802         -54.5063         163.049         -54.5063         163.049      -0.00989615         148.482
0.541                  -0.593392        -142.323         -54.3399         160.765         -54.3398         160.765      -0.00998381         148.413
0.542                  -0.608658        -142.846         -54.1755         158.479         -54.1754         158.479       -0.0100721         148.344
0.543                  -0.624184        -143.371         -54.0131         156.192         -54.0131         156.192        -0.010161         148.275
0.544                  -0.639975        -143.899         -53.8527         153.904         -53.8526         153.904       -0.0102505         148.206
0.545                  -0.656036         -144.43         -53.6942         151.616         -53.6942         151.616       -0.0103407         148.137
0.546                  -0.672373        -144.963         -53.5376         149.329         -53.5376         149.329       -0.0104317         148.067
0.547                  -0.688992        -145.498         -53.3829         147.044         -53.3829         147.044       -0.0105234         147.998
0.548                    -0.7059        -146.037         -53.2299          144.76         -53.2299          144.76        -0.010616         147.928
0.549                  -0.723104        -146.578         -53.0787          142.48         -53.0787          142.48       -0.0107093         147.859
0.55                   -0.740609        -147.121         -52.9291         140.203         -52.9291         140.203       -0.0108036         147.789
0.551                  -0.758424        -147.668         -52.7811         137.929         -52.7811         137.929       -0.0108988         147.719
0.552                  -0.776555        -148.217         -52.6346          135.66         -52.6346          135.66        -0.010995         147.649
0.553                   -0.79501        -148.769         -52.4896         133.396         -52.4896         133.396       -0.0110922         147.579
0.554                  -0.813798        -149.324         -52.3459         131.137         -52.3459         131.137       -0.0111905         147.508
0.555                  -0.832926        -149.881         -52.2035         128.883         -52.2035         128.883       -0.0112899         147.438
0.556                  -0.852403        -150.442         -52.0623         126.635         -52.0623         126.635       -0.0113906         147.367
0.557                  -0.872239        -151.005         -51.9222         124.392         -51.9222         124.392       -0.0114924         147.296
0.558                  -0.892442        -151.572         -51.7831         122.156         -51.7831         122.156       -0.0115956         147.226
0.559                  -0.913022        -152.141          -51.645         119.926          -51.645         119.926       -0.0117002         147.155
0.56                   -0.933989        -152.714         -51.5078         117.702         -51.5078         117.702       -0.0118062         147.084
0.561                  -0.955354        -153.289         -51.3715         115.484         -51.3715         115.484       -0.0119138         147.012
0.562                  -0.977127        -153.868         -51.2358         113.273         -51.2358         113.273       -0.0120229         146.941
0.563                  -0.999319         -154.45         -51.1008         111.069         -51.1008         111.069       -0.0121337         146.869
0.564                   -1.02194        -155.034         -50.9664          108.87         -50.9664          108.87       -0.0122462         146.798
0.565                   -1.04501        -155.623         -50.8326         106.678         -50.8326         106.678       -0.0123605         146.726
0.566                   -1.06853        -156.214         -50.6992         104.492         -50.6992         104.492       -0.0124768         146.654
0.567                   -1.09252        -156.808         -50.5662         102.311         -50.5662         102.311        -0.012595         146.582
0.568                   -1.11699        -157.406         -50.4335         100.137         -50.4335         100.137       -0.0127153          146.51
0.569                   -1.14195        -158.007         -50.3012         97.9683         -50.3012         97.9683       -0.0128377         146.437
0.57                    -1.16742        -158.612         -50.1691          95.805         -50.1691          95.805       -0.0129624         146.365
0.571                   -1.19342        -159.219         -50.0371         93.6469         -50.0371         93.6469       -0.0130894         146.292
0.572                   -1.21995         -159.83         -49.9054         91.4938         -49.9054         91.4938       -0.0132188         146.219
0.573                   -1.24703        -160.445         -49.7737         89.3455         -49.7737         89.3455       -0.0133508         146.146
0.574                   -1.27469        -161.063         -49.6421         87.2016         -49.6421         87.2016       -0.0134853         146.073
0.575                   -1.30292        -161.684         -49.5106         85.0619         -49.5106         85.0619       -0.0136226             146
0.576                   -1.33176        -162.308          -49.379         82.9261          -49.379         82.9261       -0.0137626         145.926
0.577                   -1.36122        -162.936         -49.2474          80.794         -49.2474          80.794       -0.0139055         145.853
0.578                   -1.39132        -163.568         -49.1158         78.6651         -49.1158         78.6652       -0.0140514         145.779
0.579                   -1.42206        -164.202         -48.9841         76.5394         -48.9841         76.5394       -0.0142004         145.705
0.58                    -1.45348         -164.84         -48.8524         74.4164         -48.8524         74.4164       -0.0143525         145.631
0.581                   -1.48559        -165.482         -48.7205         72.2958         -48.7205         72.2958       -0.0145079         145.557
0.582                   -1.51841        -166.127         -48.5885         70.1774         -48.5885         70.1774       -0.0146666         145.482
0.583                   -1.55195        -166.775         -48.4564         68.0609         -48.4564         68.0609       -0.0148287         145.408
0.584                   -1.58624        -167.426         -48.3242         65.9459         -48.3242         65.9459       -0.0149944         145.333
0.585                    -1.6213        -168.081         -48.1919         63.8323         -48.1919         63.8323       -0.0151635         145.258
0.586                   -1.65715        -168.739         -48.0594         61.7196         -48.0594         61.7196       -0.0153364         145.183
0.587                    -1.6938          -169.4         -47.9268         59.6077         -47.9268         59.6077       -0.0155129         145.108
0.588                   -1.73128        -170.064         -47.7941         57.4962         -47.7941         57.4962       -0.0156932         145.033
0.589                   -1.76961        -170.731         -47.6613         55.3849         -47.6613         55.3849       -0.0158774         144.957
0.59                    -1.80881        -171.402         -47.5284         53.2736         -47.5284         53.2736       -0.0160655         144.881
0.591                   -1.84889        -172.075         -47.3954          51.162         -47.3954         51.1621       -0.0162575         144.805
0.592                   -1.88989        -172.752         -47.2623           49.05         -47.2623           49.05       -0.0164534         144.729
0.593                   -1.93182        -173.431         -47.1292         46.9371         -47.1292         46.9371       -0.0166534         144.653
0.594                   -1.97469        -174.113          -46.996         44.8234          -46.996         44.8234       -0.0168575         144.576
0.595                   -2.01854        -174.797         -46.8628         42.7085         -46.8628         42.7085       -0.0170656           144.5
0.596                   -2.06338        -175.484         -46.7296         40.5923         -46.7296         40.5923       -0.0172778         144.423
0.597                   -2.10922        -176.174         -46.5963         38.4746         -46.5963         38.4746       -0.0174941         144.346
0.598                    -2.1561        -176.865         -46.4632         36.3553         -46.4632         36.3553       -0.0177146         144.269
0.599                   -2.20402         -177.56           -46.33         34.2341           -46.33         34.2342       -0.0179391         144.191
0.6                       -2.253        -178.256          -46.197         32.1111          -46.197         32.1111       -0.0181678         144.114
0.601                   -2.30307        -178.954         -46.0641         29.9861         -46.0641         29.9861       -0.0184006         144.036
0.602                   -2.35423        -179.654         -45.9313         27.8589         -45.9313         27.8589       -0.0186374         143.958
0.603                   -2.40651         179.645         -45.7986         25.7296         -45.7986         25.7296       -0.0188783          143.88
0.604                   -2.45991         178.942         -45.6661         23.5979         -45.6661         23.5979       -0.0191233         143.802
0.605                   -2.51445         178.237         -45.5338         21.4639         -45.5338         21.4639       -0.0193722         143.723
0.606                   -2.57015         177.532         -45.4018         19.3276         -45.4018         19.3276       -0.0196252         143.644
0.607                   -2.62701         176.825         -45.2699         17.1888         -45.2699         17.1888       -0.0198821         143.566
0.608                   -2.68504         176.117         -45.1384         15.0476         -45.1384         15.0476       -0.0201429         143.486
0.609                   -2.74425         175.409         -45.0072         12.9039         -45.0072         12.9039       -0.0204076         143.407
0.61                    -2.80465           174.7         -44.8762         10.7579         -44.8762         10.7579       -0.0206762         143.328
0.611                   -2.86624         173.991         -44.7456          8.6094         -44.7456          8.6094       -0.0209485         143.248
0.612                   -2.92902         173.282         -44.6154         6.45855         -44.6154         6.45855       -0.0212247         143.168
0.613                     -2.993         172.573         -44.4856         4.30538         -44.4856         4.30538       -0.0215046         143.088
0.614                   -3.05818         171.864         -44.3561         2.14993         -44.3561         2.14994       -0.0217882         143.007
0.615                   -3.12455         171.156         -44.2271     -0.00771946         -44.2271     -0.00771855       -0.0220755         142.927
0.616                   -3.19212         170.448         -44.0985        -2.16751         -44.0985        -2.16751       -0.0223665         142.846
0.617                   -3.26087         169.741         -43.9704        -4.32934         -43.9704        -4.32934       -0.0226612         142.765
0.618                   -3.33079         169.035         -43.8427        -6.49314         -43.8427        -6.49314       -0.0229595         142.683
0.619                   -3.40189         168.329         -43.7155        -8.65881         -43.7155        -8.65881       -0.0232614         142.602
0.62                    -3.47415         167.626         -43.5888        -10.8262         -43.5888        -10.8262        -0.023567          142.52
0.621                   -3.54756         166.923         -43.4625        -12.9953         -43.4625        -12.9953       -0.0238762         142.438
0.622                    -3.6221         166.222         -43.3368        -15.1659         -43.3368        -15.1659       -0.0241891         142.356
0.623                   -3.69776         165.523         -43.2116        -17.3379         -43.2116        -17.3379       -0.0245057         142.273
0.624                   -3.77452         164.825         -43.0869        -19.5113         -43.0869        -19.5113        -0.024826          142.19
0.625                   -3.85237          164.13         -42.9627        -21.6858         -42.9627        -21.6858         -0.02515         142.107
0.626                   -3.93129         163.436          -42.839        -23.8613          -42.839        -23.8613       -0.0254779         142.024
0.627                   -4.01126         162.744         -42.7158        -26.0378         -42.7158        -26.0378       -0.0258097          141.94
0.628                   -4.09225         162.055         -42.5931        -28.2151         -42.5931        -28.2151       -0.0261453         141.856
0.629                   -4.17426         161.367          -42.471        -30.3931          -42.471        -30.3931        -0.026485         141.772
