! TOUCHSTONE file generated by CST MICROWAVE STUDIO
! Date and time: Fri Oct  2 19:12:35 2020
! Project name: Scenario_1_Free_Space_out_of_line.cst
! Parameters = {Lambda=346.42; Step_1=17.321; dy1=35.502; dx1=866; L_HA=400; MT=2.54; Rad_Dielectric=30; Rad_Lower=7.3; Rad_Upper=30; a_HA=580; a_WG=246; b_HA=500; b_WG=121; c_HA=0; c_WG=187; d_feed=85; h_feed=15; h_lower=18; h_upper=40}
! Header version: 2018
! Port assignment regex: !\s*Touchstone port\s*([0-9]+)\s*=\s*(CST MWS port|CST DS port)\s*([0-9]+|Zmin|Zmax)\s*\(\"(.*)\"\)(\s*mode\s*([0-9]+))?.*
! Touchstone port assignment:
! Touchstone port 1 = CST MWS port 1 ("")
! Touchstone port 2 = CST MWS port 2 ("")
# GHz S DB R 50
0.5                    -0.148891        -122.603         -63.0304         143.556         -63.0298         143.563      -0.00659226         151.142
0.501                  -0.152277        -123.039         -62.8543          141.46         -62.8538         141.466      -0.00665314         151.077
0.502                  -0.155957        -123.479         -62.6766         139.356         -62.6762         139.363      -0.00671492         151.011
0.503                  -0.159933        -123.921         -62.4974         137.246         -62.4971         137.253      -0.00677763         150.946
0.504                  -0.164209        -124.366         -62.3168         135.128         -62.3166         135.135      -0.00684127          150.88
0.505                  -0.168789        -124.814         -62.1349         133.003         -62.1347         133.011      -0.00690583         150.815
0.506                  -0.173675        -125.264         -61.9516         130.872         -61.9516         130.879      -0.00697133         150.749
0.507                  -0.178872        -125.717         -61.7672         128.733         -61.7672          128.74      -0.00703776         150.683
0.508                  -0.184382        -126.173         -61.5817         126.587         -61.5818         126.594      -0.00710515         150.617
0.509                  -0.190208        -126.631         -61.3951         124.433         -61.3952         124.441      -0.00717348         150.551
0.51                   -0.196354        -127.092         -61.2075         122.272         -61.2077          122.28      -0.00724277         150.485
0.511                  -0.202823        -127.555          -61.019         120.104         -61.0192         120.112      -0.00731302         150.419
0.512                  -0.209616        -128.021         -60.8297         117.929           -60.83         117.936      -0.00738424         150.352
0.513                  -0.216738        -128.489         -60.6396         115.746         -60.6399         115.753      -0.00745643         150.286
0.514                  -0.224192         -128.96         -60.4489         113.555         -60.4492         113.562      -0.00752959          150.22
0.515                  -0.231978        -129.433         -60.2575         111.357         -60.2579         111.364      -0.00760374         150.153
0.516                  -0.240101        -129.909         -60.0657          109.15         -60.0661         109.158      -0.00767889         150.086
0.517                  -0.248562        -130.387         -59.8734         106.936         -59.8738         106.944      -0.00775502          150.02
0.518                  -0.257365        -130.867         -59.6807         104.715         -59.6812         104.722      -0.00783216         149.953
0.519                  -0.266511         -131.35         -59.4878         102.485         -59.4882         102.492       -0.0079103         149.886
0.52                   -0.276002        -131.835         -59.2947         100.247         -59.2951         100.254      -0.00798946         149.819
0.521                  -0.285842        -132.322         -59.1014         98.0014         -59.1019         98.0084      -0.00806964         149.752
0.522                  -0.296031        -132.812         -58.9081         95.7476         -58.9086         95.7545      -0.00815084         149.685
0.523                  -0.306572        -133.304         -58.7149         93.4857         -58.7153         93.4925      -0.00823307         149.618
0.524                  -0.317467        -133.798         -58.5217         91.2158         -58.5222         91.2224      -0.00831634          149.55
0.525                  -0.328717        -134.294         -58.3288         88.9377         -58.3292         88.9443      -0.00840065         149.483
0.526                  -0.340325        -134.793         -58.1361         86.6516         -58.1365          86.658      -0.00848601         149.416
0.527                  -0.352291        -135.293         -57.9438         84.3574         -57.9442         84.3637      -0.00857242         149.348
0.528                  -0.364618        -135.796         -57.7518         82.0552         -57.7522         82.0613       -0.0086599          149.28
0.529                  -0.377307        -136.301         -57.5604          79.745         -57.5608          79.751      -0.00874843         149.213
0.53                   -0.390359        -136.808         -57.3696         77.4268         -57.3699         77.4327      -0.00883803         149.145
0.531                  -0.403775        -137.317         -57.1794         75.1009         -57.1797         75.1066      -0.00892871         149.077
0.532                  -0.417558        -137.828         -56.9899         72.7672         -56.9902         72.7727      -0.00902046         149.009
0.533                  -0.431707        -138.341         -56.8012         70.4259         -56.8015         70.4313       -0.0091133         148.941
0.534                  -0.446225        -138.856         -56.6134         68.0771         -56.6136         68.0823      -0.00920722         148.872
0.535                  -0.461112        -139.374         -56.4264         65.7209         -56.4267         65.7259      -0.00930222         148.804
0.536                  -0.476368        -139.893         -56.2405         63.3575         -56.2407         63.3623      -0.00939831         148.736
0.537                  -0.491996        -140.414         -56.0556         60.9871         -56.0557         60.9918      -0.00949548         148.667
0.538                  -0.507995        -140.937         -55.8717         58.6099         -55.8719         58.6144      -0.00959374         148.598
0.539                  -0.524366        -141.462         -55.6891         56.2261         -55.6892         56.2303      -0.00969308          148.53
0.54                   -0.541111         -141.99         -55.5076         53.8359         -55.5077         53.8399      -0.00979349         148.461
0.541                  -0.558229        -142.519         -55.3274         51.4395         -55.3275         51.4433      -0.00989496         148.392
0.542                  -0.575722        -143.049         -55.1485         49.0372         -55.1485         49.0409      -0.00999749         148.323
0.543                  -0.593589        -143.582         -54.9709         46.6293          -54.971         46.6328        -0.010101         148.254
0.544                  -0.611831        -144.117         -54.7948          44.216         -54.7948         44.2193       -0.0102056         148.184
0.545                   -0.63045        -144.654           -54.62         41.7977           -54.62         41.8008       -0.0103111         148.115
0.546                  -0.649444        -145.192         -54.4467         39.3746         -54.4467         39.3775       -0.0104176         148.045
0.547                  -0.668815        -145.733         -54.2749         36.9471         -54.2748         36.9497       -0.0105249         147.976
0.548                  -0.688562        -146.275         -54.1046         34.5154         -54.1045         34.5178       -0.0106331         147.906
0.549                  -0.708687        -146.819         -53.9358         32.0799         -53.9357         32.0821       -0.0107419         147.836
0.55                   -0.729189        -147.365         -53.7685         29.6409         -53.7684         29.6429       -0.0108512         147.766
0.551                  -0.750069        -147.913         -53.6029         27.1988         -53.6027         27.2006       -0.0109609         147.696
0.552                  -0.771327        -148.463         -53.4388         24.7538         -53.4386         24.7554       -0.0110707         147.626
0.553                  -0.792964        -149.015         -53.2762         22.3063         -53.2761         22.3078         -0.01118         147.556
0.554                  -0.814979        -149.568         -53.1152         19.8567         -53.1151          19.858       -0.0112884         147.485
0.555                  -0.837374        -150.124         -52.9559         17.4053         -52.9557         17.4064       -0.0113949         147.415
0.556                  -0.860149        -150.681          -52.798         14.9524         -52.7979         14.9533       -0.0114978         147.344
0.557                  -0.883303        -151.241         -52.6418         12.4982         -52.6416          12.499       -0.0115944         147.273
0.558                  -0.906839        -151.802          -52.487         10.0433         -52.4869         10.0438       -0.0116795         147.202
0.559                  -0.930755        -152.365         -52.3339         7.58774         -52.3337         7.58815       -0.0117419         147.131
0.56                   -0.955054         -152.93         -52.1822         5.13195          -52.182         5.13221       -0.0117539          147.06
0.561                  -0.979735        -153.497          -52.032         2.67618         -52.0318         2.67631       -0.0116303         146.989
0.562                    -1.0048        -154.067         -51.8833        0.220696         -51.8831        0.220692       -0.0111746          146.92
0.563                   -1.03025        -154.638          -51.736        -2.23435         -51.7358        -2.23448       -0.0124973         146.856
0.564                   -1.05609        -155.211         -51.5901        -4.68843         -51.5899        -4.68867        -0.013023         146.779
0.565                   -1.08231        -155.786         -51.4455        -7.14148         -51.4454        -7.14182       -0.0130988         146.705
0.566                   -1.10892        -156.363         -51.3024        -9.59329         -51.3022        -9.59372       -0.0131809         146.633
0.567                   -1.13592        -156.943         -51.1605        -12.0436         -51.1604        -12.0442       -0.0132819          146.56
0.568                   -1.16332        -157.524         -51.0198        -14.4924         -51.0197        -14.4929       -0.0133962         146.488
0.569                    -1.1911        -158.108         -50.8804        -16.9393         -50.8803        -16.9399       -0.0135195         146.415
0.57                    -1.21929        -158.694         -50.7422        -19.3842         -50.7421        -19.3849       -0.0136494         146.343
0.571                   -1.24787        -159.282         -50.6051         -21.827          -50.605        -21.8278       -0.0137844          146.27
0.572                   -1.27686        -159.872         -50.4691        -24.2677         -50.4691        -24.2684       -0.0139235         146.197
0.573                   -1.30624        -160.465         -50.3341         -26.706         -50.3341        -26.7067       -0.0140661         146.124
0.574                   -1.33604         -161.06         -50.2002        -29.1419         -50.2002        -29.1426       -0.0142119         146.051
0.575                   -1.36625        -161.658         -50.0672        -31.5753         -50.0672        -31.5761       -0.0143606         145.978
0.576                   -1.39688        -162.257         -49.9351        -34.0062         -49.9352         -34.007       -0.0145119         145.905
0.577                   -1.42793         -162.86         -49.8039        -36.4346          -49.804        -36.4353       -0.0146657         145.831
0.578                    -1.4594        -163.465         -49.6735        -38.8604         -49.6736        -38.8611        -0.014822         145.757
0.579                    -1.4913        -164.072         -49.5439        -41.2836          -49.544        -41.2843       -0.0149807         145.683
0.58                    -1.52365        -164.683         -49.4151        -43.7043         -49.4152        -43.7049       -0.0151417          145.61
0.581                   -1.55643        -165.295         -49.2869        -46.1225         -49.2871         -46.123        -0.015305         145.535
0.582                   -1.58967        -165.911         -49.1594        -48.5381         -49.1596        -48.5386       -0.0154705         145.461
0.583                   -1.62336         -166.53         -49.0326        -50.9513         -49.0328        -50.9517       -0.0156384         145.387
0.584                   -1.65752        -167.151         -48.9063        -53.3621         -48.9065        -53.3625       -0.0158085         145.312
0.585                   -1.69216        -167.775         -48.7806        -55.7707         -48.7808        -55.7709       -0.0159809         145.237
0.586                   -1.72728        -168.403         -48.6554         -58.177         -48.6556        -58.1771       -0.0161556         145.162
0.587                    -1.7629        -169.033         -48.5306        -60.5811         -48.5309        -60.5812       -0.0163326         145.087
0.588                   -1.79902        -169.667         -48.4063        -62.9833         -48.4067        -62.9832        -0.016512         145.012
0.589                   -1.83567        -170.304         -48.2825        -65.3835         -48.2828        -65.3834       -0.0166937         144.936
0.59                    -1.87284        -170.944          -48.159         -67.782         -48.1593        -67.7817       -0.0168777         144.861
0.591                   -1.91056        -171.588         -48.0359        -70.1787         -48.0362        -70.1783       -0.0170642         144.785
0.592                   -1.94885        -172.235         -47.9131         -72.574         -47.9135        -72.5734       -0.0172531         144.709
0.593                   -1.98771        -172.885         -47.7907        -74.9678          -47.791        -74.9671       -0.0174445         144.633
0.594                   -2.02716        -173.539         -47.6685        -77.3603         -47.6689        -77.3595       -0.0176384         144.557
0.595                   -2.06722        -174.197         -47.5466        -79.7517          -47.547        -79.7508       -0.0178348          144.48
0.596                   -2.10792        -174.859          -47.425         -82.142         -47.4254         -82.141       -0.0180338         144.403
0.597                   -2.14927        -175.524         -47.3036        -84.5315          -47.304        -84.5304       -0.0182354         144.327
0.598                   -2.19129        -176.194         -47.1824        -86.9203         -47.1829        -86.9191       -0.0184397         144.249
0.599                   -2.23402        -176.867         -47.0615        -89.3085         -47.0619        -89.3072       -0.0186467         144.172
0.6                     -2.27746        -177.544         -46.9408        -91.6963         -46.9412        -91.6948       -0.0188564         144.095
0.601                   -2.32165        -178.226         -46.8203        -94.0837         -46.8207        -94.0821       -0.0190689         144.017
0.602                   -2.36662        -178.912         -46.6999         -96.471         -46.7004        -96.4693       -0.0192843         143.939
0.603                    -2.4124        -179.602         -46.5798        -98.8582         -46.5803        -98.8564       -0.0195025         143.861
0.604                   -2.45902         179.704         -46.4599        -101.245         -46.4603        -101.244       -0.0197237         143.783
0.605                    -2.5065         179.006         -46.3401        -103.633         -46.3406        -103.631       -0.0199479         143.704
0.606                   -2.55489         178.303         -46.2205        -106.021          -46.221        -106.019       -0.0201752         143.626
0.607                   -2.60422         177.595         -46.1012        -108.409         -46.1016        -108.407       -0.0204055         143.547
0.608                   -2.65454         176.884          -45.982        -110.798         -45.9824        -110.795        -0.020639         143.468
0.609                   -2.70587         176.167          -45.863        -113.187         -45.8635        -113.185       -0.0208758         143.388
0.61                    -2.75826         175.447         -45.7443        -115.577         -45.7447        -115.575       -0.0211158         143.309
0.611                   -2.81175         174.722         -45.6257        -117.968         -45.6261        -117.965       -0.0213592         143.229
0.612                   -2.86639         173.992         -45.5074        -120.359         -45.5078        -120.357        -0.021606         143.149
0.613                   -2.92223         173.258         -45.3892        -122.752         -45.3896        -122.749       -0.0218563         143.069
0.614                   -2.97932          172.52         -45.2714        -125.146         -45.2718        -125.143       -0.0221102         142.988
0.615                   -3.03769         171.777         -45.1538         -127.54         -45.1541        -127.537       -0.0223677         142.908
0.616                   -3.09741          171.03         -45.0364        -129.936         -45.0368        -129.933        -0.022629         142.827
0.617                   -3.15853         170.279         -44.9193        -132.332         -44.9197         -132.33        -0.022894         142.746
0.618                    -3.2211         169.525         -44.8025         -134.73         -44.8029        -134.727       -0.0231629         142.664
0.619                   -3.28518         168.766          -44.686        -137.129         -44.6864        -137.126       -0.0234358         142.582
0.62                    -3.35081         168.004         -44.5698        -139.529         -44.5702        -139.526       -0.0237127         142.501
0.621                   -3.41806         167.238          -44.454         -141.93         -44.4543        -141.927       -0.0239937         142.418
0.622                   -3.48699         166.469         -44.3385        -144.332         -44.3387        -144.329        -0.024279         142.336
0.623                   -3.55764         165.697         -44.2233        -146.735         -44.2235        -146.733       -0.0245686         142.253
0.624                   -3.63007         164.923         -44.1085        -149.139         -44.1087        -149.137       -0.0248626          142.17
0.625                   -3.70435         164.146          -43.994        -151.545         -43.9943        -151.542       -0.0251611         142.087
0.626                   -3.78051         163.367           -43.88         -153.95         -43.8802        -153.948       -0.0254643         142.004
0.627                   -3.85861         162.587         -43.7663        -156.357         -43.7665        -156.355       -0.0257722          141.92
0.628                    -3.9387         161.805         -43.6531        -158.765         -43.6533        -158.762       -0.0260849         141.836
0.629                   -4.02083         161.023         -43.5402        -161.173         -43.5404         -161.17       -0.0264025         141.752
