! TOUCHSTONE file generated by CST MICROWAVE STUDIO
! Date and time: Fri Oct  2 18:57:11 2020
! Project name: Scenario_1_Free_Space_out_of_line.cst
! Parameters = {Lambda=346.42; Step_1=17.321; dy1=35.502; dx1=1039; L_HA=400; MT=2.54; Rad_Dielectric=30; Rad_Lower=7.3; Rad_Upper=30; a_HA=580; a_WG=246; b_HA=500; b_WG=121; c_HA=0; c_WG=187; d_feed=85; h_feed=15; h_lower=18; h_upper=40}
! Header version: 2018
! Port assignment regex: !\s*Touchstone port\s*([0-9]+)\s*=\s*(CST MWS port|CST DS port)\s*([0-9]+|Zmin|Zmax)\s*\(\"(.*)\"\)(\s*mode\s*([0-9]+))?.*
! Touchstone port assignment:
! Touchstone port 1 = CST MWS port 1 ("")
! Touchstone port 2 = CST MWS port 2 ("")
# GHz S DB R 50
0.5                    -0.147951        -122.579           -63.52         46.5258           -63.52         46.5258      -0.00672116         151.135
0.501                  -0.152641        -123.013         -63.5089         43.9333         -63.5091          43.932      -0.00676747          151.07
0.502                  -0.157518         -123.45         -63.4899         41.3125         -63.4903           41.31      -0.00681482         151.004
0.503                  -0.162587        -123.888         -63.4626         38.6658         -63.4632         38.6621      -0.00686321         150.939
0.504                  -0.167851        -124.329         -63.4268          35.996         -63.4275          35.991      -0.00691266         150.873
0.505                  -0.173315        -124.772         -63.3823         33.3057         -63.3832         33.2994      -0.00696318         150.808
0.506                  -0.178984        -125.218          -63.329         30.5979           -63.33         30.5903      -0.00701477         150.742
0.507                  -0.184861        -125.666         -63.2667         27.8754         -63.2678         27.8666      -0.00706745         150.676
0.508                  -0.190951        -126.116         -63.1954         25.1414         -63.1966         25.1313      -0.00712123          150.61
0.509                  -0.197259        -126.569          -63.115         22.3988         -63.1163         22.3875      -0.00717611         150.545
0.51                   -0.203789        -127.024         -63.0256         19.6506          -63.027         19.6381      -0.00723211         150.479
0.511                  -0.210545        -127.482         -62.9272         16.8998         -62.9287         16.8862      -0.00728924         150.412
0.512                  -0.217533        -127.941         -62.8199         14.1491         -62.8215         14.1344      -0.00734751         150.346
0.513                  -0.224756        -128.404          -62.704         11.4012         -62.7057         11.3855      -0.00740693          150.28
0.514                   -0.23222        -128.868         -62.5795         8.65879         -62.5812         8.64208      -0.00746751         150.214
0.515                   -0.23993        -129.335         -62.4467         5.92407         -62.4485         5.90645      -0.00752926         150.147
0.516                  -0.247889        -129.805         -62.3059          3.1992         -62.3077         3.18075       -0.0075922         150.081
0.517                  -0.256103        -130.276         -62.1573        0.486101         -62.1591        0.466896      -0.00765633         150.014
0.518                  -0.264577        -130.751         -62.0012        -2.21357         -62.0031        -2.23345      -0.00772167         149.947
0.519                  -0.273315        -131.227         -61.8379        -4.89838         -61.8399        -4.91885      -0.00778823         149.881
0.52                   -0.282322        -131.706         -61.6679        -7.56717         -61.6698        -7.58815      -0.00785603         149.814
0.521                  -0.291604        -132.188         -61.4913         -10.219         -61.4933        -10.2404      -0.00792506         149.747
0.522                  -0.301165        -132.672         -61.3086        -12.8532         -61.3106         -12.875      -0.00799535          149.68
0.523                   -0.31101        -133.158         -61.1201        -15.4694         -61.1221        -15.4914      -0.00806691         149.613
0.524                  -0.321145        -133.647         -60.9261        -18.0673         -60.9281        -18.0895      -0.00813976         149.545
0.525                  -0.331574        -134.138         -60.7271         -20.647          -60.729        -20.6692      -0.00821389         149.478
0.526                  -0.342302        -134.632         -60.5232        -23.2087         -60.5252        -23.2309      -0.00828934         149.411
0.527                  -0.353334        -135.128         -60.3149        -25.7527         -60.3168        -25.7748       -0.0083661         149.343
0.528                  -0.364676        -135.626         -60.1025        -28.2797         -60.1044        -28.3016       -0.0084442         149.276
0.529                  -0.376332        -136.127         -59.8862        -30.7904         -59.8881        -30.8121      -0.00852365         149.208
0.53                   -0.388309         -136.63         -59.6664        -33.2856         -59.6683         -33.307      -0.00860446          149.14
0.531                   -0.40061        -137.136         -59.4434        -35.7665         -59.4453        -35.7875      -0.00868664         149.072
0.532                  -0.413241        -137.644         -59.2174        -38.2341         -59.2193        -38.2547      -0.00877021         149.004
0.533                  -0.426207        -138.155         -58.9887        -40.6897         -58.9905        -40.7097      -0.00885519         148.936
0.534                  -0.439513        -138.668         -58.7575        -43.1346         -58.7593         -43.154      -0.00894158         148.868
0.535                  -0.453165        -139.183         -58.5241        -45.5702          -58.526         -45.589      -0.00902941           148.8
0.536                  -0.467167        -139.701         -58.2888        -47.9979         -58.2906         -48.016      -0.00911868         148.731
0.537                  -0.481525        -140.221         -58.0517        -50.4193         -58.0535        -50.4366      -0.00920942         148.663
0.538                  -0.496244        -140.744         -57.8131        -52.8359         -57.8148        -52.8524      -0.00930164         148.594
0.539                  -0.511329        -141.269         -57.5732        -55.2493         -57.5749         -55.265      -0.00939535         148.525
0.54                   -0.526785        -141.796         -57.3322         -57.661         -57.3338        -57.6759      -0.00949057         148.457
0.541                  -0.542618        -142.326         -57.0902        -60.0728         -57.0919        -60.0867      -0.00958731         148.388
0.542                  -0.558832        -142.858         -56.8477        -62.4861         -56.8492        -62.4992       -0.0096856         148.319
0.543                  -0.575432        -143.392         -56.6046        -64.9027         -56.6061        -64.9148      -0.00978545          148.25
0.544                  -0.592424        -143.929         -56.3613         -67.324         -56.3627        -67.3352      -0.00988687          148.18
0.545                  -0.609812        -144.468         -56.1179        -69.7517         -56.1192        -69.7619      -0.00998988         148.111
0.546                  -0.627602         -145.01         -55.8746        -72.1872         -55.8759        -72.1965       -0.0100945         148.042
0.547                  -0.645798        -145.554         -55.6318         -74.632          -55.633        -74.6403       -0.0102007         147.972
0.548                  -0.664406          -146.1         -55.3895        -77.0875         -55.3906        -77.0948       -0.0103086         147.902
0.549                   -0.68343        -146.648          -55.148        -79.5549         -55.1491        -79.5613       -0.0104182         147.832
0.55                   -0.702876        -147.199         -54.9076        -82.0356         -54.9086        -82.0411       -0.0105294         147.763
0.551                  -0.722748        -147.752         -54.6685        -84.5306         -54.6694        -84.5353       -0.0106423         147.693
0.552                   -0.74305        -148.308         -54.4309         -87.041         -54.4317        -87.0448        -0.010757         147.622
0.553                  -0.763789        -148.865         -54.1951        -89.5677         -54.1958        -89.5707       -0.0108734         147.552
0.554                  -0.784968        -149.425         -53.9614        -92.1114         -53.9619        -92.1137       -0.0109915         147.482
0.555                  -0.806592        -149.987         -53.7299        -94.6727         -53.7303        -94.6743       -0.0111114         147.411
0.556                  -0.828666        -150.552         -53.5011        -97.2521         -53.5013        -97.2531       -0.0112331         147.341
0.557                  -0.851194        -151.119          -53.275        -99.8499         -53.2751        -99.8504       -0.0113566          147.27
0.558                  -0.874181        -151.687          -53.052        -102.466          -53.052        -102.466        -0.011482         147.199
0.559                  -0.897631        -152.259         -52.8324        -105.101         -52.8323        -105.101       -0.0116092         147.128
0.56                   -0.921549        -152.832         -52.6163        -107.754         -52.6161        -107.753       -0.0117383         147.057
0.561                  -0.945939        -153.407         -52.4041        -110.424         -52.4038        -110.423       -0.0118692         146.986
0.562                  -0.970805        -153.985          -52.196        -113.112         -52.1955        -113.111       -0.0120021         146.914
0.563                  -0.996152        -154.565         -51.9922        -115.816         -51.9915        -115.814        -0.012137         146.843
0.564                   -1.02198        -155.147         -51.7928        -118.535         -51.7921        -118.533       -0.0122737         146.771
0.565                    -1.0483        -155.731         -51.5981        -121.268         -51.5973        -121.266       -0.0124125         146.699
0.566                   -1.07512        -156.318         -51.4083        -124.013         -51.4073        -124.012       -0.0125533         146.627
0.567                   -1.10243        -156.906         -51.2233         -126.77         -51.2223        -126.769       -0.0126961         146.555
0.568                   -1.13024        -157.497         -51.0434        -129.536         -51.0423        -129.536        -0.012841         146.483
0.569                   -1.15856        -158.089         -50.8687         -132.31         -50.8675         -132.31       -0.0129879         146.411
0.57                    -1.18738        -158.684          -50.699         -135.09         -50.6978         -135.09       -0.0131369         146.338
0.571                   -1.21672        -159.281         -50.5345        -137.875         -50.5332        -137.875       -0.0132881         146.266
0.572                   -1.24657         -159.88         -50.3752        -140.662         -50.3738        -140.662       -0.0134414         146.193
0.573                   -1.27694        -160.481         -50.2208        -143.449         -50.2195         -143.45       -0.0135969          146.12
0.574                   -1.30784        -161.085         -50.0714        -146.235           -50.07        -146.237       -0.0137545         146.047
0.575                   -1.33926         -161.69         -49.9268        -149.018         -49.9255         -149.02       -0.0139144         145.974
0.576                   -1.37121        -162.297         -49.7869        -151.797         -49.7855          -151.8       -0.0140766           145.9
0.577                    -1.4037        -162.907         -49.6514         -154.57           -49.65        -154.572        -0.014241         145.827
0.578                   -1.43673        -163.518         -49.5201        -157.335         -49.5188        -157.338       -0.0144078         145.753
0.579                   -1.47029        -164.132         -49.3929        -160.091         -49.3916        -160.094       -0.0145768          145.68
0.58                     -1.5044        -164.748         -49.2694        -162.837         -49.2682        -162.841       -0.0147483         145.606
0.581                   -1.53906        -165.365         -49.1495        -165.573         -49.1483        -165.577       -0.0149221         145.531
0.582                   -1.57427        -165.985         -49.0327        -168.297         -49.0316        -168.301       -0.0150984         145.457
0.583                   -1.61004        -166.607         -48.9189        -171.009         -48.9179        -171.013       -0.0152771         145.383
0.584                   -1.64636        -167.231         -48.8078        -173.708         -48.8069        -173.712       -0.0154583         145.308
0.585                   -1.68325        -167.857         -48.6991        -176.394         -48.6982        -176.399       -0.0156419         145.234
0.586                    -1.7207        -168.486         -48.5925        -179.068         -48.5917        -179.072       -0.0158282         145.159
0.587                   -1.75872        -169.116         -48.4877         178.272          -48.487         178.268        -0.016017         145.084
0.588                   -1.79731        -169.749         -48.3845         175.624         -48.3839          175.62       -0.0162084         145.008
0.589                   -1.83648        -170.383         -48.2827         172.989         -48.2821         172.985       -0.0164024         144.933
0.59                    -1.87624         -171.02         -48.1819         170.366         -48.1813         170.362       -0.0165992         144.857
0.591                   -1.91658        -171.659         -48.0819         167.755         -48.0815         167.751       -0.0167986         144.782
0.592                   -1.95751        -172.301         -47.9826         165.154         -47.9822         165.151       -0.0170008         144.706
0.593                   -1.99903        -172.944         -47.8837         162.564         -47.8834         162.561       -0.0172057          144.63
0.594                   -2.04115         -173.59         -47.7851         159.983         -47.7848          159.98       -0.0174135         144.553
0.595                   -2.08388        -174.238         -47.6865         157.411         -47.6863         157.408       -0.0176241         144.477
0.596                   -2.12722        -174.889         -47.5879         154.847         -47.5877         154.845       -0.0178375           144.4
0.597                   -2.17118        -175.542          -47.489          152.29         -47.4889         152.288       -0.0180539         144.323
0.598                   -2.21576        -176.197         -47.3899          149.74         -47.3897         149.738       -0.0182733         144.246
0.599                   -2.26097        -176.855         -47.2902         147.194         -47.2901         147.193       -0.0184957         144.169
0.6                     -2.30681        -177.515           -47.19         144.653         -47.1899         144.652       -0.0187211         144.092
0.601                    -2.3533        -178.178         -47.0892         142.116         -47.0892         142.115       -0.0189495         144.014
0.602                   -2.40044        -178.844         -46.9877         139.582         -46.9877         139.581       -0.0191811         143.936
0.603                   -2.44825        -179.512         -46.8855         137.049         -46.8855         137.049       -0.0194159         143.858
0.604                   -2.49672         179.816         -46.7825         134.518         -46.7825         134.517       -0.0196538          143.78
0.605                   -2.54588         179.143         -46.6786         131.986         -46.6786         131.986        -0.019895         143.702
0.606                   -2.59573         178.466          -46.574         129.455          -46.574         129.455       -0.0201395         143.623
0.607                   -2.64628         177.786         -46.4684         126.922         -46.4685         126.923       -0.0203874         143.545
0.608                   -2.69756         177.103         -46.3621         124.388         -46.3621         124.388       -0.0206386         143.466
0.609                   -2.74957         176.417         -46.2548         121.851         -46.2549         121.852       -0.0208933         143.386
0.61                    -2.80232         175.728         -46.1468         119.311         -46.1468         119.312       -0.0211514         143.307
0.611                   -2.85585         175.035         -46.0379         116.768         -46.0379         116.769       -0.0214131         143.227
0.612                   -2.91016         174.339         -45.9283          114.22         -45.9283         114.221       -0.0216784         143.147
0.613                   -2.96527          173.64         -45.8179         111.668         -45.8179         111.669       -0.0219473         143.067
0.614                   -3.02121         172.937         -45.7068         109.111         -45.7068         109.112       -0.0222199         142.987
0.615                     -3.078          172.23          -45.595         106.548          -45.595          106.55       -0.0224963         142.907
0.616                   -3.13567         171.519         -45.4827          103.98         -45.4826         103.982       -0.0227765         142.826
0.617                   -3.19424         170.805         -45.3697         101.406         -45.3697         101.408       -0.0230605         142.745
0.618                   -3.25374         170.086         -45.2562         98.8263         -45.2562         98.8281       -0.0233485         142.664
0.619                   -3.31421         169.364         -45.1423         96.2398         -45.1422         96.2416       -0.0236405         142.582
0.62                    -3.37569         168.637         -45.0279         93.6467         -45.0279         93.6486       -0.0239366         142.501
0.621                    -3.4382         167.906         -44.9133          91.047         -44.9132         91.0489       -0.0242369         142.419
0.622                   -3.50179          167.17         -44.7983         88.4406         -44.7982         88.4424       -0.0245413         142.337
0.623                    -3.5665          166.43         -44.6832         85.8274         -44.6831         85.8292       -0.0248501         142.254
0.624                   -3.63239         165.685         -44.5678         83.2075         -44.5677         83.2092       -0.0251633         142.171
0.625                    -3.6995         164.936         -44.4524         80.5808         -44.4523         80.5825       -0.0254811         142.089
0.626                   -3.76788         164.182          -44.337         77.9475         -44.3369         77.9491       -0.0258034         142.005
0.627                    -3.8376         163.422         -44.2216         75.3076         -44.2215         75.3092       -0.0261305         141.922
0.628                   -3.90871         162.658         -44.1063         72.6613         -44.1062         72.6629       -0.0264625         141.838
0.629                   -3.98129         161.889         -43.9912         70.0088         -43.9911         70.0103       -0.0267996         141.755
