! TOUCHSTONE file generated by CST MICROWAVE STUDIO
! Date and time: Fri Oct  2 17:13:19 2020
! Project name: Scenario_1_Free_Space_out_of_line.cst
! Parameters = {Lambda=346.42; Step_1=17.321; dy1=346; dx1=173; L_HA=400; MT=2.54; Rad_Dielectric=30; Rad_Lower=7.3; Rad_Upper=30; a_HA=580; a_WG=246; b_HA=500; b_WG=121; c_HA=0; c_WG=187; d_feed=85; h_feed=15; h_lower=18; h_upper=40}
! Header version: 2018
! Port assignment regex: !\s*Touchstone port\s*([0-9]+)\s*=\s*(CST MWS port|CST DS port)\s*([0-9]+|Zmin|Zmax)\s*\(\"(.*)\"\)(\s*mode\s*([0-9]+))?.*
! Touchstone port assignment:
! Touchstone port 1 = CST MWS port 1 ("")
! Touchstone port 2 = CST MWS port 2 ("")
# GHz S DB R 50
0.5                    -0.148087        -122.707         -64.7425         108.544         -64.7425         108.544      -0.00629293         151.099
0.501                  -0.154705        -123.156         -64.5683         106.913         -64.5687         106.911        -0.006353         151.034
0.502                  -0.161511        -123.606         -64.3943         105.282          -64.395         105.279      -0.00641381         150.968
0.503                  -0.168506        -124.058         -64.2203         103.652         -64.2214         103.648      -0.00647537         150.903
0.504                  -0.175692        -124.512         -64.0465         102.022         -64.0479         102.016      -0.00653769         150.837
0.505                  -0.183071        -124.967         -63.8728         100.392         -63.8745         100.384      -0.00660076         150.771
0.506                  -0.190643        -125.424         -63.6993         98.7609         -63.7013         98.7526       -0.0066646         150.705
0.507                   -0.19841        -125.883         -63.5261         97.1296         -63.5283         97.1203      -0.00672922          150.64
0.508                  -0.206375        -126.343          -63.353         95.4977         -63.3555         95.4873      -0.00679461         150.574
0.509                  -0.214539        -126.805         -63.1803         93.8647         -63.1829         93.8535      -0.00686079         150.508
0.51                   -0.222904        -127.268         -63.0078         92.2307         -63.0107         92.2187      -0.00692776         150.441
0.511                  -0.231471        -127.733         -62.8356         90.5954         -62.8387         90.5826      -0.00699553         150.375
0.512                  -0.240243          -128.2         -62.6638         88.9586          -62.667         88.9451      -0.00706412         150.309
0.513                  -0.249221        -128.669         -62.4924         87.3201         -62.4958         87.3061      -0.00713352         150.243
0.514                  -0.258407        -129.139         -62.3213         85.6799         -62.3248         85.6653      -0.00720374         150.176
0.515                  -0.267803        -129.612         -62.1507         84.0377         -62.1543         84.0226       -0.0072748          150.11
0.516                  -0.277412        -130.085         -61.9805         82.3934         -61.9842         82.3779       -0.0073467         150.043
0.517                  -0.287234        -130.561         -61.8108         80.7468         -61.8146          80.731      -0.00741946         149.976
0.518                  -0.297273        -131.039         -61.6415         79.0979         -61.6454         79.0818      -0.00749307          149.91
0.519                  -0.307531        -131.518         -61.4728         77.4464         -61.4767         77.4302      -0.00756756         149.843
0.52                   -0.318009        -131.999         -61.3045         75.7923         -61.3085         75.7759      -0.00764292         149.776
0.521                   -0.32871        -132.482         -61.1368         74.1354         -61.1409         74.1189      -0.00771918         149.709
0.522                  -0.339636        -132.966         -60.9697         72.4756         -60.9738         72.4591      -0.00779635         149.642
0.523                   -0.35079        -133.453         -60.8032         70.8128         -60.8073         70.7963      -0.00787442         149.574
0.524                  -0.362174        -133.941         -60.6373         69.1469         -60.6414         69.1305      -0.00795343         149.507
0.525                  -0.373791        -134.431          -60.472         67.4779         -60.4761         67.4616      -0.00803336          149.44
0.526                  -0.385643        -134.924         -60.3073         65.8055         -60.3114         65.7894      -0.00811425         149.372
0.527                  -0.397733        -135.418         -60.1433         64.1298         -60.1474         64.1139       -0.0081961         149.305
0.528                  -0.410063        -135.914         -59.9801         62.4507         -59.9841         62.4351      -0.00827893         149.237
0.529                  -0.422636        -136.412         -59.8175         60.7681         -59.8215         60.7527      -0.00836274         149.169
0.53                   -0.435456        -136.912         -59.6556          59.082         -59.6596         59.0669      -0.00844756         149.101
0.531                  -0.448525        -137.413         -59.4945         57.3922         -59.4984         57.3775      -0.00853339         149.033
0.532                  -0.461845        -137.917         -59.3341         55.6988          -59.338         55.6844      -0.00862025         148.965
0.533                  -0.475421        -138.423         -59.1746         54.0017         -59.1783         53.9877      -0.00870816         148.897
0.534                  -0.489255        -138.931         -59.0158         52.3008         -59.0195         52.2873      -0.00879713         148.829
0.535                   -0.50335        -139.441         -58.8578         50.5962         -58.8615         50.5831      -0.00888718          148.76
0.536                  -0.517711        -139.953         -58.7007         48.8879         -58.7042         48.8752      -0.00897832         148.692
0.537                   -0.53234        -140.467         -58.5444         47.1758         -58.5479         47.1636      -0.00907057         148.623
0.538                   -0.54724        -140.984          -58.389         45.4598         -58.3924         45.4482      -0.00916395         148.555
0.539                  -0.562416        -141.502         -58.2345         43.7401         -58.2377          43.729      -0.00925848         148.486
0.54                   -0.577872        -142.022         -58.0809         42.0167          -58.084          42.006      -0.00935417         148.417
0.541                   -0.59361        -142.545         -57.9281         40.2894         -57.9311         40.2793      -0.00945105         148.348
0.542                  -0.609635         -143.07         -57.7763         38.5585         -57.7792         38.5488      -0.00954913         148.279
0.543                  -0.625952        -143.597         -57.6255         36.8238         -57.6282         36.8147      -0.00964843          148.21
0.544                  -0.642563        -144.126         -57.4755         35.0854         -57.4782         35.0768      -0.00974897         148.141
0.545                  -0.659474        -144.658         -57.3266         33.3434         -57.3291         33.3354      -0.00985078         148.071
0.546                  -0.676689        -145.192         -57.1786         31.5979          -57.181         31.5903      -0.00995387         148.002
0.547                  -0.694212        -145.728         -57.0317         29.8487         -57.0339         29.8417       -0.0100583         147.932
0.548                  -0.712049        -146.266         -56.8857         28.0961         -56.8878         28.0895        -0.010164         147.862
0.549                  -0.730203        -146.807         -56.7407         26.3401         -56.7427          26.334       -0.0102711         147.792
0.55                    -0.74868         -147.35         -56.5968         24.5807         -56.5986         24.5751       -0.0103796         147.722
0.551                  -0.767485        -147.895         -56.4539          22.818         -56.4556         22.8129       -0.0104894         147.652
0.552                  -0.786623        -148.443          -56.312         21.0521         -56.3136         21.0474       -0.0106007         147.582
0.553                    -0.8061        -148.993         -56.1711         19.2831         -56.1726         19.2789       -0.0107135         147.512
0.554                   -0.82592        -149.545         -56.0314          17.511         -56.0327         17.5072       -0.0108277         147.441
0.555                   -0.84609        -150.101         -55.8927          15.736         -55.8938         15.7326       -0.0109434         147.371
0.556                  -0.866616        -150.658          -55.755         13.9581         -55.7561         13.9551       -0.0110607           147.3
0.557                  -0.887503        -151.218         -55.6184         12.1775         -55.6193         12.1749       -0.0111795         147.229
0.558                  -0.908757        -151.781         -55.4829         10.3942         -55.4837          10.392          -0.0113         147.158
0.559                  -0.930386        -152.346         -55.3485         8.60839         -55.3492         8.60645        -0.011422         147.087
0.56                   -0.952395        -152.913         -55.2152         6.82009         -55.2157         6.81846       -0.0115457         147.016
0.561                  -0.974792        -153.484         -55.0829         5.02945         -55.0833         5.02812       -0.0116711         146.945
0.562                  -0.997582        -154.056         -54.9517         3.23657          -54.952         3.23552       -0.0117982         146.874
0.563                   -1.02077        -154.632         -54.8216         1.44158         -54.8218         1.44078        -0.011927         146.802
0.564                   -1.04437         -155.21         -54.6926       -0.355418         -54.6926       -0.355993       -0.0120576          146.73
0.565                   -1.06839        -155.791         -54.5647        -2.15431         -54.5646        -2.15467         -0.01219         146.658
0.566                   -1.09283        -156.374         -54.4379        -3.95497         -54.4376        -3.95515       -0.0123243         146.586
0.567                    -1.1177        -156.961         -54.3121        -5.75729         -54.3117         -5.7573       -0.0124604         146.514
0.568                   -1.14301         -157.55         -54.1874        -7.56114         -54.1869        -7.56101       -0.0125985         146.442
0.569                   -1.16877        -158.141         -54.0638        -9.36642         -54.0632        -9.36616       -0.0127385          146.37
0.57                    -1.19499        -158.736         -53.9413         -11.173         -53.9405        -11.1726       -0.0128805         146.297
0.571                   -1.22167        -159.333         -53.8198        -12.9808         -53.8189        -12.9803       -0.0130245         146.225
0.572                   -1.24882        -159.933         -53.6993        -14.7896         -53.6984        -14.7891       -0.0131705         146.152
0.573                   -1.27646        -160.536         -53.5799        -16.5994         -53.5789        -16.5988       -0.0133187         146.079
0.574                    -1.3046        -161.142         -53.4616          -18.41         -53.4604        -18.4094        -0.013469         146.006
0.575                   -1.33323        -161.751         -53.3442        -20.2213          -53.343        -20.2207       -0.0136214         145.933
0.576                   -1.36238        -162.362         -53.2279        -22.0332         -53.2266        -22.0327       -0.0137761         145.859
0.577                   -1.39205        -162.977         -53.1126        -23.8457         -53.1112        -23.8451        -0.013933         145.786
0.578                   -1.42226        -163.594         -52.9983        -25.6585         -52.9968         -25.658       -0.0140922         145.712
0.579                   -1.45301        -164.214          -52.885        -27.4716         -52.8835        -27.4711       -0.0142537         145.638
0.58                    -1.48432        -164.838         -52.7727        -29.2849          -52.771        -29.2845       -0.0144176         145.564
0.581                   -1.51619        -165.464         -52.6613        -31.0982         -52.6596        -31.0979       -0.0145839          145.49
0.582                   -1.54865        -166.093         -52.5509        -32.9115         -52.5491        -32.9113       -0.0147526         145.416
0.583                   -1.58169        -166.726         -52.4414        -34.7247         -52.4396        -34.7246       -0.0149239         145.341
0.584                   -1.61534        -167.361         -52.3328        -36.5377          -52.331        -36.5377       -0.0150976         145.267
0.585                   -1.64961            -168         -52.2252        -38.3503         -52.2233        -38.3505        -0.015274         145.192
0.586                    -1.6845        -168.641         -52.1185        -40.1626         -52.1165        -40.1629       -0.0154529         145.117
0.587                   -1.72004        -169.286         -52.0126        -41.9744         -52.0106        -41.9748       -0.0156345         145.042
0.588                   -1.75623        -169.933         -51.9076        -43.7856         -51.9056        -43.7861       -0.0158188         144.966
0.589                   -1.79309        -170.584         -51.8035        -45.5961         -51.8014        -45.5968       -0.0160058         144.891
0.59                    -1.83064        -171.238         -51.7002        -47.4059         -51.6981        -47.4068       -0.0161956         144.815
0.591                   -1.86888        -171.894         -51.5978        -49.2149         -51.5957         -49.216       -0.0163882          144.74
0.592                   -1.90784        -172.554         -51.4961        -51.0231          -51.494        -51.0243       -0.0165837         144.664
0.593                   -1.94753        -173.217         -51.3953        -52.8303         -51.3931        -52.8317       -0.0167821         144.587
0.594                   -1.98796        -173.883         -51.2952        -54.6365          -51.293        -54.6381       -0.0169834         144.511
0.595                   -2.02915        -174.553         -51.1959        -56.4417         -51.1937        -56.4434       -0.0171876         144.435
0.596                   -2.07111        -175.225         -51.0973        -58.2457         -51.0951        -58.2476       -0.0173949         144.358
0.597                   -2.11387          -175.9         -50.9995        -60.0486         -50.9973        -60.0506       -0.0176053         144.281
0.598                   -2.15744        -176.579         -50.9024        -61.8503         -50.9002        -61.8525       -0.0178187         144.204
0.599                   -2.20184         -177.26          -50.806        -63.6506         -50.8038         -63.653       -0.0180353         144.127
0.6                     -2.24708        -177.945         -50.7103        -65.4497         -50.7081        -65.4523        -0.018255         144.049
0.601                   -2.29319        -178.632         -50.6152        -67.2475         -50.6131        -67.2502       -0.0184779         143.972
0.602                   -2.34017        -179.323         -50.5208        -69.0438         -50.5187        -69.0467       -0.0187041         143.894
0.603                   -2.38806         179.984         -50.4271        -70.8387          -50.425        -70.8417       -0.0189335         143.816
0.604                   -2.43686         179.287          -50.334        -72.6322         -50.3318        -72.6354       -0.0191663         143.738
0.605                   -2.48661         178.588         -50.2415        -74.4242         -50.2394        -74.4275       -0.0194024         143.659
0.606                   -2.53731         177.885         -50.1495        -76.2147         -50.1475        -76.2181       -0.0196418         143.581
0.607                   -2.58899          177.18         -50.0582        -78.0036         -50.0562        -78.0071       -0.0198847         143.502
0.608                   -2.64166         176.472         -49.9674         -79.791         -49.9654        -79.7946        -0.020131         143.423
0.609                   -2.69536         175.761         -49.8772        -81.5768         -49.8752        -81.5805       -0.0203808         143.344
0.61                     -2.7501         175.047         -49.7876         -83.361         -49.7856        -83.3649       -0.0206341         143.264
0.611                    -2.8059         174.331         -49.6984        -85.1436         -49.6965        -85.1475       -0.0208909         143.185
0.612                   -2.86279         173.612         -49.6098        -86.9245         -49.6079        -86.9286       -0.0211513         143.105
0.613                   -2.92078          172.89         -49.5217        -88.7039         -49.5198         -88.708       -0.0214153         143.025
0.614                    -2.9799         172.166          -49.434        -90.4816         -49.4322        -90.4858       -0.0216829         142.944
0.615                   -3.04017         171.439         -49.3469        -92.2576          -49.345        -92.2619       -0.0219542         142.864
0.616                   -3.10162          170.71         -49.2602         -94.032         -49.2584        -94.0363       -0.0222291         142.783
0.617                   -3.16426         169.978         -49.1739        -95.8047         -49.1721        -95.8091       -0.0225077         142.702
0.618                   -3.22813         169.244         -49.0881        -97.5757         -49.0864        -97.5802       -0.0227901         142.621
0.619                   -3.29324         168.508         -49.0027        -99.3451          -49.001        -99.3496       -0.0230762         142.539
0.62                    -3.35963          167.77         -48.9177        -101.113         -48.9161        -101.117       -0.0233662         142.458
0.621                   -3.42731          167.03         -48.8332        -102.879         -48.8315        -102.883       -0.0236599         142.376
0.622                   -3.49631         166.287          -48.749        -104.643         -48.7474        -104.648       -0.0239575         142.293
0.623                   -3.56665         165.543         -48.6652        -106.406         -48.6637         -106.41       -0.0242589         142.211
0.624                   -3.63837         164.797         -48.5818        -108.167         -48.5803        -108.171       -0.0245643         142.128
0.625                   -3.71148          164.05         -48.4988        -109.926         -48.4973        -109.931       -0.0248736         142.045
0.626                   -3.78601         163.301         -48.4161        -111.684         -48.4146        -111.688       -0.0251869         141.962
0.627                     -3.862         162.551         -48.3337         -113.44         -48.3323        -113.444       -0.0255041         141.879
0.628                   -3.93945         161.799         -48.2517        -115.194         -48.2503        -115.199       -0.0258254         141.795
0.629                   -4.01841         161.046           -48.17        -116.947         -48.1687        -116.951       -0.0261508         141.711
