! TOUCHSTONE file generated by CST MICROWAVE STUDIO
! Date and time: Fri Oct  2 16:33:18 2020
! Project name: Scenario_1_Free_Space_out_of_line.cst
! Parameters = {Lambda=346.42; Step_1=17.321; dy1=346; dx1=346; L_HA=400; MT=2.54; Rad_Dielectric=30; Rad_Lower=7.3; Rad_Upper=30; a_HA=580; a_WG=246; b_HA=500; b_WG=121; c_HA=0; c_WG=187; d_feed=85; h_feed=15; h_lower=18; h_upper=40}
! Header version: 2018
! Port assignment regex: !\s*Touchstone port\s*([0-9]+)\s*=\s*(CST MWS port|CST DS port)\s*([0-9]+|Zmin|Zmax)\s*\(\"(.*)\"\)(\s*mode\s*([0-9]+))?.*
! Touchstone port assignment:
! Touchstone port 1 = CST MWS port 1 ("")
! Touchstone port 2 = CST MWS port 2 ("")
# GHz S DB R 50
0.5                    -0.150966        -122.567         -63.6861         29.7817         -63.6861         29.7817      -0.00688749         151.105
0.501                  -0.156942        -123.018         -63.5448          27.784         -63.5448          27.784      -0.00694929          151.04
0.502                  -0.163105        -123.472         -63.4009         25.7919         -63.4009         25.7919      -0.00701181         150.974
0.503                  -0.169456        -123.927         -63.2547         23.8057         -63.2547         23.8057      -0.00707503         150.909
0.504                  -0.175997        -124.383         -63.1062         21.8255         -63.1062         21.8255      -0.00713898         150.843
0.505                  -0.182731        -124.841         -62.9555         19.8516         -62.9555         19.8516      -0.00720366         150.778
0.506                  -0.189659        -125.301         -62.8027          17.884         -62.8027          17.884      -0.00726909         150.712
0.507                  -0.196783        -125.762         -62.6481         15.9229         -62.6481         15.9229      -0.00733526         150.646
0.508                  -0.204106        -126.225         -62.4916         13.9683         -62.4916         13.9683      -0.00740218         150.581
0.509                  -0.211629        -126.689         -62.3334         12.0203         -62.3334         12.0203      -0.00746987         150.515
0.51                   -0.219355        -127.156         -62.1736         10.0788         -62.1736         10.0787      -0.00753834         150.449
0.511                  -0.227287        -127.623         -62.0123         8.14374         -62.0123         8.14369      -0.00760758         150.383
0.512                  -0.235425        -128.093         -61.8496         6.21511         -61.8496         6.21506      -0.00767762         150.316
0.513                  -0.243774        -128.564         -61.6856          4.2928         -61.6856         4.29274      -0.00774846          150.25
0.514                  -0.252335        -129.037         -61.5204         2.37668         -61.5204         2.37662       -0.0078201         150.184
0.515                   -0.26111        -129.512         -61.3541        0.466613         -61.3542        0.466542      -0.00789257         150.117
0.516                  -0.270103        -129.989         -61.1869        -1.43758         -61.1869        -1.43765      -0.00796586         150.051
0.517                  -0.279316        -130.467         -61.0187        -3.33607         -61.0187        -3.33615      -0.00803999         149.984
0.518                  -0.288751        -130.947         -60.8497        -5.22906         -60.8498        -5.22914      -0.00811496         149.918
0.519                  -0.298412        -131.429           -60.68        -7.11677           -60.68        -7.11685      -0.00819079         149.851
0.52                   -0.308301        -131.912         -60.5097        -8.99942         -60.5097         -8.9995      -0.00826748         149.784
0.521                  -0.318422        -132.398         -60.3388        -10.8772         -60.3388        -10.8773      -0.00834504         149.717
0.522                  -0.328776        -132.885         -60.1674        -12.7505         -60.1674        -12.7506      -0.00842349          149.65
0.523                  -0.339368        -133.375         -59.9956        -14.6194         -59.9956        -14.6195      -0.00850284         149.583
0.524                    -0.3502        -133.866         -59.8234        -16.4843         -59.8234        -16.4844      -0.00858308         149.516
0.525                  -0.361276        -134.359          -59.651        -18.3454          -59.651        -18.3455      -0.00866424         149.449
0.526                  -0.372599        -134.854         -59.4784        -20.2029         -59.4784         -20.203      -0.00874632         149.381
0.527                  -0.384172         -135.35         -59.3057        -22.0572         -59.3057        -22.0573      -0.00882934         149.314
0.528                  -0.395998        -135.849         -59.1329        -23.9085         -59.1329        -23.9086       -0.0089133         149.246
0.529                  -0.408082         -136.35           -58.96        -25.7571         -58.9601        -25.7572      -0.00899821         149.179
0.53                   -0.420426        -136.853         -58.7873        -27.6032         -58.7873        -27.6033      -0.00908409         149.111
0.531                  -0.433035        -137.357         -58.6146        -29.4472         -58.6146        -29.4473      -0.00917094         149.043
0.532                  -0.445913        -137.864         -58.4421        -31.2892         -58.4421        -31.2893      -0.00925878         148.975
0.533                  -0.459062        -138.373         -58.2698        -33.1296         -58.2698        -33.1297      -0.00934762         148.907
0.534                  -0.472488        -138.884         -58.0978        -34.9686         -58.0978        -34.9686      -0.00943746         148.839
0.535                  -0.486193        -139.396         -57.9261        -36.8064         -57.9261        -36.8065      -0.00952833         148.771
0.536                  -0.500183        -139.911         -57.7547        -38.6433         -57.7547        -38.6434      -0.00962023         148.702
0.537                  -0.514462        -140.428         -57.5837        -40.4795         -57.5837        -40.4796      -0.00971317         148.634
0.538                  -0.529033        -140.947         -57.4132        -42.3154         -57.4132        -42.3155      -0.00980716         148.565
0.539                  -0.543901        -141.469         -57.2431         -44.151         -57.2431        -44.1511      -0.00990223         148.497
0.54                   -0.559072        -141.992         -57.0736        -45.9866         -57.0736        -45.9867      -0.00999837         148.428
0.541                  -0.574548        -142.517         -56.9046        -47.8224         -56.9046        -47.8225       -0.0100956         148.359
0.542                  -0.590336        -143.045         -56.7362        -49.6586         -56.7362        -49.6587       -0.0101939          148.29
0.543                  -0.606439        -143.575         -56.5685        -51.4955         -56.5685        -51.4956       -0.0102934         148.221
0.544                  -0.622864        -144.107         -56.4014        -53.3331         -56.4014        -53.3332        -0.010394         148.152
0.545                  -0.639614        -144.641          -56.235        -55.1717          -56.235        -55.1718       -0.0104957         148.082
0.546                  -0.656695        -145.178         -56.0693        -57.0114         -56.0693        -57.0115       -0.0105986         148.013
0.547                  -0.674113        -145.716         -55.9044        -58.8524         -55.9044        -58.8525       -0.0107027         147.944
0.548                  -0.691872        -146.257         -55.7403        -60.6948         -55.7403        -60.6949       -0.0108079         147.874
0.549                  -0.709978        -146.801          -55.577        -62.5388          -55.577        -62.5389       -0.0109143         147.804
0.55                   -0.728437        -147.346         -55.4145        -64.3845         -55.4145        -64.3845        -0.011022         147.734
0.551                  -0.747254        -147.894         -55.2529        -66.2319         -55.2529         -66.232       -0.0111309         147.664
0.552                  -0.766435        -148.444         -55.0921        -68.0813         -55.0921        -68.0813        -0.011241         147.594
0.553                  -0.785986        -148.997         -54.9323        -69.9327         -54.9323        -69.9327       -0.0113524         147.524
0.554                  -0.805914        -149.552         -54.7734        -71.7861         -54.7734        -71.7862        -0.011465         147.454
0.555                  -0.826224        -150.109         -54.6154        -73.6417         -54.6154        -73.6418        -0.011579         147.383
0.556                  -0.846922        -150.669         -54.4584        -75.4996         -54.4584        -75.4996       -0.0116942         147.313
0.557                  -0.868016        -151.231         -54.3024        -77.3598         -54.3024        -77.3598       -0.0118108         147.242
0.558                  -0.889511        -151.795         -54.1474        -79.2223         -54.1474        -79.2223       -0.0119287         147.171
0.559                  -0.911414        -152.362         -53.9934        -81.0871         -53.9934        -81.0872        -0.012048           147.1
0.56                   -0.933732        -152.932         -53.8404        -82.9544         -53.8404        -82.9545       -0.0121687         147.029
0.561                  -0.956472        -153.503         -53.6885        -84.8242         -53.6885        -84.8242       -0.0122907         146.958
0.562                  -0.979642        -154.078         -53.5376        -86.6963         -53.5376        -86.6964       -0.0124142         146.887
0.563                   -1.00325        -154.654         -53.3878         -88.571         -53.3878         -88.571       -0.0125391         146.815
0.564                    -1.0273        -155.234          -53.239        -90.4481          -53.239        -90.4481       -0.0126654         146.744
0.565                    -1.0518        -155.815         -53.0913        -92.3277         -53.0913        -92.3277       -0.0127932         146.672
0.566                   -1.07676        -156.399         -52.9448        -94.2096         -52.9448        -94.2097       -0.0129225           146.6
0.567                   -1.10218        -156.986         -52.7993         -96.094         -52.7993        -96.0941       -0.0130534         146.528
0.568                   -1.12808        -157.576         -52.6549        -97.9808         -52.6549        -97.9808       -0.0131857         146.456
0.569                   -1.15446        -158.167         -52.5116          -99.87         -52.5116          -99.87       -0.0133196         146.384
0.57                    -1.18134        -158.762         -52.3694        -101.761         -52.3694        -101.761       -0.0134551         146.311
0.571                   -1.20871        -159.359         -52.2284        -103.655         -52.2284        -103.655       -0.0135922         146.239
0.572                   -1.23659        -159.958         -52.0884        -105.551         -52.0884        -105.551       -0.0137309         146.166
0.573                   -1.26499         -160.56         -51.9495        -107.449         -51.9495        -107.449       -0.0138713         146.093
0.574                   -1.29391        -161.165         -51.8118        -109.349         -51.8118        -109.349       -0.0140134          146.02
0.575                   -1.32336        -161.772         -51.6751        -111.251         -51.6751        -111.251       -0.0141572         145.947
0.576                   -1.35336        -162.382         -51.5396        -113.156         -51.5396        -113.156       -0.0143027         145.874
0.577                   -1.38391        -162.994         -51.4051        -115.062         -51.4051        -115.062       -0.0144499           145.8
0.578                   -1.41502        -163.609         -51.2717         -116.97         -51.2717         -116.97        -0.014599         145.727
0.579                   -1.44671        -164.227         -51.1394        -118.879         -51.1394        -118.879       -0.0147498         145.653
0.58                    -1.47897        -164.847         -51.0082        -120.791         -51.0082        -120.791       -0.0149025         145.579
0.581                   -1.51183         -165.47          -50.878        -122.703          -50.878        -122.703       -0.0150571         145.505
0.582                   -1.54528        -166.096         -50.7488        -124.618         -50.7488        -124.618       -0.0152136         145.431
0.583                   -1.57935        -166.724         -50.6207        -126.534         -50.6207        -126.534        -0.015372         145.357
0.584                   -1.61404        -167.355         -50.4937        -128.451         -50.4937        -128.451       -0.0155325         145.282
0.585                   -1.64937        -167.988         -50.3676        -130.369         -50.3676        -130.369       -0.0156949         145.207
0.586                   -1.68534        -168.625         -50.2425        -132.289         -50.2425        -132.289       -0.0158594         145.133
0.587                   -1.72196        -169.263         -50.1185         -134.21         -50.1185         -134.21       -0.0160259         145.058
0.588                   -1.75925        -169.905         -49.9953        -136.131         -49.9953        -136.131       -0.0161946         144.982
0.589                   -1.79721        -170.549         -49.8732        -138.054         -49.8732        -138.054       -0.0163655         144.907
0.59                    -1.83587        -171.195         -49.7519        -139.978         -49.7519        -139.978       -0.0165386         144.831
0.591                   -1.87522        -171.844         -49.6316        -141.902         -49.6316        -141.902       -0.0167139         144.756
0.592                   -1.91529        -172.496         -49.5122        -143.827         -49.5122        -143.827       -0.0168915          144.68
0.593                   -1.95608        -173.151         -49.3937        -145.753         -49.3937        -145.753       -0.0170714         144.604
0.594                   -1.99761        -173.808          -49.276        -147.679          -49.276        -147.679       -0.0172537         144.527
0.595                   -2.03989        -174.467         -49.1592        -149.606         -49.1591        -149.606       -0.0174385         144.451
0.596                   -2.08293         -175.13         -49.0431        -151.533         -49.0431        -151.533       -0.0176257         144.374
0.597                   -2.12674        -175.794         -48.9279        -153.461         -48.9279        -153.461       -0.0178155         144.298
0.598                   -2.17135        -176.462         -48.8135        -155.389         -48.8135        -155.389       -0.0180079         144.221
0.599                   -2.21676        -177.132         -48.6998        -157.317         -48.6998        -157.317       -0.0182029         144.143
0.6                     -2.26298        -177.804         -48.5869        -159.246         -48.5869        -159.246       -0.0184006         144.066
0.601                   -2.31003        -178.479         -48.4746        -161.175         -48.4746        -161.175       -0.0186011         143.988
0.602                   -2.35793        -179.156         -48.3631        -163.104         -48.3631        -163.104       -0.0188044         143.911
0.603                   -2.40669        -179.836         -48.2523        -165.033         -48.2522        -165.033       -0.0190106         143.833
0.604                   -2.45631         179.481         -48.1421        -166.962         -48.1421        -166.962       -0.0192197         143.754
0.605                   -2.50683         178.797         -48.0325        -168.891         -48.0325        -168.891       -0.0194319         143.676
0.606                   -2.55825         178.109         -47.9235         -170.82         -47.9235         -170.82       -0.0196471         143.597
0.607                   -2.61059          177.42         -47.8152         -172.75         -47.8152         -172.75       -0.0198655         143.518
0.608                   -2.66386         176.728         -47.7074        -174.679         -47.7074        -174.679       -0.0200872         143.439
0.609                   -2.71808         176.033         -47.6002        -176.608         -47.6002        -176.608       -0.0203121          143.36
0.61                    -2.77327         175.337         -47.4935        -178.537         -47.4935        -178.537       -0.0205405         143.281
0.611                   -2.82944         174.638         -47.3873         179.534         -47.3873         179.534       -0.0207723         143.201
0.612                   -2.88662         173.936         -47.2816         177.605         -47.2816         177.605       -0.0210077         143.121
0.613                    -2.9448         173.233         -47.1764         175.676         -47.1764         175.676       -0.0212467         143.041
0.614                   -3.00403         172.527         -47.0716         173.747         -47.0716         173.747       -0.0214895          142.96
0.615                    -3.0643          171.82         -46.9673         171.818         -46.9673         171.818       -0.0217361          142.88
0.616                   -3.12565          171.11         -46.8634         169.889         -46.8634         169.889       -0.0219866         142.799
0.617                   -3.18808         170.398           -46.76         167.961         -46.7599         167.961       -0.0222412         142.718
0.618                   -3.25162         169.684         -46.6569         166.032         -46.6569         166.032       -0.0224999         142.637
0.619                   -3.31629         168.968         -46.5542         164.103         -46.5541         164.103       -0.0227629         142.555
0.62                     -3.3821          168.25         -46.4518         162.175         -46.4518         162.175       -0.0230302         142.473
0.621                   -3.44907         167.531         -46.3498         160.246         -46.3498         160.246        -0.023302         142.391
0.622                   -3.51724         166.809         -46.2482         158.317         -46.2481         158.317       -0.0235784         142.309
0.623                   -3.58661         166.086         -46.1468         156.388         -46.1468         156.388       -0.0238595         142.226
0.624                    -3.6572         165.361         -46.0458          154.46         -46.0458          154.46       -0.0241455         142.143
0.625                   -3.72905         164.635         -45.9451         152.531         -45.9451         152.531       -0.0244364          142.06
0.626                   -3.80217         163.907         -45.8446         150.601         -45.8446         150.601       -0.0247324         141.977
0.627                   -3.87658         163.177         -45.7445         148.672         -45.7445         148.672       -0.0250337         141.893
0.628                    -3.9523         162.446         -45.6446         146.743         -45.6446         146.743       -0.0253403         141.809
0.629                   -4.02936         161.714          -45.545         144.813          -45.545         144.813       -0.0256525         141.725
