! TOUCHSTONE file generated by CST MICROWAVE STUDIO
! Date and time: Fri Oct  2 16:40:59 2020
! Project name: Scenario_1_Free_Space_out_of_line.cst
! Parameters = {Lambda=346.42; Step_1=17.321; dy1=346; dx1=520; L_HA=400; MT=2.54; Rad_Dielectric=30; Rad_Lower=7.3; Rad_Upper=30; a_HA=580; a_WG=246; b_HA=500; b_WG=121; c_HA=0; c_WG=187; d_feed=85; h_feed=15; h_lower=18; h_upper=40}
! Header version: 2018
! Port assignment regex: !\s*Touchstone port\s*([0-9]+)\s*=\s*(CST MWS port|CST DS port)\s*([0-9]+|Zmin|Zmax)\s*\(\"(.*)\"\)(\s*mode\s*([0-9]+))?.*
! Touchstone port assignment:
! Touchstone port 1 = CST MWS port 1 ("")
! Touchstone port 2 = CST MWS port 2 ("")
# GHz S DB R 50
0.5                    -0.145727        -122.421         -64.5779        -58.7089         -64.5779        -58.7089      -0.00640453         151.161
0.501                    -0.1535        -122.875         -64.3911        -60.4895         -64.3901        -60.4909      -0.00647195         151.095
0.502                  -0.161445         -123.33         -64.2038        -62.2768         -64.2019        -62.2795      -0.00653989          151.03
0.503                  -0.169562        -123.786         -64.0158        -64.0708          -64.013        -64.0748      -0.00660836         150.965
0.504                  -0.177851        -124.244         -63.8273        -65.8717         -63.8237        -65.8768      -0.00667737         150.899
0.505                  -0.186315        -124.702         -63.6384        -67.6794          -63.634        -67.6856      -0.00674693         150.834
0.506                  -0.194952        -125.162         -63.4489        -69.4941         -63.4438        -69.5013      -0.00681704         150.768
0.507                  -0.203765        -125.624         -63.2591        -71.3157         -63.2533         -71.324      -0.00688773         150.702
0.508                  -0.212754        -126.087         -63.0688        -73.1445         -63.0624        -73.1536      -0.00695901         150.636
0.509                   -0.22192        -126.551         -62.8782        -74.9804         -62.8712        -74.9903      -0.00703088         150.571
0.51                   -0.231264        -127.017         -62.6873        -76.8234         -62.6797        -76.8342      -0.00710337         150.505
0.511                  -0.240786        -127.484         -62.4961        -78.6737          -62.488        -78.6852      -0.00717647         150.439
0.512                  -0.250489        -127.952         -62.3047        -80.5313         -62.2962        -80.5435      -0.00725021         150.373
0.513                  -0.260372        -128.422         -62.1131        -82.3963         -62.1041        -82.4091       -0.0073246         150.306
0.514                  -0.270438        -128.893         -61.9213        -84.2686          -61.912        -84.2821      -0.00739965          150.24
0.515                  -0.280688        -129.366         -61.7295        -86.1484         -61.7198        -86.1625      -0.00747538         150.174
0.516                  -0.291122         -129.84         -61.5375        -88.0357         -61.5276        -88.0503       -0.0075518         150.108
0.517                  -0.301742        -130.316         -61.3456        -89.9305         -61.3353        -89.9456      -0.00762892         150.041
0.518                   -0.31255        -130.793         -61.1537        -91.8328         -61.1432        -91.8484      -0.00770676         149.974
0.519                  -0.323547        -131.272         -60.9618        -93.7427         -60.9511        -93.7587      -0.00778534         149.908
0.52                   -0.334734        -131.752           -60.77        -95.6602         -60.7592        -95.6766      -0.00786466         149.841
0.521                  -0.346114        -132.234         -60.5784        -97.5852         -60.5674        -97.6021      -0.00794475         149.774
0.522                  -0.357687        -132.718         -60.3869        -99.5179         -60.3759        -99.5351      -0.00802561         149.707
0.523                  -0.369457        -133.203         -60.1957        -101.458         -60.1846        -101.476      -0.00810727          149.64
0.524                  -0.381423         -133.69         -60.0048        -103.406         -59.9936        -103.424      -0.00818975         149.573
0.525                   -0.39359        -134.179         -59.8142        -105.362          -59.803         -105.38      -0.00827305         149.506
0.526                  -0.405957        -134.669         -59.6239        -107.325         -59.6128        -107.343       -0.0083572         149.439
0.527                  -0.418529        -135.161         -59.4341        -109.295          -59.423        -109.314      -0.00844221         149.371
0.528                  -0.431306        -135.655         -59.2447        -111.273         -59.2337        -111.292       -0.0085281         149.304
0.529                  -0.444292         -136.15         -59.0558        -113.259         -59.0449        -113.278      -0.00861489         149.236
0.53                   -0.457488        -136.647         -58.8674        -115.251         -58.8566        -115.271      -0.00870259         149.169
0.531                  -0.470897        -137.146         -58.6796        -117.252          -58.669        -117.271      -0.00879123         149.101
0.532                  -0.484523        -137.647         -58.4925        -119.259         -58.4819        -119.279      -0.00888082         149.033
0.533                  -0.498366         -138.15         -58.3059        -121.274         -58.2956        -121.293      -0.00897138         148.965
0.534                  -0.512431        -138.655         -58.1201        -123.296           -58.11        -123.315      -0.00906293         148.897
0.535                  -0.526721        -139.161          -57.935        -125.324         -57.9251        -125.344       -0.0091555         148.829
0.536                  -0.541237         -139.67         -57.7507         -127.36          -57.741        -127.379      -0.00924909         148.761
0.537                  -0.555985         -140.18         -57.5672        -129.402         -57.5577        -129.421      -0.00934373         148.693
0.538                  -0.570966        -140.693         -57.3845        -131.451         -57.3753         -131.47      -0.00943945         148.624
0.539                  -0.586184        -141.207         -57.2028        -133.507         -57.1938        -133.526      -0.00953625         148.556
0.54                   -0.601644        -141.724         -57.0219        -135.569         -57.0132        -135.587      -0.00963417         148.487
0.541                  -0.617348        -142.243          -56.842        -137.637         -56.8336        -137.655      -0.00973323         148.418
0.542                  -0.633301        -142.763         -56.6631        -139.711          -56.655        -139.729      -0.00983344          148.35
0.543                  -0.649507        -143.286         -56.4852        -141.791         -56.4774        -141.809      -0.00993482         148.281
0.544                  -0.665969        -143.811         -56.3083        -143.877         -56.3008        -143.894       -0.0100374         148.212
0.545                  -0.682693        -144.338         -56.1325        -145.968         -56.1253        -145.985       -0.0101412         148.142
0.546                  -0.699682        -144.868         -55.9578        -148.065         -55.9509        -148.082       -0.0102463         148.073
0.547                  -0.716942          -145.4         -55.7842        -150.167         -55.7776        -150.183       -0.0103526         148.004
0.548                  -0.734476        -145.933         -55.6117        -152.273         -55.6055        -152.289       -0.0104603         147.934
0.549                  -0.752291         -146.47         -55.4404        -154.385         -55.4345        -154.401       -0.0105692         147.865
0.55                   -0.770392        -147.008         -55.2703        -156.501         -55.2647        -156.516       -0.0106795         147.795
0.551                  -0.788783        -147.549         -55.1014        -158.622         -55.0961        -158.636       -0.0107912         147.725
0.552                   -0.80747        -148.093         -54.9337        -160.747         -54.9287         -160.76       -0.0109042         147.655
0.553                  -0.826459        -148.638         -54.7672        -162.875         -54.7626        -162.888       -0.0110187         147.585
0.554                  -0.845756        -149.187          -54.602        -165.008         -54.5976         -165.02       -0.0111346         147.515
0.555                  -0.865368        -149.737          -54.438        -167.144         -54.4339        -167.155        -0.011252         147.445
0.556                    -0.8853        -150.291         -54.2753        -169.283         -54.2715        -169.294       -0.0113709         147.375
0.557                  -0.905559        -150.846         -54.1138        -171.425         -54.1103        -171.435       -0.0114913         147.304
0.558                  -0.926152        -151.405         -53.9536         -173.57         -53.9504         -173.58       -0.0116133         147.233
0.559                  -0.947086        -151.966         -53.7946        -175.718         -53.7917        -175.727       -0.0117369         147.163
0.56                   -0.968369        -152.529         -53.6369        -177.868         -53.6343        -177.876        -0.011862         147.092
0.561                  -0.990007        -153.096         -53.4805         179.979         -53.4781         179.972       -0.0119888         147.021
0.562                   -1.01201        -153.665         -53.3253         177.825         -53.3232         177.818       -0.0121173          146.95
0.563                   -1.03438        -154.236         -53.1714         175.669         -53.1695         175.663       -0.0122475         146.878
0.564                   -1.05713        -154.811         -53.0187         173.511         -53.0171         173.505       -0.0123794         146.807
0.565                   -1.08028        -155.388         -52.8673         171.351         -52.8659         171.347       -0.0125131         146.735
0.566                   -1.10381        -155.968         -52.7171         169.191         -52.7159         169.187       -0.0126485         146.664
0.567                   -1.12776        -156.551         -52.5681         167.029         -52.5671         167.026       -0.0127858         146.592
0.568                   -1.15212        -157.137         -52.4203         164.866         -52.4195         164.864       -0.0129249          146.52
0.569                    -1.1769        -157.726         -52.2738         162.703         -52.2731         162.702       -0.0130659         146.448
0.57                    -1.20212        -158.318         -52.1284         160.539         -52.1279         160.538       -0.0132088         146.376
0.571                   -1.22779        -158.912         -51.9841         158.375         -51.9838         158.375       -0.0133537         146.304
0.572                   -1.25391         -159.51          -51.841          156.21         -51.8409         156.211       -0.0135005         146.231
0.573                   -1.28049        -160.111          -51.699         154.045          -51.699         154.047       -0.0136494         146.159
0.574                   -1.30756        -160.714         -51.5582         151.881         -51.5583         151.883       -0.0138003         146.086
0.575                   -1.33511        -161.321         -51.4184         149.716         -51.4186         149.719       -0.0139533         146.013
0.576                   -1.36317        -161.931         -51.2797         147.551           -51.28         147.555       -0.0141084          145.94
0.577                   -1.39173        -162.544          -51.142         145.387         -51.1424         145.391       -0.0142656         145.867
0.578                   -1.42083         -163.16         -51.0054         143.223         -51.0059         143.228        -0.014425         145.793
0.579                   -1.45046         -163.78         -50.8697          141.06         -50.8703         141.065       -0.0145867          145.72
0.58                    -1.48064        -164.402         -50.7351         138.897         -50.7357         138.903       -0.0147505         145.646
0.581                   -1.51138        -165.028         -50.6014         136.735         -50.6021         136.742       -0.0149167         145.572
0.582                   -1.54271        -165.657         -50.4686         134.574         -50.4694         134.581       -0.0150852         145.499
0.583                   -1.57462        -166.289         -50.3368         132.413         -50.3376          132.42       -0.0152561         145.424
0.584                   -1.60715        -166.925         -50.2059         130.253         -50.2067         130.261       -0.0154293          145.35
0.585                   -1.64029        -167.563         -50.0758         128.094         -50.0767         128.102        -0.015605         145.276
0.586                   -1.67408        -168.205         -49.9466         125.936         -49.9475         125.944       -0.0157832         145.201
0.587                   -1.70851        -168.851         -49.8182         123.779         -49.8191         123.787       -0.0159638         145.127
0.588                   -1.74362        -169.499         -49.6906         121.622         -49.6915         121.631        -0.016147         145.052
0.589                   -1.77941        -170.151         -49.5638         119.467         -49.5648         119.475       -0.0163328         144.977
0.59                     -1.8159        -170.806         -49.4378         117.312         -49.4387         117.321       -0.0165212         144.901
0.591                   -1.85311        -171.465         -49.3126         115.158         -49.3135         115.167       -0.0167123         144.826
0.592                   -1.89105        -172.127          -49.188         113.005         -49.1889         113.014       -0.0169061          144.75
0.593                   -1.92975        -172.792         -49.0642         110.853         -49.0651         110.862       -0.0171026         144.675
0.594                   -1.96922         -173.46         -48.9411         108.702         -48.9419         108.711       -0.0173018         144.599
0.595                   -2.00949        -174.132         -48.8186         106.551         -48.8194          106.56       -0.0175039         144.523
0.596                   -2.05056        -174.807         -48.6968         104.402         -48.6976          104.41       -0.0177089         144.447
0.597                   -2.09246        -175.486         -48.5757         102.253         -48.5765         102.261       -0.0179167          144.37
0.598                   -2.13521        -176.167         -48.4552         100.104         -48.4559         100.113       -0.0181275         144.293
0.599                   -2.17883        -176.852         -48.3353          97.957          -48.336         97.9655       -0.0183412         144.217
0.6                     -2.22334         -177.54          -48.216         95.8101         -48.2167         95.8185       -0.0185579          144.14
0.601                   -2.26876        -178.231         -48.0974         93.6639          -48.098         93.6721       -0.0187777         144.063
0.602                   -2.31511        -178.926         -47.9793         91.5182         -47.9798         91.5262       -0.0190006         143.985
0.603                   -2.36241        -179.623         -47.8617         89.3731         -47.8623         89.3808       -0.0192267         143.908
0.604                   -2.41068         179.676         -47.7448         87.2284         -47.7453         87.2358       -0.0194559          143.83
0.605                   -2.45995         178.973         -47.6284         85.0842         -47.6288         85.0913       -0.0196883         143.752
0.606                   -2.51024         178.266         -47.5125         82.9404         -47.5129         82.9472        -0.019924         143.674
0.607                   -2.56158         177.556         -47.3972          80.797         -47.3975         80.8034       -0.0201629         143.595
0.608                   -2.61397         176.844         -47.2824         78.6538         -47.2827           78.66       -0.0204052         143.517
0.609                   -2.66745         176.129         -47.1681          76.511         -47.1684         76.5168       -0.0206509         143.438
0.61                    -2.72204         175.411         -47.0543         74.3684         -47.0546         74.3738       -0.0209001         143.359
0.611                   -2.77777          174.69         -46.9411         72.2259         -46.9413          72.231       -0.0211526          143.28
0.612                   -2.83466         173.966         -46.8284         70.0837         -46.8285         70.0884       -0.0214087         143.201
0.613                   -2.89272         173.241         -46.7161         67.9416         -46.7162         67.9459       -0.0216684         143.121
0.614                   -2.95199         172.512         -46.6044         65.7996         -46.6045         65.8035       -0.0219316         143.041
0.615                    -3.0125         171.781         -46.4932         63.6577         -46.4932         63.6611       -0.0221985         142.961
0.616                   -3.07426         171.048         -46.3825         61.5158         -46.3825         61.5189        -0.022469         142.881
0.617                   -3.13729         170.313         -46.2723          59.374         -46.2722         59.3766       -0.0227433         142.801
0.618                   -3.20164         169.576         -46.1625         57.2322         -46.1625         57.2344       -0.0230213          142.72
0.619                   -3.26731         168.837         -46.0533         55.0903         -46.0532         55.0922       -0.0233032         142.639
0.62                    -3.33433         168.096         -45.9446         52.9485         -45.9445           52.95       -0.0235889         142.558
0.621                   -3.40274         167.353         -45.8363         50.8067         -45.8362         50.8078       -0.0238784         142.476
0.622                   -3.47255         166.609         -45.7286         48.6648         -45.7284         48.6655        -0.024172         142.395
0.623                   -3.54378         165.864         -45.6213         46.5229         -45.6212         46.5233       -0.0244695         142.313
0.624                   -3.61647         165.117         -45.5146         44.3811         -45.5144          44.381       -0.0247711         142.231
0.625                   -3.69064         164.369         -45.4083         42.2392         -45.4081         42.2388       -0.0250767         142.148
0.626                   -3.76631          163.62         -45.3026         40.0973         -45.3024         40.0966       -0.0253865         142.066
0.627                    -3.8435          162.87         -45.1973         37.9554         -45.1971         37.9544       -0.0257005         141.983
0.628                   -3.92225          162.12         -45.0926         35.8136         -45.0923         35.8122       -0.0260187           141.9
0.629                   -4.00257         161.369         -44.9883         33.6718         -44.9881         33.6701       -0.0263412         141.816
