! TOUCHSTONE file generated by CST MICROWAVE STUDIO
! Date and time: Fri Oct  2 19:07:46 2020
! Project name: Scenario_1_Free_Space_out_of_line.cst
! Parameters = {Lambda=346.42; Step_1=17.321; dy1=346; dx1=866; L_HA=400; MT=2.54; Rad_Dielectric=30; Rad_Lower=7.3; Rad_Upper=30; a_HA=580; a_WG=246; b_HA=500; b_WG=121; c_HA=0; c_WG=187; d_feed=85; h_feed=15; h_lower=18; h_upper=40}
! Header version: 2018
! Port assignment regex: !\s*Touchstone port\s*([0-9]+)\s*=\s*(CST MWS port|CST DS port)\s*([0-9]+|Zmin|Zmax)\s*\(\"(.*)\"\)(\s*mode\s*([0-9]+))?.*
! Touchstone port assignment:
! Touchstone port 1 = CST MWS port 1 ("")
! Touchstone port 2 = CST MWS port 2 ("")
# GHz S DB R 50
0.5                    -0.147038         -122.52         -65.5294         115.473         -65.5294         115.473      -0.00652242         151.153
0.501                  -0.151785        -122.962         -65.3352         113.324         -65.3351         113.325      -0.00658033         151.087
0.502                  -0.156766        -123.405         -65.1403         111.169         -65.1402          111.17      -0.00663924         151.022
0.503                  -0.161986        -123.851         -64.9448         109.007         -64.9445         109.008      -0.00669917         150.957
0.504                  -0.167448        -124.299         -64.7486         106.839         -64.7483          106.84      -0.00676011         150.891
0.505                  -0.173154        -124.749         -64.5519         104.663         -64.5515         104.664      -0.00682208         150.825
0.506                  -0.179109        -125.201         -64.3546         102.481         -64.3542         102.482      -0.00688508          150.76
0.507                  -0.185315        -125.655          -64.157         100.292         -64.1565         100.293      -0.00694913         150.694
0.508                  -0.191776        -126.112          -63.959         98.0951         -63.9585         98.0968      -0.00701422         150.628
0.509                  -0.198496        -126.571         -63.7606         95.8911         -63.7601         95.8929      -0.00708037         150.562
0.51                   -0.205476        -127.032          -63.562         93.6795         -63.5614         93.6815      -0.00714759         150.496
0.511                  -0.212721        -127.495         -63.3632         91.4602         -63.3626         91.4624      -0.00721588          150.43
0.512                  -0.220234         -127.96         -63.1643         89.2332         -63.1636         89.2356      -0.00728525         150.364
0.513                  -0.228017        -128.427         -62.9652         86.9983         -62.9646         87.0008      -0.00735571         150.298
0.514                  -0.236074        -128.897         -62.7662         84.7554         -62.7655         84.7581      -0.00742727         150.231
0.515                  -0.244408        -129.369         -62.5671         82.5044         -62.5665         82.5072      -0.00749993         150.165
0.516                  -0.253022        -129.842         -62.3682         80.2452         -62.3675         80.2482       -0.0075737         150.098
0.517                  -0.261919        -130.318         -62.1694         77.9778         -62.1687          77.981      -0.00764859         150.032
0.518                  -0.271101        -130.796         -61.9708         75.7022         -61.9701         75.7054      -0.00772462         149.965
0.519                  -0.280571        -131.276         -61.7725         73.4182         -61.7718         73.4216      -0.00780178         149.898
0.52                   -0.290333        -131.758         -61.5744         71.1258         -61.5738         71.1293      -0.00788009         149.831
0.521                  -0.300389        -132.243         -61.3768         68.8251         -61.3761         68.8287      -0.00795956         149.764
0.522                  -0.310741        -132.729         -61.1796          66.516         -61.1789         66.5196      -0.00804019         149.697
0.523                  -0.321392        -133.217         -60.9828         64.1985         -60.9821         64.2022      -0.00812199          149.63
0.524                  -0.332345        -133.708         -60.7865         61.8727         -60.7859         61.8765      -0.00820497         149.563
0.525                  -0.343602          -134.2         -60.5909         59.5385         -60.5902         59.5424      -0.00828915         149.496
0.526                  -0.355165        -134.695         -60.3958         57.1961         -60.3952            57.2      -0.00837452         149.428
0.527                  -0.367038        -135.191         -60.2015         54.8455         -60.2008         54.8494       -0.0084611         149.361
0.528                  -0.379221         -135.69         -60.0078         52.4868         -60.0072         52.4907      -0.00854891         149.293
0.529                  -0.391718         -136.19         -59.8149         50.1201         -59.8143          50.124      -0.00863794         149.226
0.53                    -0.40453        -136.693         -59.6229         47.7455         -59.6223         47.7494       -0.0087282         149.158
0.531                   -0.41766        -137.198         -59.4316          45.363         -59.4311         45.3669      -0.00881972          149.09
0.532                   -0.43111        -137.704         -59.2413          42.973         -59.2407         42.9768      -0.00891249         149.022
0.533                  -0.444881        -138.213         -59.0519         40.5754         -59.0514         40.5792      -0.00900653         148.954
0.534                  -0.458975        -138.724         -58.8635         38.1705          -58.863         38.1743      -0.00910184         148.886
0.535                  -0.473395        -139.236         -58.6761         35.7584         -58.6755         35.7621      -0.00919844         148.818
0.536                  -0.488141        -139.751         -58.4897         33.3393         -58.4892          33.343      -0.00929634         148.749
0.537                  -0.503216        -140.268         -58.3044         30.9135         -58.3039         30.9171      -0.00939554         148.681
0.538                  -0.518621        -140.786         -58.1202         28.4811         -58.1197         28.4847      -0.00949606         148.612
0.539                  -0.534358        -141.307         -57.9371         26.0423         -57.9366         26.0458       -0.0095979         148.544
0.54                   -0.550427        -141.829         -57.7551         23.5974         -57.7546         23.6008      -0.00970108         148.475
0.541                  -0.566832        -142.354         -57.5744         21.1466         -57.5739         21.1499      -0.00980561         148.406
0.542                  -0.583571        -142.881         -57.3948         18.6901         -57.3943         18.6933       -0.0099115         148.337
0.543                  -0.600648        -143.409         -57.2164         16.2283         -57.2159         16.2313       -0.0100188         148.268
0.544                  -0.618064         -143.94         -57.0392         13.7612         -57.0387         13.7642       -0.0101274         148.199
0.545                  -0.635818        -144.472         -56.8632         11.2892         -56.8628         11.2921       -0.0102374          148.13
0.546                  -0.653914        -145.007         -56.6885         8.81253          -56.688         8.81529       -0.0103488          148.06
0.547                  -0.672351        -145.543          -56.515         6.33145         -56.5146         6.33409       -0.0104617         147.991
0.548                   -0.69113        -146.082         -56.3428          3.8462         -56.3423         3.84872       -0.0105759         147.921
0.549                  -0.710254        -146.622         -56.1718         1.35705         -56.1713         1.35945       -0.0106916         147.852
0.55                   -0.729722        -147.165          -56.002        -1.13576         -56.0016        -1.13349       -0.0108088         147.782
0.551                  -0.749535         -147.71         -55.8335        -3.63199         -55.8331        -3.62984       -0.0109274         147.712
0.552                  -0.769696        -148.256         -55.6662        -6.13138         -55.6658        -6.12936       -0.0110474         147.642
0.553                  -0.790205        -148.805         -55.5002         -8.6337         -55.4997         -8.6318        -0.011169         147.572
0.554                  -0.811062        -149.356         -55.3353        -11.1387         -55.3349        -11.1369        -0.011292         147.501
0.555                  -0.832269        -149.909         -55.1716        -13.6462         -55.1712        -13.6446       -0.0114165         147.431
0.556                  -0.853828        -150.464         -55.0092         -16.156         -55.0088        -16.1544       -0.0115425         147.361
0.557                  -0.875738        -151.021         -54.8479        -18.6678         -54.8475        -18.6663       -0.0116701          147.29
0.558                  -0.898003         -151.58         -54.6877        -21.1814         -54.6873        -21.1801       -0.0117991         147.219
0.559                  -0.920622        -152.142         -54.5287        -23.6967         -54.5283        -23.6955       -0.0119297         147.148
0.56                   -0.943599        -152.706         -54.3708        -26.2134         -54.3704        -26.2124       -0.0120618         147.077
0.561                  -0.966934        -153.272          -54.214        -28.7315         -54.2136        -28.7306       -0.0121954         147.006
0.562                  -0.990629         -153.84         -54.0582        -31.2507         -54.0578        -31.2499       -0.0123306         146.935
0.563                   -1.01469        -154.411         -53.9035         -33.771         -53.9031        -33.7702       -0.0124673         146.864
0.564                   -1.03911        -154.984         -53.7498         -36.292         -53.7495        -36.2914       -0.0126055         146.792
0.565                    -1.0639        -155.559         -53.5972        -38.8139         -53.5968        -38.8133       -0.0127453         146.721
0.566                   -1.08906        -156.137         -53.4454        -41.3363         -53.4451        -41.3358       -0.0128865         146.649
0.567                    -1.1146        -156.718         -53.2947        -43.8593         -53.2943        -43.8589       -0.0130292         146.577
0.568                   -1.14052        -157.301         -53.1448        -46.3827         -53.1445        -46.3824       -0.0131732         146.505
0.569                   -1.16681        -157.886         -52.9959        -48.9065         -52.9955        -48.9062       -0.0133186         146.433
0.57                     -1.1935        -158.475         -52.8478        -51.4305         -52.8474        -51.4303       -0.0134652         146.361
0.571                   -1.22058        -159.066         -52.7005        -53.9548         -52.7002        -53.9547       -0.0136128         146.288
0.572                   -1.24805         -159.66         -52.5541        -56.4793         -52.5538        -56.4792       -0.0137613         146.216
0.573                   -1.27594        -160.256         -52.4085        -59.0039         -52.4082        -59.0039       -0.0139103         146.143
0.574                   -1.30424        -160.856         -52.2637        -61.5287         -52.2633        -61.5287       -0.0140594          146.07
0.575                   -1.33295        -161.458         -52.1196        -64.0536         -52.1193        -64.0536       -0.0142077         145.998
0.576                   -1.36211        -162.064         -51.9762        -66.5785         -51.9759        -66.5785       -0.0143542         145.925
0.577                    -1.3917        -162.673         -51.8336        -69.1036         -51.8333        -69.1036       -0.0144971         145.852
0.578                   -1.42174        -163.285         -51.6916        -71.6287         -51.6913        -71.6288       -0.0146333         145.778
0.579                   -1.45226          -163.9         -51.5503         -74.154           -51.55         -74.154       -0.0147577         145.705
0.58                    -1.48325        -164.519         -51.4097        -76.6794         -51.4094        -76.6794       -0.0148612         145.632
0.581                   -1.51473        -165.141         -51.2697        -79.2049         -51.2695         -79.205       -0.0149275         145.559
0.582                   -1.54673        -165.767         -51.1304        -81.7306         -51.1301        -81.7307       -0.0149268         145.485
0.583                   -1.57925        -166.396         -50.9917        -84.2566         -50.9914        -84.2566       -0.0148141         145.412
0.584                   -1.61232        -167.029         -50.8535        -86.7827         -50.8533        -86.7827       -0.0145678         145.337
0.585                   -1.64597        -167.666          -50.716        -89.3091         -50.7157         -89.309       -0.0143546         145.259
0.586                    -1.6802        -168.306          -50.579        -91.8357         -50.5787        -91.8357       -0.0145271          145.18
0.587                   -1.71504        -168.951         -50.4426        -94.3628         -50.4423        -94.3627        -0.015031         145.103
0.588                   -1.75053        -169.599         -50.3067        -96.8903         -50.3065        -96.8902       -0.0155528         145.027
0.589                   -1.78669        -170.251         -50.1715        -99.4182         -50.1712         -99.418       -0.0159828         144.952
0.59                    -1.82354        -170.908         -50.0367        -101.947         -50.0365        -101.946       -0.0163333         144.877
0.591                   -1.86112        -171.568         -49.9026        -104.475         -49.9023        -104.475       -0.0166321         144.802
0.592                   -1.89946        -172.233         -49.7689        -107.005         -49.7687        -107.004       -0.0168992         144.726
0.593                   -1.93859        -172.901         -49.6359        -109.535         -49.6356        -109.534       -0.0171468          144.65
0.594                   -1.97855        -173.574         -49.5033        -112.065         -49.5031        -112.065       -0.0173824         144.575
0.595                   -2.01938        -174.251         -49.3713        -114.596         -49.3711        -114.596       -0.0176107         144.499
0.596                    -2.0611        -174.932         -49.2399        -117.128         -49.2397        -117.127       -0.0178345         144.422
0.597                   -2.10377        -175.616         -49.1089         -119.66         -49.1088        -119.659       -0.0180557         144.346
0.598                    -2.1474        -176.305         -48.9786        -122.193         -48.9784        -122.192       -0.0182758         144.269
0.599                   -2.19206        -176.998         -48.8488        -124.726         -48.8486        -124.726       -0.0184955         144.192
0.6                     -2.23776        -177.694         -48.7195         -127.26         -48.7193         -127.26       -0.0187155         144.115
0.601                   -2.28455        -178.393         -48.5908        -129.795         -48.5906        -129.794       -0.0189364         144.038
0.602                   -2.33247        -179.096         -48.4627         -132.33         -48.4625         -132.33       -0.0191585          143.96
0.603                   -2.38154        -179.803         -48.3351        -134.866         -48.3349        -134.865       -0.0193821         143.882
0.604                   -2.43181         179.488         -48.2081        -137.402         -48.2079        -137.402       -0.0196074         143.804
0.605                    -2.4833         178.776         -48.0816        -139.939         -48.0815        -139.939       -0.0198346         143.726
0.606                   -2.53604         178.062         -47.9558        -142.477         -47.9556        -142.476       -0.0200638         143.648
0.607                   -2.59006         177.345         -47.8305        -145.014         -47.8303        -145.014       -0.0202953         143.569
0.608                   -2.64537         176.626         -47.7057        -147.553         -47.7056        -147.552       -0.0205291          143.49
0.609                     -2.702         175.906         -47.5816        -150.091         -47.5815         -150.09       -0.0207653         143.411
0.61                    -2.75995         175.184         -47.4581         -152.63         -47.4579        -152.629       -0.0210041         143.332
0.611                   -2.81925         174.461         -47.3351        -155.168          -47.335        -155.168       -0.0212455         143.253
0.612                   -2.87988         173.737         -47.2127        -157.707         -47.2126        -157.707       -0.0214896         143.173
0.613                   -2.94186         173.013         -47.0909        -160.246         -47.0908        -160.246       -0.0217365         143.093
0.614                   -3.00517         172.288         -46.9697        -162.785         -46.9695        -162.785       -0.0219863         143.013
0.615                   -3.06982         171.564          -46.849        -165.324         -46.8489        -165.323        -0.022239         142.932
0.616                   -3.13578          170.84         -46.7289        -167.863         -46.7288        -167.862       -0.0224948         142.852
0.617                   -3.20304         170.116         -46.6094        -170.401         -46.6093        -170.401       -0.0227538         142.771
0.618                   -3.27159         169.394         -46.4905         -172.94         -46.4904        -172.939       -0.0230159          142.69
0.619                    -3.3414         168.672         -46.3721        -175.477          -46.372        -175.476       -0.0232814         142.608
0.62                    -3.41245         167.951         -46.2543        -178.014         -46.2542        -178.014       -0.0235503         142.527
0.621                   -3.48472         167.232          -46.137         179.449         -46.1369          179.45       -0.0238226         142.445
0.622                   -3.55816         166.514         -46.0203         176.913         -46.0202         176.914       -0.0240986         142.363
0.623                   -3.63276         165.798          -45.904         174.378          -45.904         174.379       -0.0243782         142.281
0.624                    -3.7085         165.084         -45.7883         171.843         -45.7883         171.844       -0.0246616         142.198
0.625                   -3.78533          164.37         -45.6731          169.31         -45.6731          169.31       -0.0249489         142.115
0.626                   -3.86325         163.659         -45.5584         166.777         -45.5584         166.778       -0.0252403         142.032
0.627                   -3.94221         162.949         -45.4442         164.245         -45.4441         164.246       -0.0255357         141.948
0.628                   -4.02221         162.241         -45.3304         161.714         -45.3304         161.715       -0.0258354         141.865
0.629                   -4.10322         161.534          -45.217         159.184          -45.217         159.185       -0.0261395         141.781
