! TOUCHSTONE file generated by CST MICROWAVE STUDIO
! Date and time: Fri Oct  2 18:54:34 2020
! Project name: Scenario_1_Free_Space_out_of_line.cst
! Parameters = {Lambda=346.42; Step_1=17.321; dy1=346; dx1=1039; L_HA=400; MT=2.54; Rad_Dielectric=30; Rad_Lower=7.3; Rad_Upper=30; a_HA=580; a_WG=246; b_HA=500; b_WG=121; c_HA=0; c_WG=187; d_feed=85; h_feed=15; h_lower=18; h_upper=40}
! Header version: 2018
! Port assignment regex: !\s*Touchstone port\s*([0-9]+)\s*=\s*(CST MWS port|CST DS port)\s*([0-9]+|Zmin|Zmax)\s*\(\"(.*)\"\)(\s*mode\s*([0-9]+))?.*
! Touchstone port assignment:
! Touchstone port 1 = CST MWS port 1 ("")
! Touchstone port 2 = CST MWS port 2 ("")
# GHz S DB R 50
0.5                    -0.149397        -122.507         -65.8716         21.5245         -65.8716         21.5245       -0.0066708         151.165
0.501                   -0.15371        -122.964         -65.8927         18.2283         -65.8925         18.2287      -0.00672986           151.1
0.502                  -0.158296        -123.424         -65.8982          14.893         -65.8979         14.8939      -0.00678964         151.035
0.503                  -0.163159        -123.884         -65.8879         11.5268         -65.8875         11.5283      -0.00685015         150.969
0.504                  -0.168298        -124.347         -65.8614         8.13843         -65.8608         8.14055      -0.00691139         150.904
0.505                  -0.173716        -124.811         -65.8185         4.73668         -65.8178         4.73949      -0.00697338         150.838
0.506                  -0.179413        -125.276         -65.7593         1.33059         -65.7585         1.33413      -0.00703613         150.773
0.507                  -0.185391        -125.743         -65.6839        -2.07102          -65.683        -2.06673      -0.00709965         150.707
0.508                  -0.191651        -126.212         -65.5928        -5.45964         -65.5918        -5.45459      -0.00716394         150.641
0.509                  -0.198195        -126.682         -65.4865        -8.82731         -65.4854        -8.82148      -0.00722902         150.575
0.51                   -0.205022        -127.154         -65.3656        -12.1667         -65.3645        -12.1601      -0.00729489          150.51
0.511                  -0.212136        -127.627          -65.231        -15.4712         -65.2299        -15.4639      -0.00736158         150.444
0.512                  -0.219536        -128.102         -65.0835        -18.7353         -65.0824        -18.7273      -0.00742908         150.377
0.513                  -0.227225        -128.579         -64.9241        -21.9541         -64.9229        -21.9454      -0.00749741         150.311
0.514                  -0.235202        -129.057         -64.7538        -25.1239         -64.7526        -25.1145      -0.00756658         150.245
0.515                   -0.24347        -129.536         -64.5735        -28.2416         -64.5723        -28.2317      -0.00763659         150.179
0.516                  -0.252029        -130.018         -64.3843        -31.3052         -64.3831        -31.2948      -0.00770747         150.112
0.517                  -0.260881          -130.5         -64.1872        -34.3135          -64.186        -34.3026      -0.00777923         150.046
0.518                  -0.270026        -130.985         -63.9831        -37.2659         -63.9819        -37.2546      -0.00785187         149.979
0.519                  -0.279466        -131.471         -63.7729        -40.1626         -63.7718        -40.1509       -0.0079254         149.912
0.52                   -0.289202        -131.958         -63.5576        -43.0041         -63.5565        -42.9922      -0.00799984         149.845
0.521                  -0.299235        -132.447         -63.3379        -45.7917         -63.3369        -45.7795       -0.0080752         149.779
0.522                  -0.309565        -132.938         -63.1145        -48.5269         -63.1135        -48.5145       -0.0081515         149.712
0.523                  -0.320195         -133.43         -62.8882        -51.2114         -62.8872        -51.1989      -0.00822874         149.645
0.524                  -0.331125        -133.924         -62.6595        -53.8475         -62.6586        -53.8349      -0.00830693         149.577
0.525                  -0.342357        -134.419          -62.429        -56.4374         -62.4282        -56.4247       -0.0083861          149.51
0.526                  -0.353891        -134.916         -62.1973        -58.9835         -62.1965        -58.9708      -0.00846625         149.443
0.527                  -0.365729        -135.415         -61.9647        -61.4883          -61.964        -61.4757       -0.0085474         149.375
0.528                  -0.377871        -135.915         -61.7317        -63.9544          -61.731        -63.9419      -0.00862956         149.308
0.529                   -0.39032        -136.417         -61.4986        -66.3844         -61.4979        -66.3719      -0.00871274          149.24
0.53                   -0.403076         -136.92         -61.2658        -68.7809         -61.2651        -68.7685      -0.00879696         149.173
0.531                   -0.41614        -137.425         -61.0334        -71.1463         -61.0328        -71.1341      -0.00888224         149.105
0.532                  -0.429515        -137.932         -60.8018        -73.4833         -60.8012        -73.4712      -0.00896858         149.037
0.533                    -0.4432        -138.441          -60.571        -75.7942         -60.5705        -75.7823        -0.009056         148.969
0.534                  -0.457198        -138.951         -60.3414        -78.0814         -60.3409        -78.0697      -0.00914451         148.901
0.535                   -0.47151        -139.463         -60.1131        -80.3472         -60.1126        -80.3358      -0.00923414         148.832
0.536                  -0.486138        -139.976         -59.8861        -82.5939         -59.8857        -82.5827       -0.0093249         148.764
0.537                  -0.501082        -140.491         -59.6607        -84.8236         -59.6602        -84.8127       -0.0094168         148.696
0.538                  -0.516345        -141.008         -59.4368        -87.0384         -59.4364        -87.0278      -0.00950986         148.627
0.539                  -0.531928        -141.527         -59.2145        -89.2403         -59.2141          -89.23      -0.00960409         148.559
0.54                   -0.547833        -142.047          -58.994        -91.4312         -58.9936        -91.4212      -0.00969951          148.49
0.541                  -0.564061        -142.569         -58.7752         -93.613         -58.7748        -93.6032      -0.00979614         148.421
0.542                  -0.580615        -143.093         -58.5582        -95.7873         -58.5579        -95.7778        -0.009894         148.352
0.543                  -0.597497        -143.619         -58.3431        -97.9559         -58.3427        -97.9467       -0.0099931         148.283
0.544                  -0.614708        -144.146         -58.1298         -100.12         -58.1294        -100.112       -0.0100935         148.214
0.545                  -0.632251        -144.676         -57.9184        -102.282          -57.918        -102.274       -0.0101951         148.145
0.546                  -0.650127        -145.207         -57.7088        -104.443         -57.7085        -104.435        -0.010298         148.075
0.547                   -0.66834         -145.74         -57.5011        -106.604         -57.5008        -106.596       -0.0104023         148.006
0.548                  -0.686892        -146.275         -57.2953        -108.767          -57.295         -108.76       -0.0105078         147.936
0.549                  -0.705784        -146.811         -57.0915        -110.933         -57.0911        -110.926       -0.0106148         147.866
0.55                   -0.725021         -147.35         -56.8894        -113.103         -56.8891        -113.096       -0.0107231         147.796
0.551                  -0.744605        -147.891         -56.6893        -115.278          -56.689        -115.272       -0.0108328         147.727
0.552                  -0.764538        -148.433          -56.491         -117.46         -56.4907        -117.454       -0.0109439         147.656
0.553                  -0.784824        -148.978         -56.2946         -119.65         -56.2943        -119.644       -0.0110564         147.586
0.554                  -0.805467        -149.525         -56.1001        -121.848         -56.0998        -121.842       -0.0111704         147.516
0.555                  -0.826469        -150.073         -55.9074        -124.056         -55.9071        -124.051       -0.0112859         147.445
0.556                  -0.847834        -150.624         -55.7165        -126.274         -55.7162        -126.269       -0.0114028         147.375
0.557                  -0.869567        -151.177         -55.5275        -128.504         -55.5272        -128.499       -0.0115213         147.304
0.558                  -0.891671        -151.732         -55.3403        -130.746           -55.34        -130.742       -0.0116413         147.233
0.559                  -0.914149        -152.289         -55.1549        -133.002         -55.1546        -132.997       -0.0117629         147.163
0.56                   -0.937008        -152.848         -54.9713        -135.271          -54.971        -135.267       -0.0118861         147.091
0.561                  -0.960251        -153.409         -54.7895        -137.554         -54.7892         -137.55       -0.0120108          147.02
0.562                  -0.983883        -153.973         -54.6095        -139.853         -54.6092         -139.85       -0.0121373         146.949
0.563                   -1.00791        -154.539         -54.4313        -142.168         -54.4309        -142.164       -0.0122653         146.878
0.564                   -1.03233        -155.107         -54.2549        -144.499         -54.2545        -144.496       -0.0123951         146.806
0.565                   -1.05716        -155.678         -54.0802        -146.847         -54.0798        -146.844       -0.0125265         146.734
0.566                   -1.08241         -156.25         -53.9073        -149.212         -53.9069         -149.21       -0.0126597         146.662
0.567                   -1.10806        -156.826         -53.7362        -151.596         -53.7358        -151.594       -0.0127947          146.59
0.568                   -1.13415        -157.403         -53.5669        -153.998         -53.5664        -153.996       -0.0129314         146.518
0.569                   -1.16066        -157.983         -53.3993        -156.418         -53.3988        -156.416         -0.01307         146.446
0.57                    -1.18761        -158.566         -53.2334        -158.858          -53.233        -158.856       -0.0132104         146.374
0.571                     -1.215        -159.151         -53.0694        -161.316         -53.0689        -161.315       -0.0133526         146.301
0.572                   -1.24284        -159.738         -52.9071        -163.795         -52.9066        -163.793       -0.0134968         146.228
0.573                   -1.27115        -160.329         -52.7466        -166.293         -52.7461        -166.291       -0.0136429         146.156
0.574                   -1.29992        -160.921         -52.5878         -168.81         -52.5873        -168.809        -0.013791         146.083
0.575                   -1.32916        -161.517         -52.4308        -171.348         -52.4303        -171.347        -0.013941         146.009
0.576                    -1.3589        -162.115         -52.2756        -173.905         -52.2751        -173.904       -0.0140931         145.936
0.577                   -1.38913        -162.716         -52.1221        -176.482         -52.1216        -176.481       -0.0142472         145.863
0.578                   -1.41986        -163.319         -51.9703        -179.079         -51.9698        -179.078       -0.0144034         145.789
0.579                    -1.4511        -163.925         -51.8204         178.305         -51.8198         178.305       -0.0145617         145.715
0.58                    -1.48287        -164.534         -51.6721         175.669         -51.6716         175.669       -0.0147221         145.642
0.581                   -1.51518        -165.146         -51.5256         173.014         -51.5251         173.014       -0.0148848         145.567
0.582                   -1.54804        -165.761         -51.3809          170.34         -51.3803          170.34       -0.0150496         145.493
0.583                   -1.58145        -166.378         -51.2378         167.647         -51.2373         167.647       -0.0152167         145.419
0.584                   -1.61543        -166.999         -51.0965         164.937         -51.0959         164.937       -0.0153862         145.344
0.585                      -1.65        -167.622         -50.9569         162.208         -50.9563         162.208       -0.0155579          145.27
0.586                   -1.68517        -168.249         -50.8189         159.463         -50.8183         159.463        -0.015732         145.195
0.587                   -1.72094        -168.878         -50.6827         156.701          -50.682         156.701       -0.0159085          145.12
0.588                   -1.75734        -169.511          -50.548         153.922         -50.5474         153.922       -0.0160874         145.045
0.589                   -1.79438        -170.146          -50.415         151.128         -50.4144         151.128       -0.0162688         144.969
0.59                    -1.83207        -170.785         -50.2836          148.32         -50.2829          148.32       -0.0164528         144.894
0.591                   -1.87043        -171.426         -50.1537         145.497          -50.153         145.497       -0.0166393         144.818
0.592                   -1.90947        -172.071         -50.0253         142.661         -50.0247         142.661       -0.0168284         144.742
0.593                   -1.94922        -172.719         -49.8985         139.812         -49.8978         139.812       -0.0170201         144.666
0.594                   -1.98969         -173.37         -49.7731         136.951         -49.7724         136.951       -0.0172146          144.59
0.595                   -2.03089        -174.024         -49.6491         134.079         -49.6484         134.079       -0.0174118         144.513
0.596                   -2.07284        -174.681         -49.5264         131.197         -49.5257         131.197       -0.0176117         144.437
0.597                   -2.11557        -175.342         -49.4051         128.306         -49.4044         128.306       -0.0178145          144.36
0.598                   -2.15909        -176.006          -49.285         125.406         -49.2843         125.407       -0.0180202         144.283
0.599                   -2.20342        -176.672         -49.1662         122.499         -49.1655         122.499       -0.0182288         144.206
0.6                     -2.24858        -177.342         -49.0485         119.585         -49.0478         119.586       -0.0184403         144.128
0.601                   -2.29459        -178.015         -48.9319         116.666         -48.9311         116.666       -0.0186549         144.051
0.602                   -2.34148        -178.692         -48.8163         113.741         -48.8156         113.742       -0.0188725         143.973
0.603                   -2.38926        -179.371         -48.7017         110.812         -48.7009         110.813       -0.0190933         143.895
0.604                   -2.43795         179.946          -48.588         107.881         -48.5872         107.882       -0.0193173         143.817
0.605                   -2.48758         179.261         -48.4751         104.947         -48.4744         104.948       -0.0195445         143.739
0.606                   -2.53817         178.572          -48.363         102.012         -48.3623         102.013       -0.0197749          143.66
0.607                   -2.58975         177.881         -48.2516         99.0763         -48.2509         99.0773       -0.0200088         143.581
0.608                   -2.64233         177.186         -48.1409          96.141         -48.1401          96.142        -0.020246         143.502
0.609                   -2.69594         176.488         -48.0307         93.2067           -48.03         93.2078       -0.0204867         143.423
0.61                    -2.75061         175.788         -47.9211         90.2744         -47.9203         90.2756       -0.0207309         143.344
0.611                   -2.80636         175.084         -47.8118         87.3446         -47.8111         87.3459       -0.0209787         143.264
0.612                   -2.86322         174.378          -47.703         84.4182         -47.7023         84.4196       -0.0212301         143.184
0.613                   -2.92121         173.669         -47.5945         81.4958         -47.5937         81.4972       -0.0214852         143.104
0.614                   -2.98035         172.957         -47.4862          78.578         -47.4855         78.5795       -0.0217441         143.024
0.615                   -3.04068         172.243         -47.3781         75.6654         -47.3774         75.6669       -0.0220069         142.943
0.616                   -3.10222         171.526         -47.2702         72.7586         -47.2694         72.7602       -0.0222736         142.862
0.617                   -3.16499         170.807         -47.1623         69.8581         -47.1616         69.8598       -0.0225442         142.781
0.618                   -3.22902         170.086         -47.0544         66.9644         -47.0537         66.9661       -0.0228189           142.7
0.619                   -3.29434         169.362         -46.9466         64.0779         -46.9458         64.0796       -0.0230977         142.619
0.62                    -3.36098         168.636         -46.8386          61.199         -46.8379         61.2008       -0.0233808         142.537
0.621                   -3.42896         167.909         -46.7305         58.3281         -46.7298         58.3299       -0.0236681         142.455
0.622                   -3.49831         167.179         -46.6222         55.4654         -46.6215         55.4673       -0.0239597         142.373
0.623                   -3.56905         166.448         -46.5138         52.6113          -46.513         52.6132       -0.0242558          142.29
0.624                   -3.64121         165.715          -46.405          49.766         -46.4043         49.7679       -0.0245564         142.208
0.625                   -3.71482         164.981          -46.296         46.9296         -46.2953         46.9315       -0.0248616         142.125
0.626                   -3.78991         164.245         -46.1867         44.1024          -46.186         44.1043       -0.0251715         142.041
0.627                   -3.86649         163.509          -46.077         41.2843         -46.0763         41.2862       -0.0254861         141.958
0.628                    -3.9446         162.771          -45.967         38.4755         -45.9663         38.4774       -0.0258056         141.874
0.629                   -4.02425         162.033         -45.8565         35.6761         -45.8559          35.678         -0.02613          141.79
