! TOUCHSTONE file generated by CST MICROWAVE STUDIO
! Date and time: Fri Oct  2 18:39:15 2020
! Project name: Scenario_1_Free_Space_out_of_line.cst
! Parameters = {Lambda=346.42; Step_1=17.321; dy1=18.161; dx1=173; L_HA=400; MT=2.54; Rad_Dielectric=30; Rad_Lower=7.3; Rad_Upper=30; a_HA=580; a_WG=246; b_HA=500; b_WG=121; c_HA=0; c_WG=187; d_feed=85; h_feed=15; h_lower=18; h_upper=40}
! Header version: 2018
! Port assignment regex: !\s*Touchstone port\s*([0-9]+)\s*=\s*(CST MWS port|CST DS port)\s*([0-9]+|Zmin|Zmax)\s*\(\"(.*)\"\)(\s*mode\s*([0-9]+))?.*
! Touchstone port assignment:
! Touchstone port 1 = CST MWS port 1 ("")
! Touchstone port 2 = CST MWS port 2 ("")
# GHz S DB R 50
0.5                    -0.160169        -122.682         -56.0608         169.044         -56.0608         169.044      -0.00688172         151.089
0.501                  -0.166115        -123.118         -55.8528          167.79         -55.8534         167.788      -0.00692774         151.024
0.502                   -0.17219        -123.557         -55.6462          166.52         -55.6474         166.515      -0.00697356         150.958
0.503                  -0.178397        -123.997          -55.441         165.234         -55.4427         165.228       -0.0070192         150.893
0.504                  -0.184737        -124.439         -55.2373         163.934         -55.2394         163.926      -0.00706469         150.827
0.505                  -0.191211        -124.883         -55.0351         162.619         -55.0375         162.611      -0.00711006         150.762
0.506                  -0.197821        -125.329         -54.8343         161.292         -54.8371         161.283      -0.00715532         150.696
0.507                  -0.204567        -125.776         -54.6351         159.952         -54.6381         159.943      -0.00720051          150.63
0.508                  -0.211453        -126.226         -54.4374           158.6         -54.4406         158.591      -0.00724565         150.565
0.509                  -0.218478        -126.677         -54.2413         157.237         -54.2446         157.228      -0.00729079         150.499
0.51                   -0.225646         -127.13         -54.0467         155.865         -54.0501         155.856      -0.00733594         150.433
0.511                  -0.232958        -127.586         -53.8536         154.482         -53.8571         154.474      -0.00738114         150.366
0.512                  -0.240416        -128.043         -53.6621         153.091         -53.6657         153.083      -0.00742642           150.3
0.513                  -0.248022        -128.502         -53.4721         151.692         -53.4757         151.684      -0.00747183         150.234
0.514                  -0.255777        -128.963         -53.2837         150.285         -53.2872         150.278       -0.0075174         150.168
0.515                  -0.263685        -129.426         -53.0967         148.871         -53.1002         148.865      -0.00756316         150.101
0.516                  -0.271747        -129.892         -52.9113         147.451         -52.9146         147.445      -0.00760916         150.035
0.517                  -0.279966        -130.359         -52.7273         146.025         -52.7305          146.02      -0.00765543         149.968
0.518                  -0.288343        -130.829         -52.5448         144.593         -52.5479          144.59      -0.00770203         149.901
0.519                  -0.296883        -131.301         -52.3636         143.157         -52.3666         143.154      -0.00774899         149.834
0.52                   -0.305587        -131.775         -52.1839         141.717         -52.1867         141.715      -0.00779636         149.767
0.521                  -0.314458        -132.251         -52.0055         140.273         -52.0082         140.272      -0.00784419           149.7
0.522                    -0.3235        -132.729         -51.8285         138.826         -51.8309         138.825      -0.00789253         149.633
0.523                  -0.332714         -133.21         -51.6528         137.376          -51.655         137.375      -0.00794143         149.566
0.524                  -0.342105        -133.693         -51.4783         135.924         -51.4803         135.923      -0.00799094         149.499
0.525                  -0.351675        -134.178          -51.305         134.469         -51.3068         134.469      -0.00804112         149.431
0.526                  -0.361429        -134.666         -51.1329         133.013         -51.1345         133.013      -0.00809202         149.364
0.527                   -0.37137        -135.157         -50.9619         131.555         -50.9633         131.556       -0.0081437         149.296
0.528                  -0.381501        -135.649          -50.792         130.096         -50.7932         130.097      -0.00819622         149.228
0.529                  -0.391827        -136.144         -50.6232         128.636         -50.6242         128.638      -0.00824964          149.16
0.53                   -0.402352        -136.642         -50.4554         127.176         -50.4562         127.178      -0.00830402         149.092
0.531                  -0.413079        -137.143         -50.2885         125.716         -50.2892         125.717      -0.00835943         149.024
0.532                  -0.424015        -137.646         -50.1226         124.255         -50.1231         124.257      -0.00841594         148.956
0.533                  -0.435163        -138.151         -49.9575         122.795         -49.9578         122.797      -0.00847362         148.888
0.534                  -0.446528        -138.659         -49.7933         121.335         -49.7935         121.336      -0.00853253          148.82
0.535                  -0.458115         -139.17         -49.6299         119.875         -49.6299         119.877      -0.00859274         148.751
0.536                  -0.469931        -139.684         -49.4673         118.416         -49.4671         118.417      -0.00865434         148.682
0.537                   -0.48198        -140.201         -49.3053         116.957          -49.305         116.959      -0.00871739         148.614
0.538                  -0.494269         -140.72         -49.1441           115.5         -49.1436         115.501      -0.00878197         148.545
0.539                  -0.506804        -141.242         -48.9834         114.043         -48.9829         114.044      -0.00884817         148.476
0.54                    -0.51959        -141.768         -48.8234         112.587         -48.8227         112.588      -0.00891606         148.407
0.541                  -0.532636        -142.296         -48.6638         111.132         -48.6631         111.133      -0.00898572         148.338
0.542                  -0.545947        -142.827         -48.5048         109.678          -48.504         109.679      -0.00905725         148.268
0.543                  -0.559532        -143.362         -48.3463         108.226         -48.3454         108.226      -0.00913072         148.199
0.544                  -0.573398        -143.899         -48.1882         106.774         -48.1873         106.774      -0.00920622         148.129
0.545                  -0.587553         -144.44         -48.0305         105.323         -48.0295         105.323      -0.00928384          148.06
0.546                  -0.602005        -144.983         -47.8732         103.873         -47.8722         103.873      -0.00936367          147.99
0.547                  -0.616763         -145.53         -47.7162         102.425         -47.7152         102.424      -0.00944581          147.92
0.548                  -0.631837        -146.081         -47.5595         100.977         -47.5584         100.976      -0.00953034          147.85
0.549                  -0.647236        -146.635         -47.4031         99.5298          -47.402         99.5292      -0.00961736          147.78
0.55                   -0.662969        -147.192         -47.2469         98.0837         -47.2458         98.0829      -0.00970696          147.71
0.551                  -0.679048        -147.752          -47.091         96.6382         -47.0898         96.6372      -0.00979924         147.639
0.552                  -0.695482        -148.316         -46.9352         95.1934         -46.9341         95.1923       -0.0098943         147.569
0.553                  -0.712284        -148.884         -46.7795         93.7491         -46.7784         93.7478      -0.00999224         147.498
0.554                  -0.729465        -149.455          -46.624         92.3052          -46.623         92.3038       -0.0100931         147.427
0.555                  -0.747037        -150.029         -46.4687         90.8616         -46.4676         90.8601       -0.0101971         147.356
0.556                  -0.765014        -150.608         -46.3133         89.4182         -46.3123         89.4166       -0.0103043         147.285
0.557                  -0.783408         -151.19         -46.1581         87.9748         -46.1571         87.9732       -0.0104147         147.214
0.558                  -0.802234        -151.776         -46.0029         86.5313          -46.002         86.5297       -0.0105285         147.143
0.559                  -0.821505        -152.366         -45.8478         85.0876         -45.8468          85.086       -0.0106458         147.071
0.56                   -0.841238        -152.959         -45.6926         83.6436         -45.6917         83.6419       -0.0107666             147
0.561                  -0.861447        -153.556         -45.5374          82.199         -45.5366         82.1973       -0.0108911         146.928
0.562                   -0.88215        -154.158         -45.3823         80.7537         -45.3815          80.752       -0.0110194         146.856
0.563                  -0.903362        -154.763         -45.2271         79.3075         -45.2264         79.3059       -0.0111516         146.784
0.564                  -0.925102        -155.372         -45.0718         77.8603         -45.0712         77.8588       -0.0112877         146.712
0.565                  -0.947389        -155.986         -44.9165         76.4119         -44.9159         76.4105       -0.0114278          146.64
0.566                   -0.97024        -156.603         -44.7612         74.9622         -44.7606         74.9608       -0.0115721         146.567
0.567                  -0.993677        -157.225         -44.6057         73.5109         -44.6053         73.5096       -0.0117207         146.495
0.568                   -1.01772         -157.85         -44.4503         72.0579         -44.4498         72.0568       -0.0118736         146.422
0.569                   -1.04239         -158.48         -44.2947          70.603         -44.2943          70.602       -0.0120309         146.349
0.57                     -1.0677        -159.114          -44.139          69.146         -44.1387         69.1452       -0.0121927         146.276
0.571                   -1.09369        -159.752         -43.9833         67.6867         -43.9831         67.6861       -0.0123591         146.203
0.572                   -1.12038        -160.395         -43.8275          66.225         -43.8273         66.2246       -0.0125302          146.13
0.573                   -1.14778        -161.042         -43.6716         64.7607         -43.6715         64.7604        -0.012706         146.057
0.574                   -1.17593        -161.693         -43.5157         63.2935         -43.5156         63.2934       -0.0128867         145.983
0.575                   -1.20485        -162.348         -43.3597         61.8233         -43.3596         61.8235       -0.0130722         145.909
0.576                   -1.23457        -163.007         -43.2036           60.35         -43.2036         60.3503       -0.0132626         145.835
0.577                   -1.26512        -163.671         -43.0474         58.8732         -43.0475         58.8738       -0.0134581         145.761
0.578                   -1.29651        -164.339         -42.8913         57.3929         -42.8913         57.3937       -0.0136586         145.687
0.579                    -1.3288        -165.011          -42.735         55.9089         -42.7351         55.9099       -0.0138643         145.613
0.58                    -1.36199        -165.687         -42.5788          54.421         -42.5789         54.4222        -0.014075         145.539
0.581                   -1.39614        -166.367         -42.4225          52.929         -42.4227         52.9304        -0.014291         145.464
0.582                   -1.43126        -167.052         -42.2662         51.4327         -42.2665         51.4343       -0.0145122         145.389
0.583                   -1.46738         -167.74           -42.11          49.932         -42.1102         49.9338       -0.0147387         145.314
0.584                   -1.50455        -168.433         -41.9538         48.4267         -41.9541         48.4287       -0.0149704         145.239
0.585                    -1.5428        -169.129         -41.7976         46.9166         -41.7979         46.9189       -0.0152074         145.164
0.586                   -1.58216        -169.829         -41.6415         45.4016         -41.6419         45.4041       -0.0154497         145.089
0.587                   -1.62266        -170.533         -41.4855         43.8816         -41.4859         43.8843       -0.0156973         145.013
0.588                   -1.66435         -171.24         -41.3297         42.3564           -41.33         42.3592       -0.0159501         144.938
0.589                   -1.70725        -171.951         -41.1739         40.8258         -41.1743         40.8288       -0.0162082         144.862
0.59                    -1.75141        -172.666         -41.0184         39.2897         -41.0187         39.2929       -0.0164716         144.786
0.591                   -1.79686        -173.383          -40.863         37.7481         -40.8633         37.7514       -0.0167402          144.71
0.592                   -1.84363        -174.103         -40.7078         36.2007         -40.7082         36.2042       -0.0170139         144.633
0.593                   -1.89177        -174.827         -40.5529         34.6475         -40.5533         34.6511       -0.0172927         144.557
0.594                   -1.94131        -175.553         -40.3982         33.0883         -40.3986          33.092       -0.0175767          144.48
0.595                   -1.99229        -176.281         -40.2439         31.5232         -40.2443          31.527       -0.0178656         144.404
0.596                   -2.04474        -177.011         -40.0899         29.9519         -40.0903         29.9558       -0.0181594         144.327
0.597                    -2.0987        -177.744         -39.9363         28.3745         -39.9366         28.3784       -0.0184581          144.25
0.598                    -2.1542        -178.478         -39.7831         26.7908         -39.7834         26.7948       -0.0187616         144.172
0.599                   -2.21127        -179.214         -39.6303         25.2008         -39.6306         25.2049       -0.0190698         144.095
0.6                     -2.26996         -179.95          -39.478         23.6046         -39.4783         23.6086       -0.0193825         144.017
0.601                   -2.33029         179.312         -39.3262         22.0019         -39.3265          22.006       -0.0196997         143.939
0.602                   -2.39228         178.574         -39.1749         20.3929         -39.1752         20.3969       -0.0200213         143.861
0.603                   -2.45598         177.837         -39.0243         18.7775         -39.0245         18.7815       -0.0203471         143.783
0.604                   -2.52139         177.099         -38.8742         17.1558         -38.8745         17.1597        -0.020677         143.705
0.605                   -2.58856         176.362         -38.7248         15.5277         -38.7251         15.5316       -0.0210109         143.627
0.606                   -2.65749         175.627         -38.5761         13.8933         -38.5763         13.8971       -0.0213486         143.548
0.607                    -2.7282         174.893         -38.4282         12.2527         -38.4284         12.2564         -0.02169         143.469
0.608                   -2.80071         174.161          -38.281         10.6059         -38.2812         10.6095       -0.0220351          143.39
0.609                   -2.87504         173.431         -38.1346         8.95298         -38.1348         8.95646       -0.0223835         143.311
0.61                    -2.95118         172.705         -37.9891         7.29407         -37.9892         7.29741       -0.0227352         143.231
0.611                   -3.02913         171.982         -37.8445         5.62927         -37.8445         5.63246         -0.02309         143.152
0.612                    -3.1089         171.264         -37.7007         3.95871         -37.7008         3.96173       -0.0234478         143.072
0.613                   -3.19049         170.549         -37.5579         2.28251          -37.558         2.28536       -0.0238084         142.992
0.614                   -3.27387         169.841         -37.4162        0.600829         -37.4162        0.603503       -0.0241717         142.912
0.615                   -3.35902         169.137         -37.2754        -1.08616         -37.2754        -1.08367       -0.0245375         142.831
0.616                   -3.44594         168.441         -37.1357        -2.77827         -37.1357        -2.77599       -0.0249057         142.751
0.617                   -3.53458         167.751         -36.9971        -4.47532         -36.9971        -4.47324       -0.0252761          142.67
0.618                   -3.62492         167.068         -36.8595        -6.17709         -36.8595        -6.17522       -0.0256486         142.589
0.619                   -3.71691         166.393         -36.7232        -7.88337         -36.7231        -7.88172        -0.026023         142.508
0.62                    -3.81049         165.727          -36.588        -9.59392         -36.5879        -9.59248       -0.0263993         142.426
0.621                   -3.90563         165.071          -36.454        -11.3085         -36.4539        -11.3073       -0.0267773         142.345
0.622                   -4.00225         164.423         -36.3212        -13.0268         -36.3211        -13.0258       -0.0271569         142.263
0.623                   -4.10029         163.786         -36.1896        -14.7487         -36.1896        -14.7479        -0.027538         142.181
0.624                   -4.19967          163.16         -36.0593        -16.4738         -36.0593        -16.4732       -0.0279204         142.098
0.625                   -4.30031         162.545         -35.9303        -18.2018         -35.9302        -18.2015       -0.0283042         142.016
0.626                   -4.40212         161.941         -35.8025        -19.9325         -35.8025        -19.9324       -0.0286892         141.933
0.627                     -4.505         161.349         -35.6761        -21.6656          -35.676        -21.6656       -0.0290754          141.85
0.628                   -4.60886          160.77         -35.5509        -23.4007         -35.5509         -23.401       -0.0294628         141.766
0.629                   -4.71359         160.204         -35.4271        -25.1376          -35.427         -25.138       -0.0298512         141.683
