! TOUCHSTONE file generated by CST MICROWAVE STUDIO
! Date and time: Fri Oct  2 16:30:05 2020
! Project name: Scenario_1_Free_Space_out_of_line.cst
! Parameters = {Lambda=346.42; Step_1=17.321; dy1=18.161; dx1=346; L_HA=400; MT=2.54; Rad_Dielectric=30; Rad_Lower=7.3; Rad_Upper=30; a_HA=580; a_WG=246; b_HA=500; b_WG=121; c_HA=0; c_WG=187; d_feed=85; h_feed=15; h_lower=18; h_upper=40}
! Header version: 2018
! Port assignment regex: !\s*Touchstone port\s*([0-9]+)\s*=\s*(CST MWS port|CST DS port)\s*([0-9]+|Zmin|Zmax)\s*\(\"(.*)\"\)(\s*mode\s*([0-9]+))?.*
! Touchstone port assignment:
! Touchstone port 1 = CST MWS port 1 ("")
! Touchstone port 2 = CST MWS port 2 ("")
# GHz S DB R 50
0.5                     -0.14184        -122.691         -58.9535         80.7227         -58.9535         80.7227      -0.00660746         151.099
0.501                  -0.147016        -123.133         -58.7419         79.3497         -58.7418         79.3498      -0.00667891         151.034
0.502                   -0.15238        -123.578         -58.5302         77.9667         -58.5302         77.9669      -0.00675163         150.968
0.503                  -0.157941        -124.024         -58.3185         76.5736         -58.3185         76.5739      -0.00682566         150.903
0.504                  -0.163706        -124.474         -58.1068         75.1703         -58.1068         75.1707      -0.00690102         150.837
0.505                  -0.169683        -124.926         -57.8952         73.7566         -57.8951          73.757      -0.00697772         150.771
0.506                  -0.175879         -125.38         -57.6835         72.3324         -57.6835         72.3329      -0.00705579         150.706
0.507                  -0.182304        -125.836          -57.472         70.8976          -57.472         70.8982      -0.00713524          150.64
0.508                  -0.188965        -126.296         -57.2606         69.4522         -57.2606         69.4527      -0.00721608         150.574
0.509                  -0.195869        -126.757         -57.0493         67.9959         -57.0493         67.9965      -0.00729832         150.508
0.51                   -0.203026        -127.221         -56.8382         66.5288         -56.8382         66.5294      -0.00738199         150.442
0.511                  -0.210443        -127.687         -56.6273         65.0506         -56.6273         65.0513      -0.00746709         150.375
0.512                   -0.21813        -128.156         -56.4167         63.5615         -56.4166         63.5621      -0.00755363         150.309
0.513                  -0.226093        -128.628         -56.2063         62.0611         -56.2063         62.0618       -0.0076416         150.243
0.514                  -0.234342        -129.101         -55.9963         60.5496         -55.9962         60.5502      -0.00773102         150.176
0.515                  -0.242885        -129.577         -55.7866         59.0269         -55.7865         59.0275      -0.00782189          150.11
0.516                   -0.25173        -130.056         -55.5773         57.4928         -55.5772         57.4934      -0.00791419         150.043
0.517                  -0.260884        -130.536         -55.3684         55.9474         -55.3683         55.9479      -0.00800793         149.977
0.518                  -0.270357        -131.019           -55.16         54.3906         -55.1599         54.3911      -0.00810309          149.91
0.519                  -0.280155        -131.505         -54.9521         52.8225         -54.9521          52.823      -0.00819967         149.843
0.52                   -0.290286        -131.992         -54.7448          51.243         -54.7448         51.2434      -0.00829763         149.776
0.521                  -0.300757        -132.482         -54.5381         49.6521         -54.5381         49.6525      -0.00839697         149.709
0.522                  -0.311576        -132.974         -54.3321         48.0498         -54.3321         48.0502      -0.00849766         149.642
0.523                  -0.322749        -133.468         -54.1268         46.4363         -54.1268         46.4367      -0.00859966         149.575
0.524                  -0.334283        -133.965         -53.9223         44.8115         -53.9222         44.8118      -0.00870295         149.508
0.525                  -0.346183        -134.463         -53.7185         43.1755         -53.7185         43.1758      -0.00880748          149.44
0.526                  -0.358456        -134.964         -53.5156         41.5285         -53.5156         41.5287      -0.00891322         149.373
0.527                  -0.371105        -135.466         -53.3136         39.8704         -53.3136         39.8706      -0.00902012         149.305
0.528                  -0.384136         -135.97         -53.1126         38.2014         -53.1126         38.2016      -0.00912812         149.238
0.529                  -0.397553        -136.477         -52.9125         36.5217         -52.9125         36.5219      -0.00923717          149.17
0.53                    -0.41136        -136.985         -52.7136         34.8314         -52.7136         34.8315      -0.00934722         149.102
0.531                  -0.425559        -137.495         -52.5157         33.1307         -52.5157         33.1308      -0.00945819         149.034
0.532                  -0.440152        -138.006          -52.319         31.4197          -52.319         31.4198      -0.00957002         148.967
0.533                  -0.455142        -138.519         -52.1235         29.6987         -52.1235         29.6987      -0.00968265         148.899
0.534                  -0.470529        -139.034         -51.9292         27.9678         -51.9292         27.9678      -0.00979598          148.83
0.535                  -0.486313        -139.551         -51.7362         26.2274         -51.7362         26.2274      -0.00990995         148.762
0.536                  -0.502494        -140.068         -51.5446         24.4776         -51.5446         24.4776       -0.0100245         148.694
0.537                  -0.519071        -140.588         -51.3543         22.7189         -51.3544         22.7188       -0.0101395         148.626
0.538                  -0.536041        -141.109         -51.1655         20.9513         -51.1655         20.9513       -0.0102549         148.557
0.539                  -0.553403        -141.631         -50.9782         19.1753         -50.9782         19.1753       -0.0103706         148.489
0.54                   -0.571153        -142.154         -50.7924         17.3912         -50.7924         17.3912       -0.0104865          148.42
0.541                  -0.589286        -142.679         -50.6081         15.5993         -50.6081         15.5993       -0.0106025         148.351
0.542                  -0.607798        -143.204         -50.4254            13.8         -50.4254            13.8       -0.0107186         148.282
0.543                  -0.626682        -143.731         -50.2443         11.9937         -50.2443         11.9936       -0.0108346         148.213
0.544                  -0.645934        -144.259         -50.0648         10.1807         -50.0649         10.1806       -0.0109505         148.144
0.545                  -0.665546        -144.789         -49.8871         8.36145         -49.8871         8.36138       -0.0110662         148.075
0.546                   -0.68551        -145.319          -49.711         6.53634          -49.711         6.53627       -0.0111816         148.006
0.547                  -0.705819         -145.85         -49.5366         4.70578         -49.5366         4.70571       -0.0112966         147.937
0.548                  -0.726464        -146.382          -49.364         2.87021          -49.364         2.87014       -0.0114112         147.867
0.549                  -0.747436        -146.916         -49.1931         1.03005         -49.1931            1.03       -0.0115253         147.797
0.55                   -0.768725         -147.45          -49.024       -0.814245          -49.024       -0.814296       -0.0116388         147.728
0.551                  -0.790322        -147.985         -48.8566        -2.66224         -48.8566        -2.66229       -0.0117517         147.658
0.552                  -0.812217        -148.522          -48.691         -4.5135          -48.691        -4.51354        -0.011864         147.588
0.553                    -0.8344        -149.059         -48.5272        -6.36756         -48.5272         -6.3676       -0.0119756         147.518
0.554                   -0.85686        -149.597         -48.3651        -8.22399         -48.3651        -8.22402       -0.0120864         147.448
0.555                  -0.879587        -150.137         -48.2048        -10.0823         -48.2048        -10.0824       -0.0121965         147.378
0.556                  -0.902572        -150.677         -48.0463        -11.9422         -48.0463        -11.9422       -0.0123058         147.307
0.557                  -0.925803        -151.219         -47.8895        -13.8031         -47.8895        -13.8031       -0.0124143         147.237
0.558                  -0.949271        -151.762         -47.7344        -15.6646         -47.7344        -15.6646       -0.0125221         147.166
0.559                  -0.972967        -152.306          -47.581        -17.5263          -47.581        -17.5263       -0.0126291         147.095
0.56                   -0.996881        -152.851         -47.4292        -19.3878         -47.4292        -19.3878       -0.0127354         147.025
0.561                     -1.021        -153.398         -47.2792        -21.2487         -47.2792        -21.2487       -0.0128409         146.954
0.562                   -1.04533        -153.946         -47.1307        -23.1086         -47.1307        -23.1086       -0.0129458         146.882
0.563                   -1.06985        -154.496         -46.9838        -24.9671         -46.9838        -24.9671         -0.01305         146.811
0.564                   -1.09456        -155.047         -46.8385         -26.824         -46.8385         -26.824       -0.0131536          146.74
0.565                   -1.11945        -155.601         -46.6947        -28.6787         -46.6947        -28.6787       -0.0132568         146.668
0.566                   -1.14451        -156.156         -46.5524        -30.5311         -46.5524        -30.5311       -0.0133595         146.597
0.567                   -1.16975        -156.713         -46.4115        -32.3808         -46.4115        -32.3808       -0.0134618         146.525
0.568                   -1.19516        -157.272          -46.272        -34.2275         -46.2719        -34.2275       -0.0135639         146.453
0.569                   -1.22073        -157.833         -46.1338        -36.0709         -46.1338        -36.0709       -0.0136657         146.381
0.57                    -1.24647        -158.397         -45.9969        -37.9108         -45.9969        -37.9108       -0.0137675         146.308
0.571                   -1.27238        -158.963         -45.8612        -39.7469         -45.8612         -39.747       -0.0138693         146.236
0.572                   -1.29845        -159.531         -45.7268        -41.5791         -45.7267        -41.5792       -0.0139712         146.163
0.573                   -1.32469        -160.103         -45.5934        -43.4072         -45.5934        -43.4072       -0.0140734         146.091
0.574                   -1.35111        -160.677         -45.4612        -45.2309         -45.4612        -45.2309       -0.0141759         146.018
0.575                   -1.37771        -161.254           -45.33        -47.0501           -45.33        -47.0502       -0.0142789         145.945
0.576                   -1.40449        -161.834         -45.1998        -48.8647         -45.1998        -48.8648       -0.0143826         145.871
0.577                   -1.43147        -162.418         -45.0705        -50.6746         -45.0705        -50.6746       -0.0144869         145.798
0.578                   -1.45865        -163.005         -44.9421        -52.4797         -44.9421        -52.4797       -0.0145922         145.724
0.579                   -1.48604        -163.596         -44.8145        -54.2798         -44.8145        -54.2798       -0.0146984         145.651
0.58                    -1.51365        -164.191         -44.6877         -56.075         -44.6877         -56.075       -0.0148058         145.577
0.581                    -1.5415        -164.789         -44.5616        -57.8651         -44.5616        -57.8652       -0.0149145         145.503
0.582                   -1.56961        -165.391         -44.4361        -59.6503         -44.4361        -59.6503       -0.0150246         145.429
0.583                   -1.59798        -165.998         -44.3113        -61.4304         -44.3113        -61.4304       -0.0151363         145.354
0.584                   -1.62664        -166.609          -44.187        -63.2055          -44.187        -63.2055       -0.0152497          145.28
0.585                   -1.65559        -167.225         -44.0632        -64.9756         -44.0632        -64.9755        -0.015365         145.205
0.586                   -1.68488        -167.845         -43.9399        -66.7407         -43.9399        -66.7407       -0.0154823          145.13
0.587                    -1.7145        -168.469          -43.817         -68.501          -43.817        -68.5009       -0.0156017         145.055
0.588                   -1.74449        -169.099         -43.6945        -70.2564         -43.6945        -70.2563       -0.0157235         144.979
0.589                   -1.77488        -169.734         -43.5723        -72.0071         -43.5723         -72.007       -0.0158477         144.904
0.59                    -1.80567        -170.374         -43.4503        -73.7532         -43.4504         -73.753       -0.0159745         144.828
0.591                   -1.83691        -171.019         -43.3286        -75.4947         -43.3286        -75.4945        -0.016104         144.752
0.592                   -1.86862         -171.67         -43.2071        -77.2319         -43.2071        -77.2316       -0.0162364         144.676
0.593                   -1.90082        -172.326         -43.0857        -78.9647         -43.0858        -78.9644       -0.0163718           144.6
0.594                   -1.93356        -172.988         -42.9645        -80.6934         -42.9645        -80.6931       -0.0165104         144.523
0.595                   -1.96685        -173.655         -42.8433        -82.4182         -42.8433        -82.4178       -0.0166524         144.447
0.596                   -2.00073        -174.329         -42.7221        -84.1391         -42.7222        -84.1387       -0.0167978          144.37
0.597                   -2.03524        -175.008          -42.601        -85.8563          -42.601        -85.8559       -0.0169468         144.293
0.598                   -2.07041        -175.694         -42.4798        -87.5701         -42.4798        -87.5696       -0.0170995         144.216
0.599                   -2.10628        -176.385         -42.3585        -89.2806         -42.3586        -89.2801       -0.0172561         144.138
0.6                     -2.14288        -177.083         -42.2372         -90.988         -42.2373        -90.9874       -0.0174168          144.06
0.601                   -2.18026        -177.788         -42.1158        -92.6925         -42.1158        -92.6919       -0.0175817         143.983
0.602                   -2.21845        -178.498         -41.9942        -94.3943         -41.9942        -94.3937       -0.0177508         143.904
0.603                    -2.2575        -179.215         -41.8724        -96.0937         -41.8724        -96.0929       -0.0179244         143.826
0.604                   -2.29744        -179.939         -41.7504        -97.7907         -41.7505          -97.79       -0.0181027         143.748
0.605                   -2.33833         179.331         -41.6283        -99.4857         -41.6283        -99.4849       -0.0182856         143.669
0.606                   -2.38021         178.594         -41.5058        -101.179         -41.5059        -101.178       -0.0184734          143.59
0.607                   -2.42312          177.85         -41.3832         -102.87         -41.3832         -102.87       -0.0186663         143.511
0.608                   -2.46711           177.1         -41.2602        -104.561         -41.2602         -104.56       -0.0188643         143.431
0.609                   -2.51223         176.343          -41.137         -106.25          -41.137        -106.249       -0.0190675         143.352
0.61                    -2.55853          175.58         -41.0135        -107.938         -41.0135        -107.937       -0.0192762         143.272
0.611                   -2.60607         174.809         -40.8896        -109.626         -40.8896        -109.625       -0.0194904         143.192
0.612                   -2.65489         174.032         -40.7655        -111.313         -40.7655        -111.312       -0.0197103         143.111
0.613                   -2.70506         173.248          -40.641            -113         -40.6409        -112.999        -0.019936         143.031
0.614                   -2.75662         172.458         -40.5161        -114.687         -40.5161        -114.686       -0.0201677          142.95
0.615                   -2.80964         171.661          -40.391        -116.375         -40.3909        -116.374       -0.0204054         142.869
0.616                   -2.86417         170.857         -40.2654        -118.063         -40.2654        -118.062       -0.0206493         142.788
0.617                   -2.92028         170.047         -40.1396        -119.752         -40.1395        -119.752       -0.0208995         142.706
0.618                   -2.97802          169.23         -40.0134        -121.442         -40.0133        -121.442       -0.0211562         142.625
0.619                   -3.03746         168.407         -39.8868        -123.134         -39.8868        -123.134       -0.0214193         142.543
0.62                    -3.09866         167.578         -39.7599        -124.828         -39.7599        -124.827       -0.0216892          142.46
0.621                   -3.16169         166.742         -39.6327        -126.523         -39.6327        -126.523       -0.0219658         142.378
0.622                   -3.22662         165.901         -39.5051        -128.221         -39.5051        -128.221       -0.0222493         142.295
0.623                   -3.29351         165.054         -39.3773        -129.921         -39.3773        -129.921       -0.0225398         142.212
0.624                   -3.36243         164.201         -39.2492        -131.624         -39.2492        -131.624       -0.0228374         142.129
0.625                   -3.43346         163.343         -39.1208         -133.33         -39.1208         -133.33       -0.0231422         142.045
0.626                   -3.50667         162.479         -38.9921         -135.04         -38.9921         -135.04       -0.0234542         141.961
0.627                   -3.58213         161.611         -38.8632        -136.753         -38.8633        -136.753       -0.0237736         141.877
0.628                   -3.65992         160.738         -38.7341         -138.47         -38.7342         -138.47       -0.0241005         141.793
0.629                   -3.74011          159.86         -38.6049         -140.19         -38.6049        -140.191       -0.0244348         141.708
