! TOUCHSTONE file generated by CST MICROWAVE STUDIO
! Date and time: Fri Oct  2 16:38:09 2020
! Project name: Scenario_1_Free_Space_out_of_line.cst
! Parameters = {Lambda=346.42; Step_1=17.321; dy1=18.161; dx1=520; L_HA=400; MT=2.54; Rad_Dielectric=30; Rad_Lower=7.3; Rad_Upper=30; a_HA=580; a_WG=246; b_HA=500; b_WG=121; c_HA=0; c_WG=187; d_feed=85; h_feed=15; h_lower=18; h_upper=40}
! Header version: 2018
! Port assignment regex: !\s*Touchstone port\s*([0-9]+)\s*=\s*(CST MWS port|CST DS port)\s*([0-9]+|Zmin|Zmax)\s*\(\"(.*)\"\)(\s*mode\s*([0-9]+))?.*
! Touchstone port assignment:
! Touchstone port 1 = CST MWS port 1 ("")
! Touchstone port 2 = CST MWS port 2 ("")
# GHz S DB R 50
0.5                    -0.151825        -122.651         -60.8945        -17.9118         -60.8945        -17.9118      -0.00665902         151.074
0.501                  -0.157234         -123.09          -60.687         -19.628         -60.6869        -19.6281      -0.00671006         151.009
0.502                  -0.162796         -123.53         -60.4812        -21.3451          -60.481        -21.3452      -0.00676159         150.944
0.503                  -0.168514        -123.972          -60.277        -23.0633         -60.2768        -23.0635      -0.00681365         150.878
0.504                  -0.174391        -124.416         -60.0744         -24.783         -60.0742        -24.7832      -0.00686626         150.812
0.505                  -0.180431        -124.863         -59.8734        -26.5042         -59.8731        -26.5044      -0.00691942         150.747
0.506                  -0.186637        -125.311         -59.6738        -28.2273         -59.6735        -28.2275      -0.00697317         150.681
0.507                  -0.193013        -125.762         -59.4756        -29.9523         -59.4753        -29.9526      -0.00702752         150.615
0.508                  -0.199562        -126.215         -59.2788        -31.6796         -59.2784        -31.6799      -0.00708251         150.549
0.509                  -0.206289         -126.67         -59.0833        -33.4093         -59.0828        -33.4096      -0.00713815         150.483
0.51                   -0.213198        -127.128          -58.889        -35.1415         -58.8885        -35.1418      -0.00719447         150.417
0.511                  -0.220293        -127.587         -58.6959        -36.8764         -58.6954        -36.8767      -0.00725151         150.351
0.512                  -0.227577        -128.049         -58.5039        -38.6141         -58.5034        -38.6144      -0.00730929         150.285
0.513                  -0.235056        -128.513         -58.3131        -40.3548         -58.3126         -40.355      -0.00736783         150.218
0.514                  -0.242733         -128.98         -58.1233        -42.0985         -58.1228        -42.0987      -0.00742718         150.152
0.515                  -0.250614        -129.448         -57.9345        -43.8454          -57.934        -43.8456      -0.00748736         150.085
0.516                  -0.258703         -129.92         -57.7467        -45.5955         -57.7462        -45.5957      -0.00754841         150.019
0.517                  -0.267005        -130.393         -57.5598         -47.349         -57.5593        -47.3491      -0.00761036         149.952
0.518                  -0.275525        -130.869         -57.3738        -49.1059         -57.3734         -49.106      -0.00767326         149.885
0.519                  -0.284268        -131.347         -57.1888        -50.8663         -57.1883        -50.8664      -0.00773713         149.818
0.52                   -0.293239        -131.828         -57.0045        -52.6303          -57.004        -52.6304      -0.00780203         149.751
0.521                  -0.302444        -132.311          -56.821        -54.3979         -56.8206         -54.398      -0.00786798         149.684
0.522                  -0.311888        -132.796         -56.6384        -56.1692         -56.6379        -56.1693      -0.00793504         149.617
0.523                  -0.321577        -133.284         -56.4564        -57.9443          -56.456        -57.9444      -0.00800325          149.55
0.524                  -0.331517        -133.774         -56.2752        -59.7232         -56.2748        -59.7233      -0.00807265         149.483
0.525                  -0.341714        -134.267         -56.0947        -61.5059         -56.0943         -61.506      -0.00814329         149.415
0.526                  -0.352174        -134.763         -55.9149        -63.2926         -55.9145        -63.2926      -0.00821523         149.348
0.527                  -0.362903        -135.261         -55.7357        -65.0831         -55.7353        -65.0831      -0.00828851          149.28
0.528                  -0.373908        -135.761         -55.5571        -66.8776         -55.5568        -66.8776      -0.00836318         149.212
0.529                  -0.385195        -136.264         -55.3792        -68.6761         -55.3789         -68.676      -0.00843929         149.144
0.53                   -0.396771         -136.77         -55.2018        -70.4785         -55.2015        -70.4785      -0.00851691         149.077
0.531                  -0.408643        -137.278          -55.025         -72.285         -55.0248         -72.285      -0.00859609         149.008
0.532                  -0.420819        -137.789         -54.8488        -74.0956         -54.8486        -74.0955      -0.00867688          148.94
0.533                  -0.433304        -138.302         -54.6731        -75.9102         -54.6729        -75.9102      -0.00875934         148.872
0.534                  -0.446108        -138.818          -54.498        -77.7289         -54.4978        -77.7289      -0.00884354         148.804
0.535                  -0.459236        -139.336         -54.3233        -79.5517         -54.3231        -79.5517      -0.00892953         148.735
0.536                  -0.472698        -139.858         -54.1492        -81.3786          -54.149        -81.3786      -0.00901737         148.667
0.537                    -0.4865        -140.381         -53.9756        -83.2096         -53.9754        -83.2096      -0.00910713         148.598
0.538                  -0.500651        -140.908         -53.8024        -85.0448         -53.8023        -85.0447      -0.00919886         148.529
0.539                   -0.51516        -141.437         -53.6298         -86.884         -53.6297        -86.8839      -0.00929263         148.461
0.54                   -0.530033        -141.969         -53.4576        -88.7274         -53.4575        -88.7273       -0.0093885         148.392
0.541                   -0.54528        -142.503         -53.2859        -90.5748         -53.2858        -90.5748      -0.00948653         148.322
0.542                  -0.560909         -143.04         -53.1146        -92.4264         -53.1146        -92.4264      -0.00958678         148.253
0.543                  -0.576929         -143.58         -52.9438        -94.2821         -52.9438        -94.2821      -0.00968931         148.184
0.544                  -0.593349        -144.122         -52.7735        -96.1419         -52.7735        -96.1419      -0.00979418         148.115
0.545                  -0.610177        -144.667         -52.6036        -98.0058         -52.6036        -98.0058      -0.00990146         148.045
0.546                  -0.627422        -145.214         -52.4342        -99.8738         -52.4342        -99.8739       -0.0100112         147.975
0.547                  -0.645094        -145.765         -52.2652        -101.746         -52.2652        -101.746       -0.0101234         147.906
0.548                  -0.663202        -146.317         -52.0967        -103.622         -52.0967        -103.622       -0.0102382         147.836
0.549                  -0.681754        -146.873         -51.9286        -105.502         -51.9287        -105.502       -0.0103556         147.766
0.55                   -0.700761        -147.431          -51.761        -107.386         -51.7611        -107.386       -0.0104757         147.696
0.551                  -0.720231        -147.991         -51.5939        -109.275          -51.594        -109.275       -0.0105984         147.626
0.552                  -0.740173        -148.554         -51.4272        -111.167         -51.4273        -111.167       -0.0107239         147.555
0.553                  -0.760598         -149.12          -51.261        -113.063         -51.2611        -113.063       -0.0108522         147.485
0.554                  -0.781514        -149.688         -51.0953        -114.963         -51.0954        -114.963       -0.0109833         147.414
0.555                  -0.802929        -150.259           -50.93        -116.867         -50.9302        -116.867       -0.0111171         147.344
0.556                  -0.824855        -150.832         -50.7653        -118.775         -50.7655        -118.775       -0.0112539         147.273
0.557                  -0.847299        -151.407          -50.601        -120.687         -50.6012        -120.687       -0.0113935         147.202
0.558                   -0.87027        -151.985         -50.4373        -122.602         -50.4375        -122.602       -0.0115359         147.131
0.559                  -0.893778        -152.565         -50.2741        -124.522         -50.2743        -124.522       -0.0116813          147.06
0.56                    -0.91783        -153.148         -50.1114        -126.445         -50.1116        -126.445       -0.0118295         146.989
0.561                  -0.942436        -153.733         -49.9492        -128.371         -49.9494        -128.372       -0.0119805         146.917
0.562                  -0.967603         -154.32         -49.7875        -130.302         -49.7878        -130.302       -0.0121345         146.846
0.563                  -0.993339        -154.909         -49.6264        -132.236         -49.6267        -132.236       -0.0122912         146.774
0.564                   -1.01965          -155.5         -49.4659        -134.173         -49.4662        -134.173       -0.0124507         146.702
0.565                   -1.04655        -156.094          -49.306        -136.114         -49.3062        -136.114        -0.012613          146.63
0.566                   -1.07404        -156.689         -49.1466        -138.058         -49.1468        -138.059        -0.012778         146.558
0.567                   -1.10212        -157.287         -48.9878        -140.006          -48.988        -140.007       -0.0129457         146.486
0.568                   -1.13081        -157.886         -48.8296        -141.957         -48.8299        -141.958        -0.013116         146.414
0.569                   -1.16011        -158.487          -48.672        -143.912         -48.6723        -143.912       -0.0132888         146.342
0.57                    -1.19003         -159.09         -48.5151        -145.869         -48.5154         -145.87       -0.0134642         146.269
0.571                   -1.22056        -159.695         -48.3588         -147.83          -48.359         -147.83        -0.013642         146.197
0.572                   -1.25172        -160.302         -48.2031        -149.793         -48.2034        -149.794       -0.0138221         146.124
0.573                    -1.2835         -160.91         -48.0481         -151.76         -48.0484         -151.76       -0.0140046         146.051
0.574                   -1.31591         -161.52         -47.8938        -153.729          -47.894         -153.73       -0.0141892         145.978
0.575                   -1.34895        -162.131         -47.7401        -155.701         -47.7404        -155.702        -0.014376         145.905
0.576                   -1.38263        -162.744         -47.5871        -157.676         -47.5874        -157.677       -0.0145648         145.832
0.577                   -1.41694        -163.358         -47.4349        -159.654         -47.4351        -159.654       -0.0147555         145.758
0.578                   -1.45188        -163.973         -47.2833        -161.634         -47.2836        -161.634       -0.0149482         145.685
0.579                   -1.48746         -164.59         -47.1325        -163.616         -47.1327        -163.616       -0.0151426         145.611
0.58                    -1.52367        -165.207         -46.9823        -165.601         -46.9826        -165.601       -0.0153387         145.537
0.581                    -1.5605        -165.826         -46.8329        -167.588         -46.8332        -167.588       -0.0155365         145.463
0.582                   -1.59797        -166.446         -46.6843        -169.576         -46.6845        -169.577       -0.0157358         145.389
0.583                   -1.63605        -167.067         -46.5364        -171.567         -46.5366        -171.568       -0.0159365         145.315
0.584                   -1.67476        -167.689         -46.3892         -173.56         -46.3894        -173.561       -0.0161386          145.24
0.585                   -1.71408        -168.312         -46.2428        -175.555          -46.243        -175.555       -0.0163421         145.166
0.586                     -1.754        -168.936         -46.0971        -177.551         -46.0974        -177.552       -0.0165468         145.091
0.587                   -1.79453         -169.56         -45.9523        -179.549         -45.9525        -179.549       -0.0167527         145.016
0.588                   -1.83564        -170.186         -45.8082         178.452         -45.8084         178.451       -0.0169598         144.941
0.589                   -1.87735        -170.812         -45.6648         176.451          -45.665         176.451       -0.0171679         144.866
0.59                    -1.91963        -171.439         -45.5223         174.449         -45.5225         174.449       -0.0173771          144.79
0.591                   -1.96248        -172.067         -45.3805         172.446         -45.3807         172.446       -0.0175873         144.715
0.592                   -2.00589        -172.695         -45.2395         170.443         -45.2396         170.442       -0.0177984         144.639
0.593                   -2.04985        -173.324         -45.0992         168.438         -45.0994         168.438       -0.0180106         144.563
0.594                   -2.09436        -173.954         -44.9597         166.432         -44.9599         166.432       -0.0182236         144.487
0.595                   -2.13939        -174.585          -44.821         164.426         -44.8212         164.426       -0.0184376         144.411
0.596                   -2.18494        -175.217         -44.6831         162.419         -44.6832         162.419       -0.0186526         144.335
0.597                   -2.23101        -175.849         -44.5459         160.412          -44.546         160.412       -0.0188685         144.258
0.598                   -2.27758        -176.483         -44.4094         158.405         -44.4096         158.405       -0.0190853         144.181
0.599                   -2.32464        -177.117         -44.2738         156.397         -44.2739         156.397       -0.0193032         144.104
0.6                     -2.37218        -177.753         -44.1388          154.39         -44.1389          154.39        -0.019522         144.027
0.601                   -2.42021        -178.389         -44.0046         152.382         -44.0047         152.382       -0.0197419          143.95
0.602                    -2.4687        -179.027         -43.8711         150.374         -43.8712         150.374       -0.0199629         143.872
0.603                   -2.51765        -179.666         -43.7383         148.367         -43.7384         148.367       -0.0201851         143.795
0.604                   -2.56706         179.693         -43.6062          146.36         -43.6063          146.36       -0.0204085         143.717
0.605                   -2.61692         179.051         -43.4748         144.353         -43.4749         144.353       -0.0206331         143.639
0.606                   -2.66723         178.408          -43.344         142.346         -43.3441         142.347       -0.0208591          143.56
0.607                   -2.71799         177.762         -43.2139         140.341          -43.214         140.341       -0.0210866         143.482
0.608                   -2.76919         177.114         -43.0845         138.335         -43.0846         138.336       -0.0213155         143.403
0.609                   -2.82084         176.465         -42.9557         136.331         -42.9558         136.331       -0.0215461         143.324
0.61                    -2.87295         175.813         -42.8275         134.327         -42.8276         134.327       -0.0217784         143.245
0.611                    -2.9255         175.158         -42.6999         132.323            -42.7         132.324       -0.0220125         143.166
0.612                   -2.97853         174.501         -42.5729         130.321          -42.573         130.321       -0.0222486         143.086
0.613                   -3.03202         173.841         -42.4465         128.319         -42.4465          128.32       -0.0224867         143.006
0.614                     -3.086         173.178         -42.3206         126.319         -42.3206         126.319        -0.022727         142.926
0.615                   -3.14047         172.512         -42.1953         124.319         -42.1953         124.319       -0.0229696         142.846
0.616                   -3.19546         171.843         -42.0704          122.32         -42.0704         122.321       -0.0232146         142.765
0.617                   -3.25098          171.17         -41.9461         120.322         -41.9461         120.323       -0.0234622         142.684
0.618                   -3.30705         170.493         -41.8222         118.325         -41.8222         118.326       -0.0237126         142.603
0.619                    -3.3637         169.812         -41.6988         116.329         -41.6988          116.33       -0.0239658         142.522
0.62                    -3.42095         169.127         -41.5759         114.334         -41.5758         114.335        -0.024222          142.44
0.621                   -3.47883         168.437         -41.4533          112.34         -41.4532          112.34       -0.0244814         142.359
0.622                   -3.53737         167.743         -41.3312         110.346         -41.3311         110.347       -0.0247442         142.277
0.623                   -3.59661         167.044         -41.2094         108.354         -41.2093         108.355       -0.0250106         142.194
0.624                   -3.65659          166.34          -41.088         106.362         -41.0879         106.363       -0.0252806         142.112
0.625                   -3.71734         165.631          -40.967         104.371         -40.9669         104.372       -0.0255545         142.029
0.626                    -3.7789         164.916         -40.8463         102.381         -40.8462         102.382       -0.0258325         141.946
0.627                   -3.84133         164.196         -40.7259         100.392         -40.7258         100.393       -0.0261148         141.862
0.628                   -3.90467          163.47         -40.6058         98.4031         -40.6057         98.4038       -0.0264015         141.779
0.629                   -3.96898         162.739          -40.486         96.4149         -40.4859         96.4155       -0.0266928         141.695
