! TOUCHSTONE file generated by CST MICROWAVE STUDIO
! Date and time: Fri Oct  2 16:57:04 2020
! Project name: Scenario_1_Free_Space_out_of_line.cst
! Parameters = {Lambda=346.42; Step_1=17.321; dy1=18.161; dx1=693; L_HA=400; MT=2.54; Rad_Dielectric=30; Rad_Lower=7.3; Rad_Upper=30; a_HA=580; a_WG=246; b_HA=500; b_WG=121; c_HA=0; c_WG=187; d_feed=85; h_feed=15; h_lower=18; h_upper=40}
! Header version: 2018
! Port assignment regex: !\s*Touchstone port\s*([0-9]+)\s*=\s*(CST MWS port|CST DS port)\s*([0-9]+|Zmin|Zmax)\s*\(\"(.*)\"\)(\s*mode\s*([0-9]+))?.*
! Touchstone port assignment:
! Touchstone port 1 = CST MWS port 1 ("")
! Touchstone port 2 = CST MWS port 2 ("")
# GHz S DB R 50
0.5                    -0.146152         -122.64         -62.2806        -116.458         -62.2806        -116.458      -0.00671972         151.086
0.501                  -0.153355        -123.082         -62.0763        -119.708         -62.0759        -119.689      -0.00679324         151.021
0.502                  -0.160711        -123.526         -61.8658        -122.854         -61.8654        -122.816       -0.0068669         150.955
0.503                   -0.16822        -123.972         -61.6507          -125.9         -61.6503        -125.846      -0.00694072          150.89
0.504                  -0.175884        -124.419         -61.4322        -128.849         -61.4321        -128.781      -0.00701469         150.824
0.505                  -0.183706        -124.868         -61.2114        -131.708         -61.2116        -131.628      -0.00708883         150.759
0.506                  -0.191686        -125.318         -60.9892        -134.481         -60.9899        -134.391      -0.00716315         150.693
0.507                  -0.199827        -125.771         -60.7665        -137.174         -60.7676        -137.075      -0.00723764         150.627
0.508                  -0.208129        -126.225         -60.5439        -139.792         -60.5456        -139.685      -0.00731233         150.561
0.509                  -0.216595         -126.68          -60.322         -142.34         -60.3242        -142.227      -0.00738721         150.495
0.51                   -0.225227        -127.138         -60.1013        -144.822         -60.1039        -144.704       -0.0074623         150.429
0.511                  -0.234026        -127.597          -59.882        -147.245         -59.8852        -147.123       -0.0075376         150.363
0.512                  -0.242994        -128.058         -59.6646        -149.612         -59.6683        -149.487      -0.00761313         150.297
0.513                  -0.252134        -128.521         -59.4493        -151.927         -59.4533          -151.8      -0.00768888         150.231
0.514                  -0.261447        -128.985         -59.2361        -154.195         -59.2406        -154.067      -0.00776488         150.165
0.515                  -0.270936        -129.452         -59.0254        -156.419         -59.0303        -156.291      -0.00784114         150.098
0.516                  -0.280602         -129.92         -58.8171        -158.604         -58.8223        -158.475      -0.00791766         150.032
0.517                  -0.290448         -130.39         -58.6113        -160.752         -58.6169        -160.623      -0.00799445         149.965
0.518                  -0.300476        -130.862         -58.4081        -162.866          -58.414        -162.739      -0.00807153         149.898
0.519                  -0.310689        -131.336         -58.2075         -164.95         -58.2136        -164.824       -0.0081489         149.832
0.52                   -0.321089        -131.812         -58.0095        -167.005         -58.0158        -166.881      -0.00822659         149.765
0.521                  -0.331679        -132.289         -57.8141        -169.035         -57.8205        -168.914       -0.0083046         149.698
0.522                  -0.342461        -132.769         -57.6212        -171.043         -57.6277        -170.923      -0.00838295         149.631
0.523                  -0.353438        -133.251         -57.4307        -173.029         -57.4374        -172.912      -0.00846164         149.564
0.524                  -0.364612        -133.735         -57.2427        -174.996         -57.2495        -174.882      -0.00854071         149.496
0.525                  -0.375987         -134.22         -57.0571        -176.947         -57.0639        -176.836      -0.00862015         149.429
0.526                  -0.387566        -134.708         -56.8738        -178.882         -56.8806        -178.774      -0.00869998         149.362
0.527                  -0.399351        -135.198         -56.6927         179.196         -56.6995         179.301      -0.00878023         149.294
0.528                  -0.411346         -135.69         -56.5138         177.287         -56.5206         177.388      -0.00886091         149.227
0.529                  -0.423555        -136.184          -56.337         175.388         -56.3437         175.486      -0.00894203         149.159
0.53                    -0.43598         -136.68         -56.1623         173.498         -56.1689         173.593      -0.00902361         149.091
0.531                  -0.448625        -137.179         -55.9895         171.617          -55.996         171.707      -0.00910568         149.023
0.532                  -0.461493         -137.68         -55.8186         169.742          -55.825         169.829      -0.00918825         148.955
0.533                  -0.474589        -138.182         -55.6495         167.873         -55.6558         167.957      -0.00927133         148.887
0.534                  -0.487917        -138.688         -55.4822         166.009         -55.4883         166.089      -0.00935496         148.819
0.535                   -0.50148        -139.195         -55.3165         164.149         -55.3225         164.225      -0.00943916         148.751
0.536                  -0.515282        -139.705         -55.1525         162.292         -55.1582         162.365      -0.00952394         148.682
0.537                  -0.529328        -140.217         -54.9899         160.437         -54.9955         160.506      -0.00960933         148.614
0.538                  -0.543623        -140.731         -54.8289         158.583         -54.8343         158.649      -0.00969535         148.545
0.539                   -0.55817        -141.248         -54.6692         156.731         -54.6744         156.793      -0.00978203         148.477
0.54                   -0.572976        -141.767         -54.5109         154.878         -54.5158         154.936       -0.0098694         148.408
0.541                  -0.588043        -142.288         -54.3538         153.024         -54.3586         153.079      -0.00995747         148.339
0.542                  -0.603379        -142.812          -54.198         151.169         -54.2025         151.221       -0.0100463          148.27
0.543                  -0.618987        -143.339         -54.0433         149.313         -54.0476         149.361       -0.0101359         148.201
0.544                  -0.634874        -143.868         -53.8897         147.454         -53.8938         147.499       -0.0102263         148.131
0.545                  -0.651045          -144.4         -53.7371         145.592          -53.741         145.634       -0.0103175         148.062
0.546                  -0.667506        -144.934         -53.5856         143.727         -53.5892         143.766       -0.0104095         147.993
0.547                  -0.684263         -145.47         -53.4349         141.859         -53.4383         141.895       -0.0105025         147.923
0.548                  -0.701322         -146.01         -53.2852         139.986         -53.2883         140.019       -0.0105964         147.853
0.549                   -0.71869        -146.552         -53.1363         138.109         -53.1392         138.139       -0.0106913         147.783
0.55                   -0.736373        -147.096         -52.9882         136.227         -52.9908         136.255       -0.0107872         147.713
0.551                  -0.754379        -147.644         -52.8408          134.34         -52.8433         134.365       -0.0108841         147.643
0.552                  -0.772714        -148.194         -52.6942         132.448         -52.6964          132.47       -0.0109821         147.573
0.553                  -0.791386        -148.747         -52.5482          130.55         -52.5502          130.57       -0.0110812         147.503
0.554                  -0.810403        -149.303         -52.4028         128.646         -52.4046         128.664       -0.0111815         147.432
0.555                  -0.829772        -149.861         -52.2581         126.736         -52.2597         126.752        -0.011283         147.362
0.556                  -0.849502        -150.423         -52.1139          124.82         -52.1153         124.833       -0.0113857         147.291
0.557                  -0.869601        -150.987         -51.9703         122.897         -51.9714         122.908       -0.0114898          147.22
0.558                  -0.890078        -151.554         -51.8272         120.968         -51.8281         120.977       -0.0115952         147.149
0.559                  -0.910942        -152.124         -51.6845         119.032         -51.6853         119.039        -0.011702         147.078
0.56                   -0.932203        -152.697         -51.5423         117.089         -51.5429         117.094       -0.0118103         147.007
0.561                  -0.953869        -153.274         -51.4005         115.139         -51.4009         115.142       -0.0119201         146.936
0.562                  -0.975952        -153.853         -51.2591         113.181         -51.2594         113.183       -0.0120315         146.864
0.563                  -0.998461        -154.435         -51.1181         111.217         -51.1182         111.216       -0.0121445         146.793
0.564                   -1.02141         -155.02         -50.9775         109.245         -50.9774         109.243       -0.0122591         146.721
0.565                    -1.0448        -155.608         -50.8372         107.265          -50.837         107.262       -0.0123756         146.649
0.566                   -1.06865          -156.2         -50.6973         105.278         -50.6969         105.274       -0.0124938         146.577
0.567                   -1.09298        -156.794         -50.5576         103.284         -50.5571         103.278        -0.012614         146.505
0.568                   -1.11778        -157.392         -50.4183         101.282         -50.4176         101.275        -0.012736         146.433
0.569                   -1.14309        -157.993         -50.2792         99.2732         -50.2785          99.265       -0.0128601          146.36
0.57                    -1.16889        -158.597         -50.1405         97.2565         -50.1396         97.2473       -0.0129863         146.288
0.571                   -1.19523        -159.204          -50.002         95.2324          -50.001         95.2222       -0.0131146         146.215
0.572                   -1.22209        -159.815         -49.8638         93.2009         -49.8627         93.1898       -0.0132451         146.142
0.573                   -1.24951        -160.429         -49.7258         91.1621         -49.7247         91.1502        -0.013378         146.069
0.574                   -1.27748        -161.046         -49.5882          89.116         -49.5869         89.1033       -0.0135133         145.996
0.575                   -1.30604        -161.666         -49.4507         87.0627         -49.4494         87.0493        -0.013651         145.922
0.576                   -1.33518         -162.29         -49.3135         85.0022         -49.3122         84.9882       -0.0137912         145.849
0.577                   -1.36494        -162.916         -49.1766         82.9347         -49.1752         82.9201       -0.0139341         145.775
0.578                   -1.39531        -163.546           -49.04         80.8602         -49.0385         80.8452       -0.0140797         145.701
0.579                   -1.42633         -164.18         -48.9035         78.7789          -48.902         78.7635        -0.014228         145.627
0.58                    -1.45801        -164.816         -48.7674         76.6909         -48.7659         76.6752       -0.0143793         145.553
0.581                   -1.49035        -165.456         -48.6315         74.5964           -48.63         74.5803       -0.0145335         145.479
0.582                   -1.52339        -166.099         -48.4959         72.4954         -48.4943         72.4791       -0.0146907         145.404
0.583                   -1.55713        -166.746         -48.3606         70.3881          -48.359         70.3716       -0.0148511          145.33
0.584                    -1.5916        -167.395         -48.2255         68.2746         -48.2239         68.2581       -0.0150147         145.255
0.585                   -1.62682        -168.048         -48.0907         66.1552         -48.0891         66.1386       -0.0151816          145.18
0.586                    -1.6628        -168.704         -47.9562           64.03         -47.9546         64.0134       -0.0153519         145.105
0.587                   -1.69956        -169.363         -47.8221         61.8992         -47.8205         61.8827       -0.0155256         145.029
0.588                   -1.73711        -170.025         -47.6882          59.763         -47.6866         59.7465       -0.0157029         144.954
0.589                   -1.77549        -170.691         -47.5546         57.6214         -47.5531         57.6051       -0.0158838         144.878
0.59                    -1.81471        -171.359         -47.4214         55.4749         -47.4199         55.4587       -0.0160684         144.803
0.591                   -1.85479         -172.03         -47.2885         53.3234          -47.287         53.3075       -0.0162568         144.727
0.592                   -1.89574        -172.704         -47.1559         51.1674         -47.1544         51.1517        -0.016449          144.65
0.593                   -1.93759        -173.381         -47.0237         49.0068         -47.0223         48.9914       -0.0166452         144.574
0.594                   -1.98036        -174.061         -46.8918         46.8421         -46.8905          46.827       -0.0168453         144.497
0.595                   -2.02407        -174.744         -46.7604         44.6733          -46.759         44.6586       -0.0170494         144.421
0.596                   -2.06873        -175.429         -46.6292         42.5007         -46.6279         42.4863       -0.0172577         144.344
0.597                   -2.11438        -176.116         -46.4985         40.3246         -46.4972         40.3106       -0.0174701         144.267
0.598                   -2.16101        -176.807         -46.3682          38.145         -46.3669         38.1315       -0.0176867         144.189
0.599                   -2.20866        -177.499         -46.2382         35.9624          -46.237         35.9493       -0.0179076         144.112
0.6                     -2.25735        -178.194         -46.1087         33.7768         -46.1075         33.7641       -0.0181327         144.034
0.601                   -2.30709        -178.891         -45.9795         31.5885         -45.9785         31.5763       -0.0183621         143.956
0.602                    -2.3579        -179.589         -45.8508         29.3977         -45.8498         29.3861       -0.0185958         143.878
0.603                   -2.40979          179.71         -45.7225         27.2047         -45.7215         27.1936       -0.0188338           143.8
0.604                   -2.46279         179.007         -45.5946         25.0096         -45.5937          24.999       -0.0190762         143.722
0.605                   -2.51691         178.303         -45.4671         22.8127         -45.4663         22.8027       -0.0193229         143.643
0.606                   -2.57216         177.598         -45.3401         20.6142         -45.3393         20.6047       -0.0195739         143.564
0.607                   -2.62857         176.891         -45.2135         18.4143         -45.2127         18.4054       -0.0198293         143.485
0.608                   -2.68613         176.183         -45.0873         16.2132         -45.0866         16.2048       -0.0200889         143.406
0.609                   -2.74487         175.474         -44.9615         14.0112         -44.9609         14.0033       -0.0203528         143.327
0.61                    -2.80479         174.764         -44.8362         11.8083         -44.8356          11.801        -0.020621         143.247
0.611                    -2.8659         174.054         -44.7113         9.60478         -44.7108         9.59803       -0.0208934         143.167
0.612                   -2.92822         173.343         -44.5868         7.40087         -44.5863         7.39466         -0.02117         143.087
0.613                   -2.99175         172.632         -44.4628         5.19672         -44.4623         5.19105       -0.0214507         143.007
0.614                   -3.05649          171.92         -44.3391          2.9925         -44.3387         2.98737       -0.0217355         142.926
0.615                   -3.12245         171.209         -44.2159        0.788379         -44.2155        0.783773       -0.0220243         142.845
0.616                   -3.18962         170.498          -44.093        -1.41548         -44.0928        -1.41957       -0.0223171         142.764
0.617                   -3.25802         169.788         -43.9706        -3.61894         -43.9704        -3.62252       -0.0226139         142.683
0.618                   -3.32763         169.078         -43.8486        -5.82184         -43.8484        -5.82494       -0.0229146         142.602
0.619                   -3.39845         168.369         -43.7269        -8.02406         -43.7267        -8.02667       -0.0232192          142.52
0.62                    -3.47049         167.661         -43.6056        -10.2255         -43.6055        -10.2276       -0.0235276         142.438
0.621                   -3.54372         166.954         -43.4847        -12.4259         -43.4846        -12.4276       -0.0238397         142.356
0.622                   -3.61815         166.248         -43.3641        -14.6254          -43.364        -14.6266       -0.0241557         142.274
0.623                   -3.69375         165.544         -43.2438        -16.8237         -43.2438        -16.8245       -0.0244754         142.191
0.624                   -3.77053         164.842         -43.1239        -19.0208         -43.1239        -19.0212       -0.0247988         142.108
0.625                   -3.84846         164.142         -43.0043        -21.2165         -43.0043        -21.2166       -0.0251259         142.025
0.626                   -3.92753         163.443          -42.885        -23.4109          -42.885        -23.4107       -0.0254568         141.942
0.627                   -4.00772         162.746          -42.766        -25.6039          -42.766        -25.6033       -0.0257914         141.858
0.628                   -4.08901         162.052         -42.6473        -27.7954         -42.6473        -27.7944       -0.0261298         141.774
0.629                   -4.17139          161.36         -42.5288        -29.9853         -42.5289        -29.9841        -0.026472          141.69
