! TOUCHSTONE file generated by CST MICROWAVE STUDIO
! Date and time: Fri Oct  2 19:12:47 2020
! Project name: Scenario_1_Free_Space_out_of_line.cst
! Parameters = {Lambda=346.42; Step_1=17.321; dy1=18.161; dx1=866; L_HA=400; MT=2.54; Rad_Dielectric=30; Rad_Lower=7.3; Rad_Upper=30; a_HA=580; a_WG=246; b_HA=500; b_WG=121; c_HA=0; c_WG=187; d_feed=85; h_feed=15; h_lower=18; h_upper=40}
! Header version: 2018
! Port assignment regex: !\s*Touchstone port\s*([0-9]+)\s*=\s*(CST MWS port|CST DS port)\s*([0-9]+|Zmin|Zmax)\s*\(\"(.*)\"\)(\s*mode\s*([0-9]+))?.*
! Touchstone port assignment:
! Touchstone port 1 = CST MWS port 1 ("")
! Touchstone port 2 = CST MWS port 2 ("")
# GHz S DB R 50
0.5                    -0.149203        -122.612         -63.0124         143.686         -63.0124         143.686      -0.00659006         151.111
0.501                  -0.153933         -123.05         -62.8332         141.573         -62.8335         141.571      -0.00664374         151.046
0.502                  -0.158852        -123.491         -62.6527         139.454         -62.6532         139.449      -0.00669841         150.981
0.503                  -0.163966        -123.933         -62.4709         137.329         -62.4717         137.323       -0.0067541         150.915
0.504                   -0.16928        -124.379          -62.288         135.198          -62.289          135.19      -0.00681084         150.849
0.505                  -0.174798        -124.827         -62.1039         133.061         -62.1052         133.052      -0.00686865         150.784
0.506                  -0.180528        -125.277         -61.9189         130.918         -61.9203         130.908      -0.00692755         150.718
0.507                  -0.186473        -125.729         -61.7328         128.769         -61.7344         128.757      -0.00698758         150.652
0.508                  -0.192639        -126.184         -61.5459         126.614         -61.5477         126.601      -0.00704875         150.586
0.509                  -0.199033        -126.642         -61.3581         124.453         -61.3601         124.439       -0.0071111          150.52
0.51                   -0.205659        -127.102         -61.1696         122.285         -61.1717          122.27      -0.00717465         150.454
0.511                  -0.212523        -127.564         -60.9804          120.11         -60.9826         120.095      -0.00723942         150.388
0.512                  -0.219631        -128.029         -60.7906         117.929         -60.7929         117.913      -0.00730546         150.322
0.513                  -0.226989        -128.496         -60.6003         115.741         -60.6027         115.725      -0.00737278         150.255
0.514                  -0.234602        -128.966         -60.4095         113.547         -60.4119          113.53      -0.00744141         150.189
0.515                  -0.242477        -129.438         -60.2183         111.345         -60.2208         111.328      -0.00751139         150.122
0.516                  -0.250619        -129.912         -60.0267         109.137         -60.0293          109.12      -0.00758274         150.056
0.517                  -0.259035        -130.389         -59.8349         106.921         -59.8376         106.904       -0.0076555         149.989
0.518                  -0.267729        -130.868          -59.643         104.698         -59.6457         104.681      -0.00772969         149.922
0.519                  -0.276709         -131.35         -59.4509         102.468         -59.4536         102.452      -0.00780535         149.855
0.52                    -0.28598        -131.834         -59.2587         100.231         -59.2615         100.215       -0.0078825         149.788
0.521                  -0.295549        -132.321         -59.0666         97.9864         -59.0694         97.9702      -0.00796118         149.721
0.522                   -0.30542         -132.81         -58.8746         95.7342         -58.8774         95.7184      -0.00804142         149.654
0.523                  -0.315601        -133.301         -58.6828         93.4746         -58.6855         93.4592      -0.00812324         149.587
0.524                  -0.326098        -133.795         -58.4911         91.2073         -58.4938         91.1925      -0.00820668          149.52
0.525                  -0.336916        -134.291         -58.2998         88.9326         -58.3025         88.9184      -0.00829176         149.452
0.526                  -0.348061         -134.79         -58.1088         86.6502         -58.1115         86.6367      -0.00837852         149.385
0.527                  -0.359539        -135.291         -57.9183         84.3603         -57.9209         84.3474      -0.00846698         149.317
0.528                  -0.371357        -135.794         -57.7282         82.0628         -57.7308         82.0507      -0.00855716         149.249
0.529                  -0.383519          -136.3         -57.5387         79.7578         -57.5412         79.7464      -0.00864909         149.182
0.53                   -0.396033        -136.807         -57.3498         77.4452         -57.3522         77.4346      -0.00874279         149.114
0.531                  -0.408902        -137.318         -57.1616         75.1252         -57.1639         75.1154      -0.00883828         149.046
0.532                  -0.422134         -137.83         -56.9742         72.7978         -56.9764         72.7887      -0.00893559         148.978
0.533                  -0.435732        -138.344         -56.7875         70.4631         -56.7896         70.4548      -0.00903471          148.91
0.534                  -0.449703        -138.861         -56.6016         68.1211         -56.6037         68.1136      -0.00913567         148.841
0.535                  -0.464052         -139.38         -56.4167          65.772         -56.4186         65.7653      -0.00923848         148.773
0.536                  -0.478784        -139.901         -56.2327         63.4159         -56.2345           63.41      -0.00934313         148.705
0.537                  -0.493903        -140.425         -56.0497         61.0529         -56.0514         61.0478      -0.00944964         148.636
0.538                  -0.509413         -140.95         -55.8678         58.6832         -55.8694         58.6788      -0.00955799         148.567
0.539                   -0.52532        -141.478          -55.687         56.3069         -55.6884         56.3032      -0.00966817         148.499
0.54                   -0.541628        -142.007         -55.5073         53.9242         -55.5086         53.9212      -0.00978017          148.43
0.541                  -0.558339        -142.539         -55.3287         51.5354           -55.33          51.533      -0.00989398         148.361
0.542                  -0.575458        -143.072         -55.1515         49.1405         -55.1526         49.1387       -0.0100096         148.292
0.543                  -0.592988        -143.608         -54.9754         46.7398         -54.9764         46.7386       -0.0101269         148.223
0.544                  -0.610931        -144.145         -54.8007         44.3335         -54.8016         44.3329       -0.0102459         148.153
0.545                  -0.629291        -144.685         -54.6272         41.9219          -54.628         41.9218       -0.0103666         148.084
0.546                  -0.648068        -145.226         -54.4552         39.5052         -54.4558         39.5055       -0.0104889         148.015
0.547                  -0.667266        -145.769         -54.2845         37.0836          -54.285         37.0844       -0.0106127         147.945
0.548                  -0.686884        -146.314         -54.1151         34.6575         -54.1156         34.6586        -0.010738         147.875
0.549                  -0.706924        -146.861         -53.9472          32.227         -53.9476         32.2284       -0.0108648         147.806
0.55                   -0.727386        -147.409         -53.7808         29.7924          -53.781         29.7941       -0.0109929         147.736
0.551                   -0.74827        -147.959         -53.6157          27.354         -53.6159         27.3559       -0.0111222         147.666
0.552                  -0.769575         -148.51         -53.4522         24.9121         -53.4522         24.9142       -0.0112527         147.596
0.553                    -0.7913        -149.064           -53.29          22.467           -53.29         22.4692       -0.0113842         147.526
0.554                  -0.813443        -149.618         -53.1294         20.0189         -53.1292         20.0212       -0.0115168         147.455
0.555                  -0.836002        -150.175         -52.9702         17.5681           -52.97         17.5704       -0.0116502         147.385
0.556                  -0.858973        -150.733         -52.8125         15.1149         -52.8122         15.1172       -0.0117844         147.314
0.557                  -0.882353        -151.292         -52.6562         12.6596         -52.6559         12.6619       -0.0119193         147.244
0.558                  -0.906139        -151.853         -52.5014         10.2024          -52.501         10.2046       -0.0120549         147.173
0.559                  -0.930324        -152.415         -52.3481         7.74366         -52.3476         7.74577       -0.0121909         147.102
0.56                   -0.954904        -152.979         -52.1961         5.28356         -52.1956         5.28555       -0.0123273         147.031
0.561                  -0.979874        -153.545         -52.0456          2.8224         -52.0451         2.82424       -0.0124641          146.96
0.562                   -1.00523        -154.111         -51.8965        0.360416          -51.896        0.362092       -0.0126012         146.889
0.563                   -1.03096        -154.679         -51.7488        -2.10214         -51.7482        -2.10064       -0.0127384         146.817
0.564                   -1.05705        -155.249         -51.6024        -4.56503         -51.6019        -4.56372       -0.0128758         146.746
0.565                   -1.08351         -155.82         -51.4574        -7.02802         -51.4568        -7.02691       -0.0130134         146.674
0.566                   -1.11033        -156.393         -51.3137         -9.4909         -51.3132        -9.48999        -0.013151         146.602
0.567                   -1.13748        -156.967         -51.1713        -11.9535         -51.1708        -11.9527       -0.0132887         146.531
0.568                   -1.16498        -157.542         -51.0302        -14.4155         -51.0296         -14.415       -0.0134264         146.459
0.569                   -1.19281         -158.12         -50.8902        -16.8768         -50.8898        -16.8765       -0.0135642         146.386
0.57                    -1.22095        -158.699         -50.7515        -19.3373         -50.7511        -19.3371       -0.0137022         146.314
0.571                   -1.24941        -159.279          -50.614        -21.7967         -50.6136        -21.7967       -0.0138403         146.242
0.572                   -1.27817        -159.862         -50.4776        -24.2548         -50.4773         -24.255       -0.0139785         146.169
0.573                   -1.30724        -160.446         -50.3424        -26.7117         -50.3421        -26.7119       -0.0141171         146.096
0.574                   -1.33659        -161.032         -50.2082         -29.167         -50.2079        -29.1673        -0.014256         146.023
0.575                   -1.36623        -161.621          -50.075        -31.6207         -50.0749        -31.6211       -0.0143953          145.95
0.576                   -1.39615        -162.211         -49.9429        -34.0726         -49.9428        -34.0731       -0.0145352         145.877
0.577                   -1.42635        -162.804         -49.8118        -36.5228         -49.8117        -36.5232       -0.0146758         145.804
0.578                   -1.45683          -163.4         -49.6816         -38.971         -49.6816        -38.9714       -0.0148171          145.73
0.579                   -1.48758        -163.998         -49.5523        -41.4172         -49.5524        -41.4176       -0.0149594         145.657
0.58                     -1.5186        -164.599         -49.4239        -43.8613         -49.4241        -43.8616       -0.0151027         145.583
0.581                   -1.54991        -165.203         -49.2963        -46.3033         -49.2966        -46.3034       -0.0152472         145.509
0.582                    -1.5815         -165.81         -49.1696         -48.743         -49.1699         -48.743        -0.015393         145.435
0.583                   -1.61338         -166.42         -49.0437        -51.1805          -49.044        -51.1804       -0.0155403          145.36
0.584                   -1.64557        -167.034         -48.9185        -53.6157         -48.9189        -53.6154       -0.0156892         145.286
0.585                   -1.67807        -167.651          -48.794        -56.0486         -48.7945         -56.048       -0.0158399         145.211
0.586                    -1.7109        -168.272         -48.6702        -58.4792         -48.6708        -58.4783       -0.0159925         145.136
0.587                   -1.74408        -168.898          -48.547        -60.9074         -48.5477        -60.9062       -0.0161473         145.061
0.588                   -1.77764        -169.527         -48.4245        -63.3332         -48.4252        -63.3317       -0.0163042         144.986
0.589                   -1.81159        -170.161         -48.3026        -65.7566         -48.3033        -65.7548       -0.0164635         144.911
0.59                    -1.84596          -170.8         -48.1813        -68.1777          -48.182        -68.1756       -0.0166253         144.835
0.591                   -1.88079        -171.444         -48.0605        -70.5964         -48.0613        -70.5939       -0.0167898          144.76
0.592                    -1.9161        -172.092         -47.9402        -73.0127          -47.941        -73.0099        -0.016957         144.684
0.593                   -1.95194        -172.746         -47.8204        -75.4267         -47.8212        -75.4236       -0.0171272         144.608
0.594                   -1.98835        -173.405         -47.7011        -77.8384         -47.7019         -77.835       -0.0173004         144.531
0.595                   -2.02536        -174.069         -47.5822        -80.2478          -47.583         -80.244       -0.0174768         144.455
0.596                   -2.06303        -174.739         -47.4637         -82.655         -47.4645        -82.6509       -0.0176564         144.378
0.597                   -2.10139        -175.415         -47.3456        -85.0599         -47.3464        -85.0555       -0.0178395         144.301
0.598                   -2.14051        -176.096         -47.2279        -87.4627         -47.2287         -87.458       -0.0180261         144.224
0.599                   -2.18042        -176.783         -47.1105        -89.8633         -47.1112        -89.8584       -0.0182163         144.147
0.6                     -2.22119        -177.476         -46.9934        -92.2619         -46.9941        -92.2567       -0.0184102         144.069
0.601                   -2.26286        -178.175         -46.8766        -94.6584         -46.8773         -94.653       -0.0186079         143.992
0.602                    -2.3055         -178.88         -46.7601        -97.0529         -46.7608        -97.0474       -0.0188096         143.914
0.603                   -2.34916         -179.59         -46.6439        -99.4455         -46.6445        -99.4399       -0.0190152         143.836
0.604                   -2.39389         179.694         -46.5279        -101.836         -46.5285        -101.831       -0.0192249         143.757
0.605                   -2.43976         178.972         -46.4121        -104.225         -46.4126         -104.22       -0.0194388         143.679
0.606                   -2.48681         178.245         -46.2965        -106.613          -46.297        -106.607        -0.019657           143.6
0.607                   -2.53512         177.512         -46.1811        -108.998         -46.1815        -108.993       -0.0198794         143.521
0.608                   -2.58472         176.775         -46.0659        -111.382         -46.0663        -111.377       -0.0201063         143.442
0.609                   -2.63567         176.032         -45.9508        -113.765         -45.9511         -113.76       -0.0203376         143.363
0.61                    -2.68804         175.284         -45.8359        -116.146         -45.8361        -116.141       -0.0205735         143.283
0.611                   -2.74186         174.531         -45.7211        -118.526         -45.7213        -118.522       -0.0208139         143.203
0.612                   -2.79719         173.775         -45.6063        -120.905         -45.6065        -120.901        -0.021059         143.123
0.613                   -2.85408         173.014         -45.4917        -123.283         -45.4918        -123.279       -0.0213088         143.043
0.614                   -2.91257         172.249         -45.3772         -125.66         -45.3773        -125.656       -0.0215633         142.963
0.615                    -2.9727         171.481         -45.2628        -128.036         -45.2628        -128.033       -0.0218226         142.882
0.616                   -3.03453         170.709         -45.1484        -130.412         -45.1484        -130.409       -0.0220867         142.801
0.617                   -3.09807         169.935         -45.0341        -132.787          -45.034        -132.784       -0.0223557          142.72
0.618                   -3.16338         169.158         -44.9198        -135.161         -44.9198        -135.159       -0.0226296         142.639
0.619                   -3.23049         168.379         -44.8056        -137.535         -44.8056        -137.534       -0.0229085         142.557
0.62                    -3.29942         167.598         -44.6915        -139.909         -44.6914        -139.908       -0.0231923         142.475
0.621                    -3.3702         166.815         -44.5774        -142.283         -44.5773        -142.282       -0.0234812         142.393
0.622                   -3.44286         166.032         -44.4633        -144.657         -44.4633        -144.657        -0.023775         142.311
0.623                   -3.51742         165.247         -44.3494        -147.032         -44.3493        -147.032        -0.024074         142.228
0.624                    -3.5939         164.463         -44.2355        -149.406         -44.2355        -149.407       -0.0243779         142.145
0.625                   -3.67232         163.679         -44.1217        -151.782         -44.1217        -151.782        -0.024687         142.062
0.626                    -3.7527         162.895         -44.0079        -154.157          -44.008        -154.159       -0.0250012         141.979
0.627                   -3.83503         162.112         -43.8943        -156.534         -43.8944        -156.535       -0.0253205         141.895
0.628                   -3.91934          161.33         -43.7808        -158.911         -43.7809        -158.913       -0.0256449         141.811
0.629                   -4.00562         160.551         -43.6674         -161.29         -43.6676        -161.292       -0.0259745         141.727
