! TOUCHSTONE file generated by CST MICROWAVE STUDIO
! Date and time: Fri Oct  2 18:57:19 2020
! Project name: Scenario_1_Free_Space_out_of_line.cst
! Parameters = {Lambda=346.42; Step_1=17.321; dy1=18.161; dx1=1039; L_HA=400; MT=2.54; Rad_Dielectric=30; Rad_Lower=7.3; Rad_Upper=30; a_HA=580; a_WG=246; b_HA=500; b_WG=121; c_HA=0; c_WG=187; d_feed=85; h_feed=15; h_lower=18; h_upper=40}
! Header version: 2018
! Port assignment regex: !\s*Touchstone port\s*([0-9]+)\s*=\s*(CST MWS port|CST DS port)\s*([0-9]+|Zmin|Zmax)\s*\(\"(.*)\"\)(\s*mode\s*([0-9]+))?.*
! Touchstone port assignment:
! Touchstone port 1 = CST MWS port 1 ("")
! Touchstone port 2 = CST MWS port 2 ("")
# GHz S DB R 50
0.5                    -0.147513        -122.528         -63.4903         46.7516         -63.4903         46.7516      -0.00673105         151.119
0.501                  -0.153044        -122.972         -63.2874         44.2832         -63.2874         44.2832      -0.00680376         151.054
0.502                  -0.158773        -123.417          -63.084         41.8192          -63.084         41.8192      -0.00687628         150.989
0.503                  -0.164705        -123.864         -62.8802         39.3588         -62.8802         39.3588      -0.00694862         150.923
0.504                   -0.17084        -124.313          -62.676         36.9015          -62.676         36.9015      -0.00702081         150.858
0.505                  -0.177182        -124.764         -62.4716         34.4464         -62.4716         34.4464      -0.00709286         150.792
0.506                  -0.183733        -125.216         -62.2671          31.993         -62.2671          31.993      -0.00716481         150.726
0.507                  -0.190494         -125.67         -62.0626         29.5406         -62.0626         29.5406      -0.00723668         150.661
0.508                  -0.197468        -126.126         -61.8582         27.0885         -61.8582         27.0885      -0.00730849         150.595
0.509                  -0.204658        -126.584         -61.6539         24.6361         -61.6539         24.6361      -0.00738027         150.529
0.51                   -0.212064        -127.043           -61.45         22.1827           -61.45         22.1827      -0.00745204         150.463
0.511                  -0.219688        -127.504         -61.2464         19.7278         -61.2464         19.7278      -0.00752382         150.397
0.512                  -0.227532        -127.967         -61.0432         17.2708         -61.0432         17.2708      -0.00759565         150.331
0.513                  -0.235596        -128.431         -60.8405         14.8111         -60.8405         14.8111      -0.00766754         150.265
0.514                  -0.243882        -128.898         -60.6384         12.3482         -60.6384         12.3482      -0.00773953         150.198
0.515                  -0.252389        -129.365         -60.4369         9.88149         -60.4369         9.88149      -0.00781165         150.132
0.516                  -0.261115        -129.835         -60.2361          7.4106         -60.2361          7.4106      -0.00788391         150.065
0.517                  -0.270058        -130.306         -60.0362         4.93501         -60.0362         4.93501      -0.00795636         149.999
0.518                  -0.279214        -130.779          -59.837         2.45429          -59.837         2.45429        -0.008029         149.932
0.519                  -0.288576        -131.253         -59.6388      -0.0319576         -59.6388      -0.0319575      -0.00810189         149.866
0.52                   -0.298134        -131.729         -59.4416        -2.52412         -59.4416        -2.52412      -0.00817504         149.799
0.521                  -0.307875        -132.206         -59.2453        -5.02255         -59.2453        -5.02255      -0.00824848         149.732
0.522                  -0.317778        -132.684         -59.0502        -7.52755         -59.0502        -7.52755      -0.00832225         149.665
0.523                  -0.327814        -133.164         -58.8561        -10.0394         -58.8561        -10.0394      -0.00839637         149.598
0.524                  -0.337945        -133.645         -58.6633        -12.5584         -58.6633        -12.5584      -0.00847087          149.53
0.525                  -0.348121        -134.128         -58.4716        -15.0847         -58.4716        -15.0847       -0.0085458         149.463
0.526                  -0.358276        -134.612         -58.2813        -17.6186         -58.2813        -17.6186      -0.00862117         149.396
0.527                  -0.368334        -135.098         -58.0923        -20.1602         -58.0923        -20.1602      -0.00869701         149.328
0.528                   -0.37822        -135.587         -57.9046        -22.7096         -57.9046        -22.7096      -0.00877337         149.261
0.529                  -0.387885         -136.08         -57.7184        -25.2669         -57.7184        -25.2669      -0.00885028         149.193
0.53                   -0.397355        -136.578         -57.5336        -27.8322         -57.5336        -27.8322      -0.00892775         149.125
0.531                  -0.406793        -137.083         -57.3502        -30.4055         -57.3502        -30.4055      -0.00900584         149.057
0.532                  -0.416528        -137.597         -57.1685        -32.9868         -57.1685        -32.9868      -0.00908458         148.989
0.533                  -0.426998        -138.119         -56.9882        -35.5761         -56.9882        -35.5761      -0.00916398         148.921
0.534                  -0.438591        -138.648         -56.8096        -38.1733         -56.8096        -38.1733       -0.0092441         148.853
0.535                  -0.451477         -139.18         -56.6325        -40.7784         -56.6325        -40.7784      -0.00932497         148.785
0.536                  -0.465572        -139.713         -56.4572        -43.3912         -56.4572        -43.3912      -0.00940662         148.716
0.537                  -0.480634        -140.245         -56.2835        -46.0115         -56.2835        -46.0115      -0.00948908         148.648
0.538                  -0.496395        -140.776         -56.1114        -48.6392         -56.1114        -48.6392      -0.00957239         148.579
0.539                  -0.512639        -141.305         -55.9411        -51.2741         -55.9411        -51.2741      -0.00965659          148.51
0.54                   -0.529222        -141.834         -55.7725        -53.9159         -55.7725        -53.9159      -0.00974172         148.442
0.541                  -0.546062        -142.363         -55.6056        -56.5644         -55.6056        -56.5644       -0.0098278         148.373
0.542                  -0.563123        -142.892         -55.4405        -59.2194         -55.4405        -59.2194      -0.00991488         148.304
0.543                  -0.580393        -143.422         -55.2771        -61.8805         -55.2771        -61.8805        -0.010003         148.234
0.544                  -0.597875        -143.954         -55.1155        -64.5475         -55.1155        -64.5475       -0.0100922         148.165
0.545                  -0.615579        -144.487         -54.9556        -67.2199         -54.9556        -67.2199       -0.0101825         148.096
0.546                   -0.63352        -145.021         -54.7974        -69.8975         -54.7974        -69.8975       -0.0102739         148.026
0.547                  -0.651711        -145.557          -54.641          -72.58          -54.641          -72.58       -0.0103665         147.957
0.548                  -0.670168        -146.096         -54.4863        -75.2669         -54.4863        -75.2669       -0.0104604         147.887
0.549                  -0.688903        -146.636         -54.3332        -77.9578         -54.3332        -77.9578       -0.0105555         147.817
0.55                   -0.707928        -147.179         -54.1819        -80.6525         -54.1819        -80.6525       -0.0106519         147.747
0.551                  -0.727255        -147.723         -54.0322        -83.3505         -54.0322        -83.3505       -0.0107496         147.677
0.552                  -0.746895         -148.27         -53.8841        -86.0515         -53.8841        -86.0515       -0.0108487         147.607
0.553                  -0.766857        -148.819         -53.7377        -88.7549         -53.7377        -88.7549       -0.0109492         147.536
0.554                   -0.78715         -149.37         -53.5928        -91.4606         -53.5928        -91.4606       -0.0110512         147.466
0.555                  -0.807782        -149.924         -53.4494         -94.168         -53.4494         -94.168       -0.0111547         147.395
0.556                  -0.828761         -150.48         -53.3075        -96.8769         -53.3075        -96.8769       -0.0112597         147.325
0.557                  -0.850096        -151.038         -53.1671        -99.5868         -53.1671        -99.5868       -0.0113663         147.254
0.558                  -0.871792        -151.598          -53.028        -102.297          -53.028        -102.297       -0.0114746         147.183
0.559                  -0.893858        -152.161         -52.8904        -105.008         -52.8904        -105.008       -0.0115845         147.112
0.56                   -0.916299        -152.726          -52.754        -107.719          -52.754        -107.719        -0.011696         147.041
0.561                  -0.939122        -153.294         -52.6189        -110.429         -52.6189        -110.429       -0.0118094         146.969
0.562                  -0.962334        -153.864          -52.485        -113.139          -52.485        -113.139       -0.0119245         146.898
0.563                  -0.985942        -154.436         -52.3522        -115.848         -52.3522        -115.848       -0.0120414         146.826
0.564                   -1.00995        -155.011         -52.2205        -118.556         -52.2205        -118.556       -0.0121602         146.754
0.565                   -1.03437        -155.589         -52.0899        -121.262         -52.0899        -121.262       -0.0122809         146.682
0.566                    -1.0592        -156.168         -51.9602        -123.966         -51.9602        -123.966       -0.0124036          146.61
0.567                   -1.08445        -156.751         -51.8315        -126.668         -51.8315        -126.668       -0.0125282         146.538
0.568                   -1.11013        -157.335         -51.7036        -129.368         -51.7036        -129.368       -0.0126549         146.466
0.569                   -1.13624        -157.923         -51.5766        -132.066         -51.5766        -132.066       -0.0127837         146.394
0.57                     -1.1628        -158.512         -51.4503         -134.76         -51.4503         -134.76       -0.0129146         146.321
0.571                    -1.1898        -159.105         -51.3246        -137.453         -51.3246        -137.453       -0.0130477         146.248
0.572                   -1.21725          -159.7         -51.1997        -140.142         -51.1997        -140.142        -0.013183         146.175
0.573                   -1.24516        -160.297         -51.0752        -142.828         -51.0752        -142.828       -0.0133206         146.102
0.574                   -1.27354        -160.897         -50.9513        -145.511         -50.9513        -145.511       -0.0134604         146.029
0.575                    -1.3024          -161.5         -50.8279        -148.191         -50.8279        -148.191       -0.0136026         145.956
0.576                   -1.33174        -162.105         -50.7049        -150.867         -50.7049        -150.867       -0.0137472         145.882
0.577                   -1.36157        -162.713         -50.5822         -153.54         -50.5822         -153.54       -0.0138943         145.809
0.578                   -1.39189        -163.324         -50.4599         -156.21         -50.4599         -156.21       -0.0140438         145.735
0.579                   -1.42272        -163.938         -50.3378        -158.876         -50.3378        -158.876       -0.0141959         145.661
0.58                    -1.45407        -164.554         -50.2159        -161.539         -50.2159        -161.539       -0.0143505         145.587
0.581                   -1.48593        -165.173         -50.0942        -164.199         -50.0942        -164.199       -0.0145078         145.513
0.582                   -1.51833        -165.795         -49.9726        -166.855         -49.9725        -166.855       -0.0146677         145.439
0.583                   -1.55127        -166.419          -49.851        -169.508          -49.851        -169.508       -0.0148304         145.364
0.584                   -1.58475        -167.047         -49.7296        -172.158         -49.7296        -172.158       -0.0149959         145.289
0.585                   -1.61879        -167.677         -49.6081        -174.805         -49.6081        -174.805       -0.0151642         145.214
0.586                    -1.6534         -168.31         -49.4866        -177.449         -49.4866        -177.449       -0.0153353         145.139
0.587                   -1.68859        -168.946          -49.365         179.911          -49.365         179.911       -0.0155094         145.064
0.588                   -1.72437        -169.585         -49.2434         177.273         -49.2434         177.273       -0.0156864         144.989
0.589                   -1.76074        -170.227         -49.1216         174.637         -49.1216         174.637       -0.0158665         144.913
0.59                    -1.79772        -170.872         -48.9997         172.005         -48.9997         172.005       -0.0160496         144.838
0.591                   -1.83533         -171.52         -48.8776         169.374         -48.8776         169.374       -0.0162359         144.762
0.592                   -1.87357        -172.172         -48.7554         166.746         -48.7554         166.746       -0.0164253         144.686
0.593                   -1.91245        -172.826         -48.6329          164.12         -48.6329          164.12        -0.016618          144.61
0.594                   -1.95199        -173.483         -48.5102         161.496         -48.5102         161.496        -0.016814         144.533
0.595                    -1.9922        -174.144         -48.3873         158.874         -48.3873         158.874       -0.0170133         144.457
0.596                    -2.0331        -174.807         -48.2642         156.253         -48.2642         156.253        -0.017216          144.38
0.597                    -2.0747        -175.474         -48.1408         153.634         -48.1408         153.634       -0.0174222         144.303
0.598                   -2.11701        -176.144         -48.0172         151.016         -48.0172         151.016       -0.0176318         144.226
0.599                   -2.16006        -176.818         -47.8933         148.399         -47.8933         148.399       -0.0178451         144.149
0.6                     -2.20385        -177.494         -47.7692         145.782         -47.7692         145.782       -0.0180619         144.071
0.601                    -2.2484        -178.174         -47.6448         143.167         -47.6448         143.167       -0.0182824         143.993
0.602                   -2.29373        -178.858         -47.5202         140.551         -47.5202         140.551       -0.0185067         143.915
0.603                   -2.33986        -179.544         -47.3953         137.936         -47.3953         137.936       -0.0187347         143.837
0.604                   -2.38681         179.765         -47.2702         135.321         -47.2702         135.321       -0.0189666         143.759
0.605                    -2.4346         179.072          -47.145         132.706          -47.145         132.706       -0.0192023         143.681
0.606                   -2.48324         178.375         -47.0195          130.09         -47.0195          130.09       -0.0194421         143.602
0.607                   -2.53276         177.674         -46.8938         127.474         -46.8938         127.474       -0.0196858         143.523
0.608                   -2.58318          176.97          -46.768         124.857          -46.768         124.857       -0.0199336         143.444
0.609                   -2.63453         176.262          -46.642         122.239          -46.642         122.239       -0.0201856         143.365
0.61                    -2.68683         175.551         -46.5159          119.62         -46.5159          119.62       -0.0204417         143.285
0.611                    -2.7401         174.836         -46.3897             117         -46.3897             117       -0.0207021         143.206
0.612                   -2.79437         174.117         -46.2635         114.378         -46.2635         114.378       -0.0209667         143.126
0.613                   -2.84967         173.395         -46.1372         111.755         -46.1372         111.755       -0.0212358         143.045
0.614                   -2.90602         172.669         -46.0109          109.13         -46.0109          109.13       -0.0215092         142.965
0.615                   -2.96347          171.94         -45.8846         106.503         -45.8846         106.503       -0.0217871         142.885
0.616                   -3.02203         171.206         -45.7583         103.874         -45.7583         103.874       -0.0220695         142.804
0.617                   -3.08174          170.47         -45.6321         101.243         -45.6321         101.243       -0.0223565         142.723
0.618                   -3.14263         169.729         -45.5061           98.61         -45.5061           98.61       -0.0226481         142.641
0.619                   -3.20475         168.985         -45.3801         95.9744         -45.3801         95.9744       -0.0229444          142.56
0.62                    -3.26812         168.237         -45.2544         93.3364         -45.2544         93.3364       -0.0232454         142.478
0.621                   -3.33278         167.486         -45.1289         90.6959         -45.1289         90.6959       -0.0235511         142.396
0.622                   -3.39878         166.731         -45.0036         88.0528         -45.0036         88.0528       -0.0238617         142.314
0.623                   -3.46616         165.972         -44.8787         85.4071         -44.8787         85.4071       -0.0241772         142.231
0.624                   -3.53496          165.21          -44.754         82.7588          -44.754         82.7588       -0.0244976         142.149
0.625                   -3.60522         164.444         -44.6298         80.1078         -44.6298         80.1078       -0.0248229         142.066
0.626                   -3.67699         163.675         -44.5059         77.4541         -44.5059         77.4541       -0.0251533         141.983
0.627                   -3.75032         162.903         -44.3825         74.7977         -44.3825         74.7977       -0.0254887         141.899
0.628                   -3.82526         162.128         -44.2596         72.1387         -44.2596         72.1387       -0.0258292         141.815
0.629                   -3.90186         161.349         -44.1372          69.477         -44.1372          69.477       -0.0261749         141.731
