! TOUCHSTONE file generated by CST MICROWAVE STUDIO
! Date and time: Fri Oct  2 18:39:07 2020
! Project name: Scenario_1_Free_Space_out_of_line.cst
! Parameters = {Lambda=346.42; Step_1=17.321; dy1=0.82; dx1=173; L_HA=400; MT=2.54; Rad_Dielectric=30; Rad_Lower=7.3; Rad_Upper=30; a_HA=580; a_WG=246; b_HA=500; b_WG=121; c_HA=0; c_WG=187; d_feed=85; h_feed=15; h_lower=18; h_upper=40}
! Header version: 2018
! Port assignment regex: !\s*Touchstone port\s*([0-9]+)\s*=\s*(CST MWS port|CST DS port)\s*([0-9]+|Zmin|Zmax)\s*\(\"(.*)\"\)(\s*mode\s*([0-9]+))?.*
! Touchstone port assignment:
! Touchstone port 1 = CST MWS port 1 ("")
! Touchstone port 2 = CST MWS port 2 ("")
# GHz S DB R 50
0.5                    -0.161258        -122.781         -56.0065         169.588         -55.9845         169.696      -0.00687775         151.149
0.501                  -0.167492        -123.218          -55.789         168.214         -55.7653          168.29      -0.00692011         151.084
0.502                  -0.173846        -123.657         -55.5742         166.836         -55.5492         166.883      -0.00696248         151.019
0.503                  -0.180323        -124.098         -55.3619         165.454         -55.3359         165.475       -0.0070049         150.954
0.504                  -0.186922        -124.541         -55.1521         164.068         -55.1254         164.065      -0.00704736         150.888
0.505                  -0.193647        -124.985         -54.9447         162.679         -54.9175         162.655      -0.00708991         150.823
0.506                  -0.200497        -125.431         -54.7396         161.286         -54.7122         161.243      -0.00713256         150.757
0.507                  -0.207475        -125.879         -54.5368          159.89         -54.5093         159.831      -0.00717534         150.692
0.508                  -0.214581        -126.329         -54.3362         158.491         -54.3089         158.417      -0.00721826         150.626
0.509                  -0.221818         -126.78         -54.1376          157.09         -54.1106         157.003      -0.00726136          150.56
0.51                   -0.229187        -127.234         -53.9412         155.685         -53.9146         155.588      -0.00730466         150.494
0.511                   -0.23669         -127.69         -53.7466         154.279         -53.7206         154.172       -0.0073482         150.428
0.512                  -0.244328        -128.147          -53.554          152.87         -53.5287         152.755      -0.00739199         150.362
0.513                  -0.252104        -128.606         -53.3632         151.459         -53.3387         151.338      -0.00743607         150.296
0.514                   -0.26002        -129.068         -53.1743         150.046         -53.1505          149.92      -0.00748047          150.23
0.515                  -0.268077        -129.531          -52.987         148.632         -52.9641         148.502      -0.00752523         150.163
0.516                  -0.276278        -129.997         -52.8014         147.215         -52.7795         147.084      -0.00757038         150.097
0.517                  -0.284625        -130.464         -52.6174         145.798         -52.5965         145.665      -0.00761595          150.03
0.518                  -0.293121        -130.934         -52.4349         144.379          -52.415         144.246      -0.00766198         149.964
0.519                  -0.301768        -131.406         -52.2539         142.959         -52.2351         142.826      -0.00770852         149.897
0.52                   -0.310568         -131.88         -52.0744         141.538         -52.0566         141.406      -0.00775559          149.83
0.521                  -0.319526        -132.356         -51.8962         140.115         -51.8795         139.986      -0.00780325         149.763
0.522                  -0.328642        -132.835         -51.7193         138.692         -51.7037         138.566      -0.00785154         149.696
0.523                  -0.337922        -133.316         -51.5438         137.269         -51.5292         137.146      -0.00790049         149.629
0.524                  -0.347367        -133.799         -51.3694         135.844         -51.3559         135.726      -0.00795017         149.562
0.525                  -0.356981        -134.285         -51.1963         134.419         -51.1837         134.305       -0.0080006         149.495
0.526                  -0.366767        -134.773         -51.0242         132.994         -51.0127         132.885      -0.00805186         149.427
0.527                   -0.37673        -135.263         -50.8533         131.568         -50.8427         131.464      -0.00810398          149.36
0.528                  -0.386874        -135.756         -50.6834         130.142         -50.6737         130.043      -0.00815701         149.292
0.529                  -0.397201        -136.251         -50.5144         128.715         -50.5057         128.623      -0.00821103         149.224
0.53                   -0.407717        -136.749         -50.3464         127.289         -50.3386         127.202      -0.00826607         149.156
0.531                  -0.418425         -137.25         -50.1793         125.862         -50.1723         125.781       -0.0083222         149.089
0.532                  -0.429331        -137.753         -50.0131         124.435         -50.0069         124.361      -0.00837948         149.021
0.533                   -0.44044        -138.259         -49.8477         123.007         -49.8422          122.94      -0.00843798         148.952
0.534                  -0.451755        -138.767          -49.683          121.58         -49.6783         121.519      -0.00849775         148.884
0.535                  -0.463284        -139.279         -49.5191         120.153          -49.515         120.098      -0.00855886         148.816
0.536                   -0.47503        -139.793         -49.3559         118.725         -49.3524         118.678      -0.00862137         148.747
0.537                  -0.487001         -140.31         -49.1933         117.298         -49.1904         117.257      -0.00868537         148.679
0.538                  -0.499202         -140.83         -49.0314          115.87          -49.029         115.835      -0.00875092          148.61
0.539                  -0.511639        -141.352           -48.87         114.443         -48.8682         114.414      -0.00881809         148.541
0.54                   -0.524318        -141.878         -48.7092         113.015         -48.7078         112.993      -0.00888696         148.472
0.541                  -0.537248        -142.407         -48.5489         111.588         -48.5479         111.571       -0.0089576         148.403
0.542                  -0.550435        -142.939         -48.3891          110.16         -48.3885         110.149       -0.0090301         148.334
0.543                  -0.563887        -143.474         -48.2297         108.732         -48.2294         108.727      -0.00910453         148.265
0.544                  -0.577611        -144.012         -48.0708         107.304         -48.0708         107.304      -0.00918098         148.195
0.545                  -0.591617        -144.553         -47.9122         105.876         -47.9125         105.881      -0.00925953         148.126
0.546                  -0.605911        -145.098          -47.754         104.447         -47.7545         104.457      -0.00934026         148.056
0.547                  -0.620504        -145.646         -47.5961         103.018         -47.5968         103.033      -0.00942328         147.987
0.548                  -0.635405        -146.197         -47.4385         101.589         -47.4394         101.608      -0.00950865         147.917
0.549                  -0.650624        -146.752         -47.2812         100.159         -47.2822         100.183      -0.00959648         147.847
0.55                    -0.66617         -147.31         -47.1242         98.7294         -47.1252         98.7565      -0.00968686         147.777
0.551                  -0.682055        -147.872         -46.9673         97.2987         -46.9684         97.3294      -0.00977988         147.706
0.552                   -0.69829        -148.437         -46.8107         95.8674         -46.8119         95.9014      -0.00987563         147.636
0.553                  -0.714885        -149.006         -46.6543         94.4354         -46.6554         94.4724      -0.00997421         147.565
0.554                  -0.731855        -149.578          -46.498         93.0026         -46.4991         93.0423       -0.0100757         147.495
0.555                   -0.74921        -150.155         -46.3418         91.5689         -46.3429         91.6111       -0.0101803         147.424
0.556                  -0.766965        -150.734         -46.1858         90.1342         -46.1868         90.1785       -0.0102879         147.353
0.557                  -0.785133        -151.318         -46.0298         88.6984         -46.0308         88.7446       -0.0103988         147.282
0.558                  -0.803727        -151.906          -45.874         87.2615         -45.8749         87.3092       -0.0105131         147.211
0.559                  -0.822764        -152.497         -45.7182         85.8232          -45.719         85.8723       -0.0106307          147.14
0.56                   -0.842259        -153.093         -45.5624         84.3836         -45.5632         84.4337       -0.0107519         147.068
0.561                  -0.862228        -153.692         -45.4067         82.9424         -45.4074         82.9933       -0.0108767         146.997
0.562                  -0.882687        -154.296         -45.2511         81.4995         -45.2516          81.551       -0.0110053         146.925
0.563                  -0.903654        -154.903         -45.0954          80.055         -45.0958         80.1067       -0.0111376         146.853
0.564                  -0.925147        -155.515         -44.9397         78.6085           -44.94         78.6603       -0.0112739         146.781
0.565                  -0.947186         -156.13          -44.784           77.16         -44.7841         77.2116       -0.0114143         146.709
0.566                  -0.969789         -156.75         -44.6283         75.7094         -44.6283         75.7606       -0.0115588         146.637
0.567                  -0.992977        -157.375         -44.4726         74.2566         -44.4725         74.3071       -0.0117075         146.564
0.568                   -1.01677        -158.003         -44.3169         72.8013         -44.3166         72.8509       -0.0118605         146.492
0.569                   -1.04119        -158.636         -44.1611         71.3435         -44.1606         71.3921        -0.012018         146.419
0.57                    -1.06627        -159.273         -44.0053          69.883         -44.0047         69.9304         -0.01218         146.346
0.571                   -1.09201        -159.914         -43.8494         68.4197         -43.8487         68.4657       -0.0123466         146.273
0.572                   -1.11846         -160.56         -43.6935         66.9534         -43.6927         66.9978       -0.0125178           146.2
0.573                   -1.14563         -161.21         -43.5375          65.484         -43.5366         65.5267       -0.0126939         146.127
0.574                   -1.17355        -161.864         -43.3815         64.0114         -43.3805         64.0523       -0.0128748         146.054
0.575                   -1.20225        -162.523         -43.2255         62.5354         -43.2244         62.5743       -0.0130607          145.98
0.576                   -1.23175        -163.186         -43.0694         61.0559         -43.0682         61.0927       -0.0132515         145.906
0.577                   -1.26209        -163.854         -42.9133         59.5727          -42.912         59.6072       -0.0134474         145.833
0.578                   -1.29328        -164.526         -42.7572         58.0856         -42.7558         58.1179       -0.0136485         145.759
0.579                   -1.32538        -165.202         -42.6011         56.5946         -42.5996         56.6245       -0.0138548         145.684
0.58                    -1.35839        -165.882         -42.4449         55.0994         -42.4434         55.1269       -0.0140663          145.61
0.581                   -1.39236        -166.567         -42.2888            53.6         -42.2873         53.6251       -0.0142832         145.536
0.582                   -1.42733        -167.256         -42.1326         52.0962         -42.1311         52.1187       -0.0145054         145.461
0.583                   -1.46331         -167.95         -41.9765         50.5879          -41.975         50.6078        -0.014733         145.386
0.584                   -1.50036        -168.647         -41.8205         49.0749         -41.8189         49.0922       -0.0149659         145.312
0.585                    -1.5385        -169.348         -41.6644          47.557         -41.6629         47.5718       -0.0152044         145.237
0.586                   -1.57776        -170.054         -41.5085         46.0342          -41.507         46.0464       -0.0154483         145.161
0.587                    -1.6182        -170.763         -41.3526         44.5063         -41.3512          44.516       -0.0156976         145.086
0.588                   -1.65983        -171.476         -41.1969         42.9733         -41.1955         42.9804       -0.0159524          145.01
0.589                   -1.70271        -172.192         -41.0413         41.4348         -41.0399         41.4395       -0.0162127         144.935
0.59                    -1.74686        -172.913         -40.8858          39.891         -40.8845         39.8932       -0.0164784         144.859
0.591                   -1.79234        -173.636         -40.7305         38.3415         -40.7293         38.3414       -0.0167495         144.783
0.592                   -1.83916        -174.362         -40.5754         36.7865         -40.5743          36.784        -0.017026         144.707
0.593                   -1.88739        -175.092         -40.4205         35.2256         -40.4196         35.2209       -0.0173078         144.631
0.594                   -1.93705        -175.824         -40.2659         33.6589         -40.2651          33.652        -0.017595         144.554
0.595                   -1.98817        -176.559         -40.1116         32.0862         -40.1109         32.0773       -0.0178873         144.478
0.596                   -2.04081        -177.297         -39.9575         30.5075          -39.957         30.4967       -0.0181848         144.401
0.597                     -2.095        -178.036         -39.8038         28.9227         -39.8034           28.91       -0.0184874         144.324
0.598                   -2.15078        -178.777         -39.6505         27.3317         -39.6502         27.3173        -0.018795         144.247
0.599                   -2.20818         -179.52         -39.4976         25.7345         -39.4974         25.7185       -0.0191076         144.169
0.6                     -2.26723         179.736         -39.3451         24.1311         -39.3451         24.1136       -0.0194249         144.092
0.601                   -2.32798         178.992          -39.193         22.5213         -39.1932         22.5024       -0.0197469         144.014
0.602                   -2.39045         178.246         -39.0415         20.9052         -39.0419         20.8851       -0.0200734         143.937
0.603                   -2.45467         177.501         -38.8905         19.2828         -38.8911         19.2616       -0.0204045         143.859
0.604                   -2.52068         176.756         -38.7401          17.654         -38.7408         17.6319       -0.0207398         143.781
0.605                   -2.58849         176.012         -38.5903          16.019         -38.5912          15.996       -0.0210793         143.702
0.606                   -2.65814         175.268         -38.4412         14.3776         -38.4422         14.3539       -0.0214228         143.624
0.607                   -2.72964         174.527         -38.2927         12.7299         -38.2939         12.7057       -0.0217703         143.545
0.608                   -2.80302         173.787          -38.145          11.076         -38.1463         11.0515       -0.0221214         143.466
0.609                   -2.87827          173.05          -37.998           9.416         -37.9995         9.39117       -0.0224761         143.387
0.61                    -2.95542         172.317         -37.8518         7.74989         -37.8534         7.72492       -0.0228341         143.308
0.611                   -3.03447         171.587         -37.7065         6.07779         -37.7082         6.05281       -0.0231954         143.229
0.612                   -3.11541         170.861          -37.562         4.39981         -37.5639         4.37494       -0.0235598         143.149
0.613                   -3.19824          170.14         -37.4185         2.71605         -37.4205         2.69143        -0.023927         143.069
0.614                   -3.28296         169.424         -37.2759         1.02667          -37.278          1.0024       -0.0242969          142.99
0.615                   -3.36955         168.715         -37.1342       -0.668204         -37.1364       -0.692011       -0.0246694         142.909
0.616                   -3.45798         168.012         -36.9936         -2.3684         -36.9959        -2.39164       -0.0250442         142.829
0.617                   -3.54822         167.316         -36.8541        -4.07375         -36.8564        -4.09632       -0.0254213         142.748
0.618                   -3.64024         166.628         -36.7156        -5.78405          -36.718        -5.80587       -0.0258003         142.668
0.619                     -3.734         165.949         -36.5783        -7.49911         -36.5807         -7.5201       -0.0261813         142.587
0.62                    -3.82944         165.279         -36.4421        -9.21871         -36.4446        -9.23879        -0.026564         142.505
0.621                   -3.92652         164.618         -36.3071        -10.9426         -36.3096        -10.9617       -0.0269482         142.424
0.622                   -4.02516         163.968         -36.1733        -12.6706         -36.1758        -12.6887       -0.0273339         142.342
0.623                   -4.12529         163.328         -36.0407        -14.4024         -36.0432        -14.4194       -0.0277209         142.261
0.624                   -4.22683         162.701         -35.9094        -16.1377         -35.9118        -16.1536       -0.0281091         142.178
0.625                    -4.3297         162.085         -35.7793        -17.8764         -35.7817        -17.8911       -0.0284983         142.096
0.626                   -4.43379         161.481         -35.6505         -19.618         -35.6529        -19.6316       -0.0288886         142.014
0.627                   -4.53901         160.891         -35.5231        -21.3623         -35.5254        -21.3747       -0.0292797         141.931
0.628                   -4.64524         160.314         -35.3969         -23.109         -35.3992        -23.1203       -0.0296716         141.848
0.629                   -4.75237         159.751         -35.2721        -24.8578         -35.2743        -24.8679       -0.0300643         141.764
