! TOUCHSTONE file generated by CST MICROWAVE STUDIO
! Date and time: Fri Oct  2 16:29:51 2020
! Project name: Scenario_1_Free_Space_out_of_line.cst
! Parameters = {Lambda=346.42; Step_1=17.321; dy1=0.82; dx1=346; L_HA=400; MT=2.54; Rad_Dielectric=30; Rad_Lower=7.3; Rad_Upper=30; a_HA=580; a_WG=246; b_HA=500; b_WG=121; c_HA=0; c_WG=187; d_feed=85; h_feed=15; h_lower=18; h_upper=40}
! Header version: 2018
! Port assignment regex: !\s*Touchstone port\s*([0-9]+)\s*=\s*(CST MWS port|CST DS port)\s*([0-9]+|Zmin|Zmax)\s*\(\"(.*)\"\)(\s*mode\s*([0-9]+))?.*
! Touchstone port assignment:
! Touchstone port 1 = CST MWS port 1 ("")
! Touchstone port 2 = CST MWS port 2 ("")
# GHz S DB R 50
0.5                    -0.141847         -122.68         -58.9057         81.1384         -58.9057         81.1384      -0.00660122         151.141
0.501                  -0.150724        -123.144         -58.6947         79.8422         -58.6946         79.8442      -0.00669304         151.076
0.502                  -0.159781        -123.608         -58.4835         78.5321         -58.4832         78.5361      -0.00678547         151.011
0.503                  -0.169018        -124.074          -58.272         77.2081         -58.2715         77.2138      -0.00687851         150.945
0.504                  -0.178435         -124.54         -58.0604         75.8701         -58.0597         75.8774      -0.00697214         150.879
0.505                  -0.188032        -125.008         -57.8485         74.5179         -57.8477         74.5268      -0.00706635         150.814
0.506                  -0.197808        -125.477         -57.6365         73.1516         -57.6355         73.1619      -0.00716111         150.748
0.507                  -0.207764        -125.947         -57.4245         71.7711         -57.4233         71.7826      -0.00725643         150.682
0.508                  -0.217899        -126.418         -57.2123         70.3763          -57.211          70.389      -0.00735228         150.616
0.509                  -0.228213         -126.89         -57.0002         68.9672         -56.9988         68.9809      -0.00744864          150.55
0.51                   -0.238706        -127.363          -56.788         67.5437         -56.7865         67.5584      -0.00754552         150.484
0.511                  -0.249377        -127.838          -56.576         66.1058         -56.5743         66.1213      -0.00764288         150.418
0.512                  -0.260228        -128.313          -56.364         64.6534         -56.3623         64.6697      -0.00774072         150.352
0.513                  -0.271257         -128.79         -56.1523         63.1866         -56.1504         63.2035      -0.00783903         150.286
0.514                  -0.282465        -129.268         -55.9407         61.7053         -55.9387         61.7228      -0.00793778         150.219
0.515                  -0.293852        -129.747         -55.7294         60.2096         -55.7273         60.2275      -0.00803696         150.153
0.516                  -0.305417        -130.228         -55.5184         58.6994         -55.5162         58.7177      -0.00813657         150.087
0.517                  -0.317161        -130.709         -55.3077         57.1747         -55.3055         57.1933      -0.00823657          150.02
0.518                  -0.329083        -131.192         -55.0975         55.6357         -55.0952         55.6545      -0.00833697         149.953
0.519                  -0.341184        -131.676         -54.8878         54.0823         -54.8854         54.1012      -0.00843774         149.887
0.52                   -0.353464        -132.162         -54.6786         52.5147         -54.6762         52.5336      -0.00853887          149.82
0.521                  -0.365923        -132.648           -54.47         50.9328         -54.4675         50.9517      -0.00864035         149.753
0.522                  -0.378561        -133.136         -54.2621         49.3369         -54.2595         49.3557      -0.00874216         149.686
0.523                  -0.391378        -133.626         -54.0548         47.7269         -54.0522         47.7456      -0.00884429         149.619
0.524                  -0.404375        -134.116         -53.8484         46.1031         -53.8458         46.1216      -0.00894671         149.552
0.525                  -0.417551        -134.608         -53.6428         44.4656         -53.6401         44.4838      -0.00904943         149.484
0.526                  -0.430908        -135.101         -53.4381         42.8146         -53.4354         42.8325      -0.00915242         149.417
0.527                  -0.444446        -135.596         -53.2343         41.1503         -53.2316         41.1678      -0.00925567          149.35
0.528                  -0.458164        -136.092         -53.0316         39.4728         -53.0289         39.4899      -0.00935917         149.282
0.529                  -0.472064         -136.59         -52.8299         37.7824         -52.8272          37.799       -0.0094629         149.215
0.53                   -0.486145        -137.089         -52.6294         36.0794         -52.6267         36.0955      -0.00956685         149.147
0.531                  -0.500409        -137.589         -52.4302          34.364         -52.4275         34.3796      -0.00967101         149.079
0.532                  -0.514857        -138.091         -52.2321         32.6365         -52.2295         32.6516      -0.00977536         149.011
0.533                  -0.529488        -138.595         -52.0355         30.8973         -52.0328         30.9118      -0.00987988         148.943
0.534                  -0.544304          -139.1         -51.8402         29.1466         -51.8375         29.1605      -0.00998458         148.875
0.535                  -0.559306        -139.606         -51.6463          27.385         -51.6437         27.3982       -0.0100894         148.807
0.536                  -0.574494        -140.114         -51.4539         25.6126         -51.4514         25.6252       -0.0101944         148.739
0.537                  -0.589869        -140.624         -51.2631           23.83         -51.2606          23.842       -0.0102995         148.671
0.538                  -0.605433        -141.135         -51.0739         22.0375         -51.0714         22.0488       -0.0104048         148.602
0.539                  -0.621187        -141.648         -50.8863         20.2356         -50.8839         20.2463       -0.0105102         148.534
0.54                   -0.637132        -142.163         -50.7004         18.4248         -50.6981         18.4348       -0.0106156         148.465
0.541                   -0.65327        -142.679         -50.5163         16.6054          -50.514         16.6148       -0.0107212         148.396
0.542                  -0.669601        -143.197         -50.3339         14.7781         -50.3316         14.7869       -0.0108268         148.328
0.543                  -0.686128        -143.717         -50.1533         12.9434         -50.1511         12.9515       -0.0109325         148.259
0.544                  -0.702852        -144.239         -49.9745         11.1016         -49.9724         11.1091       -0.0110383          148.19
0.545                  -0.719776        -144.762         -49.7976         9.25342         -49.7956         9.26027       -0.0111441         148.121
0.546                    -0.7369        -145.288         -49.6225         7.39933         -49.6206         7.40557         -0.01125         148.051
0.547                  -0.754228        -145.815         -49.4494         5.53987         -49.4476         5.54554       -0.0113559         147.982
0.548                   -0.77176        -146.344         -49.2782         3.67561         -49.2764         3.68072       -0.0114619         147.912
0.549                  -0.789501        -146.875         -49.1088          1.8071         -49.1072         1.81166       -0.0115679         147.843
0.55                   -0.807451        -147.408         -48.9414       -0.065122         -48.9399       -0.061076        -0.011674         147.773
0.551                  -0.825615        -147.943          -48.776        -1.94049         -48.7745        -1.93694       -0.0117801         147.703
0.552                  -0.843994         -148.48         -48.6124        -3.81846         -48.6111        -3.81537       -0.0118862         147.633
0.553                  -0.862592        -149.019         -48.4508        -5.69848         -48.4495        -5.69583       -0.0119924         147.563
0.554                  -0.881412        -149.561          -48.291        -7.58001         -48.2899        -7.57778       -0.0120986         147.493
0.555                  -0.900458        -150.104         -48.1332        -9.46252         -48.1321        -9.46069       -0.0122049         147.423
0.556                  -0.919732         -150.65         -47.9772        -11.3455         -47.9762         -11.344       -0.0123112         147.353
0.557                  -0.939239        -151.198          -47.823        -13.2284         -47.8222        -13.2273       -0.0124176         147.282
0.558                  -0.958982        -151.748         -47.6706        -15.1108         -47.6699          -15.11        -0.012524         147.211
0.559                  -0.978966          -152.3           -47.52        -16.9922         -47.5194        -16.9917       -0.0126306         147.141
0.56                   -0.999196        -152.855         -47.3712        -18.8721         -47.3706        -18.8718       -0.0127372          147.07
0.561                   -1.01968        -153.412          -47.224        -20.7501         -47.2235        -20.7501       -0.0128439         146.999
0.562                   -1.04041        -153.972         -47.0785        -22.6258         -47.0781        -22.6259       -0.0129508         146.927
0.563                   -1.06141        -154.534         -46.9346        -24.4988         -46.9343         -24.499       -0.0130577         146.856
0.564                   -1.08267        -155.099         -46.7922        -26.3686          -46.792         -26.369       -0.0131649         146.785
0.565                    -1.1042        -155.666         -46.6514         -28.235         -46.6512        -28.2355       -0.0132722         146.713
0.566                   -1.12601        -156.236          -46.512        -30.0975         -46.5119        -30.0982       -0.0133798         146.641
0.567                   -1.14811        -156.809          -46.374         -31.956          -46.374        -31.9568       -0.0134876          146.57
0.568                   -1.17049        -157.384         -46.2373        -33.8101         -46.2374        -33.8109       -0.0135956         146.498
0.569                   -1.19318        -157.962         -46.1019        -35.6596         -46.1021        -35.6604        -0.013704         146.425
0.57                    -1.21617        -158.543         -45.9678        -37.5042          -45.968        -37.5051       -0.0138127         146.353
0.571                   -1.23947        -159.127         -45.8348        -39.3438          -45.835        -39.3447       -0.0139217         146.281
0.572                    -1.2631        -159.713         -45.7029        -41.1781         -45.7032        -41.1789       -0.0140312         146.208
0.573                   -1.28705        -160.303          -45.572         -43.007         -45.5724        -43.0078       -0.0141412         146.135
0.574                   -1.31135        -160.896         -45.4422        -44.8304         -45.4425        -44.8312       -0.0142517         146.062
0.575                   -1.33599        -161.492         -45.3132        -46.6481         -45.3136        -46.6489       -0.0143628         145.989
0.576                     -1.361        -162.091         -45.1851        -48.4601         -45.1855        -48.4608       -0.0144745         145.916
0.577                   -1.38637        -162.693         -45.0578        -50.2664         -45.0583         -50.267       -0.0145869         145.843
0.578                   -1.41212        -163.298         -44.9312        -52.0668         -44.9317        -52.0673          -0.0147         145.769
0.579                   -1.43827        -163.907         -44.8053        -53.8614         -44.8058        -53.8618        -0.014814         145.696
0.58                    -1.46482        -164.519           -44.68        -55.6501         -44.6806        -55.6505       -0.0149289         145.622
0.581                   -1.49179        -165.135         -44.5553         -57.433         -44.5559        -57.4333       -0.0150448         145.548
0.582                   -1.51919        -165.754          -44.431        -59.2102         -44.4317        -59.2104       -0.0151617         145.474
0.583                   -1.54703        -166.377         -44.3073        -60.9817         -44.3079        -60.9818       -0.0152798         145.399
0.584                   -1.57533        -167.004         -44.1839        -62.7475         -44.1845        -62.7476       -0.0153991         145.325
0.585                    -1.6041        -167.634         -44.0609        -64.5078         -44.0615        -64.5078       -0.0155198          145.25
0.586                   -1.63336        -168.268         -43.9381        -66.2627         -43.9388        -66.2626       -0.0156419         145.175
0.587                   -1.66313        -168.906         -43.8156        -68.0124         -43.8163        -68.0121       -0.0157656           145.1
0.588                   -1.69342        -169.548         -43.6933        -69.7568          -43.694        -69.7565       -0.0158909         145.025
0.589                   -1.72425        -170.194         -43.5712        -71.4963         -43.5718        -71.4958        -0.016018         144.949
0.59                    -1.75564        -170.844         -43.4492        -73.2309         -43.4498        -73.2303        -0.016147         144.874
0.591                   -1.78761        -171.498         -43.3272        -74.9608         -43.3278        -74.9602        -0.016278         144.798
0.592                   -1.82018        -172.157         -43.2053        -76.6863         -43.2059        -76.6856       -0.0164112         144.722
0.593                   -1.85337         -172.82         -43.0834        -78.4075          -43.084        -78.4067       -0.0165467         144.646
0.594                    -1.8872        -173.487         -42.9614        -80.1246          -42.962        -80.1238       -0.0166846         144.569
0.595                    -1.9217        -174.159         -42.8394        -81.8378         -42.8399        -81.8369       -0.0168251         144.493
0.596                   -1.95689        -174.835         -42.7172        -83.5474         -42.7178        -83.5465       -0.0169684         144.416
0.597                   -1.99279        -175.516         -42.5949        -85.2536         -42.5955        -85.2526       -0.0171146         144.339
0.598                   -2.02943        -176.202         -42.4725        -86.9565          -42.473        -86.9555       -0.0172638         144.262
0.599                   -2.06683        -176.892         -42.3499        -88.6565         -42.3504        -88.6555       -0.0174162         144.184
0.6                     -2.10503        -177.588         -42.2271        -90.3538         -42.2276        -90.3527       -0.0175721         144.107
0.601                   -2.14406        -178.288          -42.104        -92.0487         -42.1045        -92.0475       -0.0177315         144.029
0.602                   -2.18394        -178.993         -41.9808        -93.7412         -41.9812        -93.7401       -0.0178946         143.951
0.603                   -2.22471        -179.704         -41.8572        -95.4319         -41.8576        -95.4307       -0.0180617         143.873
0.604                   -2.26639          179.58         -41.7334        -97.1207         -41.7338        -97.1196       -0.0182329         143.794
0.605                   -2.30902         178.859         -41.6093        -98.8082         -41.6096         -98.807       -0.0184085         143.715
0.606                   -2.35265         178.133         -41.4849        -100.494         -41.4852        -100.493       -0.0185885         143.636
0.607                    -2.3973         177.401         -41.3601         -102.18         -41.3605        -102.178       -0.0187732         143.557
0.608                     -2.443         176.664         -41.2351        -103.864         -41.2354        -103.863       -0.0189627         143.478
0.609                   -2.48981         175.921         -41.1097        -105.548           -41.11        -105.547       -0.0191574         143.398
0.61                    -2.53777         175.172         -40.9841        -107.232         -40.9843        -107.231       -0.0193573         143.318
0.611                    -2.5869         174.418         -40.8581        -108.916         -40.8583        -108.915       -0.0195627         143.238
0.612                   -2.63727         173.658         -40.7317          -110.6         -40.7319        -110.599       -0.0197737         143.158
0.613                   -2.68891         172.892         -40.6051        -112.285         -40.6053        -112.284       -0.0199906         143.077
0.614                   -2.74187          172.12         -40.4781         -113.97         -40.4783        -113.969       -0.0202136         142.997
0.615                    -2.7962         171.343         -40.3508        -115.657          -40.351        -115.656       -0.0204427         142.916
0.616                   -2.85196         170.559         -40.2233        -117.345         -40.2234        -117.344       -0.0206783         142.834
0.617                   -2.90918          169.77         -40.0954        -119.034         -40.0955        -119.033       -0.0209205         142.753
0.618                   -2.96794         168.975         -39.9672        -120.725         -39.9673        -120.724       -0.0211694         142.671
0.619                   -3.02828         168.174         -39.8388        -122.418         -39.8388        -122.417       -0.0214253         142.589
0.62                    -3.09026         167.367         -39.7101        -124.114         -39.7101        -124.113       -0.0216883         142.507
0.621                   -3.15395         166.554         -39.5811        -125.811         -39.5812         -125.81       -0.0219585         142.424
0.622                   -3.21941         165.735          -39.452        -127.511          -39.452        -127.511       -0.0222361         142.341
0.623                   -3.28669          164.91         -39.3226        -129.214         -39.3226        -129.214       -0.0225213         142.258
0.624                   -3.35587          164.08         -39.1931         -130.92          -39.193         -130.92       -0.0228142         142.175
0.625                   -3.42702         163.244         -39.0634        -132.629         -39.0633        -132.629       -0.0231149         142.091
0.626                   -3.50021         162.402         -38.9335        -134.342         -38.9334        -134.341       -0.0234235         142.008
0.627                   -3.57551         161.555         -38.8035        -136.058         -38.8035        -136.057       -0.0237401         141.923
0.628                   -3.65299         160.703         -38.6735        -137.777         -38.6734        -137.777       -0.0240648         141.839
0.629                   -3.73274         159.846         -38.5433        -139.501         -38.5432          -139.5       -0.0243977         141.754
