! TOUCHSTONE file generated by CST MICROWAVE STUDIO
! Date and time: Fri Oct  2 16:37:56 2020
! Project name: Scenario_1_Free_Space_out_of_line.cst
! Parameters = {Lambda=346.42; Step_1=17.321; dy1=0.82; dx1=520; L_HA=400; MT=2.54; Rad_Dielectric=30; Rad_Lower=7.3; Rad_Upper=30; a_HA=580; a_WG=246; b_HA=500; b_WG=121; c_HA=0; c_WG=187; d_feed=85; h_feed=15; h_lower=18; h_upper=40}
! Header version: 2018
! Port assignment regex: !\s*Touchstone port\s*([0-9]+)\s*=\s*(CST MWS port|CST DS port)\s*([0-9]+|Zmin|Zmax)\s*\(\"(.*)\"\)(\s*mode\s*([0-9]+))?.*
! Touchstone port assignment:
! Touchstone port 1 = CST MWS port 1 ("")
! Touchstone port 2 = CST MWS port 2 ("")
# GHz S DB R 50
0.5                    -0.151612        -122.604         -60.8937        -17.4973         -60.8927        -17.4905      -0.00664637         151.129
0.501                  -0.156988        -123.042         -60.6955         -19.251         -60.6945        -19.2442      -0.00669466         151.063
0.502                  -0.162519        -123.482         -60.4977        -20.9995         -60.4968        -20.9928      -0.00674379         150.998
0.503                  -0.168207        -123.924         -60.3005        -22.7434         -60.2995        -22.7368      -0.00679377         150.932
0.504                  -0.174057        -124.368         -60.1037        -24.4833         -60.1028        -24.4768      -0.00684461         150.867
0.505                  -0.180071        -124.815         -59.9076        -26.2197         -59.9067        -26.2133      -0.00689632         150.801
0.506                  -0.186253        -125.264         -59.7119        -27.9532          -59.711        -27.9469      -0.00694891         150.736
0.507                  -0.192607        -125.714         -59.5168        -29.6844          -59.516        -29.6781      -0.00700241          150.67
0.508                  -0.199137        -126.167         -59.3223        -31.4136         -59.3215        -31.4074      -0.00705682         150.604
0.509                  -0.205846        -126.622         -59.1284        -33.1413         -59.1275        -33.1353      -0.00711215         150.538
0.51                   -0.212738         -127.08          -58.935        -34.8681         -58.9342        -34.8622      -0.00716843         150.472
0.511                  -0.219818        -127.539         -58.7422        -36.5943         -58.7414        -36.5886      -0.00722566         150.406
0.512                  -0.227089        -128.001           -58.55        -38.3205         -58.5492        -38.3148      -0.00728386          150.34
0.513                  -0.234557        -128.465         -58.3584        -40.0469         -58.3575        -40.0414      -0.00734306         150.273
0.514                  -0.242224        -128.932         -58.1673         -41.774         -58.1665        -41.7686      -0.00740326         150.207
0.515                  -0.250097        -129.401         -57.9768        -43.5021         -57.9761        -43.4968      -0.00746448         150.141
0.516                  -0.258178        -129.872          -57.787        -45.2316         -57.7862        -45.2265      -0.00752674         150.074
0.517                  -0.266475        -130.345         -57.5977        -46.9629         -57.5969        -46.9579      -0.00759006         150.007
0.518                   -0.27499        -130.821          -57.409        -48.6962         -57.4082        -48.6914      -0.00765446         149.941
0.519                   -0.28373        -131.299         -57.2209        -50.4319         -57.2201        -50.4272      -0.00771995         149.874
0.52                   -0.292699        -131.779         -57.0334        -52.1703         -57.0326        -52.1657      -0.00778656         149.807
0.521                  -0.301903        -132.262         -56.8464        -53.9116         -56.8457        -53.9072      -0.00785431          149.74
0.522                  -0.311347        -132.748         -56.6601        -55.6561         -56.6594        -55.6518      -0.00792322         149.673
0.523                  -0.321037        -133.236         -56.4744        -57.4041         -56.4737        -57.3999      -0.00799331         149.606
0.524                  -0.330979        -133.726         -56.2892        -59.1558         -56.2885        -59.1518      -0.00806461         149.538
0.525                  -0.341178        -134.219         -56.1047        -60.9114          -56.104        -60.9075      -0.00813714         149.471
0.526                  -0.351641        -134.714         -55.9208        -62.6711         -55.9201        -62.6674      -0.00821093         149.404
0.527                  -0.362374        -135.212         -55.7374        -64.4352         -55.7368        -64.4316        -0.008286         149.336
0.528                  -0.373383        -135.712         -55.5547        -66.2038         -55.5541        -66.2003      -0.00836239         149.268
0.529                  -0.384674        -136.215         -55.3726        -67.9771          -55.372        -67.9737      -0.00844011         149.201
0.53                   -0.396255         -136.72         -55.1911        -69.7552         -55.1905         -69.752      -0.00851921         149.133
0.531                  -0.408132        -137.228         -55.0102        -71.5384         -55.0096        -71.5353      -0.00859972         149.065
0.532                  -0.420312        -137.739           -54.83        -73.3267         -54.8294        -73.3237      -0.00868166         148.997
0.533                  -0.432803        -138.252         -54.6503        -75.1202         -54.6497        -75.1174      -0.00876508         148.929
0.534                  -0.445611        -138.768         -54.4713        -76.9192         -54.4708        -76.9165         -0.00885         148.861
0.535                  -0.458744        -139.286          -54.293        -78.7236         -54.2924        -78.7211      -0.00893648         148.792
0.536                  -0.472209        -139.807         -54.1153        -80.5336         -54.1147        -80.5312      -0.00902455         148.724
0.537                  -0.486015        -140.331         -53.9382        -82.3492         -53.9377         -82.347      -0.00911426         148.655
0.538                   -0.50017        -140.857         -53.7618        -84.1706         -53.7613        -84.1684      -0.00920564         148.586
0.539                   -0.51468        -141.386         -53.5861        -85.9977         -53.5855        -85.9957      -0.00929876         148.518
0.54                   -0.529556        -141.917          -53.411        -87.8307         -53.4105        -87.8288      -0.00939366         148.449
0.541                  -0.544804        -142.452         -53.2366        -89.6695         -53.2361        -89.6677      -0.00949039          148.38
0.542                  -0.560434        -142.988         -53.0629        -91.5142         -53.0624        -91.5125      -0.00958902         148.311
0.543                  -0.576454        -143.528         -52.8899        -93.3648         -52.8894        -93.3632      -0.00968961         148.242
0.544                  -0.592873         -144.07         -52.7176        -95.2213         -52.7172        -95.2198      -0.00979222         148.172
0.545                    -0.6097        -144.615          -52.546        -97.0836         -52.5456        -97.0822      -0.00989693         148.103
0.546                  -0.626943        -145.162         -52.3752        -98.9519         -52.3747        -98.9506       -0.0100038         148.033
0.547                  -0.644613        -145.712          -52.205        -100.826         -52.2046        -100.825       -0.0101129         147.964
0.548                  -0.662717        -146.265         -52.0356        -102.706         -52.0352        -102.705       -0.0102244         147.894
0.549                  -0.681266         -146.82          -51.867        -104.591         -51.8666         -104.59       -0.0103382         147.824
0.55                   -0.700269        -147.378         -51.6991        -106.483         -51.6987        -106.482       -0.0104546         147.754
0.551                  -0.719734        -147.938          -51.532         -108.38         -51.5316        -108.379       -0.0105737         147.684
0.552                  -0.739672        -148.501         -51.3656        -110.282         -51.3653        -110.281       -0.0106954         147.613
0.553                  -0.760093        -149.067         -51.2001         -112.19         -51.1998        -112.189         -0.01082         147.543
0.554                  -0.781004        -149.635         -51.0353        -114.103          -51.035        -114.103       -0.0109476         147.473
0.555                  -0.802417        -150.205         -50.8713        -116.022          -50.871        -116.021       -0.0110784         147.402
0.556                   -0.82434        -150.778         -50.7081        -117.945         -50.7079        -117.945       -0.0112124         147.331
0.557                  -0.846782        -151.354         -50.5458        -119.874         -50.5455        -119.874       -0.0113498          147.26
0.558                  -0.869754        -151.931         -50.3842        -121.808          -50.384        -121.807       -0.0114908         147.189
0.559                  -0.893264        -152.512         -50.2235        -123.746         -50.2233        -123.746       -0.0116355         147.118
0.56                    -0.91732        -153.094         -50.0636        -125.689         -50.0634        -125.689       -0.0117842         147.047
0.561                  -0.941933        -153.679         -49.9046        -127.637         -49.9044        -127.636       -0.0119371         146.976
0.562                  -0.967111        -154.266         -49.7463        -129.589         -49.7462        -129.588       -0.0120943         146.904
0.563                  -0.992862        -154.856          -49.589        -131.545         -49.5888        -131.544       -0.0122561         146.832
0.564                   -1.01919        -155.447         -49.4324        -133.505         -49.4323        -133.504       -0.0124227         146.761
0.565                   -1.04611        -156.041         -49.2768        -135.469         -49.2767        -135.468       -0.0125942         146.689
0.566                   -1.07363        -156.636         -49.1219        -137.436         -49.1219        -137.436        -0.012771         146.617
0.567                   -1.10175        -157.234          -48.968        -139.407         -48.9679        -139.407       -0.0129533         146.545
0.568                   -1.13049        -157.834         -48.8149        -141.382         -48.8148        -141.381       -0.0131412         146.472
0.569                   -1.15984        -158.435         -48.6626        -143.359         -48.6626        -143.359       -0.0133349           146.4
0.57                    -1.18981        -159.039         -48.5112         -145.34         -48.5112        -145.339       -0.0135346         146.327
0.571                   -1.22041        -159.644         -48.3606        -147.323         -48.3606        -147.323       -0.0137404         146.255
0.572                   -1.25164        -160.251         -48.2108        -149.309         -48.2109        -149.309       -0.0139523         146.182
0.573                   -1.28351        -160.859          -48.062        -151.297          -48.062        -151.297       -0.0141703         146.109
0.574                   -1.31602        -161.469         -47.9139        -153.288          -47.914        -153.287       -0.0143942         146.036
0.575                   -1.34918        -162.081         -47.7667         -155.28         -47.7667         -155.28       -0.0146238         145.963
0.576                   -1.38298        -162.694         -47.6202        -157.275         -47.6203        -157.274       -0.0148586          145.89
0.577                   -1.41742        -163.308         -47.4746        -159.271         -47.4748         -159.27        -0.015098         145.817
0.578                   -1.45252        -163.924         -47.3298        -161.268           -47.33        -161.268       -0.0153412         145.743
0.579                   -1.48826        -164.541         -47.1858        -163.267          -47.186        -163.267       -0.0155871          145.67
0.58                    -1.52465        -165.159         -47.0426        -165.267         -47.0428        -165.267       -0.0158345         145.596
0.581                   -1.56168        -165.778         -46.9002        -167.268         -46.9003        -167.268       -0.0160818         145.522
0.582                   -1.59935        -166.398         -46.7585         -169.27         -46.7587         -169.27       -0.0163275         145.449
0.583                   -1.63766        -167.019         -46.6175        -171.273         -46.6177        -171.272       -0.0165698         145.375
0.584                   -1.67661        -167.641         -46.4773        -173.276         -46.4775        -173.275       -0.0168067         145.301
0.585                   -1.71618        -168.264         -46.3378        -175.279         -46.3381        -175.278       -0.0170366         145.227
0.586                   -1.75638        -168.888          -46.199        -177.283         -46.1993        -177.282       -0.0172578         145.153
0.587                   -1.79719        -169.512         -46.0609        -179.286         -46.0612        -179.285       -0.0174689         145.079
0.588                    -1.8386        -170.137         -45.9235          178.71         -45.9238         178.711        -0.017669         145.004
0.589                   -1.88062        -170.763         -45.7867         176.707          -45.787         176.708       -0.0178574          144.93
0.59                    -1.92323        -171.389         -45.6506         174.704         -45.6509         174.705       -0.0180342         144.855
0.591                   -1.96641        -172.016         -45.5151         172.702         -45.5154         172.703       -0.0181998          144.78
0.592                   -2.01017        -172.644         -45.3802           170.7         -45.3805         170.701        -0.018355         144.705
0.593                   -2.05448        -173.272         -45.2458         168.699         -45.2461           168.7       -0.0185011          144.63
0.594                   -2.09935        -173.901         -45.1121         166.698         -45.1124           166.7       -0.0186397         144.554
0.595                   -2.14474         -174.53         -44.9788         164.699         -44.9792           164.7       -0.0187723         144.478
0.596                   -2.19066         -175.16         -44.8461           162.7         -44.8465         162.701       -0.0189008         144.402
0.597                    -2.2371        -175.791         -44.7139         160.702         -44.7143         160.704        -0.019027         144.326
0.598                   -2.28403        -176.422         -44.5822         158.706         -44.5826         158.707       -0.0191524         144.249
0.599                   -2.33145        -177.054          -44.451          156.71         -44.4513         156.712       -0.0192786         144.172
0.6                     -2.37935        -177.687         -44.3202         154.716         -44.3205         154.718       -0.0194069         144.095
0.601                   -2.42771        -178.321         -44.1898         152.723         -44.1902         152.724       -0.0195384         144.018
0.602                   -2.47653        -178.956         -44.0599         150.731         -44.0602         150.733       -0.0196742          143.94
0.603                   -2.52579        -179.591         -43.9303          148.74         -43.9307         148.742        -0.019815         143.863
0.604                   -2.57549         179.771         -43.8011         146.751         -43.8015         146.753       -0.0199614         143.785
0.605                   -2.62562         179.133         -43.6723         144.763         -43.6726         144.765       -0.0201138         143.706
0.606                   -2.67617         178.493         -43.5438         142.776         -43.5441         142.778       -0.0202727         143.628
0.607                   -2.72714         177.852         -43.4156         140.791         -43.4159         140.792       -0.0204382         143.549
0.608                   -2.77853         177.208         -43.2877         138.806          -43.288         138.808       -0.0206106          143.47
0.609                   -2.83033         176.563         -43.1601         136.823         -43.1604         136.825       -0.0207899         143.391
0.61                    -2.88254         175.916         -43.0327         134.841          -43.033         134.843       -0.0209762         143.311
0.611                   -2.93517         175.266         -42.9056          132.86         -42.9059         132.862       -0.0211695         143.231
0.612                   -2.98822         174.614         -42.7787         130.881          -42.779         130.883       -0.0213698         143.151
0.613                   -3.04169         173.959         -42.6521         128.902         -42.6524         128.904        -0.021577         143.071
0.614                   -3.09561         173.301         -42.5256         126.925         -42.5259         126.926       -0.0217912         142.991
0.615                   -3.14997          172.64         -42.3994         124.948         -42.3997          124.95       -0.0220122          142.91
0.616                   -3.20479         171.975         -42.2733         122.972         -42.2736         122.974       -0.0222401         142.829
0.617                    -3.2601         171.307         -42.1474         120.997         -42.1477         120.999       -0.0224747         142.748
0.618                   -3.31591         170.636         -42.0216         119.023         -42.0219         119.025        -0.022716         142.667
0.619                   -3.37224          169.96          -41.896         117.049         -41.8963         117.051        -0.022964         142.585
0.62                    -3.42912          169.28         -41.7705         115.076         -41.7708         115.078       -0.0232186         142.503
0.621                   -3.48658         168.595         -41.6452         113.104         -41.6455         113.105       -0.0234798         142.421
0.622                   -3.54465         167.906           -41.52         111.131         -41.5202         111.133       -0.0237477         142.338
0.623                   -3.60337         167.212         -41.3948         109.159         -41.3951         109.161        -0.024022         142.256
0.624                   -3.66277         166.512         -41.2698         107.187         -41.2701         107.189        -0.024303         142.173
0.625                   -3.72291         165.808         -41.1449         105.216         -41.1452         105.218       -0.0245905          142.09
0.626                   -3.78381         165.097         -41.0201         103.244         -41.0204         103.246       -0.0248846         142.006
0.627                   -3.84553         164.381         -40.8954         101.272         -40.8956         101.274       -0.0251853         141.923
0.628                   -3.90812         163.659         -40.7708         99.2996          -40.771         99.3015       -0.0254926         141.839
0.629                   -3.97164         162.931         -40.6462          97.327         -40.6465         97.3288       -0.0258066         141.754
