! TOUCHSTONE file generated by CST MICROWAVE STUDIO
! Date and time: Fri Oct  2 18:57:27 2020
! Project name: Scenario_1_Free_Space_out_of_line.cst
! Parameters = {Lambda=346.42; Step_1=17.321; dy1=0.82; dx1=1039; L_HA=400; MT=2.54; Rad_Dielectric=30; Rad_Lower=7.3; Rad_Upper=30; a_HA=580; a_WG=246; b_HA=500; b_WG=121; c_HA=0; c_WG=187; d_feed=85; h_feed=15; h_lower=18; h_upper=40}
! Header version: 2018
! Port assignment regex: !\s*Touchstone port\s*([0-9]+)\s*=\s*(CST MWS port|CST DS port)\s*([0-9]+|Zmin|Zmax)\s*\(\"(.*)\"\)(\s*mode\s*([0-9]+))?.*
! Touchstone port assignment:
! Touchstone port 1 = CST MWS port 1 ("")
! Touchstone port 2 = CST MWS port 2 ("")
# GHz S DB R 50
0.5                    -0.147568        -122.542         -63.4786         46.7217         -63.4786         46.7217      -0.00673113         151.138
0.501                  -0.157551        -122.966           -63.34         44.3908         -63.3396         44.3916      -0.00678473         151.073
0.502                  -0.167433        -123.391         -63.1981         42.0462         -63.1972          42.048      -0.00683907         151.007
0.503                  -0.177222        -123.818         -63.0527         39.6884         -63.0515         39.6911      -0.00689415         150.942
0.504                  -0.186921        -124.247         -62.9039         37.3179         -62.9024         37.3215      -0.00694999         150.877
0.505                  -0.196537        -124.678         -62.7518          34.935         -62.7499         34.9396      -0.00700661         150.811
0.506                  -0.206075        -125.112         -62.5964         32.5403         -62.5942         32.5458      -0.00706401         150.745
0.507                  -0.215544        -125.547         -62.4378          30.134         -62.4354         30.1405      -0.00712222          150.68
0.508                  -0.224949        -125.986         -62.2761         27.7166         -62.2734          27.724      -0.00718124         150.614
0.509                  -0.234298        -126.426         -62.1113         25.2885         -62.1083         25.2968      -0.00724108         150.548
0.51                   -0.243599        -126.869         -61.9435           22.85         -61.9403         22.8591      -0.00730177         150.482
0.511                  -0.252859        -127.314         -61.7727         20.4014         -61.7694         20.4113      -0.00736331         150.416
0.512                  -0.262087        -127.763         -61.5992          17.943         -61.5956         17.9537      -0.00742572          150.35
0.513                  -0.271292        -128.213         -61.4229         15.4751         -61.4192         15.4866      -0.00748901         150.284
0.514                  -0.280483        -128.667          -61.244         12.9979         -61.2402         13.0101      -0.00755319         150.217
0.515                   -0.28967        -129.123         -61.0627         10.5117         -61.0587         10.5246      -0.00761829         150.151
0.516                  -0.298862        -129.582         -60.8789         8.01669         -60.8748         8.03014      -0.00768431         150.085
0.517                   -0.30807        -130.044         -60.6928         5.51299         -60.6887         5.52697      -0.00775127         150.018
0.518                  -0.317304        -130.509         -60.5045          3.0008         -60.5004         3.01523      -0.00781918         149.951
0.519                  -0.326577        -130.977         -60.3142        0.480227           -60.31        0.495049      -0.00788806         149.885
0.52                   -0.335899        -131.449          -60.122        -2.04861         -60.1178        -2.03347      -0.00795792         149.818
0.521                  -0.345282        -131.923          -59.928        -4.58562         -59.9238        -4.57023      -0.00802878         149.751
0.522                  -0.354739        -132.401         -59.7324        -7.13074         -59.7282        -7.11517      -0.00810066         149.684
0.523                  -0.364283        -132.881         -59.5352        -9.68391          -59.531        -9.66824      -0.00817356         149.617
0.524                  -0.373927        -133.366         -59.3366        -12.2451         -59.3325        -12.2294      -0.00824751          149.55
0.525                  -0.383685        -133.853         -59.1369        -14.8143         -59.1328        -14.7986      -0.00832252         149.482
0.526                   -0.39357        -134.344          -58.936        -17.3914          -58.932        -17.3758       -0.0083986         149.415
0.527                  -0.403597        -134.838         -58.7341        -19.9765         -58.7302        -19.9611      -0.00847577         149.347
0.528                  -0.413782        -135.336         -58.5314        -22.5695         -58.5276        -22.5544      -0.00855406          149.28
0.529                  -0.424138        -135.838         -58.3281        -25.1705         -58.3244        -25.1557      -0.00863346         149.212
0.53                   -0.434683        -136.343         -58.1242        -27.7794         -58.1206        -27.7651      -0.00871401         149.145
0.531                  -0.445432        -136.851         -57.9199        -30.3963         -57.9165        -30.3824      -0.00879571         149.077
0.532                  -0.456401        -137.364         -57.7154        -33.0212         -57.7121        -33.0078      -0.00887859         149.009
0.533                  -0.467607         -137.88         -57.5108        -35.6539         -57.5077        -35.6411      -0.00896266         148.941
0.534                  -0.479067        -138.399         -57.3062        -38.2946         -57.3033        -38.2824      -0.00904793         148.872
0.535                  -0.490799        -138.923         -57.1018        -40.9431         -57.0991        -40.9315      -0.00913444         148.804
0.536                  -0.502821         -139.45         -56.8978        -43.5995         -56.8952        -43.5886      -0.00922218         148.736
0.537                  -0.515149         -139.98         -56.6942        -46.2636         -56.6918        -46.2534      -0.00931119         148.667
0.538                  -0.527804        -140.515         -56.4912        -48.9353          -56.489         -48.926      -0.00940147         148.599
0.539                  -0.540803        -141.053         -56.2889        -51.6147         -56.2869        -51.6061      -0.00949305          148.53
0.54                   -0.554164        -141.595         -56.0875        -54.3014         -56.0857        -54.2936      -0.00958595         148.461
0.541                  -0.567908        -142.141          -55.887        -56.9954         -55.8855        -56.9885      -0.00968018         148.393
0.542                  -0.582053         -142.69         -55.6877        -59.6965         -55.6864        -59.6904      -0.00977577         148.324
0.543                  -0.596618        -143.244         -55.4897        -62.4045         -55.4885        -62.3992      -0.00987273         148.254
0.544                  -0.611622          -143.8         -55.2929        -65.1191          -55.292        -65.1148      -0.00997107         148.185
0.545                  -0.627085        -144.361         -55.0977        -67.8402          -55.097        -67.8367       -0.0100708         148.116
0.546                  -0.643026        -144.925          -54.904        -70.5673         -54.9036        -70.5647        -0.010172         148.047
0.547                  -0.659465        -145.493          -54.712        -73.3003         -54.7118        -73.2985       -0.0102747         147.977
0.548                   -0.67642        -146.064         -54.5217        -76.0387         -54.5217        -76.0378       -0.0103788         147.907
0.549                  -0.693911        -146.638         -54.3333        -78.7823         -54.3336        -78.7821       -0.0104844         147.838
0.55                   -0.711957        -147.216         -54.1468        -81.5306         -54.1473        -81.5312       -0.0105915         147.768
0.551                  -0.730576        -147.798         -53.9624        -84.2832         -53.9631        -84.2846       -0.0107001         147.698
0.552                  -0.749786        -148.382           -53.78        -87.0396          -53.781        -87.0418       -0.0108103         147.628
0.553                  -0.769605         -148.97         -53.5998        -89.7996          -53.601        -89.8024       -0.0109221         147.557
0.554                  -0.790051        -149.561         -53.4218        -92.5624         -53.4232        -92.5659       -0.0110355         147.487
0.555                   -0.81114        -150.155          -53.246        -95.3278         -53.2477        -95.3319       -0.0111505         147.416
0.556                  -0.832889        -150.752         -53.0726        -98.0952         -53.0744        -98.0999       -0.0112671         147.346
0.557                  -0.855314        -151.351         -52.9014        -100.864         -52.9035        -100.869       -0.0113854         147.275
0.558                  -0.878429        -151.954         -52.7326        -103.634         -52.7349         -103.64       -0.0115054         147.204
0.559                  -0.902249        -152.558         -52.5662        -106.404         -52.5687         -106.41       -0.0116271         147.133
0.56                   -0.926786        -153.166         -52.4021        -109.174         -52.4048        -109.181       -0.0117505         147.062
0.561                  -0.952053        -153.775         -52.2404        -111.944         -52.2433        -111.951       -0.0118757         146.991
0.562                  -0.978061        -154.387         -52.0811        -114.713         -52.0842         -114.72       -0.0120027          146.92
0.563                   -1.00482        -155.001         -51.9241         -117.48         -51.9274        -117.488       -0.0121315         146.848
0.564                   -1.03234        -155.617         -51.7695        -120.245         -51.7729        -120.253       -0.0122621         146.776
0.565                   -1.06062        -156.234         -51.6172        -123.008         -51.6207        -123.016       -0.0123945         146.705
0.566                   -1.08968        -156.853         -51.4671        -125.768         -51.4708        -125.776       -0.0125289         146.633
0.567                   -1.11952        -157.474         -51.3193        -128.524         -51.3231        -128.532       -0.0126651         146.561
0.568                   -1.15013        -158.096         -51.1737        -131.277         -51.1776        -131.285       -0.0128033         146.489
0.569                   -1.18153        -158.719         -51.0302        -134.025         -51.0343        -134.033       -0.0129434         146.416
0.57                    -1.21371        -159.342         -50.8888        -136.769         -50.8929        -136.777       -0.0130856         146.344
0.571                   -1.24667        -159.967         -50.7494        -139.508         -50.7537        -139.516       -0.0132297         146.271
0.572                    -1.2804        -160.592          -50.612        -142.242         -50.6163         -142.25       -0.0133759         146.198
0.573                    -1.3149        -161.218         -50.4764        -144.971         -50.4808        -144.979       -0.0135242         146.126
0.574                   -1.35015        -161.844         -50.3427        -147.694         -50.3472        -147.702       -0.0136745         146.053
0.575                   -1.38616         -162.47         -50.2107        -150.411         -50.2153        -150.419        -0.013827         145.979
0.576                   -1.42291        -163.096         -50.0804        -153.122          -50.085         -153.13       -0.0139816         145.906
0.577                   -1.46037        -163.722         -49.9517        -155.827         -49.9563        -155.834       -0.0141385         145.833
0.578                   -1.49855        -164.347         -49.8245        -158.526         -49.8291        -158.533       -0.0142975         145.759
0.579                    -1.5374        -164.972         -49.6987        -161.218         -49.7033        -161.225       -0.0144588         145.685
0.58                    -1.57693        -165.596         -49.5743        -163.904         -49.5789        -163.911       -0.0146224         145.611
0.581                   -1.61709         -166.22         -49.4512        -166.584         -49.4558         -166.59       -0.0147883         145.537
0.582                   -1.65787        -166.842         -49.3292        -169.257         -49.3338        -169.263       -0.0149566         145.463
0.583                   -1.69924        -167.464         -49.2084        -171.924         -49.2129        -171.929       -0.0151272         145.389
0.584                   -1.74117        -168.084         -49.0886        -174.584         -49.0931        -174.589       -0.0153002         145.314
0.585                   -1.78362        -168.704         -48.9698        -177.238         -48.9742        -177.243       -0.0154757         145.239
0.586                   -1.82656        -169.322         -48.8518        -179.886         -48.8562        -179.891       -0.0156537         145.164
0.587                   -1.86995        -169.939         -48.7346         177.472         -48.7389         177.467       -0.0158342         145.089
0.588                   -1.91377        -170.555         -48.6182         174.835         -48.6225         174.832       -0.0160172         145.014
0.589                   -1.95796         -171.17         -48.5025         172.205         -48.5066         172.201       -0.0162028         144.939
0.59                    -2.00249        -171.783         -48.3873          169.58         -48.3914         169.576       -0.0163911         144.863
0.591                   -2.04732        -172.396         -48.2727          166.96         -48.2767         166.957        -0.016582         144.787
0.592                    -2.0924        -173.007         -48.1586         164.345         -48.1624         164.342       -0.0167756         144.711
0.593                    -2.1377        -173.617         -48.0449         161.735         -48.0486         161.732        -0.016972         144.635
0.594                   -2.18316        -174.227         -47.9315         159.129         -47.9352         159.127       -0.0171711         144.559
0.595                   -2.22875        -174.836         -47.8184         156.528          -47.822         156.526       -0.0173731         144.483
0.596                   -2.27442        -175.445         -47.7057          153.93         -47.7091         153.928       -0.0175779         144.406
0.597                   -2.32013        -176.054         -47.5931         151.336         -47.5964         151.335       -0.0177857         144.329
0.598                   -2.36585        -176.662         -47.4807         148.746         -47.4838         148.745       -0.0179964         144.252
0.599                   -2.41154        -177.272         -47.3684         146.159         -47.3714         146.157         -0.01821         144.175
0.6                     -2.45715        -177.882         -47.2562         143.574         -47.2591         143.573       -0.0184267         144.097
0.601                   -2.50267        -178.494          -47.144         140.992         -47.1468         140.991       -0.0186465          144.02
0.602                   -2.54806        -179.108         -47.0319         138.412         -47.0346         138.411       -0.0188695         143.942
0.603                   -2.59331        -179.724         -46.9198         135.834         -46.9223         135.833       -0.0190955         143.864
0.604                   -2.63839         179.658         -46.8077         133.257           -46.81         133.257       -0.0193249         143.786
0.605                   -2.68331         179.035         -46.6955         130.682         -46.6977         130.682       -0.0195574         143.708
0.606                   -2.72805         178.409         -46.5832         128.107         -46.5853         128.107       -0.0197933         143.629
0.607                   -2.77262         177.779         -46.4709         125.534         -46.4729         125.534       -0.0200326          143.55
0.608                   -2.81705         177.142         -46.3585          122.96         -46.3603          122.96       -0.0202753         143.471
0.609                   -2.86135           176.5          -46.246         120.387         -46.2477         120.387       -0.0205214         143.392
0.61                    -2.90556         175.852         -46.1334         117.813          -46.135         117.813       -0.0207711         143.312
0.611                   -2.94974         175.195         -46.0207         115.239         -46.0221         115.239       -0.0210244         143.233
0.612                   -2.99393         174.531         -45.9079         112.664         -45.9092         112.664       -0.0212813         143.153
0.613                   -3.03823         173.858          -45.795         110.088         -45.7962         110.088       -0.0215419         143.073
0.614                    -3.0827         173.175          -45.682         107.511         -45.6831         107.511       -0.0218062         142.992
0.615                   -3.12746         172.482          -45.569         104.932         -45.5699         104.932       -0.0220744         142.912
0.616                   -3.17263         171.778         -45.4558         102.352         -45.4566         102.352       -0.0223464         142.831
0.617                   -3.21832         171.063         -45.3426         99.7693         -45.3433         99.7694       -0.0226224          142.75
0.618                    -3.2647         170.335         -45.2294         97.1847         -45.2299         97.1847       -0.0229023         142.669
0.619                    -3.3119         169.596         -45.1161         94.5977         -45.1166         94.5977       -0.0231863         142.587
0.62                    -3.36011         168.843         -45.0028         92.0082         -45.0032         92.0081       -0.0234745         142.506
0.621                    -3.4095         168.077         -44.8896          89.416         -44.8898         89.4158       -0.0237668         142.424
0.622                   -3.46027         167.298         -44.7764          86.821         -44.7765         86.8207       -0.0240634         142.341
0.623                   -3.51262         166.505         -44.6632          84.223         -44.6632         84.2227       -0.0243643         142.259
0.624                   -3.56676         165.699         -44.5501          81.622         -44.5501         81.6216       -0.0246697         142.176
0.625                    -3.6229          164.88         -44.4372         79.0178          -44.437         79.0173       -0.0249795         142.093
0.626                   -3.68124         164.049         -44.3244         76.4104         -44.3242         76.4098       -0.0252939          142.01
0.627                   -3.74202         163.205         -44.2118         73.7997         -44.2115          73.799       -0.0256129         141.926
0.628                   -3.80543         162.349         -44.0993         71.1857          -44.099         71.1849       -0.0259366         141.842
0.629                   -3.87168         161.483         -43.9872         68.5683         -43.9867         68.5674       -0.0262651         141.758
