! TOUCHSTONE file generated by CST MICROWAVE STUDIO
! Date and time: Fri Oct  2 18:38:56 2020
! Project name: Scenario_1_Free_Space_out_of_line.cst
! Parameters = {Lambda=346.42; Step_1=17.321; dy1=-16.521; dx1=173; L_HA=400; MT=2.54; Rad_Dielectric=30; Rad_Lower=7.3; Rad_Upper=30; a_HA=580; a_WG=246; b_HA=500; b_WG=121; c_HA=0; c_WG=187; d_feed=85; h_feed=15; h_lower=18; h_upper=40}
! Header version: 2018
! Port assignment regex: !\s*Touchstone port\s*([0-9]+)\s*=\s*(CST MWS port|CST DS port)\s*([0-9]+|Zmin|Zmax)\s*\(\"(.*)\"\)(\s*mode\s*([0-9]+))?.*
! Touchstone port assignment:
! Touchstone port 1 = CST MWS port 1 ("")
! Touchstone port 2 = CST MWS port 2 ("")
# GHz S DB R 50
0.5                    -0.161744         -122.77         -55.9528         170.085         -55.9528         170.085      -0.00689352         151.105
0.501                  -0.168402        -123.203         -55.7248         168.716         -55.7248         168.716      -0.00692985          151.04
0.502                  -0.175152        -123.638            -55.5         167.337            -55.5         167.337      -0.00696649         150.975
0.503                  -0.181997        -124.074         -55.2783         165.949         -55.2782         165.949      -0.00700346         150.909
0.504                  -0.188937        -124.512         -55.0595         164.552         -55.0595         164.552      -0.00704077         150.844
0.505                  -0.195976        -124.952         -54.8436         163.146         -54.8436         163.146      -0.00707846         150.778
0.506                  -0.203115        -125.394         -54.6307         161.734         -54.6306         161.734      -0.00711654         150.713
0.507                  -0.210355        -125.838         -54.4205         160.314         -54.4205         160.314      -0.00715504         150.647
0.508                  -0.217698        -126.284         -54.2131         158.889         -54.2131         158.889      -0.00719398         150.581
0.509                  -0.225147        -126.732         -54.0084         157.457         -54.0084         157.457      -0.00723339         150.515
0.51                   -0.232704        -127.182         -53.8063         156.021         -53.8063         156.021       -0.0072733         150.449
0.511                  -0.240371        -127.634         -53.6068         154.581         -53.6067         154.581      -0.00731372         150.383
0.512                  -0.248149        -128.087         -53.4097         153.137         -53.4097         153.136      -0.00735469         150.317
0.513                  -0.256042        -128.543         -53.2151         151.689          -53.215         151.689      -0.00739623         150.251
0.514                  -0.264052        -129.002         -53.0227         150.238         -53.0227         150.238      -0.00743838         150.184
0.515                  -0.272182        -129.462         -52.8327         148.785         -52.8326         148.785      -0.00748117         150.118
0.516                  -0.280435        -129.924         -52.6448         147.331         -52.6448          147.33      -0.00752462         150.051
0.517                  -0.288813        -130.389         -52.4591         145.874          -52.459         145.874      -0.00756878         149.985
0.518                  -0.297319        -130.856         -52.2754         144.416         -52.2754         144.416      -0.00761366         149.918
0.519                  -0.305956        -131.325         -52.0937         142.958         -52.0937         142.958      -0.00765931         149.851
0.52                   -0.314729        -131.796         -51.9139         141.499         -51.9138         141.499      -0.00770577         149.784
0.521                  -0.323639         -132.27         -51.7359          140.04         -51.7359          140.04      -0.00775306         149.717
0.522                  -0.332691        -132.747         -51.5597         138.581         -51.5596         138.581      -0.00780123          149.65
0.523                  -0.341889        -133.225         -51.3852         137.123         -51.3851         137.122      -0.00785032         149.583
0.524                  -0.351236        -133.706         -51.2122         135.665         -51.2122         135.665      -0.00790036         149.515
0.525                  -0.360737         -134.19         -51.0408         134.208         -51.0408         134.207      -0.00795139         149.448
0.526                  -0.370394        -134.676         -50.8709         132.752         -50.8708         132.752      -0.00800347         149.381
0.527                  -0.380214        -135.165         -50.7023         131.297         -50.7023         131.297      -0.00805663         149.313
0.528                  -0.390201        -135.657         -50.5351         129.844         -50.5351         129.844      -0.00811092         149.245
0.529                  -0.400359        -136.151         -50.3691         128.392         -50.3691         128.392      -0.00816638         149.177
0.53                   -0.410693        -136.647         -50.2044         126.942         -50.2043         126.942      -0.00822307          149.11
0.531                  -0.421208        -137.147         -50.0407         125.493         -50.0407         125.493      -0.00828102         149.041
0.532                  -0.431911        -137.649         -49.8781         124.047         -49.8781         124.047       -0.0083403         148.973
0.533                  -0.442806        -138.154         -49.7165         122.602         -49.7164         122.602      -0.00840096         148.905
0.534                  -0.453899        -138.662         -49.5558          121.16         -49.5557          121.16      -0.00846304         148.837
0.535                  -0.465197        -139.173          -49.396         119.719         -49.3959         119.719      -0.00852661         148.768
0.536                  -0.476706        -139.687         -49.2369          118.28         -49.2369          118.28      -0.00859172           148.7
0.537                  -0.488432        -140.204         -49.0787         116.844         -49.0786         116.844      -0.00865842         148.631
0.538                  -0.500383        -140.724         -48.9211         115.409          -48.921         115.409      -0.00872679         148.562
0.539                  -0.512565        -141.247         -48.7641         113.976         -48.7641         113.976      -0.00879687         148.493
0.54                   -0.524987        -141.773         -48.6078         112.546         -48.6077         112.545      -0.00886874         148.424
0.541                  -0.537655        -142.303         -48.4519         111.117         -48.4519         111.117      -0.00894245         148.355
0.542                  -0.550579        -142.835         -48.2966          109.69         -48.2965         109.689      -0.00901808         148.286
0.543                  -0.563766        -143.371         -48.1416         108.264         -48.1416         108.264      -0.00909569         148.217
0.544                  -0.577226        -143.911         -47.9871         106.841         -47.9871          106.84      -0.00917535         148.147
0.545                  -0.590967        -144.453         -47.8329         105.418         -47.8329         105.418      -0.00925714         148.078
0.546                  -0.604999        -144.999          -47.679         103.998          -47.679         103.998      -0.00934112         148.008
0.547                  -0.619333        -145.549         -47.5253         102.578         -47.5253         102.578      -0.00942737         147.938
0.548                  -0.633978        -146.102         -47.3719          101.16         -47.3719          101.16      -0.00951596         147.868
0.549                  -0.648945        -146.658         -47.2186          99.743         -47.2186         99.7429      -0.00960699         147.798
0.55                   -0.664245        -147.218         -47.0655         98.3268         -47.0655         98.3267      -0.00970052         147.728
0.551                  -0.679891        -147.782         -46.9125         96.9115         -46.9125         96.9114      -0.00979663         147.658
0.552                  -0.695894         -148.35         -46.7596         95.4968         -46.7596         95.4967      -0.00989541         147.587
0.553                  -0.712266        -148.921         -46.6067         94.0826         -46.6067         94.0825      -0.00999694         147.517
0.554                  -0.729022        -149.496         -46.4538         92.6688         -46.4538         92.6687       -0.0101013         147.446
0.555                  -0.746173        -150.075          -46.301         91.2551         -46.3009          91.255       -0.0102086         147.375
0.556                  -0.763736        -150.658          -46.148         89.8414          -46.148         89.8413       -0.0103189         147.304
0.557                  -0.781723        -151.245         -45.9951         88.4275          -45.995         88.4274       -0.0104323         147.233
0.558                  -0.800151        -151.836          -45.842         87.0132          -45.842         87.0132        -0.010549         147.162
0.559                  -0.819036        -152.431         -45.6888         85.5984         -45.6888         85.5984       -0.0106689         147.091
0.56                   -0.838393        -153.029         -45.5355         84.1829         -45.5355         84.1828       -0.0107921         147.019
0.561                   -0.85824        -153.632         -45.3821         82.7664         -45.3821         82.7664       -0.0109189         146.948
0.562                  -0.878595        -154.239         -45.2285         81.3488         -45.2285         81.3488       -0.0110492         146.876
0.563                  -0.899475        -154.851         -45.0747         79.9299         -45.0747         79.9299       -0.0111832         146.804
0.564                  -0.920901        -155.466         -44.9208         78.5095         -44.9208         78.5095        -0.011321         146.732
0.565                  -0.942891        -156.086         -44.7667         77.0874         -44.7667         77.0873       -0.0114626          146.66
0.566                  -0.965466         -156.71         -44.6123         75.6633         -44.6123         75.6633       -0.0116081         146.587
0.567                  -0.988647        -157.338         -44.4578         74.2371         -44.4578         74.2371       -0.0117578         146.515
0.568                   -1.01246        -157.971         -44.3031         72.8086         -44.3031         72.8085       -0.0119115         146.442
0.569                   -1.03692        -158.608         -44.1481         71.3775         -44.1481         71.3775       -0.0120695          146.37
0.57                    -1.06205         -159.25         -43.9929         69.9437         -43.9929         69.9437       -0.0122319         146.297
0.571                   -1.08788        -159.895         -43.8375          68.507         -43.8375         68.5069       -0.0123987         146.224
0.572                   -1.11444        -160.546         -43.6819         67.0671         -43.6819          67.067         -0.01257         146.151
0.573                   -1.14174          -161.2          -43.526         65.6238          -43.526         65.6238       -0.0127459         146.077
0.574                   -1.16982        -161.859           -43.37          64.177           -43.37         64.1769       -0.0129265         146.004
0.575                   -1.19871        -162.523         -43.2137         62.7264         -43.2137         62.7263        -0.013112          145.93
0.576                   -1.22842        -163.191         -43.0572         61.2718         -43.0572         61.2718       -0.0133023         145.857
0.577                   -1.25899        -163.863         -42.9006          59.813         -42.9006          59.813       -0.0134975         145.783
0.578                   -1.29046        -164.539         -42.7437         58.3499         -42.7437         58.3499       -0.0136978         145.709
0.579                   -1.32284         -165.22         -42.5867         56.8822         -42.5867         56.8822       -0.0139032         145.634
0.58                    -1.35618        -165.905         -42.4296         55.4097         -42.4296         55.4097       -0.0141139          145.56
0.581                    -1.3905        -166.595         -42.2723         53.9323         -42.2723         53.9323       -0.0143297         145.486
0.582                   -1.42584        -167.288         -42.1149         52.4498         -42.1149         52.4498       -0.0145509         145.411
0.583                   -1.46222        -167.986         -41.9574         50.9619         -41.9574         50.9619       -0.0147774         145.336
0.584                    -1.4997        -168.688         -41.7998         49.4685         -41.7998         49.4685       -0.0150094         145.261
0.585                   -1.53829        -169.393         -41.6421         47.9694         -41.6421         47.9694       -0.0152469         145.186
0.586                   -1.57803        -170.103         -41.4844         46.4645         -41.4844         46.4645       -0.0154898         145.111
0.587                   -1.61897        -170.816         -41.3267         44.9536         -41.3267         44.9536       -0.0157383         145.035
0.588                   -1.66114        -171.533          -41.169         43.4365          -41.169         43.4365       -0.0159923          144.96
0.589                   -1.70457        -172.254         -41.0113         41.9131         -41.0113         41.9131        -0.016252         144.884
0.59                     -1.7493        -172.978         -40.8538         40.3832         -40.8538         40.3833       -0.0165172         144.808
0.591                   -1.79538        -173.705         -40.6963         38.8468         -40.6963         38.8468        -0.016788         144.732
0.592                   -1.84282        -174.435         -40.5389         37.3036         -40.5389         37.3036       -0.0170643         144.656
0.593                   -1.89169        -175.168         -40.3817         35.7536         -40.3817         35.7536       -0.0173463          144.58
0.594                   -1.94201        -175.904         -40.2248         34.1967         -40.2248         34.1967       -0.0176337         144.503
0.595                   -1.99382        -176.642          -40.068         32.6327          -40.068         32.6327       -0.0179267         144.426
0.596                   -2.04715        -177.382         -39.9115         31.0615         -39.9115         31.0615        -0.018225          144.35
0.597                   -2.10205        -178.124         -39.7554         29.4832         -39.7554         29.4832       -0.0185288         144.273
0.598                   -2.15855        -178.868         -39.5996         27.8976         -39.5996         27.8976       -0.0188379         144.195
0.599                   -2.21668        -179.613         -39.4442         26.3047         -39.4442         26.3047       -0.0191522         144.118
0.6                     -2.27648         179.641         -39.2892         24.7044         -39.2892         24.7044       -0.0194716         144.041
0.601                   -2.33798         178.895         -39.1347         23.0967         -39.1347         23.0967       -0.0197961         143.963
0.602                   -2.40121         178.148         -38.9807         21.4816         -38.9807         21.4816       -0.0201255         143.885
0.603                    -2.4662         177.401         -38.8273         19.8591         -38.8273         19.8591       -0.0204597         143.807
0.604                   -2.53298         176.655         -38.6745         18.2293         -38.6745         18.2293       -0.0207986         143.729
0.605                   -2.60157         175.909         -38.5224         16.5921         -38.5224         16.5921        -0.021142          143.65
0.606                   -2.67199         175.165         -38.3709         14.9475         -38.3709         14.9475       -0.0214898         143.572
0.607                   -2.74427         174.423         -38.2202         13.2958         -38.2202         13.2958       -0.0218417         143.493
0.608                   -2.81841         173.683         -38.0703         11.6368         -38.0703         11.6368       -0.0221978         143.414
0.609                   -2.89443         172.946         -37.9212         9.97084         -37.9212         9.97084       -0.0225577         143.335
0.61                    -2.97233         172.212         -37.7729         8.29788         -37.7729         8.29788       -0.0229213         143.256
0.611                   -3.05213         171.482         -37.6256         6.61809         -37.6256         6.61809       -0.0232884         143.176
0.612                   -3.13382         170.756         -37.4793         4.93162         -37.4793         4.93162       -0.0236588         143.097
0.613                   -3.21739         170.036          -37.334         3.23862          -37.334         3.23862       -0.0240324         143.017
0.614                   -3.30283         169.321         -37.1897         1.53928         -37.1897         1.53928       -0.0244088         142.937
0.615                   -3.39013         168.612         -37.0465       -0.166204         -37.0465       -0.166204        -0.024788         142.857
0.616                   -3.47926          167.91         -36.9044        -1.87763         -36.9044        -1.87763       -0.0251697         142.776
0.617                    -3.5702         167.215         -36.7635        -3.59477         -36.7635        -3.59477       -0.0255537         142.696
0.618                    -3.6629         166.529         -36.6238        -5.31739         -36.6238        -5.31739       -0.0259398         142.615
0.619                   -3.75732         165.851         -36.4853        -7.04522         -36.4853        -7.04522       -0.0263278         142.534
0.62                    -3.85342         165.182         -36.3481        -8.77799         -36.3481        -8.77799       -0.0267176         142.452
0.621                   -3.95113         164.524         -36.2121        -10.5154         -36.2121        -10.5154       -0.0271089         142.371
0.622                    -4.0504         163.875         -36.0775        -12.2572         -36.0775        -12.2572       -0.0275016         142.289
0.623                   -4.15115         163.238         -35.9443        -14.0031         -35.9443        -14.0031       -0.0278955         142.207
0.624                    -4.2533         162.612         -35.8124        -15.7527         -35.8124        -15.7527       -0.0282905         142.125
0.625                   -4.35676         161.999          -35.682        -17.5057          -35.682        -17.5057       -0.0286863         142.043
0.626                   -4.46143         161.398         -35.5529        -19.2618         -35.5529        -19.2618        -0.029083          141.96
0.627                   -4.56722          160.81         -35.4252        -21.0207         -35.4252        -21.0207       -0.0294803         141.877
0.628                   -4.67401         160.236          -35.299        -22.7819          -35.299        -22.7819       -0.0298782         141.794
0.629                   -4.78168         159.675         -35.1743        -24.5451         -35.1743        -24.5451       -0.0302766         141.711
