! TOUCHSTONE file generated by CST MICROWAVE STUDIO
! Date and time: Fri Oct  2 16:29:26 2020
! Project name: Scenario_1_Free_Space_out_of_line.cst
! Parameters = {Lambda=346.42; Step_1=17.321; dy1=-16.521; dx1=346; L_HA=400; MT=2.54; Rad_Dielectric=30; Rad_Lower=7.3; Rad_Upper=30; a_HA=580; a_WG=246; b_HA=500; b_WG=121; c_HA=0; c_WG=187; d_feed=85; h_feed=15; h_lower=18; h_upper=40}
! Header version: 2018
! Port assignment regex: !\s*Touchstone port\s*([0-9]+)\s*=\s*(CST MWS port|CST DS port)\s*([0-9]+|Zmin|Zmax)\s*\(\"(.*)\"\)(\s*mode\s*([0-9]+))?.*
! Touchstone port assignment:
! Touchstone port 1 = CST MWS port 1 ("")
! Touchstone port 2 = CST MWS port 2 ("")
# GHz S DB R 50
0.5                    -0.141649        -122.672         -58.9305         81.1494         -58.9305         81.1494      -0.00662815         151.076
0.501                  -0.146777        -123.114         -58.7191         79.7833         -58.7191         79.7833      -0.00669951         151.011
0.502                  -0.152101        -123.559         -58.5077         78.4066         -58.5077         78.4066      -0.00677216         150.945
0.503                  -0.157628        -124.007         -58.2961         77.0194         -58.2961         77.0194       -0.0068461          150.88
0.504                  -0.163365        -124.456         -58.0846         75.6215         -58.0846         75.6215      -0.00692137         150.814
0.505                  -0.169318        -124.908          -57.873         74.2128          -57.873         74.2129      -0.00699798         150.748
0.506                  -0.175497        -125.363         -57.6615         72.7933         -57.6615         72.7933      -0.00707595         150.682
0.507                  -0.181907         -125.82         -57.4501         71.3629         -57.4501         71.3629      -0.00715529         150.616
0.508                  -0.188557        -126.279         -57.2387         69.9215         -57.2387         69.9215      -0.00723601          150.55
0.509                  -0.195454        -126.741         -57.0275         68.4689         -57.0275         68.4689      -0.00731813         150.484
0.51                   -0.202605        -127.205         -56.8164         67.0052         -56.8164         67.0052      -0.00740166         150.418
0.511                   -0.21002        -127.672         -56.6055         65.5303         -56.6055         65.5303      -0.00748661         150.352
0.512                  -0.217705        -128.141         -56.3948         64.0442         -56.3948         64.0442      -0.00757298         150.285
0.513                  -0.225668        -128.612         -56.1844         62.5467         -56.1844         62.5467      -0.00766078         150.219
0.514                  -0.233918        -129.086         -55.9743         61.0378         -55.9743         61.0378      -0.00775001         150.152
0.515                  -0.242461        -129.562         -55.7646         59.5176         -55.7646         59.5176      -0.00784067         150.086
0.516                  -0.251307        -130.041         -55.5552         57.9859         -55.5552         57.9859      -0.00793276         150.019
0.517                  -0.260463        -130.521         -55.3463         56.4428         -55.3463         56.4428      -0.00802627         149.953
0.518                  -0.269936        -131.005         -55.1379         54.8883         -55.1379         54.8883      -0.00812119         149.886
0.519                  -0.279735         -131.49         -54.9299         53.3223         -54.9299         53.3223      -0.00821752         149.819
0.52                   -0.289866        -131.978         -54.7225         51.7448         -54.7225         51.7448      -0.00831522         149.752
0.521                  -0.300337        -132.468         -54.5158          50.156         -54.5158          50.156      -0.00841429         149.685
0.522                  -0.311155         -132.96         -54.3096         48.5558         -54.3096         48.5558      -0.00851469         149.618
0.523                  -0.322326        -133.454         -54.1042         46.9443         -54.1042         46.9443      -0.00861641          149.55
0.524                  -0.333858         -133.95         -53.8996         45.3216         -53.8996         45.3216      -0.00871941         149.483
0.525                  -0.345756        -134.449         -53.6957         43.6876         -53.6957         43.6876      -0.00882365         149.416
0.526                  -0.358027        -134.949         -53.4927         42.0426         -53.4927         42.0426      -0.00892909         149.348
0.527                  -0.370674        -135.452         -53.2905         40.3866         -53.2905         40.3866      -0.00903569         149.281
0.528                  -0.383705        -135.956         -53.0893         38.7198         -53.0893         38.7198       -0.0091434         149.213
0.529                  -0.397122        -136.463         -52.8892         37.0423         -52.8892         37.0423      -0.00925217         149.145
0.53                    -0.41093        -136.971           -52.69         35.3542           -52.69         35.3542      -0.00936193         149.077
0.531                  -0.425132        -137.481          -52.492         33.6557          -52.492         33.6557      -0.00947263          149.01
0.532                  -0.439732        -137.993         -52.2951         31.9471         -52.2951         31.9471       -0.0095842         148.942
0.533                  -0.454731        -138.506         -52.0993         30.2284         -52.0993         30.2284      -0.00969657         148.874
0.534                   -0.47013        -139.022         -51.9049            28.5         -51.9049            28.5      -0.00980967         148.805
0.535                  -0.485931        -139.538         -51.7117          26.762         -51.7117          26.762      -0.00992341         148.737
0.536                  -0.502134        -140.057         -51.5198         25.0148         -51.5198         25.0148       -0.0100377         148.669
0.537                  -0.518737        -140.576         -51.3293         23.2586         -51.3293         23.2586       -0.0101525           148.6
0.538                  -0.535741        -141.097         -51.1402         21.4936         -51.1402         21.4936       -0.0102677         148.532
0.539                  -0.553141         -141.62         -50.9526         19.7202         -50.9526         19.7202       -0.0103833         148.463
0.54                   -0.570937        -142.144         -50.7665         17.9388         -50.7665         17.9388        -0.010499         148.394
0.541                  -0.589123        -142.669         -50.5819         16.1495         -50.5819         16.1495       -0.0106149         148.326
0.542                  -0.607696        -143.195         -50.3989         14.3529         -50.3989         14.3529       -0.0107309         148.257
0.543                  -0.626649        -143.722         -50.2174         12.5492         -50.2174         12.5492       -0.0108468         148.188
0.544                  -0.645979        -144.251         -50.0376         10.7389         -50.0376         10.7389       -0.0109627         148.118
0.545                  -0.665676         -144.78         -49.8595          8.9222         -49.8595          8.9222       -0.0110783         148.049
0.546                  -0.685735        -145.311         -49.6831         7.09967         -49.6831         7.09967       -0.0111936          147.98
0.547                  -0.706147        -145.843         -49.5083         5.27165         -49.5083         5.27165       -0.0113086          147.91
0.548                  -0.726904        -146.375         -49.3353         3.43856         -49.3353         3.43856       -0.0114232         147.841
0.549                  -0.747997        -146.909          -49.164         1.60084          -49.164         1.60083       -0.0115373         147.771
0.55                   -0.769416        -147.444         -48.9945       -0.241108         -48.9945       -0.241109       -0.0116508         147.702
0.551                   -0.79115        -147.979         -48.8267        -2.08683         -48.8267        -2.08683       -0.0117637         147.632
0.552                   -0.81319        -148.516         -48.6607         -3.9359         -48.6607         -3.9359       -0.0118759         147.562
0.553                  -0.835526        -149.053         -48.4964        -5.78788         -48.4964        -5.78788       -0.0119874         147.492
0.554                  -0.858145        -149.592          -48.334        -7.64232          -48.334        -7.64232       -0.0120982         147.421
0.555                  -0.881038        -150.131         -48.1732        -9.49879         -48.1732        -9.49879       -0.0122082         147.351
0.556                  -0.904193        -150.672         -48.0143        -11.3569         -48.0143        -11.3569       -0.0123175         147.281
0.557                    -0.9276        -151.213          -47.857        -13.2161          -47.857        -13.2161       -0.0124259          147.21
0.558                  -0.951247        -151.756         -47.7016         -15.076         -47.7016         -15.076       -0.0125335         147.139
0.559                  -0.975125          -152.3         -47.5478        -16.9363         -47.5478        -16.9363       -0.0126404         147.069
0.56                   -0.999223        -152.845         -47.3957        -18.7965         -47.3957        -18.7965       -0.0127465         146.998
0.561                   -1.02353        -153.391         -47.2452        -20.6562         -47.2452        -20.6562       -0.0128518         146.927
0.562                   -1.04804        -153.939         -47.0964        -22.5151         -47.0964        -22.5151       -0.0129564         146.855
0.563                   -1.07275        -154.488         -46.9492        -24.3726         -46.9492        -24.3726       -0.0130604         146.784
0.564                   -1.09764        -155.039         -46.8036        -26.2286         -46.8036        -26.2286       -0.0131637         146.712
0.565                   -1.12271        -155.591         -46.6595        -28.0826         -46.6595        -28.0826       -0.0132665         146.641
0.566                   -1.14795        -156.146         -46.5169        -29.9343         -46.5169        -29.9343       -0.0133689         146.569
0.567                   -1.17336        -156.702         -46.3758        -31.7833         -46.3758        -31.7833       -0.0134708         146.497
0.568                   -1.19893         -157.26          -46.236        -33.6294          -46.236        -33.6294       -0.0135724         146.425
0.569                   -1.22466         -157.82         -46.0977        -35.4723         -46.0977        -35.4723       -0.0136738         146.353
0.57                    -1.25055        -158.383         -45.9606        -37.3118         -45.9606        -37.3118        -0.013775         146.281
0.571                    -1.2766        -158.948         -45.8249        -39.1475         -45.8249        -39.1475       -0.0138763         146.208
0.572                   -1.30281        -159.515         -45.6903        -40.9793         -45.6903        -40.9793       -0.0139776         146.135
0.573                   -1.32918        -160.085          -45.557        -42.8069          -45.557        -42.8069       -0.0140791         146.063
0.574                   -1.35571        -160.658         -45.4247        -44.6301         -45.4247        -44.6301       -0.0141809          145.99
0.575                   -1.38242        -161.234         -45.2935        -46.4488         -45.2935        -46.4488       -0.0142832         145.916
0.576                   -1.40929        -161.813         -45.1634        -48.2628         -45.1634        -48.2628       -0.0143861         145.843
0.577                   -1.43635        -162.395         -45.0342        -50.0721         -45.0342        -50.0721       -0.0144897          145.77
0.578                    -1.4636        -162.981         -44.9059        -51.8764         -44.9059        -51.8764       -0.0145941         145.696
0.579                   -1.49105         -163.57         -44.7784        -53.6756         -44.7784        -53.6756       -0.0146995         145.622
0.58                    -1.51871        -164.163         -44.6518        -55.4698         -44.6518        -55.4698       -0.0148061         145.548
0.581                   -1.54659         -164.76         -44.5259        -57.2589         -44.5259        -57.2589       -0.0149138         145.474
0.582                   -1.57471         -165.36         -44.4007        -59.0427         -44.4007        -59.0427        -0.015023           145.4
0.583                   -1.60309        -165.965         -44.2761        -60.8213         -44.2761        -60.8213       -0.0151338         145.325
0.584                   -1.63174        -166.575         -44.1522        -62.5948         -44.1522        -62.5948       -0.0152462         145.251
0.585                   -1.66068        -167.188         -44.0287         -64.363         -44.0287         -64.363       -0.0153605         145.176
0.586                   -1.68992        -167.807         -43.9057        -66.1261         -43.9057        -66.1261       -0.0154767         145.101
0.587                    -1.7195         -168.43         -43.7832         -67.884         -43.7832         -67.884       -0.0155951         145.025
0.588                   -1.74943        -169.058          -43.661        -69.6369          -43.661        -69.6369       -0.0157157          144.95
0.589                   -1.77973        -169.691         -43.5392        -71.3848         -43.5392        -71.3848       -0.0158388         144.874
0.59                    -1.81044        -170.329         -43.4176        -73.1278         -43.4176        -73.1278       -0.0159645         144.799
0.591                   -1.84157        -170.972         -43.2963        -74.8661         -43.2963        -74.8661       -0.0160928         144.723
0.592                   -1.87315        -171.621         -43.1752        -76.5997         -43.1752        -76.5997       -0.0162241         144.646
0.593                   -1.90522        -172.276         -43.0542        -78.3287         -43.0542        -78.3287       -0.0163583          144.57
0.594                    -1.9378        -172.936         -42.9333        -80.0534         -42.9333        -80.0534       -0.0164957         144.493
0.595                   -1.97092        -173.602         -42.8125        -81.7738         -42.8125        -81.7738       -0.0166364         144.417
0.596                   -2.00462        -174.273         -42.6917        -83.4901         -42.6917        -83.4901       -0.0167805          144.34
0.597                   -2.03893        -174.951         -42.5709        -85.2026         -42.5709        -85.2026       -0.0169283         144.263
0.598                   -2.07388        -175.635         -42.4501        -86.9114         -42.4501        -86.9114       -0.0170797         144.185
0.599                   -2.10951        -176.325         -42.3291        -88.6166         -42.3291        -88.6166       -0.0172351         144.108
0.6                     -2.14586        -177.021         -42.2081        -90.3186         -42.2081        -90.3186       -0.0173944          144.03
0.601                   -2.18296        -177.724         -42.0869        -92.0175         -42.0869        -92.0175        -0.017558         143.952
0.602                   -2.22086        -178.433         -41.9655        -93.7135         -41.9655        -93.7135       -0.0177258         143.874
0.603                   -2.25959        -179.149          -41.844        -95.4068          -41.844        -95.4068       -0.0178981         143.795
0.604                   -2.29921        -179.871         -41.7222        -97.0978         -41.7222        -97.0978       -0.0180749         143.716
0.605                   -2.33974           179.4         -41.6001        -98.7866         -41.6001        -98.7866       -0.0182565         143.638
0.606                   -2.38124         178.665         -41.4778        -100.473         -41.4778        -100.473        -0.018443         143.559
0.607                   -2.42376         177.923         -41.3552        -102.159         -41.3552        -102.159       -0.0186345         143.479
0.608                   -2.46733         177.174         -41.2323        -103.842         -41.2323        -103.842       -0.0188311           143.4
0.609                   -2.51201         176.418         -41.1091        -105.525         -41.1091        -105.525        -0.019033          143.32
0.61                    -2.55786         175.655         -40.9856        -107.207         -40.9856        -107.207       -0.0192403          143.24
0.611                   -2.60491         174.886         -40.8617        -108.888         -40.8617        -108.888       -0.0194532          143.16
0.612                   -2.65322         174.109         -40.7374        -110.569         -40.7374        -110.569       -0.0196718         143.079
0.613                   -2.70286         173.326         -40.6128         -112.25         -40.6128         -112.25       -0.0198962         142.999
0.614                   -2.75386         172.536         -40.4879         -113.93         -40.4879         -113.93       -0.0201266         142.918
0.615                    -2.8063         171.739         -40.3625        -115.612         -40.3625        -115.612       -0.0203631         142.836
0.616                   -2.86023         170.936         -40.2368        -117.294         -40.2368        -117.294       -0.0206058         142.755
0.617                    -2.9157         170.126         -40.1108        -118.977         -40.1108        -118.977       -0.0208548         142.673
0.618                   -2.97279         169.309         -39.9844        -120.661         -39.9844        -120.661       -0.0211103         142.591
0.619                   -3.03155         168.485         -39.8576        -122.347         -39.8576        -122.347       -0.0213724         142.509
0.62                    -3.09205         167.655         -39.7305        -124.034         -39.7305        -124.034       -0.0216412         142.427
0.621                   -3.15436         166.819         -39.6031        -125.724         -39.6031        -125.724       -0.0219168         142.344
0.622                   -3.21855         165.977         -39.4754        -127.416         -39.4754        -127.416       -0.0221994         142.261
0.623                   -3.28467         165.128         -39.3473         -129.11         -39.3473         -129.11        -0.022489         142.178
0.624                   -3.35281         164.274          -39.219        -130.807          -39.219        -130.807       -0.0227858         142.095
0.625                   -3.42304         163.413         -39.0904        -132.508         -39.0904        -132.508       -0.0230899         142.011
0.626                   -3.49544         162.547         -38.9616        -134.211         -38.9616        -134.211       -0.0234013         141.927
0.627                   -3.57007         161.676         -38.8325        -135.918         -38.8325        -135.918       -0.0237202         141.843
0.628                   -3.64701           160.8         -38.7033        -137.628         -38.7033        -137.628       -0.0240466         141.758
0.629                   -3.72636         159.919         -38.5738        -139.342         -38.5738        -139.342       -0.0243806         141.674
