! TOUCHSTONE file generated by CST MICROWAVE STUDIO
! Date and time: Fri Oct  2 16:37:44 2020
! Project name: Scenario_1_Free_Space_out_of_line.cst
! Parameters = {Lambda=346.42; Step_1=17.321; dy1=-16.521; dx1=520; L_HA=400; MT=2.54; Rad_Dielectric=30; Rad_Lower=7.3; Rad_Upper=30; a_HA=580; a_WG=246; b_HA=500; b_WG=121; c_HA=0; c_WG=187; d_feed=85; h_feed=15; h_lower=18; h_upper=40}
! Header version: 2018
! Port assignment regex: !\s*Touchstone port\s*([0-9]+)\s*=\s*(CST MWS port|CST DS port)\s*([0-9]+|Zmin|Zmax)\s*\(\"(.*)\"\)(\s*mode\s*([0-9]+))?.*
! Touchstone port assignment:
! Touchstone port 1 = CST MWS port 1 ("")
! Touchstone port 2 = CST MWS port 2 ("")
# GHz S DB R 50
0.5                    -0.151914         -122.67         -60.8754        -17.3445         -60.8754        -17.3445      -0.00665038         151.097
0.501                  -0.156687        -123.105         -60.7311        -19.1398         -60.7311        -19.1407       -0.0066915         151.031
0.502                  -0.161618        -123.542         -60.5845         -20.934         -60.5844        -20.9358       -0.0067341         150.966
0.503                  -0.166713        -123.982         -60.4356        -22.7268         -60.4355        -22.7295      -0.00677818           150.9
0.504                  -0.171976        -124.424         -60.2844        -24.5183         -60.2843        -24.5217      -0.00682376         150.834
0.505                  -0.177412        -124.868         -60.1311        -26.3084          -60.131        -26.3125      -0.00687083         150.768
0.506                  -0.183024        -125.315         -59.9757        -28.0968         -59.9756        -28.1016      -0.00691941         150.702
0.507                  -0.188817        -125.764         -59.8183        -29.8836         -59.8181         -29.889       -0.0069695         150.636
0.508                  -0.194797        -126.215         -59.6589        -31.6687         -59.6587        -31.6748      -0.00702111          150.57
0.509                  -0.200968        -126.669         -59.4976        -33.4522         -59.4974        -33.4588      -0.00707424         150.504
0.51                   -0.207335        -127.125         -59.3346         -35.234         -59.3343        -35.2411       -0.0071289         150.438
0.511                  -0.213904        -127.584         -59.1697        -37.0142         -59.1695        -37.0217      -0.00718509         150.372
0.512                  -0.220678        -128.045         -59.0032        -38.7928         -59.0029        -38.8007      -0.00724282         150.305
0.513                  -0.227664        -128.509         -58.8351        -40.5698         -58.8348        -40.5782      -0.00730211         150.239
0.514                  -0.234867        -128.975         -58.6655        -42.3455         -58.6651        -42.3541      -0.00736295         150.172
0.515                  -0.242292        -129.444         -58.4944        -44.1198          -58.494        -44.1287      -0.00742535         150.106
0.516                  -0.249946        -129.915         -58.3218        -45.8928         -58.3214        -45.9021      -0.00748932         150.039
0.517                  -0.257833        -130.389         -58.1479        -47.6649         -58.1475        -47.6743      -0.00755487         149.972
0.518                   -0.26596        -130.866         -57.9728        -49.4359         -57.9723        -49.4455      -0.00762199         149.905
0.519                  -0.274332        -131.344         -57.7964        -51.2062         -57.7959         -51.216      -0.00769071         149.838
0.52                   -0.282956        -131.826         -57.6189        -52.9759         -57.6184        -52.9858      -0.00776102         149.771
0.521                  -0.291837         -132.31         -57.4403        -54.7452         -57.4397        -54.7551      -0.00783294         149.704
0.522                  -0.300983        -132.797         -57.2607        -56.5142         -57.2601        -56.5242      -0.00790646         149.637
0.523                  -0.310399        -133.286         -57.0801        -58.2832         -57.0795        -58.2932      -0.00798161          149.57
0.524                  -0.320092        -133.778         -56.8986        -60.0524         -56.8979        -60.0624      -0.00805838         149.502
0.525                  -0.330068        -134.272         -56.7162        -61.8219         -56.7156        -61.8319      -0.00813678         149.435
0.526                  -0.340335        -134.769         -56.5331         -63.592         -56.5324        -63.6019      -0.00821682         149.367
0.527                  -0.350898        -135.269         -56.3492         -65.363         -56.3485        -65.3728       -0.0082985         149.299
0.528                  -0.361765        -135.771         -56.1646         -67.135         -56.1639        -67.1447      -0.00838184         149.232
0.529                  -0.372943        -136.276         -55.9794        -68.9083         -55.9787        -68.9178      -0.00846684         149.164
0.53                   -0.384439        -136.784         -55.7937        -70.6831          -55.793        -70.6925      -0.00855351         149.096
0.531                   -0.39626        -137.294         -55.6074        -72.4596         -55.6067        -72.4688      -0.00864186         149.028
0.532                  -0.408414        -137.807         -55.4207        -74.2381         -55.4199        -74.2471      -0.00873189          148.96
0.533                  -0.420907        -138.322         -55.2335        -76.0188         -55.2328        -76.0276      -0.00882362         148.891
0.534                  -0.433748         -138.84          -55.046         -77.802         -55.0453        -77.8106      -0.00891704         148.823
0.535                  -0.446943        -139.361         -54.8582        -79.5878         -54.8575        -79.5962      -0.00901218         148.755
0.536                  -0.460501        -139.885         -54.6701        -81.3765         -54.6694        -81.3846      -0.00910903         148.686
0.537                  -0.474428        -140.411         -54.4819        -83.1684         -54.4811        -83.1762       -0.0092076         148.618
0.538                  -0.488734        -140.939         -54.2934        -84.9636         -54.2927        -84.9712       -0.0093079         148.549
0.539                  -0.503424        -141.471         -54.1049        -86.7624         -54.1041        -86.7696      -0.00940995          148.48
0.54                   -0.518509        -142.005         -53.9163        -88.5649         -53.9155        -88.5719      -0.00951374         148.411
0.541                  -0.533994        -142.541         -53.7277        -90.3714         -53.7269        -90.3781      -0.00961929         148.342
0.542                  -0.549888         -143.08         -53.5391        -92.1821         -53.5384        -92.1885      -0.00972661         148.273
0.543                    -0.5662        -143.622         -53.3506        -93.9972         -53.3499        -94.0032       -0.0098357         148.204
0.544                  -0.582936        -144.166         -53.1622        -95.8168         -53.1615        -95.8225      -0.00994657         148.134
0.545                  -0.600106        -144.713         -52.9741        -97.6412         -52.9733        -97.6465       -0.0100592         148.065
0.546                  -0.617716        -145.262         -52.7861        -99.4704         -52.7854        -99.4754       -0.0101737         147.995
0.547                  -0.635774        -145.814         -52.5984        -101.305         -52.5977        -101.309       -0.0102899         147.926
0.548                   -0.65429        -146.369         -52.4111        -103.144         -52.4104        -103.149        -0.010408         147.856
0.549                   -0.67327        -146.926         -52.2241        -104.989         -52.2234        -104.993       -0.0105279         147.786
0.55                   -0.692722        -147.485         -52.0375        -106.839         -52.0368        -106.843       -0.0106497         147.716
0.551                  -0.712654        -148.047         -51.8514        -108.695         -51.8507        -108.699       -0.0107732         147.646
0.552                  -0.733074        -148.611         -51.6658        -110.557         -51.6651         -110.56       -0.0108987         147.576
0.553                  -0.753988        -149.177         -51.4807        -112.424           -51.48        -112.427       -0.0110259         147.505
0.554                  -0.775406        -149.746         -51.2962        -114.297         -51.2955        -114.299       -0.0111551         147.435
0.555                  -0.797333        -150.318         -51.1124        -116.176         -51.1117        -116.178       -0.0112861         147.364
0.556                  -0.819777        -150.891         -50.9292        -118.061         -50.9285        -118.063        -0.011419         147.294
0.557                  -0.842746        -151.467         -50.7468        -119.952         -50.7461        -119.954       -0.0115538         147.223
0.558                  -0.866245        -152.045         -50.5651         -121.85         -50.5644         -121.85       -0.0116905         147.152
0.559                  -0.890282        -152.625         -50.3842        -123.753         -50.3836        -123.753       -0.0118292         147.081
0.56                   -0.914862        -153.207         -50.2042        -125.662         -50.2035        -125.662       -0.0119697          147.01
0.561                  -0.939993        -153.792          -50.025        -127.577         -50.0244        -127.576       -0.0121121         146.938
0.562                   -0.96568        -154.378         -49.8468        -129.498         -49.8462        -129.497       -0.0122565         146.867
0.563                  -0.991928        -154.967         -49.6695        -131.425         -49.6689        -131.424       -0.0124029         146.795
0.564                   -1.01874        -155.557         -49.4933        -133.358         -49.4927        -133.356       -0.0125512         146.724
0.565                   -1.04613        -156.149         -49.3181        -135.296         -49.3175        -135.295       -0.0127014         146.652
0.566                    -1.0741        -156.744         -49.1439         -137.24         -49.1433        -137.239       -0.0128537          146.58
0.567                   -1.10264         -157.34         -48.9709         -139.19         -48.9703        -139.188       -0.0130079         146.508
0.568                   -1.13178        -157.938         -48.7989        -141.145         -48.7983        -141.143       -0.0131641         146.436
0.569                    -1.1615        -158.537         -48.6282        -143.106         -48.6276        -143.103       -0.0133222         146.363
0.57                    -1.19181        -159.139         -48.4586        -145.072          -48.458        -145.069       -0.0134824         146.291
0.571                   -1.22272        -159.742         -48.2903        -147.042         -48.2897        -147.039       -0.0136446         146.218
0.572                   -1.25423        -160.346         -48.1232        -149.018         -48.1226        -149.015       -0.0138089         146.146
0.573                   -1.28633        -160.953         -47.9573        -150.998         -47.9567        -150.995       -0.0139751         146.073
0.574                   -1.31904         -161.56         -47.7927        -152.983         -47.7921        -152.979       -0.0141434             146
0.575                   -1.35235        -162.169         -47.6295        -154.972         -47.6289        -154.968       -0.0143138         145.927
0.576                   -1.38627         -162.78         -47.4675        -156.965         -47.4669        -156.961       -0.0144862         145.853
0.577                   -1.42079        -163.392         -47.3069        -158.962         -47.3063        -158.958       -0.0146606          145.78
0.578                   -1.45591        -164.005         -47.1477        -160.963         -47.1471        -160.958       -0.0148372         145.706
0.579                   -1.49163        -164.619         -46.9897        -162.966         -46.9891        -162.962       -0.0150158         145.632
0.58                    -1.52796        -165.235         -46.8332        -164.973         -46.8326        -164.969       -0.0151965         145.559
0.581                   -1.56489        -165.852          -46.678        -166.983         -46.6774        -166.978       -0.0153792         145.484
0.582                   -1.60241         -166.47         -46.5242        -168.996         -46.5235        -168.991       -0.0155641          145.41
0.583                   -1.64053        -167.089         -46.3717        -171.011         -46.3711        -171.006       -0.0157511         145.336
0.584                   -1.67924        -167.709         -46.2206        -173.028           -46.22        -173.023       -0.0159402         145.261
0.585                   -1.71854         -168.33         -46.0708        -175.047         -46.0702        -175.042       -0.0161315         145.187
0.586                   -1.75842        -168.953         -45.9224        -177.067         -45.9218        -177.062       -0.0163248         145.112
0.587                   -1.79889        -169.576         -45.7754        -179.089         -45.7748        -179.084       -0.0165203         145.037
0.588                   -1.83993          -170.2         -45.6297         178.888          -45.629         178.893        -0.016718         144.962
0.589                   -1.88154        -170.825         -45.4852         176.864         -45.4846         176.869       -0.0169178         144.886
0.59                    -1.92371        -171.452         -45.3421         174.839         -45.3415         174.845       -0.0171197         144.811
0.591                   -1.96645        -172.079         -45.2002         172.814         -45.1996          172.82       -0.0173238         144.735
0.592                   -2.00973        -172.707         -45.0596         170.789          -45.059         170.794       -0.0175301         144.659
0.593                   -2.05357        -173.336         -44.9203         168.764         -44.9196         168.769       -0.0177386         144.583
0.594                   -2.09795        -173.966         -44.7821         166.739         -44.7815         166.744       -0.0179493         144.507
0.595                   -2.14286        -174.597         -44.6451         164.715         -44.6445          164.72       -0.0181621         144.431
0.596                   -2.18831        -175.229         -44.5092         162.691         -44.5086         162.696       -0.0183772         144.354
0.597                   -2.23427        -175.863         -44.3745         160.668         -44.3739         160.673       -0.0185944         144.278
0.598                   -2.28075        -176.497         -44.2409         158.647         -44.2403         158.651       -0.0188139         144.201
0.599                   -2.32775        -177.133         -44.1083         156.626         -44.1077         156.631       -0.0190356         144.124
0.6                     -2.37525        -177.769         -43.9767         154.607         -43.9761         154.611       -0.0192595         144.046
0.601                   -2.42325        -178.407         -43.8461         152.589         -43.8456         152.593       -0.0194857         143.969
0.602                   -2.47175        -179.047         -43.7165         150.573         -43.7159         150.577       -0.0197141         143.891
0.603                   -2.52074        -179.687         -43.5878         148.558         -43.5872         148.563       -0.0199448         143.813
0.604                   -2.57022          179.67           -43.46         146.546         -43.4594          146.55       -0.0201778         143.735
0.605                   -2.62018         179.027         -43.3329         144.535         -43.3324         144.539        -0.020413         143.657
0.606                   -2.67063         178.381         -43.2067         142.527         -43.2062         142.531       -0.0206505         143.579
0.607                   -2.72156         177.734         -43.0813          140.52         -43.0807         140.524       -0.0208904           143.5
0.608                   -2.77298         177.084         -42.9566         138.516          -42.956         138.519       -0.0211326         143.421
0.609                   -2.82487         176.433         -42.8325         136.514          -42.832         136.517       -0.0213771         143.342
0.61                    -2.87726         175.779         -42.7091         134.514         -42.7086         134.517       -0.0216239         143.263
0.611                   -2.93014         175.123         -42.5863         132.516         -42.5858         132.519       -0.0218732         143.183
0.612                   -2.98351         174.465         -42.4641         130.521         -42.4636         130.524       -0.0221249         143.104
0.613                   -3.03739         173.803         -42.3424         128.528         -42.3419          128.53        -0.022379         143.024
0.614                   -3.09178          173.14         -42.2212         126.537         -42.2208         126.539       -0.0226355         142.943
0.615                   -3.14669         172.473         -42.1005         124.548            -42.1          124.55       -0.0228946         142.863
0.616                   -3.20214         171.803         -41.9802         122.561         -41.9797         122.563       -0.0231562         142.782
0.617                   -3.25814         171.129         -41.8603         120.576         -41.8598         120.579       -0.0234203         142.701
0.618                    -3.3147         170.452         -41.7407         118.594         -41.7403         118.596       -0.0236871          142.62
0.619                   -3.37185         169.772         -41.6215         116.613         -41.6211         116.615       -0.0239566         142.539
0.62                     -3.4296         169.087         -41.5025         114.634         -41.5021         114.636       -0.0242288         142.457
0.621                   -3.48799         168.399         -41.3838         112.657         -41.3835         112.659       -0.0245038         142.376
0.622                   -3.54703         167.706         -41.2654         110.682         -41.2651         110.684       -0.0247817         142.293
0.623                   -3.60675         167.009         -41.1472         108.708         -41.1468          108.71       -0.0250625         142.211
0.624                   -3.66719         166.307         -41.0291         106.736         -41.0288         106.737       -0.0253464         142.128
0.625                   -3.72837         165.601         -40.9112         104.765         -40.9109         104.766       -0.0256335         142.046
0.626                   -3.79034         164.889         -40.7935         102.795         -40.7932         102.796       -0.0259238         141.962
0.627                   -3.85314         164.172         -40.6758         100.826         -40.6756         100.827       -0.0262174         141.879
0.628                   -3.91681          163.45         -40.5583         98.8581         -40.5581         98.8591       -0.0265146         141.795
0.629                   -3.98139         162.723         -40.4408          96.891         -40.4406         96.8919       -0.0268155         141.711
