! TOUCHSTONE file generated by CST MICROWAVE STUDIO
! Date and time: Fri Oct  2 16:57:30 2020
! Project name: Scenario_1_Free_Space_out_of_line.cst
! Parameters = {Lambda=346.42; Step_1=17.321; dy1=-16.521; dx1=693; L_HA=400; MT=2.54; Rad_Dielectric=30; Rad_Lower=7.3; Rad_Upper=30; a_HA=580; a_WG=246; b_HA=500; b_WG=121; c_HA=0; c_WG=187; d_feed=85; h_feed=15; h_lower=18; h_upper=40}
! Header version: 2018
! Port assignment regex: !\s*Touchstone port\s*([0-9]+)\s*=\s*(CST MWS port|CST DS port)\s*([0-9]+|Zmin|Zmax)\s*\(\"(.*)\"\)(\s*mode\s*([0-9]+))?.*
! Touchstone port assignment:
! Touchstone port 1 = CST MWS port 1 ("")
! Touchstone port 2 = CST MWS port 2 ("")
# GHz S DB R 50
0.5                    -0.146262        -122.677         -62.2591        -116.145         -62.2591        -116.145      -0.00672534         151.065
0.501                  -0.153128        -123.118         -62.0263        -119.251         -62.0236        -119.249      -0.00679409             151
0.502                  -0.160153        -123.561         -61.7921        -122.258          -61.787        -122.255      -0.00686343         150.934
0.503                  -0.167341        -124.006         -61.5574        -125.174         -61.5502        -125.168      -0.00693336         150.869
0.504                  -0.174692        -124.452          -61.323        -128.003         -61.3139        -127.995      -0.00700386         150.803
0.505                  -0.182208          -124.9         -61.0895        -130.752         -61.0788         -130.74      -0.00707495         150.737
0.506                  -0.189893         -125.35         -60.8574        -133.425         -60.8453        -133.411      -0.00714662         150.671
0.507                  -0.197747        -125.801         -60.6271         -136.03         -60.6139        -136.012      -0.00721887         150.606
0.508                  -0.205773        -126.255          -60.399        -138.569         -60.3848        -138.549      -0.00729169          150.54
0.509                  -0.213973         -126.71         -60.1733        -141.049         -60.1583        -141.026      -0.00736508         150.474
0.51                   -0.222349        -127.167         -59.9503        -143.474         -59.9346        -143.448      -0.00743905         150.408
0.511                  -0.230904        -127.626           -59.73        -145.847         -59.7138        -145.819      -0.00751358         150.341
0.512                  -0.239639        -128.087         -59.5126        -148.174          -59.496        -148.143      -0.00758868         150.275
0.513                  -0.248557        -128.549         -59.2982        -150.458         -59.2812        -150.425      -0.00766433         150.209
0.514                   -0.25766        -129.014         -59.0867        -152.701         -59.0695        -152.666      -0.00774055         150.142
0.515                  -0.266951        -129.481         -58.8781        -154.908         -58.8609        -154.872      -0.00781733         150.076
0.516                  -0.276433        -129.949         -58.6726        -157.081         -58.6553        -157.043      -0.00789466         150.009
0.517                  -0.286107         -130.42         -58.4699        -159.223         -58.4527        -159.185      -0.00797254         149.943
0.518                  -0.295976        -130.892         -58.2702        -161.337         -58.2531        -161.297      -0.00805097         149.876
0.519                  -0.306043        -131.366         -58.0733        -163.425         -58.0563        -163.385      -0.00812994         149.809
0.52                   -0.316312        -131.843         -57.8791        -165.489         -57.8624        -165.448      -0.00820945         149.742
0.521                  -0.326783        -132.321         -57.6877        -167.532         -57.6712        -167.491       -0.0082895         149.675
0.522                  -0.337462        -132.802         -57.4989        -169.555         -57.4827        -169.513      -0.00837009         149.608
0.523                  -0.348349        -133.284         -57.3126         -171.56         -57.2967        -171.518      -0.00845121         149.541
0.524                  -0.359449        -133.769         -57.1288        -173.548         -57.1132        -173.507      -0.00853286         149.474
0.525                  -0.370764        -134.256         -56.9474        -175.522         -56.9322        -175.481      -0.00861503         149.406
0.526                  -0.382298        -134.744         -56.7683        -177.482         -56.7535        -177.442      -0.00869773         149.339
0.527                  -0.394054        -135.235         -56.5914        -179.431          -56.577        -179.391      -0.00878094         149.271
0.528                  -0.406035        -135.728         -56.4166         178.631         -56.4026         178.671      -0.00886467         149.204
0.529                  -0.418245        -136.224         -56.2439         176.703         -56.2303         176.742      -0.00894891         149.136
0.53                   -0.430688        -136.721         -56.0731         174.783           -56.06         174.821      -0.00903365         149.068
0.531                  -0.443366        -137.221         -55.9042          172.87         -55.8916         172.908      -0.00911891             149
0.532                  -0.456283        -137.723         -55.7371         170.964          -55.725             171      -0.00920467         148.932
0.533                  -0.469444        -138.227         -55.5718         169.064         -55.5601         169.099      -0.00929093         148.864
0.534                  -0.482852        -138.733         -55.4081         167.168         -55.3969         167.202      -0.00937769         148.796
0.535                  -0.496512        -139.242         -55.2459         165.275         -55.2352         165.308      -0.00946494         148.728
0.536                  -0.510427        -139.753         -55.0853         163.386          -55.075         163.418      -0.00955269         148.659
0.537                  -0.524602        -140.267         -54.9261           161.5         -54.9163          161.53      -0.00964094         148.591
0.538                  -0.539042        -140.782         -54.7682         159.615         -54.7589         159.644      -0.00972968         148.522
0.539                   -0.55375          -141.3         -54.6117         157.731         -54.6029         157.759      -0.00981891         148.454
0.54                   -0.568732        -141.821         -54.4564         155.848          -54.448         155.875      -0.00990864         148.385
0.541                  -0.583992        -142.344         -54.3022         153.965         -54.2943          153.99      -0.00999886         148.316
0.542                  -0.599535        -142.869         -54.1492         152.081         -54.1417         152.105       -0.0100896         148.247
0.543                  -0.615366        -143.397         -53.9972         150.197         -53.9902         150.219       -0.0101808         148.178
0.544                  -0.631491        -143.928         -53.8462          148.31         -53.8396         148.332       -0.0102725         148.109
0.545                  -0.647915         -144.46         -53.6961         146.422           -53.69         146.442       -0.0103648         148.039
0.546                  -0.664644        -144.996         -53.5469         144.532         -53.5412         144.551       -0.0104576          147.97
0.547                  -0.681682        -145.534         -53.3986         142.639         -53.3933         142.656       -0.0105509           147.9
0.548                  -0.699037        -146.074          -53.251         140.743         -53.2462         140.759       -0.0106447          147.83
0.549                  -0.716715        -146.618         -53.1042         138.843         -53.0998         138.858       -0.0107391         147.761
0.55                   -0.734721        -147.163         -52.9581          136.94         -52.9541         136.954       -0.0108341         147.691
0.551                  -0.753062        -147.712         -52.8126         135.033          -52.809         135.045       -0.0109296         147.621
0.552                  -0.771745        -148.263         -52.6678         133.122         -52.6646         133.133       -0.0110258         147.551
0.553                  -0.790776        -148.817         -52.5236         131.206         -52.5207         131.216       -0.0111226          147.48
0.554                  -0.810163        -149.374         -52.3799         129.285         -52.3774         129.294         -0.01122          147.41
0.555                  -0.829914        -149.933         -52.2367         127.359         -52.2345         127.367       -0.0113182         147.339
0.556                  -0.850035        -150.495          -52.094         125.429         -52.0922         125.435        -0.011417         147.269
0.557                  -0.870534         -151.06         -51.9518         123.492         -51.9502         123.498       -0.0115167         147.198
0.558                   -0.89142        -151.628           -51.81         121.551         -51.8087         121.555       -0.0116171         147.127
0.559                  -0.912701        -152.199         -51.6685         119.603         -51.6676         119.607       -0.0117184         147.056
0.56                   -0.934385        -152.772         -51.5275          117.65         -51.5269         117.653       -0.0118206         146.985
0.561                  -0.956482        -153.349         -51.3868         115.691         -51.3865         115.692       -0.0119238         146.913
0.562                  -0.978999        -153.928         -51.2464         113.725         -51.2464         113.726        -0.012028         146.842
0.563                   -1.00195         -154.51         -51.1064         111.754         -51.1066         111.754       -0.0121333          146.77
0.564                   -1.02534        -155.095         -50.9666         109.776         -50.9671         109.775       -0.0122399         146.699
0.565                   -1.04917        -155.684         -50.8272         107.792         -50.8278          107.79       -0.0123477         146.627
0.566                   -1.07347        -156.275         -50.6879         105.801         -50.6888         105.799       -0.0124568         146.555
0.567                   -1.09824        -156.869          -50.549         103.804         -50.5501         103.801       -0.0125675         146.483
0.568                    -1.1235        -157.467         -50.4102           101.8         -50.4115         101.797       -0.0126797          146.41
0.569                   -1.14924        -158.067         -50.2718           99.79         -50.2732         99.7859       -0.0127936         146.338
0.57                    -1.17549         -158.67         -50.1335         97.7731         -50.1351         97.7685       -0.0129094         146.265
0.571                   -1.20226        -159.277         -49.9954         95.7496         -49.9972         95.7445       -0.0130271         146.192
0.572                   -1.22955        -159.887         -49.8576         93.7195         -49.8595          93.714       -0.0131469          146.12
0.573                   -1.25739        -160.499         -49.7199         91.6829          -49.722         91.6769       -0.0132689         146.047
0.574                   -1.28578        -161.115         -49.5825         89.6396         -49.5847         89.6332       -0.0133934         145.973
0.575                   -1.31474        -161.734         -49.4453         87.5898         -49.4476         87.5831       -0.0135204           145.9
0.576                   -1.34428        -162.357         -49.3082         85.5335         -49.3107         85.5265       -0.0136502         145.826
0.577                   -1.37442        -162.982         -49.1714         83.4707          -49.174         83.4635       -0.0137829         145.753
0.578                   -1.40516        -163.611         -49.0348         81.4016         -49.0374         81.3942       -0.0139187         145.679
0.579                   -1.43653        -164.242         -48.8984         79.3261         -48.9011         79.3186       -0.0140577         145.605
0.58                    -1.46854        -164.877         -48.7622         77.2444          -48.765         77.2367       -0.0142002         145.531
0.581                   -1.50121        -165.515         -48.6262         75.1565          -48.629         75.1488       -0.0143463         145.456
0.582                   -1.53455        -166.157         -48.4904         73.0626         -48.4933         73.0548       -0.0144963         145.382
0.583                   -1.56857        -166.801         -48.3549         70.9627         -48.3579         70.9549       -0.0146502         145.307
0.584                    -1.6033        -167.449         -48.2196          68.857         -48.2226         68.8492       -0.0148082         145.232
0.585                   -1.63875        -168.099         -48.0846         66.7455         -48.0876         66.7377       -0.0149706         145.157
0.586                   -1.67494        -168.753         -47.9498         64.6285         -47.9528         64.6208       -0.0151374         145.082
0.587                   -1.71188         -169.41         -47.8153          62.506         -47.8183         62.4984       -0.0153087         145.006
0.588                    -1.7496         -170.07          -47.681         60.3782          -47.684         60.3707       -0.0154848         144.931
0.589                   -1.78811        -170.733          -47.547         58.2452         -47.5501         58.2378       -0.0156658         144.855
0.59                    -1.82743        -171.399         -47.4134         56.1072         -47.4164            56.1       -0.0158516         144.779
0.591                   -1.86758        -172.068           -47.28         53.9643          -47.283         53.9573       -0.0160424         144.703
0.592                   -1.90859         -172.74          -47.147         51.8168         -47.1499           51.81       -0.0162382         144.627
0.593                   -1.95045        -173.415         -47.0142         49.6648         -47.0172         49.6581       -0.0164391          144.55
0.594                   -1.99321        -174.092         -46.8818         47.5084         -46.8847          47.502       -0.0166451         144.474
0.595                   -2.03687        -174.773         -46.7498         45.3479         -46.7526         45.3417       -0.0168561         144.397
0.596                   -2.08146        -175.456         -46.6181         43.1834         -46.6209         43.1774       -0.0170722          144.32
0.597                     -2.127        -176.142         -46.4868         41.0151         -46.4895         41.0094       -0.0172933         144.243
0.598                    -2.1735         -176.83         -46.3559         38.8433         -46.3585         38.8378       -0.0175194         144.166
0.599                   -2.22099        -177.521         -46.2253          36.668         -46.2279         36.6628       -0.0177503         144.088
0.6                     -2.26949        -178.214         -46.0952         34.4896         -46.0977         34.4847       -0.0179859          144.01
0.601                     -2.319        -178.909         -45.9654         32.3082         -45.9679         32.3035       -0.0182262         143.933
0.602                   -2.36957        -179.607         -45.8361          30.124         -45.8385         30.1196       -0.0184711         143.854
0.603                   -2.42119         179.694         -45.7071         27.9372         -45.7095         27.9331       -0.0187204         143.776
0.604                   -2.47389         178.992         -45.5787          25.748         -45.5809         25.7442        -0.018974         143.698
0.605                    -2.5277         178.289         -45.4506         23.5567         -45.4527         23.5531       -0.0192317         143.619
0.606                   -2.58262         177.583          -45.323         21.3633          -45.325           21.36       -0.0194935          143.54
0.607                   -2.63867         176.877         -45.1958         19.1682         -45.1978         19.1651       -0.0197592         143.461
0.608                   -2.69586         176.169          -45.069         16.9715         -45.0709         16.9687       -0.0200286         143.382
0.609                   -2.75423         175.459         -44.9427         14.7735         -44.9445         14.7709       -0.0203018         143.303
0.61                    -2.81376         174.749         -44.8169         12.5742         -44.8186         12.5718       -0.0205784         143.223
0.611                   -2.87449         174.038         -44.6915         10.3739         -44.6931         10.3718       -0.0208586         143.143
0.612                   -2.93642         173.325         -44.5665         8.17288         -44.5681         8.17093        -0.021142         143.063
0.613                   -2.99956         172.613          -44.442         5.97118         -44.4435         5.96944       -0.0214287         142.983
0.614                   -3.06392           171.9          -44.318         3.76904         -44.3193         3.76749       -0.0217186         142.903
0.615                   -3.12951         171.186         -44.1944         1.56661         -44.1956         1.56525       -0.0220117         142.822
0.616                   -3.19633         170.473         -44.0712       -0.635914         -44.0724       -0.637103       -0.0223078         142.741
0.617                   -3.26439          169.76         -43.9484        -2.83839         -43.9495        -2.83942        -0.022607          142.66
0.618                   -3.33369         169.047         -43.8261        -5.04065         -43.8271        -5.04153       -0.0229093         142.579
0.619                   -3.40424         168.334         -43.7042        -7.24256         -43.7051         -7.2433       -0.0232146         142.497
0.62                    -3.47602         167.623         -43.5827        -9.44397         -43.5835        -9.44458       -0.0235229         142.415
0.621                   -3.54904         166.912         -43.4616        -11.6448         -43.4624        -11.6452       -0.0238343         142.333
0.622                   -3.62329         166.203         -43.3409        -13.8448         -43.3416        -13.8452       -0.0241489         142.251
0.623                   -3.69877         165.495         -43.2205        -16.0439         -43.2212        -16.0442       -0.0244665         142.168
0.624                   -3.77546         164.788         -43.1006        -18.2421         -43.1011        -18.2423       -0.0247874         142.085
0.625                   -3.85335         164.083          -42.981        -20.4392         -42.9815        -20.4393       -0.0251116         142.002
0.626                   -3.93244          163.38         -42.8617        -22.6351         -42.8622        -22.6351       -0.0254392         141.919
0.627                    -4.0127         162.678         -42.7428        -24.8297         -42.7432        -24.8297       -0.0257702         141.836
0.628                   -4.09412         161.979         -42.6242         -27.023         -42.6245         -27.023       -0.0261049         141.752
0.629                   -4.17669         161.282         -42.5059         -29.215         -42.5061        -29.2149       -0.0264432         141.668
