! TOUCHSTONE file generated by CST MICROWAVE STUDIO
! Date and time: Fri Oct  2 19:13:05 2020
! Project name: Scenario_1_Free_Space_out_of_line.cst
! Parameters = {Lambda=346.42; Step_1=17.321; dy1=-16.521; dx1=866; L_HA=400; MT=2.54; Rad_Dielectric=30; Rad_Lower=7.3; Rad_Upper=30; a_HA=580; a_WG=246; b_HA=500; b_WG=121; c_HA=0; c_WG=187; d_feed=85; h_feed=15; h_lower=18; h_upper=40}
! Header version: 2018
! Port assignment regex: !\s*Touchstone port\s*([0-9]+)\s*=\s*(CST MWS port|CST DS port)\s*([0-9]+|Zmin|Zmax)\s*\(\"(.*)\"\)(\s*mode\s*([0-9]+))?.*
! Touchstone port assignment:
! Touchstone port 1 = CST MWS port 1 ("")
! Touchstone port 2 = CST MWS port 2 ("")
# GHz S DB R 50
0.5                    -0.149254        -122.571         -63.1418         143.995         -63.1406          144.03      -0.00658086         151.092
0.501                  -0.153306        -123.006         -62.9837          141.84         -63.0099         141.404      -0.00662571         151.026
0.502                  -0.157595        -123.443         -62.8231         139.679         -62.8712         138.804       -0.0066725         150.961
0.503                  -0.162128        -123.882           -62.66         137.513         -62.7253         136.234      -0.00672123         150.895
0.504                  -0.166907        -124.325         -62.4944         135.342         -62.5725         133.695      -0.00677187         150.829
0.505                   -0.17194         -124.77         -62.3266         133.168         -62.4136         131.187      -0.00682441         150.764
0.506                   -0.17723        -125.218         -62.1565         130.988         -62.2491         128.712      -0.00687882         150.698
0.507                  -0.182783        -125.669         -61.9843         128.805         -62.0795         126.268       -0.0069351         150.632
0.508                  -0.188604        -126.122           -61.81         126.617         -61.9054         123.856      -0.00699322         150.566
0.509                  -0.194698        -126.578         -61.6338         124.425         -61.7273         121.476      -0.00705316           150.5
0.51                    -0.20107        -127.036         -61.4557         122.228         -61.5456         119.127      -0.00711491         150.434
0.511                  -0.207724        -127.497         -61.2758         120.028          -61.361         116.808      -0.00717846         150.367
0.512                  -0.214666        -127.961         -61.0943         117.823         -61.1736         114.517      -0.00724379         150.301
0.513                    -0.2219        -128.427         -60.9112         115.614         -60.9841         112.254      -0.00731088         150.235
0.514                  -0.229431        -128.896         -60.7266         113.401         -60.7926         110.016      -0.00737972         150.168
0.515                  -0.237263        -129.368         -60.5407         111.184         -60.5996         107.803      -0.00745029         150.101
0.516                  -0.245402        -129.841         -60.3534         108.962         -60.4054         105.612      -0.00752258         150.035
0.517                  -0.253851        -130.318          -60.165         106.735         -60.2102         103.443      -0.00759658         149.968
0.518                  -0.262614        -130.797         -59.9755         104.504         -60.0143         101.293      -0.00767226         149.901
0.519                  -0.271697        -131.278          -59.785         102.268         -59.8178         99.1598      -0.00774963         149.834
0.52                   -0.281104        -131.762         -59.5937         100.027         -59.6211         97.0426      -0.00782866         149.767
0.521                  -0.290838        -132.248         -59.4015         97.7808         -59.4243         94.9391      -0.00790935           149.7
0.522                  -0.300903        -132.737         -59.2087         95.5296         -59.2275         92.8477      -0.00799168         149.633
0.523                  -0.311304        -133.228         -59.0153         93.2731          -59.031         90.7665      -0.00807564         149.566
0.524                  -0.322044        -133.722         -58.8214         91.0111         -58.8347         88.6937      -0.00816122         149.499
0.525                  -0.333127        -134.217          -58.627         88.7434         -58.6388         86.6275      -0.00824841         149.431
0.526                  -0.344557        -134.716         -58.4324           86.47         -58.4435         84.5663       -0.0083372         149.364
0.527                  -0.356337        -135.216         -58.2376         84.1906         -58.2487         82.5084      -0.00842758         149.296
0.528                   -0.36847        -135.719         -58.0427         81.9052         -58.0546         80.4521      -0.00851954         149.228
0.529                   -0.38096        -136.224         -57.8478         79.6136         -57.8613         78.3957      -0.00861307         149.161
0.53                    -0.39381        -136.731         -57.6529         77.3158         -57.6687         76.3378      -0.00870816         149.093
0.531                  -0.407022         -137.24         -57.4582         75.0115         -57.4769         74.2767      -0.00880481         149.025
0.532                  -0.420599        -137.752         -57.2638         72.7006         -57.2859         72.2109        -0.008903         148.957
0.533                  -0.434545        -138.265         -57.0697         70.3832         -57.0958         70.1391      -0.00900273         148.889
0.534                  -0.448861        -138.781         -56.8761         68.0591         -56.9066         68.0597        -0.009104          148.82
0.535                   -0.46355        -139.299          -56.683         65.7283         -56.7183         65.9714       -0.0092068         148.752
0.536                  -0.478614        -139.819         -56.4905         63.3907          -56.531         63.8729      -0.00931111         148.683
0.537                  -0.494056        -140.341         -56.2987         61.0464         -56.3445         61.7629      -0.00941695         148.615
0.538                  -0.509876        -140.866         -56.1077         58.6952          -56.159         59.6401      -0.00952429         148.546
0.539                  -0.526077        -141.392         -55.9175         56.3372         -55.9744         57.5033      -0.00963314         148.477
0.54                   -0.542661         -141.92         -55.7283         53.9724         -55.7908         55.3515       -0.0097435         148.409
0.541                  -0.559629         -142.45           -55.54          51.601         -55.6081         53.1834      -0.00985536          148.34
0.542                  -0.576981        -142.982         -55.3529         49.2228         -55.4263         50.9982      -0.00996871         148.271
0.543                   -0.59472        -143.516         -55.1669         46.8382         -55.2454         48.7946       -0.0100836         148.201
0.544                  -0.612845        -144.052         -54.9821         44.4471         -55.0655         46.5719       -0.0101999         148.132
0.545                  -0.631358         -144.59         -54.7986         42.0497         -54.8865         44.3291       -0.0103177         148.063
0.546                   -0.65026         -145.13         -54.6164         39.6461         -54.7085         42.0654       -0.0104371         147.993
0.547                   -0.66955        -145.672         -54.4357         37.2365         -54.5313           39.78       -0.0105579         147.924
0.548                  -0.689229        -146.215         -54.2564         34.8212         -54.3551         37.4722       -0.0106802         147.854
0.549                  -0.709297        -146.761         -54.0786         32.4002         -54.1799         35.1413        -0.010804         147.784
0.55                   -0.729754        -147.308         -53.9024         29.9739         -54.0055         32.7868       -0.0109293         147.714
0.551                    -0.7506        -147.857         -53.7277         27.5425         -53.8322         30.4082       -0.0110561         147.644
0.552                  -0.771834        -148.408         -53.5547         25.1062         -53.6597          28.005       -0.0111844         147.574
0.553                  -0.793455         -148.96         -53.3834         22.6653         -53.4883         25.5768       -0.0113142         147.504
0.554                  -0.815464        -149.515         -53.2138         20.2202         -53.3178         23.1234       -0.0114455         147.433
0.555                  -0.837859        -150.071         -53.0459          17.771         -53.1483         20.6446       -0.0115783         147.363
0.556                  -0.860639        -150.629         -52.8798         15.3182         -52.9799         18.1402       -0.0117126         147.292
0.557                  -0.883803        -151.189         -52.7154          12.862         -52.8125         15.6102       -0.0118484         147.221
0.558                  -0.907351         -151.75         -52.5528         10.4028         -52.6461         13.0547       -0.0119858         147.151
0.559                   -0.93128        -152.314          -52.392         7.94093         -52.4809         10.4739       -0.0121247          147.08
0.56                    -0.95559        -152.879          -52.233         5.47666         -52.3168         7.86801       -0.0122652         147.008
0.561                  -0.980278        -153.446         -52.0758         3.01038         -52.1538         5.23735       -0.0124072         146.937
0.562                   -1.00535        -154.014         -51.9204        0.542422         -51.9921          2.5824       -0.0125507         146.866
0.563                   -1.03079        -154.585         -51.7668        -1.92687         -51.8316      -0.0962763       -0.0126959         146.794
0.564                   -1.05661        -155.157         -51.6149        -4.39717         -51.6724        -2.79803       -0.0128426         146.723
0.565                    -1.0828        -155.732         -51.4648        -6.86813         -51.5145        -5.52209       -0.0129909         146.651
0.566                   -1.10936        -156.308         -51.3164        -9.33944         -51.3579         -8.2676       -0.0131408         146.579
0.567                   -1.13629        -156.886         -51.1698        -11.8108         -51.2028        -11.0336       -0.0132923         146.507
0.568                   -1.16359        -157.466         -51.0248        -14.2818         -51.0491         -13.819       -0.0134454         146.435
0.569                   -1.19126        -158.048         -50.8815        -16.7523         -50.8969        -16.6227       -0.0136002         146.362
0.57                     -1.2193        -158.632         -50.7398        -19.2219         -50.7463        -19.4434       -0.0137566          146.29
0.571                   -1.24771        -159.219         -50.5996        -21.6903         -50.5972        -22.2798       -0.0139148         146.217
0.572                   -1.27648        -159.807          -50.461        -24.1573         -50.4498        -25.1305       -0.0140746         146.145
0.573                   -1.30561        -160.397         -50.3239        -26.6227         -50.3039         -27.994       -0.0142361         146.072
0.574                   -1.33511         -160.99         -50.1883        -29.0862         -50.1598        -30.8687       -0.0143993         145.999
0.575                   -1.36498        -161.585          -50.054        -31.5476         -50.0174         -33.753       -0.0145643         145.925
0.576                   -1.39521        -162.182         -49.9211        -34.0068         -49.8767        -36.6453        -0.014731         145.852
0.577                   -1.42581        -162.782         -49.7896        -36.4634         -49.7378        -39.5437       -0.0148995         145.779
0.578                   -1.45678        -163.384         -49.6592        -38.9175         -49.6007        -42.4467       -0.0150699         145.705
0.579                   -1.48812        -163.989         -49.5301        -41.3687         -49.4653        -45.3524        -0.015242         145.631
0.58                    -1.51984        -164.596         -49.4021        -43.8171         -49.3317         -48.259        -0.015416         145.557
0.581                   -1.55194        -165.206         -49.2752        -46.2625         -49.1999        -51.1648       -0.0155919         145.483
0.582                   -1.58442        -165.819         -49.1494        -48.7048         -49.0698         -54.068       -0.0157696         145.409
0.583                   -1.61729        -166.435         -49.0245        -51.1439         -48.9416        -56.9668       -0.0159493         145.335
0.584                   -1.65056        -167.054         -48.9006        -53.5798          -48.815        -59.8595        -0.016131          145.26
0.585                   -1.68423        -167.676         -48.7775        -56.0125         -48.6902        -62.7444       -0.0163146         145.185
0.586                   -1.71831        -168.301         -48.6553         -58.442          -48.567        -65.6199       -0.0165002          145.11
0.587                   -1.75281         -168.93         -48.5339        -60.8681         -48.4455        -68.4844       -0.0166879         145.035
0.588                   -1.78775        -169.562         -48.4131         -63.291         -48.3256        -71.3364       -0.0168777          144.96
0.589                   -1.82313        -170.197         -48.2931        -65.7107         -48.2072        -74.1744       -0.0170695         144.885
0.59                    -1.85898        -170.836         -48.1737        -68.1272         -48.0903         -76.997       -0.0172635         144.809
0.591                    -1.8953         -171.48         -48.0548        -70.5405         -47.9748         -79.803       -0.0174597         144.734
0.592                   -1.93212        -172.127         -47.9365        -72.9508         -47.8607        -82.5911        -0.017658         144.658
0.593                   -1.96945        -172.778         -47.8187         -75.358         -47.7479        -85.3602       -0.0178586         144.582
0.594                   -2.00732        -173.433         -47.7013        -77.7624         -47.6364        -88.1094       -0.0180615         144.505
0.595                   -2.04575        -174.093         -47.5844         -80.164          -47.526        -90.8376       -0.0182667         144.429
0.596                   -2.08476        -174.757         -47.4678        -82.5628         -47.4167         -93.544       -0.0184742         144.352
0.597                   -2.12439        -175.426         -47.3515        -84.9591         -47.3084        -96.2279       -0.0186842         144.275
0.598                   -2.16467        -176.099         -47.2356        -87.3528         -47.2011        -98.8886       -0.0188966         144.198
0.599                   -2.20562        -176.778         -47.1199        -89.7443         -47.0946        -101.526       -0.0191114         144.121
0.6                     -2.24729        -177.461         -47.0045        -92.1335          -46.989        -104.138       -0.0193288         144.044
0.601                   -2.28971        -178.149         -46.8892        -94.5207          -46.884        -106.727       -0.0195487         143.966
0.602                   -2.33292        -178.843         -46.7742        -96.9059         -46.7797         -109.29       -0.0197712         143.888
0.603                   -2.37697        -179.541         -46.6593        -99.2893          -46.676        -111.828       -0.0199964          143.81
0.604                    -2.4219         179.755         -46.5445        -101.671         -46.5728        -114.341       -0.0202242         143.732
0.605                   -2.46776         179.046         -46.4299        -104.051           -46.47        -116.829       -0.0204547         143.654
0.606                   -2.51461         178.331         -46.3154         -106.43         -46.3676        -119.291       -0.0206879         143.575
0.607                   -2.56248         177.611          -46.201        -108.808         -46.2655        -121.728       -0.0209239         143.497
0.608                   -2.61145         176.885         -46.0866        -111.184         -46.1636        -124.141       -0.0211626         143.418
0.609                   -2.66157         176.154         -45.9723         -113.56         -46.0618        -126.528        -0.021404         143.338
0.61                    -2.71289         175.418         -45.8581        -115.935         -45.9602         -128.89       -0.0216482         143.259
0.611                   -2.76548         174.677         -45.7439        -118.309         -45.8586        -131.229        -0.021895          143.18
0.612                   -2.81941          173.93         -45.6298        -120.683         -45.7569        -133.543       -0.0221443           143.1
0.613                   -2.87472         173.179         -45.5157        -123.056         -45.6552        -135.834       -0.0223961          143.02
0.614                    -2.9315         172.422         -45.4017        -125.429         -45.5534        -138.101         -0.02265         142.939
0.615                   -2.98979         171.661         -45.2877        -127.802         -45.4513        -140.346       -0.0229059         142.859
0.616                   -3.04967         170.896         -45.1738        -130.175          -45.349        -142.569       -0.0231631         142.778
0.617                    -3.1112         170.126         -45.0599        -132.548         -45.2464         -144.77       -0.0234211         142.698
0.618                   -3.17444         169.353          -44.946        -134.921         -45.1434         -146.95       -0.0236789         142.617
0.619                   -3.23945         168.576         -44.8323        -137.294         -45.0401        -149.109       -0.0239351         142.535
0.62                    -3.30629         167.796         -44.7186        -139.668         -44.9362        -151.248        -0.024188         142.454
0.621                     -3.375         167.013          -44.605        -142.042         -44.8319        -153.368       -0.0244349         142.372
0.622                   -3.44565         166.228         -44.4915        -144.416          -44.727        -155.469       -0.0246722          142.29
0.623                   -3.51827         165.441         -44.3781        -146.791         -44.6215        -157.551        -0.024895         142.208
0.624                   -3.59292         164.653         -44.2648        -149.167         -44.5154        -159.617       -0.0250971         142.126
0.625                   -3.66961         163.864         -44.1516        -151.543         -44.4086        -161.665       -0.0252714         142.043
0.626                   -3.74839         163.075         -44.0385         -153.92          -44.301        -163.697       -0.0254119          141.96
0.627                   -3.82929         162.286         -43.9257        -156.297         -44.1926        -165.713       -0.0255173         141.877
0.628                    -3.9123         161.499          -43.813        -158.675         -44.0834        -167.715       -0.0255977         141.793
0.629                   -3.99746         160.713         -43.7004        -161.054         -43.9733        -169.702       -0.0256799         141.708
