! TOUCHSTONE file generated by CST MICROWAVE STUDIO
! Date and time: Fri Oct  2 18:57:37 2020
! Project name: Scenario_1_Free_Space_out_of_line.cst
! Parameters = {Lambda=346.42; Step_1=17.321; dy1=-16.521; dx1=1039; L_HA=400; MT=2.54; Rad_Dielectric=30; Rad_Lower=7.3; Rad_Upper=30; a_HA=580; a_WG=246; b_HA=500; b_WG=121; c_HA=0; c_WG=187; d_feed=85; h_feed=15; h_lower=18; h_upper=40}
! Header version: 2018
! Port assignment regex: !\s*Touchstone port\s*([0-9]+)\s*=\s*(CST MWS port|CST DS port)\s*([0-9]+|Zmin|Zmax)\s*\(\"(.*)\"\)(\s*mode\s*([0-9]+))?.*
! Touchstone port assignment:
! Touchstone port 1 = CST MWS port 1 ("")
! Touchstone port 2 = CST MWS port 2 ("")
# GHz S DB R 50
0.5                    -0.147579        -122.579         -63.4553         46.9505         -63.4553         46.9505      -0.00671783         151.116
0.501                  -0.153112         -123.02         -63.3431         44.6185         -63.3431         44.6199      -0.00675669         151.051
0.502                  -0.158823        -123.463         -63.2269         42.2713          -63.227         42.2739      -0.00679696         150.985
0.503                  -0.164716        -123.908         -63.1067         39.9094         -63.1069         39.9133      -0.00683866          150.92
0.504                  -0.170793        -124.354         -62.9826         37.5336         -62.9828         37.5386      -0.00688177         150.854
0.505                  -0.177058        -124.803         -62.8545         35.1445         -62.8548         35.1506      -0.00692632         150.789
0.506                  -0.183513        -125.254         -62.7224         32.7427         -62.7228         32.7498      -0.00697229         150.723
0.507                  -0.190161        -125.706         -62.5865         30.3288         -62.5869         30.3369       -0.0070197         150.657
0.508                  -0.197005        -126.161         -62.4467         27.9036         -62.4472         27.9125      -0.00706855         150.591
0.509                  -0.204049        -126.617          -62.303         25.4674         -62.3036         25.4772      -0.00711884         150.525
0.51                   -0.211295        -127.076         -62.1557          23.021         -62.1564         23.0316      -0.00717058         150.459
0.511                  -0.218747        -127.537         -62.0046         20.5649         -62.0054         20.5762      -0.00722378         150.393
0.512                  -0.226407        -127.999           -61.85         18.0996         -61.8508         18.1115      -0.00727843         150.327
0.513                   -0.23428        -128.464         -61.6918         15.6256         -61.6927         15.6381      -0.00733455         150.261
0.514                  -0.242368        -128.931         -61.5302         13.1434         -61.5311         13.1563      -0.00739213         150.195
0.515                  -0.250675          -129.4         -61.3652         10.6533         -61.3662         10.6667      -0.00745118         150.128
0.516                  -0.259204        -129.871          -61.197         8.15585         -61.1981         8.16962      -0.00751171         150.062
0.517                  -0.267959        -130.344         -61.0257         5.65132         -61.0269         5.66543      -0.00757372         149.995
0.518                  -0.276943        -130.819         -60.8514         3.14007         -60.8526         3.15444      -0.00763721         149.928
0.519                   -0.28616        -131.296         -60.6742        0.622375         -60.6754        0.636956      -0.00770219         149.862
0.52                   -0.295614        -131.776         -60.4942        -1.90152         -60.4955        -1.88678      -0.00776866         149.795
0.521                  -0.305308        -132.257         -60.3116         -4.4314         -60.3129        -4.41655      -0.00783663         149.728
0.522                  -0.315246        -132.741         -60.1264        -6.96708         -60.1278        -6.95217       -0.0079061         149.661
0.523                  -0.325431        -133.227         -59.9389        -9.50843         -59.9403         -9.4935      -0.00797707         149.594
0.524                  -0.335869        -133.715         -59.7492        -12.0553         -59.7506        -12.0404      -0.00804955         149.526
0.525                  -0.346562        -134.205         -59.5573        -14.6077         -59.5588        -14.5929      -0.00812355         149.459
0.526                  -0.357515        -134.698         -59.3636        -17.1655          -59.365        -17.1508      -0.00819907         149.392
0.527                  -0.368732        -135.193          -59.168        -19.7287         -59.1694        -19.7141      -0.00827611         149.324
0.528                  -0.380217         -135.69         -58.9707        -22.2973         -58.9722        -22.2829      -0.00835467         149.257
0.529                  -0.391974        -136.189          -58.772        -24.8714         -58.7734        -24.8572      -0.00843477         149.189
0.53                   -0.404007         -136.69         -58.5719         -27.451         -58.5733         -27.437       -0.0085164         149.121
0.531                  -0.416322        -137.194         -58.3705        -30.0361          -58.372        -30.0224      -0.00859958         149.053
0.532                  -0.428922          -137.7         -58.1682        -32.6268         -58.1696        -32.6134      -0.00868429         148.985
0.533                  -0.441812        -138.208         -57.9649        -35.2232         -57.9662        -35.2101      -0.00877056         148.917
0.534                  -0.454996        -138.718         -57.7608        -37.8255         -57.7622        -37.8127      -0.00885838         148.849
0.535                  -0.468479        -139.231         -57.5561        -40.4336         -57.5574        -40.4212      -0.00894776         148.781
0.536                  -0.482267        -139.746          -57.351        -43.0478         -57.3523        -43.0358       -0.0090387         148.712
0.537                  -0.496363        -140.263         -57.1455        -45.6681         -57.1468        -45.6565      -0.00913121         148.644
0.538                  -0.510772        -140.783         -56.9399        -48.2947         -56.9411        -48.2835      -0.00922529         148.575
0.539                    -0.5255        -141.305         -56.7342        -50.9275         -56.7354        -50.9167      -0.00932095         148.507
0.54                   -0.540552        -141.829         -56.5286        -53.5668         -56.5298        -53.5564      -0.00941819         148.438
0.541                  -0.555933        -142.356         -56.3233        -56.2125         -56.3244        -56.2026      -0.00951701         148.369
0.542                  -0.571647        -142.885         -56.1184        -58.8648         -56.1194        -58.8553      -0.00961743           148.3
0.543                  -0.587701        -143.417          -55.914        -61.5236          -55.915        -61.5146      -0.00971945         148.231
0.544                    -0.6041         -143.95         -55.7103         -64.189         -55.7112        -64.1805      -0.00982307         148.162
0.545                  -0.620848        -144.487         -55.5074         -66.861         -55.5082         -66.853      -0.00992829         148.093
0.546                  -0.637953        -145.025         -55.3054        -69.5396         -55.3062        -69.5321       -0.0100351         148.023
0.547                  -0.655419        -145.566         -55.1045        -72.2247         -55.1052        -72.2176       -0.0101436         147.954
0.548                  -0.673252        -146.109         -54.9047        -74.9162         -54.9053        -74.9096       -0.0102537         147.884
0.549                  -0.691458        -146.655         -54.7062         -77.614         -54.7068         -77.608       -0.0103654         147.814
0.55                   -0.710043        -147.203         -54.5091        -80.3181         -54.5096        -80.3125       -0.0104787         147.744
0.551                  -0.729013        -147.754         -54.3135        -83.0281         -54.3139        -83.0231       -0.0105937         147.674
0.552                  -0.748374        -148.307         -54.1195        -85.7441         -54.1199        -85.7395       -0.0107104         147.604
0.553                  -0.768133        -148.863         -53.9273        -88.4656         -53.9276        -88.4616       -0.0108287         147.534
0.554                  -0.788295        -149.421         -53.7368        -91.1926         -53.7371         -91.189       -0.0109487         147.464
0.555                  -0.808867        -149.981         -53.5482        -93.9246         -53.5484        -93.9215       -0.0110703         147.393
0.556                  -0.829856        -150.544         -53.3616        -96.6615         -53.3618        -96.6588       -0.0111936         147.323
0.557                  -0.851268        -151.109         -53.1771        -99.4028         -53.1771        -99.4006       -0.0113186         147.252
0.558                   -0.87311        -151.677         -52.9946        -102.148         -52.9946        -102.147       -0.0114453         147.181
0.559                  -0.895389        -152.247         -52.8143        -104.897         -52.8143        -104.896       -0.0115737          147.11
0.56                   -0.918111         -152.82         -52.6363         -107.65         -52.6362        -107.649       -0.0117038         147.039
0.561                  -0.941283        -153.395         -52.4605        -110.405         -52.4604        -110.405       -0.0118357         146.968
0.562                  -0.964914        -153.972         -52.2871        -113.163         -52.2869        -113.163       -0.0119692         146.897
0.563                  -0.989009        -154.552          -52.116        -115.923         -52.1158        -115.924       -0.0121045         146.825
0.564                   -1.01358        -155.135         -51.9472        -118.685          -51.947        -118.686       -0.0122416         146.754
0.565                   -1.03862         -155.72         -51.7809        -121.448         -51.7806        -121.449       -0.0123804         146.682
0.566                   -1.06415        -156.307          -51.617        -124.211         -51.6166        -124.213        -0.012521          146.61
0.567                   -1.09018        -156.897         -51.4554        -126.974         -51.4551        -126.977       -0.0126634         146.538
0.568                   -1.11671        -157.489         -51.2963        -129.738         -51.2959         -129.74       -0.0128076         146.466
0.569                   -1.14375        -158.084         -51.1395          -132.5         -51.1391        -132.503       -0.0129536         146.394
0.57                     -1.1713        -158.681         -50.9852        -135.262         -50.9847        -135.265       -0.0131014         146.322
0.571                   -1.19938        -159.281         -50.8331        -138.021         -50.8327        -138.025        -0.013251         146.249
0.572                     -1.228        -159.883         -50.6834        -140.779         -50.6829        -140.783       -0.0134025         146.176
0.573                   -1.25715        -160.488          -50.536        -143.534         -50.5355        -143.538       -0.0135559         146.104
0.574                   -1.28685        -161.094         -50.3907        -146.286         -50.3902        -146.291       -0.0137111         146.031
0.575                   -1.31711        -161.704         -50.2477        -149.036         -50.2472         -149.04       -0.0138683         145.957
0.576                   -1.34793        -162.315         -50.1068        -151.781         -50.1063        -151.785       -0.0140273         145.884
0.577                   -1.37932        -162.929          -49.968        -154.522         -49.9674        -154.527       -0.0141883         145.811
0.578                   -1.41129        -163.546         -49.8312        -157.259         -49.8306        -157.264       -0.0143513         145.737
0.579                   -1.44385        -164.164         -49.6963        -159.992         -49.6957        -159.997       -0.0145162         145.664
0.58                      -1.477        -164.785         -49.5633         -162.72         -49.5627        -162.725       -0.0146831          145.59
0.581                   -1.51075        -165.409         -49.4321        -165.443         -49.4315        -165.448        -0.014852         145.516
0.582                   -1.54512        -166.034         -49.3026         -168.16          -49.302        -168.166        -0.015023         145.441
0.583                   -1.58009        -166.662         -49.1748        -170.872         -49.1742        -170.878        -0.015196         145.367
0.584                    -1.6157        -167.292         -49.0485        -173.579          -49.048        -173.584       -0.0153711         145.293
0.585                   -1.65193        -167.924         -48.9238         -176.28         -48.9232        -176.285       -0.0155483         145.218
0.586                    -1.6888        -168.559         -48.8004        -178.975         -48.7999        -178.981       -0.0157277         145.143
0.587                   -1.72631        -169.195         -48.6784         178.335         -48.6779          178.33       -0.0159092         145.068
0.588                   -1.76447        -169.834         -48.5577         175.652         -48.5572         175.646        -0.016093         144.993
0.589                   -1.80329        -170.475         -48.4381         172.974         -48.4376         172.968       -0.0162789         144.918
0.59                    -1.84276        -171.118         -48.3197         170.301         -48.3192         170.296       -0.0164671         144.842
0.591                    -1.8829        -171.763         -48.2022         167.635         -48.2017          167.63       -0.0166576         144.767
0.592                    -1.9237        -172.409         -48.0857         164.974         -48.0852         164.969       -0.0168505         144.691
0.593                   -1.96518        -173.058         -47.9701         162.319         -47.9696         162.314       -0.0170457         144.615
0.594                   -2.00733        -173.709         -47.8553         159.669         -47.8548         159.664       -0.0172433         144.538
0.595                   -2.05015        -174.362         -47.7412         157.024         -47.7407         157.019       -0.0174433         144.462
0.596                   -2.09365        -175.017         -47.6277         154.384         -47.6273         154.379       -0.0176458         144.385
0.597                   -2.13783        -175.673         -47.5149         151.749         -47.5145         151.745       -0.0178509         144.309
0.598                   -2.18268        -176.332         -47.4026         149.119         -47.4022         149.115       -0.0180585         144.232
0.599                   -2.22821        -176.992         -47.2908         146.494         -47.2904         146.489       -0.0182688         144.155
0.6                     -2.27442        -177.654         -47.1794         143.872          -47.179         143.868       -0.0184818         144.077
0.601                   -2.32129        -178.318         -47.0683         141.255          -47.068         141.251       -0.0186974             144
0.602                   -2.36883        -178.984         -46.9576         138.641         -46.9572         138.637       -0.0189159         143.922
0.603                   -2.41704        -179.652         -46.8471         136.031         -46.8468         136.027       -0.0191372         143.844
0.604                    -2.4659         179.678         -46.7369         133.424         -46.7365         133.421       -0.0193614         143.766
0.605                   -2.51542         179.006         -46.6268          130.82         -46.6265         130.817       -0.0195886         143.688
0.606                   -2.56558         178.332         -46.5169         128.219         -46.5166         128.216       -0.0198189         143.609
0.607                   -2.61639         177.656          -46.407          125.62         -46.4068         125.617       -0.0200522          143.53
0.608                   -2.66783         176.978         -46.2973         123.024          -46.297         123.021       -0.0202888         143.451
0.609                   -2.71991         176.297         -46.1876         120.429         -46.1873         120.426       -0.0205286         143.372
0.61                    -2.77261         175.613         -46.0779         117.836         -46.0777         117.833       -0.0207717         143.293
0.611                   -2.82594         174.927         -45.9682         115.244          -45.968         115.242       -0.0210183         143.213
0.612                    -2.8799         174.238         -45.8585         112.653         -45.8583         112.651       -0.0212683         143.133
0.613                    -2.9345         173.546         -45.7488         110.063         -45.7486         110.061        -0.021522         143.053
0.614                   -2.98973          172.85         -45.6391         107.473         -45.6389         107.471       -0.0217794         142.973
0.615                   -3.04562          172.15         -45.5292         104.884         -45.5291         104.882       -0.0220406         142.892
0.616                   -3.10218         171.447         -45.4194         102.294         -45.4192         102.293       -0.0223058         142.812
0.617                   -3.15944         170.739         -45.3094         99.7044         -45.3093         99.7029       -0.0225749         142.731
0.618                   -3.21743         170.026         -45.1994          97.114         -45.1993         97.1126       -0.0228482         142.649
0.619                   -3.27619         169.308         -45.0894         94.5228         -45.0892         94.5216       -0.0231257         142.568
0.62                    -3.33577         168.585         -44.9793         91.9306         -44.9791         91.9295       -0.0234076         142.486
0.621                   -3.39623         167.856         -44.8691         89.3372          -44.869         89.3362        -0.023694         142.404
0.622                   -3.45765          167.12         -44.7589         86.7424         -44.7588         86.7414        -0.023985         142.322
0.623                    -3.5201         166.379         -44.6487         84.1459         -44.6486         84.1451       -0.0242808         142.239
0.624                   -3.58367          165.63         -44.5385         81.5476         -44.5384         81.5469       -0.0245815         142.157
0.625                   -3.64846         164.875         -44.4282         78.9473         -44.4281         78.9467       -0.0248872         142.074
0.626                   -3.71459         164.113          -44.318          76.345          -44.318         76.3445       -0.0251981          141.99
0.627                   -3.78217         163.343         -44.2079         73.7404         -44.2078         73.7399       -0.0255144         141.907
0.628                   -3.85131         162.566         -44.0978         71.1334         -44.0978          71.133       -0.0258361         141.823
0.629                   -3.92216         161.783         -43.9878         68.5239         -43.9878         68.5236       -0.0261634         141.739
