! TOUCHSTONE file generated by CST MICROWAVE STUDIO
! Date and time: Fri Oct  2 18:38:45 2020
! Project name: Scenario_1_Free_Space_out_of_line.cst
! Parameters = {Lambda=346.42; Step_1=17.321; dy1=-33.862; dx1=173; L_HA=400; MT=2.54; Rad_Dielectric=30; Rad_Lower=7.3; Rad_Upper=30; a_HA=580; a_WG=246; b_HA=500; b_WG=121; c_HA=0; c_WG=187; d_feed=85; h_feed=15; h_lower=18; h_upper=40}
! Header version: 2018
! Port assignment regex: !\s*Touchstone port\s*([0-9]+)\s*=\s*(CST MWS port|CST DS port)\s*([0-9]+|Zmin|Zmax)\s*\(\"(.*)\"\)(\s*mode\s*([0-9]+))?.*
! Touchstone port assignment:
! Touchstone port 1 = CST MWS port 1 ("")
! Touchstone port 2 = CST MWS port 2 ("")
# GHz S DB R 50
0.5                     -0.16119         -122.71         -55.9798         170.253         -55.9798         170.253      -0.00691023         151.079
0.501                   -0.16737        -123.148         -55.7826         168.961         -55.7825          168.96      -0.00695986         151.014
0.502                  -0.173672        -123.587         -55.5854         167.659         -55.5853         167.658      -0.00700896         150.948
0.503                  -0.180096        -124.028         -55.3884         166.348         -55.3882         166.347      -0.00705756         150.883
0.504                  -0.186643         -124.47         -55.1917         165.029         -55.1915         165.028       -0.0071057         150.817
0.505                  -0.193315        -124.914         -54.9952           163.7          -54.995         163.699      -0.00715343         150.752
0.506                  -0.200112         -125.36         -54.7992         162.363         -54.7989         162.361      -0.00720078         150.686
0.507                  -0.207035        -125.808         -54.6036         161.017         -54.6034         161.015       -0.0072478          150.62
0.508                  -0.214087        -126.257         -54.4086         159.663         -54.4083          159.66      -0.00729454         150.554
0.509                  -0.221267        -126.708         -54.2142           158.3         -54.2139         158.297      -0.00734103         150.488
0.51                   -0.228579        -127.161         -54.0204         156.929         -54.0201         156.926      -0.00738733         150.422
0.511                  -0.236023        -127.616         -53.8273          155.55          -53.827         155.546      -0.00743349         150.356
0.512                  -0.243601        -128.073         -53.6351         154.163         -53.6348         154.159      -0.00747955          150.29
0.513                  -0.251314        -128.532         -53.4436         152.768         -53.4434         152.765      -0.00752556         150.224
0.514                  -0.259165        -128.993         -53.2531         151.367         -53.2529         151.363      -0.00757158         150.157
0.515                  -0.267156        -129.455         -53.0635         149.958         -53.0633         149.954      -0.00761766         150.091
0.516                  -0.275288         -129.92         -52.8749         148.543         -52.8747         148.539      -0.00766386         150.024
0.517                  -0.283563        -130.387         -52.6874         147.122         -52.6872         147.118      -0.00771022         149.958
0.518                  -0.291985        -130.856         -52.5009         145.695         -52.5008          145.69      -0.00775681         149.891
0.519                  -0.300555        -131.327         -52.3155         144.262         -52.3154         144.257      -0.00780368         149.824
0.52                   -0.309275          -131.8         -52.1312         142.824         -52.1312         142.819      -0.00785089         149.757
0.521                   -0.31815        -132.275         -51.9481         141.381         -51.9481         141.376      -0.00789851          149.69
0.522                  -0.327181        -132.753         -51.7662         139.934         -51.7662         139.929      -0.00794659         149.623
0.523                  -0.336371        -133.233         -51.5854         138.482         -51.5855         138.478      -0.00799519         149.555
0.524                  -0.345723        -133.715         -51.4059         137.027          -51.406         137.023      -0.00804439         149.488
0.525                  -0.355242        -134.199         -51.2276         135.569         -51.2277         135.565      -0.00809424         149.421
0.526                  -0.364929        -134.686         -51.0505         134.108         -51.0506         134.104      -0.00814481         149.353
0.527                   -0.37479        -135.175         -50.8745         132.644         -50.8747          132.64      -0.00819617         149.285
0.528                  -0.384827        -135.667         -50.6998         131.178         -50.7001         131.174      -0.00824839         149.217
0.529                  -0.395045        -136.161         -50.5263         129.711         -50.5266         129.707      -0.00830153          149.15
0.53                   -0.405448        -136.658          -50.354         128.241         -50.3543         128.238      -0.00835568         149.082
0.531                   -0.41604        -137.157         -50.1828         126.771         -50.1831         126.768      -0.00841089         149.013
0.532                  -0.426826        -137.659         -50.0127           125.3         -50.0131         125.297      -0.00846725         148.945
0.533                  -0.437811        -138.164         -49.8438         123.829         -49.8442         123.825      -0.00852482         148.877
0.534                     -0.449        -138.671          -49.676         122.357         -49.6764         122.354      -0.00858369         148.809
0.535                  -0.460399        -139.182         -49.5092         120.886         -49.5096         120.883      -0.00864392          148.74
0.536                  -0.472012        -139.694         -49.3434         119.414         -49.3438         119.412      -0.00870561         148.671
0.537                  -0.483846         -140.21         -49.1786         117.944          -49.179         117.941      -0.00876882         148.603
0.538                  -0.495907        -140.729         -49.0147         116.474         -49.0151         116.472      -0.00883364         148.534
0.539                  -0.508201        -141.251         -48.8517         115.005         -48.8522         115.003      -0.00890014         148.465
0.54                   -0.520736        -141.775         -48.6896         113.538         -48.6901         113.536      -0.00896842         148.396
0.541                  -0.533518        -142.303         -48.5283         112.072         -48.5288          112.07      -0.00903854         148.326
0.542                  -0.546554        -142.833         -48.3678         110.607         -48.3683         110.605      -0.00911061         148.257
0.543                  -0.559853        -143.367          -48.208         109.144         -48.2085         109.143       -0.0091847         148.187
0.544                  -0.573422        -143.904         -48.0488         107.682         -48.0493         107.681      -0.00926089         148.118
0.545                   -0.58727        -144.445         -47.8903         106.223         -47.8908         106.222      -0.00933928         148.048
0.546                  -0.601405        -144.988         -47.7324         104.765         -47.7329         104.764      -0.00941995         147.978
0.547                  -0.615838        -145.535         -47.5751         103.309         -47.5755         103.308        -0.009503         147.908
0.548                  -0.630577        -146.086         -47.4182         101.854         -47.4187         101.854       -0.0095885         147.838
0.549                  -0.645633        -146.639         -47.2617         100.402         -47.2622         100.401      -0.00967656         147.768
0.55                   -0.661016        -147.197         -47.1057         98.9509         -47.1062         98.9507      -0.00976726         147.698
0.551                  -0.676738        -147.758           -46.95         97.5018         -46.9505         97.5017       -0.0098607         147.627
0.552                  -0.692809        -148.322         -46.7947         96.0544         -46.7951         96.0544      -0.00995696         147.557
0.553                  -0.709242         -148.89         -46.6396         94.6085           -46.64         94.6086       -0.0100561         147.486
0.554                  -0.726049        -149.462         -46.4848         93.1641         -46.4852         93.1643       -0.0101583         147.415
0.555                  -0.743243        -150.037         -46.3301         91.7209         -46.3305         91.7213       -0.0102636         147.344
0.556                  -0.760838        -150.617         -46.1756          90.279          -46.176         90.2794       -0.0103722         147.273
0.557                  -0.778848          -151.2         -46.0212         88.8381         -46.0216         88.8386        -0.010484         147.202
0.558                  -0.797288        -151.787         -45.8669         87.3981         -45.8673         87.3987       -0.0105992         147.131
0.559                  -0.816173        -152.378         -45.7127         85.9589          -45.713         85.9594       -0.0107178         147.059
0.56                   -0.835519        -152.973         -45.5585         84.5201         -45.5588         84.5208       -0.0108401         146.987
0.561                  -0.855343        -153.572         -45.4043         83.0818         -45.4046         83.0824        -0.010966         146.916
0.562                  -0.875663        -154.175           -45.25         81.6435         -45.2503         81.6442       -0.0110957         146.844
0.563                  -0.896495        -154.783         -45.0957         80.2052          -45.096         80.2059       -0.0112293         146.772
0.564                  -0.917859        -155.394         -44.9413         78.7667         -44.9415         78.7674       -0.0113668           146.7
0.565                  -0.939774         -156.01         -44.7868         77.3276          -44.787         77.3283       -0.0115084         146.627
0.566                  -0.962261         -156.63         -44.6322         75.8878         -44.6324         75.8885       -0.0116541         146.555
0.567                  -0.985341        -157.254         -44.4774         74.4471         -44.4776         74.4478        -0.011804         146.482
0.568                   -1.00904        -157.883         -44.3225         73.0051         -44.3227         73.0058       -0.0119583         146.409
0.569                   -1.03337        -158.516         -44.1675         71.5618         -44.1676         71.5624        -0.012117         146.337
0.57                    -1.05836        -159.153         -44.0122         70.1167         -44.0124         70.1173       -0.0122802         146.264
0.571                   -1.08403        -159.795         -43.8568         68.6697         -43.8569         68.6703       -0.0124479          146.19
0.572                   -1.11042        -160.441         -43.7012         67.2205         -43.7013         67.2211       -0.0126203         146.117
0.573                   -1.13754        -161.091         -43.5454         65.7689         -43.5455         65.7695       -0.0127975         146.044
0.574                   -1.16542        -161.747         -43.3894         64.3147         -43.3895         64.3151       -0.0129795          145.97
0.575                    -1.1941        -162.406         -43.2332         62.8575         -43.2333         62.8579       -0.0131664         145.896
0.576                   -1.22359         -163.07         -43.0768         61.3971         -43.0769         61.3975       -0.0133582         145.822
0.577                   -1.25393        -163.738         -42.9203         59.9333         -42.9203         59.9337       -0.0135551         145.748
0.578                   -1.28515        -164.411         -42.7635         58.4659         -42.7636         58.4661       -0.0137572         145.674
0.579                   -1.31728        -165.088         -42.6066         56.9945         -42.6067         56.9947       -0.0139643           145.6
0.58                    -1.35035        -165.769         -42.4495          55.519         -42.4496         55.5192       -0.0141768         145.525
0.581                   -1.38439        -166.455         -42.2923         54.0391         -42.2924         54.0392       -0.0143945         145.451
0.582                   -1.41944        -167.145         -42.1349         52.5545          -42.135         52.5546       -0.0146175         145.376
0.583                   -1.45554         -167.84         -41.9775         51.0652         -41.9775         51.0652       -0.0148459         145.301
0.584                   -1.49271        -168.538         -41.8199         49.5707         -41.8199         49.5707       -0.0150797         145.226
0.585                     -1.531        -169.241         -41.6623          48.071         -41.6623          48.071        -0.015319         145.151
0.586                   -1.57043        -169.947         -41.5046         46.5658         -41.5046         46.5657       -0.0155638         145.075
0.587                   -1.61106        -170.658         -41.3468         45.0549         -41.3468         45.0548        -0.015814             145
0.588                   -1.65291        -171.372         -41.1891         43.5382         -41.1891          43.538       -0.0160698         144.924
0.589                   -1.69602        -172.089         -41.0314         42.0153         -41.0314         42.0151       -0.0163311         144.848
0.59                    -1.74044        -172.811         -40.8737         40.4863         -40.8737          40.486        -0.016598         144.772
0.591                   -1.78619        -173.535         -40.7161         38.9508         -40.7161         38.9505       -0.0168703         144.696
0.592                   -1.83333        -174.263         -40.5587         37.4087         -40.5587         37.4084       -0.0171482         144.619
0.593                   -1.88189        -174.994         -40.4014           35.86         -40.4014         35.8596       -0.0174315         144.543
0.594                    -1.9319        -175.727         -40.2442         34.3044         -40.2442          34.304       -0.0177203         144.466
0.595                   -1.98341        -176.463         -40.0873         32.7418         -40.0873         32.7414       -0.0180144         144.389
0.596                   -2.03646        -177.202         -39.9307         31.1721         -39.9307         31.1717        -0.018314         144.312
0.597                   -2.09108        -177.942         -39.7744         29.5953         -39.7744         29.5948       -0.0186188         144.235
0.598                   -2.14731        -178.684         -39.6184         28.0112         -39.6184         28.0107       -0.0189289         144.158
0.599                   -2.20519        -179.428         -39.4627         26.4198         -39.4627         26.4193       -0.0192442          144.08
0.6                     -2.26475         179.828         -39.3076          24.821         -39.3076         24.8205       -0.0195645         144.003
0.601                   -2.32603         179.083         -39.1528         23.2148         -39.1528         23.2143       -0.0198898         143.925
0.602                   -2.38905         178.337         -38.9986         21.6011         -38.9986         21.6006         -0.02022         143.847
0.603                   -2.45385         177.591          -38.845           19.98          -38.845         19.9795       -0.0205549         143.768
0.604                   -2.52046         176.846         -38.6919         18.3515         -38.6919         18.3509       -0.0208945          143.69
0.605                    -2.5889         176.101         -38.5395         16.7155         -38.5395         16.7149       -0.0212386         143.612
0.606                   -2.65918         175.358         -38.3878         15.0722         -38.3879         15.0716        -0.021587         143.533
0.607                   -2.73134         174.617         -38.2369         13.4215         -38.2369         13.4209       -0.0219397         143.454
0.608                   -2.80539         173.878         -38.0867         11.7636         -38.0867          11.763       -0.0222965         143.375
0.609                   -2.88134         173.141         -37.9374         10.0985         -37.9374          10.098       -0.0226572         143.296
0.61                    -2.95919         172.408          -37.789         8.42644          -37.789         8.42589       -0.0230216         143.216
0.611                   -3.03896         171.679         -37.6414         6.74745         -37.6414         6.74691       -0.0233895         143.136
0.612                   -3.12063         170.955         -37.4949          5.0617         -37.4949         5.06118       -0.0237609         143.057
0.613                    -3.2042         170.235         -37.3493         3.36937         -37.3493         3.36886       -0.0241355         142.977
0.614                   -3.28967         169.521         -37.2048         1.67063         -37.2048         1.67013        -0.024513         142.896
0.615                     -3.377         168.814         -37.0614      -0.0343216         -37.0614      -0.0347975       -0.0248934         142.816
0.616                   -3.46618         168.113         -36.9192        -1.74526         -36.9192        -1.74572       -0.0252764         142.735
0.617                   -3.55717          167.42         -36.7781        -3.46196         -36.7781         -3.4624       -0.0256619         142.654
0.618                   -3.64993         166.735         -36.6382        -5.18416         -36.6382        -5.18458       -0.0260496         142.573
0.619                   -3.74443         166.059         -36.4995        -6.91161         -36.4996        -6.91201       -0.0264393         142.492
0.62                     -3.8406         165.392         -36.3622        -8.64404         -36.3622        -8.64442        -0.026831         142.411
0.621                   -3.93839         164.735         -36.2261        -10.3811         -36.2261        -10.3815       -0.0272243         142.329
0.622                   -4.03773         164.088         -36.0914        -12.1226         -36.0914         -12.123       -0.0276192         142.247
0.623                   -4.13854         163.453          -35.958        -13.8682          -35.958        -13.8685       -0.0280154         142.165
0.624                   -4.24074          162.83          -35.826        -15.6174          -35.826        -15.6177       -0.0284128         142.083
0.625                   -4.34424         162.218         -35.6954        -17.3701         -35.6954        -17.3704       -0.0288112             142
0.626                   -4.44894          161.62         -35.5662        -19.1259         -35.5662        -19.1261       -0.0292106         141.917
0.627                   -4.55473         161.035         -35.4384        -20.8844         -35.4384        -20.8846       -0.0296108         141.834
0.628                    -4.6615         160.463         -35.3121        -22.6452         -35.3121        -22.6454       -0.0300117         141.751
0.629                   -4.76912         159.906         -35.1872         -24.408         -35.1872        -24.4082       -0.0304132         141.667
