! TOUCHSTONE file generated by CST MICROWAVE STUDIO
! Date and time: Fri Oct  2 16:29:15 2020
! Project name: Scenario_1_Free_Space_out_of_line.cst
! Parameters = {Lambda=346.42; Step_1=17.321; dy1=-33.862; dx1=346; L_HA=400; MT=2.54; Rad_Dielectric=30; Rad_Lower=7.3; Rad_Upper=30; a_HA=580; a_WG=246; b_HA=500; b_WG=121; c_HA=0; c_WG=187; d_feed=85; h_feed=15; h_lower=18; h_upper=40}
! Header version: 2018
! Port assignment regex: !\s*Touchstone port\s*([0-9]+)\s*=\s*(CST MWS port|CST DS port)\s*([0-9]+|Zmin|Zmax)\s*\(\"(.*)\"\)(\s*mode\s*([0-9]+))?.*
! Touchstone port assignment:
! Touchstone port 1 = CST MWS port 1 ("")
! Touchstone port 2 = CST MWS port 2 ("")
# GHz S DB R 50
0.5                      -0.1419        -122.744         -58.9483         81.1191         -58.9483         81.1191      -0.00662633         151.074
0.501                  -0.149093        -123.207         -58.7415         79.7205         -58.7452         79.7415      -0.00671847         151.009
0.502                  -0.156523        -123.671         -58.5344         78.3141         -58.5416         78.3551      -0.00681102         150.943
0.503                  -0.164189        -124.137         -58.3269         76.8996         -58.3374         76.9598      -0.00690396         150.878
0.504                  -0.172092        -124.604         -58.1191          75.477         -58.1326         75.5553       -0.0069973         150.812
0.505                  -0.180232        -125.072         -57.9111          74.046         -57.9274         74.1416      -0.00709103         150.746
0.506                   -0.18861        -125.541         -57.7028         72.6064         -57.7218         72.7184      -0.00718515         150.681
0.507                  -0.197225        -126.012         -57.4944          71.158         -57.5158         71.2857      -0.00727966         150.615
0.508                  -0.206078        -126.484         -57.2858         69.7008         -57.3094         69.8432      -0.00737454         150.549
0.509                  -0.215169        -126.957         -57.0771         68.2345         -57.1027         68.3908       -0.0074698         150.483
0.51                   -0.224498        -127.431         -56.8683          66.759         -56.8958         66.9283      -0.00756544         150.417
0.511                  -0.234066        -127.906         -56.6595          65.274         -56.6886         65.4556      -0.00766144          150.35
0.512                  -0.243872        -128.383         -56.4507         63.7796         -56.4812         63.9726      -0.00775781         150.284
0.513                  -0.253917        -128.861         -56.2419         62.2755         -56.2738         62.4791      -0.00785454         150.218
0.514                  -0.264201        -129.341         -56.0333         60.7615         -56.0662          60.975      -0.00795162         150.151
0.515                  -0.274724        -129.821         -55.8247         59.2376         -55.8586         59.4602      -0.00804906         150.085
0.516                  -0.285486        -130.303         -55.6164         57.7037          -55.651         57.9345      -0.00814685         150.018
0.517                  -0.296488        -130.786         -55.4083         56.1597         -55.4435         56.3979      -0.00824498         149.952
0.518                  -0.307729        -131.271         -55.2005         54.6053         -55.2361         54.8503      -0.00834345         149.885
0.519                  -0.319209        -131.757         -54.9931         53.0407         -55.0289         53.2916      -0.00844227         149.818
0.52                   -0.330929        -132.244          -54.786         51.4656          -54.822         51.7218      -0.00854141         149.751
0.521                  -0.342889        -132.732         -54.5793         49.8801         -54.6153         50.1407      -0.00864088         149.684
0.522                  -0.355089        -133.222         -54.3732         48.2841         -54.4091         48.5484      -0.00874068         149.617
0.523                  -0.367529        -133.713         -54.1676         46.6775         -54.2032         46.9448      -0.00884081          149.55
0.524                  -0.380209        -134.205         -53.9626         45.0604         -53.9978         45.3298      -0.00894125         149.483
0.525                  -0.393129        -134.699         -53.7582         43.4327         -53.7929         43.7036        -0.009042         149.415
0.526                  -0.406289        -135.194         -53.5546         41.7945         -53.5887         42.0662      -0.00914306         149.348
0.527                   -0.41969        -135.691         -53.3517         40.1458         -53.3851         40.4175      -0.00924444          149.28
0.528                  -0.433332        -136.188         -53.1497         38.4866         -53.1823         38.7576      -0.00934611         149.213
0.529                  -0.447214        -136.688         -52.9485         36.8171         -52.9802         37.0866      -0.00944808         149.145
0.53                   -0.461337        -137.188         -52.7483         35.1372          -52.779         35.4046      -0.00955035         149.077
0.531                  -0.475702         -137.69         -52.5491         33.4472         -52.5788         33.7118      -0.00965291         149.009
0.532                  -0.490308        -138.194         -52.3509          31.747         -52.3795         32.0082      -0.00975576         148.941
0.533                  -0.505155        -138.699         -52.1538          30.037         -52.1813          30.294       -0.0098589         148.873
0.534                  -0.520245        -139.205         -51.9579         28.3172         -51.9841         28.5695      -0.00996232         148.805
0.535                  -0.535576        -139.713         -51.7632         26.5879         -51.7882         26.8347        -0.010066         148.737
0.536                   -0.55115        -140.223         -51.5698         24.8492         -51.5935           25.09         -0.01017         148.669
0.537                  -0.566968        -140.734         -51.3776         23.1014         -51.4001         23.3356       -0.0102742           148.6
0.538                  -0.583028        -141.246         -51.1869         21.3447          -51.208         21.5717       -0.0103788         148.532
0.539                  -0.599332        -141.761         -50.9976         19.5794         -51.0174         19.7986       -0.0104835         148.463
0.54                   -0.615881        -142.276         -50.8097         17.8057         -50.8282         18.0167       -0.0105886         148.394
0.541                  -0.632675        -142.793         -50.6234         16.0241         -50.6406         16.2263       -0.0106939         148.325
0.542                  -0.649714        -143.312         -50.4386         14.2347         -50.4545         14.4278       -0.0107995         148.256
0.543                  -0.666999        -143.833         -50.2554          12.438           -50.27         12.6214       -0.0109053         148.187
0.544                  -0.684531        -144.355         -50.0739         10.6344         -50.0872         10.8077       -0.0110114         148.118
0.545                  -0.702311        -144.879          -49.894         8.82405         -49.9061         8.98694       -0.0111178         148.049
0.546                  -0.720339        -145.405         -49.7158         7.00752         -49.7267         7.15966       -0.0112244          147.98
0.547                  -0.738617        -145.932         -49.5394         5.18517          -49.549         5.32626       -0.0113312          147.91
0.548                  -0.757146        -146.462         -49.3647         3.35742         -49.3732          3.4872       -0.0114384          147.84
0.549                  -0.775926        -146.993         -49.1917         1.52468         -49.1992         1.64293       -0.0115457         147.771
0.55                   -0.794959        -147.525         -49.0206       -0.312612          -49.027       -0.206055       -0.0116534         147.701
0.551                  -0.814247         -148.06         -48.8513          -2.154         -48.8567        -2.05928       -0.0117612         147.631
0.552                   -0.83379        -148.597         -48.6838        -3.99905         -48.6883        -3.91627       -0.0118694         147.561
0.553                  -0.853591        -149.136         -48.5181         -5.8473         -48.5218         -5.7765       -0.0119778         147.491
0.554                   -0.87365        -149.676         -48.3542         -7.6983         -48.3571         -7.6395       -0.0120865          147.42
0.555                   -0.89397        -150.219         -48.1922        -9.55159         -48.1944        -9.50477       -0.0121954          147.35
0.556                  -0.914553        -150.763         -48.0319        -11.4067         -48.0335        -11.3718       -0.0123046         147.279
0.557                  -0.935401         -151.31         -47.8735        -13.2632         -47.8745        -13.2401       -0.0124141         147.209
0.558                  -0.956515        -151.859         -47.7169        -15.1207         -47.7173        -15.1092       -0.0125239         147.138
0.559                  -0.977899         -152.41         -47.5621        -16.9786         -47.5621        -16.9786       -0.0126339         147.067
0.56                   -0.999555        -152.963          -47.409        -18.8367         -47.4086        -18.8479       -0.0127443         146.996
0.561                   -1.02149        -153.519         -47.2576        -20.6943         -47.2569        -20.7166       -0.0128549         146.925
0.562                   -1.04369        -154.077         -47.1079        -22.5512          -47.107        -22.5842       -0.0129659         146.854
0.563                   -1.06618        -154.637           -46.96         -24.407         -46.9588        -24.4503       -0.0130772         146.782
0.564                   -1.08895          -155.2         -46.8136        -26.2612         -46.8123        -26.3145       -0.0131888         146.711
0.565                   -1.11201        -155.765         -46.6689        -28.1134         -46.6675        -28.1764       -0.0133007         146.639
0.566                   -1.13536        -156.332         -46.5257        -29.9634         -46.5243        -30.0357       -0.0134131         146.567
0.567                   -1.15901        -156.902          -46.384        -31.8108         -46.3827        -31.8919       -0.0135258         146.495
0.568                   -1.18295        -157.475         -46.2438        -33.6553         -46.2425        -33.7448       -0.0136389         146.423
0.569                    -1.2072         -158.05          -46.105        -35.4965         -46.1039        -35.5939       -0.0137524         146.351
0.57                    -1.23176        -158.628         -45.9676        -37.3343         -45.9666        -37.4391       -0.0138664         146.278
0.571                   -1.25663        -159.209         -45.8315        -39.1683         -45.8308        -39.2801       -0.0139808         146.206
0.572                   -1.28182        -159.793         -45.6966        -40.9983         -45.6962        -41.1166       -0.0140957         146.133
0.573                   -1.30734        -160.379          -45.563        -42.8241         -45.5628        -42.9483       -0.0142111          146.06
0.574                   -1.33319        -160.969         -45.4305        -44.6455         -45.4307        -44.7752       -0.0143271         145.987
0.575                   -1.35937        -161.561         -45.2992        -46.4623         -45.2997         -46.597       -0.0144436         145.914
0.576                    -1.3859        -162.157         -45.1688        -48.2744         -45.1697        -48.4135       -0.0145608         145.841
0.577                   -1.41278        -162.755         -45.0395        -50.0817         -45.0407        -50.2247       -0.0146786         145.767
0.578                   -1.44002        -163.357         -44.9111         -51.884         -44.9127        -52.0304       -0.0147971         145.694
0.579                   -1.46763        -163.962         -44.7835        -53.6813         -44.7855        -53.8306       -0.0149163          145.62
0.58                    -1.49561        -164.571         -44.6568        -55.4735         -44.6592        -55.6252       -0.0150364         145.546
0.581                   -1.52398        -165.183         -44.5308        -57.2606         -44.5336        -57.4142       -0.0151572         145.472
0.582                   -1.55274        -165.798         -44.4055        -59.0425         -44.4087        -59.1975        -0.015279         145.398
0.583                   -1.58191        -166.417         -44.2809        -60.8192         -44.2845        -60.9752       -0.0154017         145.323
0.584                   -1.61149         -167.04         -44.1568        -62.5908         -44.1608        -62.7473       -0.0155255         145.249
0.585                   -1.64149        -167.667         -44.0332        -64.3572         -44.0377        -64.5138       -0.0156504         145.174
0.586                   -1.67194        -168.297         -43.9102        -66.1185          -43.915        -66.2748       -0.0157764         145.099
0.587                   -1.70284        -168.931         -43.7875        -67.8749         -43.7927        -68.0304       -0.0159037         145.024
0.588                    -1.7342        -169.569         -43.6653        -69.6263         -43.6708        -69.7806       -0.0160323         144.948
0.589                   -1.76604        -170.212         -43.5433        -71.3728         -43.5492        -71.5257       -0.0161624         144.873
0.59                    -1.79837        -170.858         -43.4217        -73.1147         -43.4278        -73.2657       -0.0162939         144.797
0.591                   -1.83121        -171.509         -43.3002        -74.8519         -43.3066        -75.0007       -0.0164272         144.721
0.592                   -1.86457        -172.164          -43.179        -76.5847         -43.1856         -76.731       -0.0165621         144.645
0.593                   -1.89848        -172.823         -43.0578        -78.3132         -43.0648        -78.4567       -0.0166989         144.569
0.594                   -1.93294        -173.487         -42.9368        -80.0375          -42.944        -80.1779       -0.0168378         144.492
0.595                   -1.96799        -174.156         -42.8158        -81.7578         -42.8232        -81.8949       -0.0169787         144.416
0.596                   -2.00363        -174.829         -42.6949        -83.4743         -42.7024        -83.6079       -0.0171219         144.339
0.597                   -2.03989        -175.508         -42.5739        -85.1872         -42.5816         -85.317       -0.0172675         144.262
0.598                   -2.07679        -176.191         -42.4529        -86.8967         -42.4607        -87.0225       -0.0174156         144.185
0.599                   -2.11436        -176.879         -42.3319        -88.6029         -42.3397        -88.7247       -0.0175665         144.107
0.6                     -2.15262        -177.572         -42.2107        -90.3062         -42.2186        -90.4236       -0.0177202         144.029
0.601                    -2.1916         -178.27         -42.0893        -92.0066         -42.0972        -92.1197        -0.017877         143.952
0.602                   -2.23132        -178.974         -41.9678        -93.7046         -41.9757        -93.8131       -0.0180371         143.873
0.603                   -2.27181        -179.683         -41.8461        -95.4001          -41.854        -95.5041       -0.0182006         143.795
0.604                    -2.3131         179.603         -41.7242        -97.0936         -41.7321        -97.1929       -0.0183678         143.717
0.605                   -2.35523         178.883         -41.6021        -98.7852         -41.6098        -98.8797       -0.0185388         143.638
0.606                   -2.39822         178.157         -41.4797        -100.475         -41.4873        -100.565       -0.0187139         143.559
0.607                   -2.44211         177.425         -41.3571        -102.164         -41.3646        -102.249       -0.0188932         143.479
0.608                   -2.48694         176.688         -41.2342        -103.851         -41.2415        -103.931       -0.0190771           143.4
0.609                   -2.53275         175.945          -41.111        -105.538         -41.1181        -105.613       -0.0192657          143.32
0.61                    -2.57957         175.195         -40.9874        -107.224         -40.9943        -107.294       -0.0194593          143.24
0.611                   -2.62745          174.44         -40.8636        -108.909         -40.8703        -108.975       -0.0196581          143.16
0.612                   -2.67643         173.678         -40.7395        -110.595         -40.7459        -110.656       -0.0198624          143.08
0.613                   -2.72657          172.91          -40.615         -112.28         -40.6212        -112.337       -0.0200724         142.999
0.614                   -2.77789         172.136         -40.4903        -113.966         -40.4961        -114.018       -0.0202883         142.918
0.615                   -2.83047         171.356         -40.3652        -115.653         -40.3707          -115.7       -0.0205104         142.837
0.616                   -2.88434         170.569         -40.2397         -117.34         -40.2449        -117.383        -0.020739         142.756
0.617                   -2.93957         169.775          -40.114        -119.028         -40.1188        -119.067       -0.0209743         142.674
0.618                   -2.99622         168.975          -39.988        -120.718         -39.9924        -120.753       -0.0212165         142.592
0.619                   -3.05434         168.169         -39.8616        -122.409         -39.8657         -122.44       -0.0214659          142.51
0.62                    -3.11399         167.356          -39.735        -124.102         -39.7387        -124.129       -0.0217226         142.428
0.621                   -3.17525         166.536          -39.608        -125.797         -39.6113        -125.821        -0.021987         142.345
0.622                   -3.23818          165.71         -39.4808        -127.494         -39.4837        -127.514       -0.0222591         142.262
0.623                   -3.30286         164.878         -39.3534        -129.194         -39.3559         -129.21       -0.0225392         142.179
0.624                   -3.36935         164.038         -39.2257        -130.896         -39.2277         -130.91       -0.0228276         142.095
0.625                   -3.43773         163.193         -39.0977        -132.601         -39.0994        -132.612       -0.0231242         142.012
0.626                   -3.50809         162.341         -38.9696        -134.309         -38.9708        -134.317       -0.0234294         141.928
0.627                   -3.58051         161.483         -38.8413        -136.021         -38.8421        -136.026       -0.0237431         141.843
0.628                   -3.65508         160.619         -38.7128        -137.736         -38.7132        -137.738       -0.0240657         141.759
0.629                   -3.73187         159.749         -38.5842        -139.454         -38.5842        -139.454        -0.024397         141.674
