! TOUCHSTONE file generated by CST MICROWAVE STUDIO
! Date and time: Fri Oct  2 16:37:35 2020
! Project name: Scenario_1_Free_Space_out_of_line.cst
! Parameters = {Lambda=346.42; Step_1=17.321; dy1=-33.862; dx1=520; L_HA=400; MT=2.54; Rad_Dielectric=30; Rad_Lower=7.3; Rad_Upper=30; a_HA=580; a_WG=246; b_HA=500; b_WG=121; c_HA=0; c_WG=187; d_feed=85; h_feed=15; h_lower=18; h_upper=40}
! Header version: 2018
! Port assignment regex: !\s*Touchstone port\s*([0-9]+)\s*=\s*(CST MWS port|CST DS port)\s*([0-9]+|Zmin|Zmax)\s*\(\"(.*)\"\)(\s*mode\s*([0-9]+))?.*
! Touchstone port assignment:
! Touchstone port 1 = CST MWS port 1 ("")
! Touchstone port 2 = CST MWS port 2 ("")
# GHz S DB R 50
0.5                    -0.151891        -122.672         -60.9096        -17.4681         -60.9081        -17.4638      -0.00660586         151.154
0.501                  -0.157436        -123.107         -60.7315        -18.9779         -60.7276        -18.9935      -0.00665577         151.088
0.502                  -0.163115        -123.545         -60.5521        -20.4982         -60.5461        -20.5335      -0.00670594         151.023
0.503                   -0.16893        -123.985         -60.3716        -22.0293         -60.3636         -22.084      -0.00675643         150.958
0.504                  -0.174887        -124.427         -60.1898        -23.5714         -60.1801        -23.6452      -0.00680728         150.892
0.505                  -0.180989        -124.871         -60.0069        -25.1245         -59.9957        -25.2171      -0.00685853         150.827
0.506                   -0.18724        -125.318          -59.823        -26.6888         -59.8104        -26.7999      -0.00691024         150.761
0.507                  -0.193645        -125.766          -59.638        -28.2644         -59.6242        -28.3936      -0.00696244         150.695
0.508                  -0.200209        -126.217         -59.4521        -29.8516         -59.4373        -29.9984      -0.00701518         150.629
0.509                  -0.206935        -126.671         -59.2652        -31.4505         -59.2496        -31.6143      -0.00706852         150.564
0.51                   -0.213828        -127.126         -59.0775        -33.0611         -59.0613        -33.2415       -0.0071225         150.498
0.511                  -0.220894        -127.584          -58.889        -34.6836         -58.8724        -34.8799      -0.00717717         150.432
0.512                  -0.228138        -128.045         -58.6998        -36.3181          -58.683        -36.5296      -0.00723259         150.365
0.513                  -0.235563        -128.507           -58.51        -37.9647         -58.4931        -38.1908       -0.0072888         150.299
0.514                  -0.243177        -128.973         -58.3196        -39.6234         -58.3028        -39.8633      -0.00734585         150.233
0.515                  -0.250983         -129.44         -58.1287        -41.2944         -58.1122        -41.5472      -0.00740381         150.166
0.516                  -0.258988         -129.91         -57.9373        -42.9776         -57.9213        -43.2424      -0.00746272           150.1
0.517                  -0.267197        -130.383         -57.7456        -44.6731         -57.7302        -44.9491      -0.00752264         150.033
0.518                  -0.275616        -130.858         -57.5537        -46.3809          -57.539         -46.667      -0.00758362         149.967
0.519                   -0.28425        -131.335         -57.3615        -48.1009         -57.3477        -48.3961      -0.00764572           149.9
0.52                   -0.293107        -131.815         -57.1692        -49.8331         -57.1565        -50.1364      -0.00770899         149.833
0.521                  -0.302192        -132.298          -56.977        -51.5774         -56.9653        -51.8877      -0.00777349         149.766
0.522                  -0.311512        -132.783         -56.7847        -53.3337         -56.7743        -53.6499      -0.00783928         149.699
0.523                  -0.321072         -133.27         -56.5926        -55.1019         -56.5835        -55.4228      -0.00790641         149.632
0.524                  -0.330881        -133.761         -56.4008        -56.8818         -56.3931        -57.2062      -0.00797494         149.564
0.525                  -0.340944        -134.254         -56.2092        -58.6732          -56.203             -59      -0.00804492         149.497
0.526                  -0.351268        -134.749          -56.018         -60.476         -56.0133        -60.8038      -0.00811641          149.43
0.527                  -0.361861        -135.247         -55.8273        -62.2897         -55.8241        -62.6175      -0.00818948         149.362
0.528                   -0.37273        -135.748         -55.6371        -64.1142         -55.6355        -64.4408      -0.00826417         149.294
0.529                  -0.383883        -136.251         -55.4475        -65.9492         -55.4475        -66.2733      -0.00834054         149.227
0.53                   -0.395326        -136.757         -55.2586        -67.7943         -55.2602        -68.1148      -0.00841866         149.159
0.531                  -0.407068        -137.266         -55.0705        -69.6491         -55.0737        -69.9649      -0.00849857         149.091
0.532                  -0.419117        -137.777         -54.8832        -71.5132         -54.8879        -71.8233      -0.00858033         149.023
0.533                   -0.43148        -138.292         -54.6968        -73.3862         -54.7029        -73.6896      -0.00866399         148.954
0.534                  -0.444165        -138.808         -54.5113        -75.2678         -54.5189        -75.5634      -0.00874961         148.886
0.535                  -0.457182        -139.328         -54.3268        -77.1573         -54.3357        -77.4443      -0.00883725         148.818
0.536                  -0.470537         -139.85         -54.1433        -79.0544         -54.1535        -79.3319      -0.00892695         148.749
0.537                  -0.484241        -140.375         -53.9609        -80.9585         -53.9722        -81.2259      -0.00901876         148.681
0.538                    -0.4983        -140.903         -53.7796        -82.8692          -53.792        -83.1257      -0.00911275         148.612
0.539                  -0.512725        -141.433         -53.5994        -84.7859         -53.6128         -85.031      -0.00920894         148.543
0.54                   -0.527523        -141.966         -53.4204        -86.7082         -53.4346        -86.9414       -0.0093074         148.474
0.541                  -0.542705        -142.502         -53.2425        -88.6355         -53.2574        -88.8564      -0.00940817         148.405
0.542                  -0.558278         -143.04         -53.0658        -90.5673         -53.0813        -90.7757      -0.00951128         148.336
0.543                  -0.574253        -143.582         -52.8903        -92.5032         -52.9063        -92.6988      -0.00961679         148.267
0.544                  -0.590637        -144.125          -52.716        -94.4426         -52.7323        -94.6254      -0.00972474         148.198
0.545                  -0.607441        -144.672         -52.5428        -96.3852         -52.5593        -96.5552      -0.00983515         148.128
0.546                  -0.624673        -145.221         -52.3708        -98.3304         -52.3873        -98.4877      -0.00994807         148.059
0.547                  -0.642344        -145.773         -52.1999        -100.278         -52.2164        -100.423       -0.0100635         147.989
0.548                  -0.660461        -146.328         -52.0301        -102.227         -52.0464         -102.36       -0.0101816         147.919
0.549                  -0.679035        -146.885         -51.8614        -104.178         -51.8775        -104.299       -0.0103022         147.849
0.55                   -0.698075        -147.444         -51.6937         -106.13         -51.7094        -106.239       -0.0104255         147.779
0.551                   -0.71759        -148.007          -51.527        -108.083         -51.5423        -108.181       -0.0105514         147.709
0.552                   -0.73759        -148.571         -51.3613        -110.037         -51.3761        -110.124       -0.0106799         147.639
0.553                  -0.758083        -149.139         -51.1965        -111.991         -51.2107        -112.068       -0.0108112         147.568
0.554                  -0.779078        -149.709         -51.0326        -113.945         -51.0461        -114.013       -0.0109451         147.498
0.555                  -0.800585        -150.281         -50.8696        -115.899         -50.8823        -115.958       -0.0110818         147.427
0.556                  -0.822613        -150.856         -50.7073        -117.853         -50.7193        -117.904       -0.0112212         147.357
0.557                  -0.845169        -151.433         -50.5458        -119.807          -50.557        -119.851       -0.0113632         147.286
0.558                  -0.868263        -152.012         -50.3851        -121.761         -50.3954        -121.798        -0.011508         147.215
0.559                  -0.891903        -152.594          -50.225        -123.715         -50.2345        -123.745       -0.0116555         147.144
0.56                   -0.916097        -153.178         -50.0655        -125.668         -50.0742        -125.693       -0.0118057         147.073
0.561                  -0.940852        -153.765         -49.9067        -127.622         -49.9145        -127.642       -0.0119586         147.001
0.562                  -0.966177        -154.353         -49.7484        -129.575         -49.7553        -129.591       -0.0121142          146.93
0.563                  -0.992078        -154.944         -49.5906        -131.529         -49.5968        -131.541       -0.0122724         146.858
0.564                   -1.01856        -155.537         -49.4334        -133.482         -49.4387        -133.491       -0.0124333         146.787
0.565                   -1.04564        -156.131         -49.2766        -135.436         -49.2812        -135.442       -0.0125967         146.715
0.566                   -1.07331        -156.728         -49.1203         -137.39         -49.1242        -137.394       -0.0127628         146.643
0.567                   -1.10158        -157.327         -48.9644        -139.345         -48.9676        -139.347       -0.0129313         146.571
0.568                   -1.13046        -157.927          -48.809          -141.3         -48.8116        -141.301       -0.0131024         146.499
0.569                   -1.15995         -158.53          -48.654        -143.256          -48.656        -143.257       -0.0132759         146.426
0.57                    -1.19006        -159.134         -48.4994        -145.214         -48.5008        -145.214       -0.0134519         146.354
0.571                   -1.22078         -159.74         -48.3452        -147.173         -48.3461        -147.172       -0.0136302         146.281
0.572                   -1.25213        -160.347         -48.1914        -149.133         -48.1919        -149.132       -0.0138108         146.209
0.573                   -1.28411        -160.956          -48.038        -151.095         -48.0381        -151.094       -0.0139937         146.136
0.574                   -1.31671        -161.566          -47.885        -153.058         -47.8848        -153.058       -0.0141788         146.063
0.575                   -1.34995        -162.178         -47.7325        -155.023          -47.732        -155.023       -0.0143661          145.99
0.576                   -1.38381        -162.792         -47.5804        -156.991         -47.5797        -156.991       -0.0145555         145.916
0.577                   -1.41831        -163.406         -47.4288        -158.961         -47.4279        -158.962       -0.0147469         145.843
0.578                   -1.45343        -164.022         -47.2777        -160.932         -47.2766        -160.934       -0.0149403          145.77
0.579                   -1.48919        -164.639          -47.127        -162.907         -47.1258        -162.909       -0.0151355         145.696
0.58                    -1.52557        -165.257         -46.9769        -164.884         -46.9756        -164.886       -0.0153327         145.622
0.581                   -1.56257        -165.877         -46.8273        -166.863         -46.8259        -166.866       -0.0155316         145.548
0.582                    -1.6002        -166.497         -46.6783        -168.845         -46.6769        -168.848       -0.0157322         145.474
0.583                   -1.63845        -167.119         -46.5298        -170.829         -46.5284        -170.833       -0.0159344           145.4
0.584                   -1.67731        -167.741          -46.382        -172.816         -46.3806        -172.821       -0.0161383         145.325
0.585                   -1.71678        -168.364         -46.2348        -174.806         -46.2335        -174.811       -0.0163436         145.251
0.586                   -1.75685        -168.988         -46.0883        -176.798          -46.087        -176.803       -0.0165504         145.176
0.587                   -1.79752        -169.613         -45.9424        -178.793         -45.9412        -178.798       -0.0167587         145.101
0.588                   -1.83879        -170.239         -45.7973          179.21         -45.7962         179.205       -0.0169682         145.026
0.589                   -1.88063        -170.865         -45.6529         177.211         -45.6518         177.205       -0.0171791         144.951
0.59                    -1.92306        -171.493         -45.5093         175.209         -45.5083         175.204       -0.0173911         144.876
0.591                   -1.96605        -172.121         -45.3664         173.205         -45.3655           173.2       -0.0176044           144.8
0.592                    -2.0096         -172.75         -45.2243         171.199         -45.2235         171.194       -0.0178188         144.724
0.593                   -2.05371        -173.379          -45.083         169.191         -45.0823         169.187       -0.0180343         144.649
0.594                   -2.09836         -174.01         -44.9426         167.182          -44.942         167.178       -0.0182509         144.573
0.595                   -2.14354        -174.641          -44.803         165.171         -44.8025         165.167       -0.0184685         144.496
0.596                   -2.18926        -175.273         -44.6642         163.159         -44.6638         163.156       -0.0186871          144.42
0.597                   -2.23549        -175.906         -44.5263         161.145         -44.5259         161.143       -0.0189067         144.343
0.598                   -2.28223         -176.54         -44.3892         159.131         -44.3889         159.129       -0.0191273         144.267
0.599                   -2.32947        -177.175          -44.253         157.116         -44.2527         157.114       -0.0193489          144.19
0.6                      -2.3772         -177.81         -44.1176           155.1         -44.1174         155.098       -0.0195715         144.113
0.601                   -2.42542        -178.447         -43.9831         153.083          -43.983         153.083        -0.019795         144.035
0.602                   -2.47412        -179.085         -43.8494         151.067         -43.8493         151.066       -0.0200196         143.958
0.603                    -2.5233        -179.725         -43.7166          149.05         -43.7165          149.05       -0.0202452          143.88
0.604                   -2.57294         179.634         -43.5846         147.034         -43.5846         147.034       -0.0204718         143.802
0.605                   -2.62305         178.992         -43.4534         145.018         -43.4534         145.018       -0.0206996         143.724
0.606                   -2.67361         178.348          -43.323         143.002          -43.323         143.003       -0.0209285         143.646
0.607                   -2.72464         177.703         -43.1934         140.987         -43.1934         140.988       -0.0211586         143.567
0.608                   -2.77612         177.055         -43.0646         138.973         -43.0646         138.974         -0.02139         143.488
0.609                   -2.82807         176.406         -42.9365         136.959         -42.9365         136.961       -0.0216228         143.409
0.61                    -2.88047         175.754         -42.8092         134.947         -42.8092         134.949        -0.021857          143.33
0.611                   -2.93334           175.1         -42.6825         132.936         -42.6825         132.939       -0.0220928         143.251
0.612                   -2.98667         174.444         -42.5565         130.926         -42.5565         130.929       -0.0223302         143.171
0.613                   -3.04049         173.785         -42.4311         128.918         -42.4311         128.921       -0.0225694         143.091
0.614                   -3.09479         173.123         -42.3064         126.911         -42.3064         126.914       -0.0228104         143.011
0.615                   -3.14959         172.458         -42.1823         124.906         -42.1822         124.909       -0.0230535         142.931
0.616                    -3.2049          171.79         -42.0587         122.903         -42.0586         122.905       -0.0232987          142.85
0.617                   -3.26073         171.119         -41.9357         120.901         -41.9356         120.903       -0.0235462          142.77
0.618                   -3.31711         170.444         -41.8131         118.901          -41.813         118.903       -0.0237962         142.689
0.619                   -3.37406         169.765         -41.6911         116.902          -41.691         116.904       -0.0240488         142.607
0.62                    -3.43159         169.082         -41.5695         114.905         -41.5693         114.907       -0.0243043         142.526
0.621                   -3.48974         168.395         -41.4483          112.91         -41.4481         112.912       -0.0245627         142.444
0.622                   -3.54854         167.704         -41.3274         110.917         -41.3273         110.919       -0.0248242         142.362
0.623                     -3.608         167.008          -41.207         108.925         -41.2069         108.927       -0.0250892         142.279
0.624                   -3.66817         166.308         -41.0869         106.935         -41.0867         106.936       -0.0253577         142.197
0.625                   -3.72909         165.602          -40.967         104.947         -40.9669         104.948       -0.0256301         142.114
0.626                   -3.79078         164.891         -40.8475          102.96         -40.8474          102.96       -0.0259064         142.031
0.627                   -3.85331         164.175         -40.7282         100.974         -40.7281         100.975        -0.026187         141.947
0.628                    -3.9167         163.454         -40.6091         98.9898         -40.6091           98.99       -0.0264721         141.863
0.629                   -3.98101         162.726         -40.4903         97.0067         -40.4902         97.0066       -0.0267618         141.779
