! TOUCHSTONE file generated by CST MICROWAVE STUDIO
! Date and time: Fri Oct  2 16:57:43 2020
! Project name: Scenario_1_Free_Space_out_of_line.cst
! Parameters = {Lambda=346.42; Step_1=17.321; dy1=-33.862; dx1=693; L_HA=400; MT=2.54; Rad_Dielectric=30; Rad_Lower=7.3; Rad_Upper=30; a_HA=580; a_WG=246; b_HA=500; b_WG=121; c_HA=0; c_WG=187; d_feed=85; h_feed=15; h_lower=18; h_upper=40}
! Header version: 2018
! Port assignment regex: !\s*Touchstone port\s*([0-9]+)\s*=\s*(CST MWS port|CST DS port)\s*([0-9]+|Zmin|Zmax)\s*\(\"(.*)\"\)(\s*mode\s*([0-9]+))?.*
! Touchstone port assignment:
! Touchstone port 1 = CST MWS port 1 ("")
! Touchstone port 2 = CST MWS port 2 ("")
# GHz S DB R 50
0.5                    -0.146214         -122.68         -62.2841        -116.188         -62.2841        -116.188      -0.00667747         151.137
0.501                  -0.151702        -123.127         -62.0812         -118.02         -62.0812         -118.02      -0.00675266         151.072
0.502                  -0.157407        -123.576         -61.8781        -119.864         -61.8781        -119.864      -0.00682836         151.006
0.503                  -0.163332        -124.026         -61.6748        -121.719         -61.6748        -121.719      -0.00690456         150.941
0.504                  -0.169477        -124.479         -61.4713        -123.587         -61.4713        -123.587      -0.00698124         150.875
0.505                  -0.175847        -124.933         -61.2677        -125.466         -61.2677        -125.466       -0.0070584          150.81
0.506                  -0.182441        -125.388         -61.0641        -127.357         -61.0641        -127.357        -0.007136         150.744
0.507                  -0.189263        -125.845         -60.8606        -129.261         -60.8606        -129.261      -0.00721404         150.678
0.508                  -0.196315        -126.304         -60.6572        -131.176         -60.6572        -131.176      -0.00729251         150.613
0.509                  -0.203598        -126.765         -60.4539        -133.104         -60.4539        -133.104      -0.00737139         150.547
0.51                   -0.211114        -127.228         -60.2509        -135.043         -60.2509        -135.043      -0.00745066         150.481
0.511                  -0.218866        -127.692         -60.0482        -136.995         -60.0482        -136.995      -0.00753031         150.415
0.512                  -0.226855        -128.158         -59.8459        -138.958         -59.8459        -138.958      -0.00761033         150.348
0.513                  -0.235084        -128.625         -59.6441        -140.934         -59.6441        -140.934      -0.00769069         150.282
0.514                  -0.243555        -129.095         -59.4428        -142.921         -59.4428        -142.921      -0.00777139         150.216
0.515                  -0.252269        -129.566          -59.242         -144.92          -59.242         -144.92      -0.00785241          150.15
0.516                  -0.261229        -130.039          -59.042        -146.931          -59.042        -146.931      -0.00793373         150.083
0.517                  -0.270438        -130.514         -58.8426        -148.953         -58.8426        -148.953      -0.00801534         150.017
0.518                  -0.279896         -130.99         -58.6441        -150.987         -58.6441        -150.987      -0.00809723          149.95
0.519                  -0.289606        -131.469         -58.4464        -153.031         -58.4464        -153.031      -0.00817938         149.883
0.52                   -0.299571        -131.949         -58.2497        -155.087         -58.2497        -155.087      -0.00826178         149.817
0.521                  -0.309792        -132.431         -58.0539        -157.153         -58.0539        -157.153      -0.00834442          149.75
0.522                  -0.320272        -132.914         -57.8592        -159.229         -57.8592        -159.229      -0.00842728         149.683
0.523                  -0.331013          -133.4         -57.6656        -161.316         -57.6656        -161.316      -0.00851036         149.616
0.524                  -0.342016        -133.888         -57.4732        -163.412         -57.4732        -163.412      -0.00859363         149.549
0.525                  -0.353285        -134.377         -57.2821        -165.518         -57.2821        -165.518       -0.0086771         149.482
0.526                  -0.364821        -134.868         -57.0922        -167.634         -57.0922        -167.634      -0.00876074         149.414
0.527                  -0.376626        -135.361         -56.9037        -169.758         -56.9037        -169.758      -0.00884456         149.347
0.528                  -0.388703        -135.856         -56.7165         -171.89         -56.7165         -171.89      -0.00892855         149.279
0.529                  -0.401054        -136.353         -56.5308        -174.031         -56.5308        -174.031       -0.0090127         149.212
0.53                   -0.413682        -136.851         -56.3465        -176.179         -56.3465        -176.179        -0.009097         149.144
0.531                  -0.426588        -137.352         -56.1638        -178.334         -56.1638        -178.334      -0.00918146         149.076
0.532                  -0.439774        -137.855         -55.9826         179.503         -55.9826         179.503      -0.00926607         149.009
0.533                  -0.453244        -138.359          -55.803         177.335          -55.803         177.335      -0.00935083         148.941
0.534                     -0.467        -138.866          -55.625          175.16          -55.625          175.16      -0.00943574         148.872
0.535                  -0.481043        -139.374         -55.4486          172.98         -55.4486          172.98      -0.00952081         148.804
0.536                  -0.495377        -139.884         -55.2738         170.796         -55.2738         170.796      -0.00960604         148.736
0.537                  -0.510004        -140.397         -55.1007         168.606         -55.1007         168.606      -0.00969145         148.668
0.538                  -0.524926        -140.911         -54.9293         166.413         -54.9293         166.413      -0.00977705         148.599
0.539                  -0.540146        -141.428         -54.7595         164.216         -54.7595         164.216      -0.00986284         148.531
0.54                   -0.555666        -141.947         -54.5914         162.016         -54.5914         162.016      -0.00994886         148.462
0.541                   -0.57149        -142.467         -54.4249         159.814         -54.4249         159.814       -0.0100351         148.393
0.542                  -0.587619         -142.99         -54.2601         157.609         -54.2601         157.609       -0.0101216         148.324
0.543                  -0.604056        -143.515         -54.0969         155.403         -54.0969         155.403       -0.0102084         148.255
0.544                  -0.620805        -144.042         -53.9353         153.195         -53.9353         153.195       -0.0102955         148.186
0.545                  -0.637868        -144.571         -53.7753         150.987         -53.7753         150.987        -0.010383         148.117
0.546                  -0.655248        -145.103         -53.6169         148.778         -53.6169         148.778       -0.0104709         148.048
0.547                  -0.672948        -145.636         -53.4601         146.569         -53.4601         146.569       -0.0105592         147.978
0.548                  -0.690971        -146.172         -53.3047         144.361         -53.3047         144.361        -0.010648         147.909
0.549                   -0.70932        -146.711         -53.1508         142.154         -53.1508         142.154       -0.0107373         147.839
0.55                      -0.728        -147.251         -52.9983         139.947         -52.9983         139.947       -0.0108272         147.769
0.551                  -0.747012        -147.794         -52.8473         137.742         -52.8473         137.742       -0.0109178         147.699
0.552                   -0.76636        -148.339         -52.6976         135.539         -52.6976         135.539       -0.0110091         147.629
0.553                  -0.786049        -148.887         -52.5491         133.338         -52.5491         133.338       -0.0111012         147.559
0.554                  -0.806082        -149.437          -52.402         131.139          -52.402         131.139       -0.0111941         147.489
0.555                  -0.826463         -149.99          -52.256         128.942          -52.256         128.942        -0.011288         147.418
0.556                  -0.847196        -150.545         -52.1112         126.748         -52.1112         126.748       -0.0113829         147.348
0.557                  -0.868286        -151.102         -51.9675         124.558         -51.9675         124.558       -0.0114789         147.277
0.558                  -0.889736        -151.662         -51.8249          122.37         -51.8249          122.37       -0.0115761         147.206
0.559                  -0.911552        -152.225         -51.6832         120.185         -51.6832         120.185       -0.0116746         147.135
0.56                   -0.933739        -152.791         -51.5425         118.004         -51.5425         118.004       -0.0117745         147.064
0.561                  -0.956302        -153.359         -51.4027         115.827         -51.4027         115.827       -0.0118759         146.993
0.562                  -0.979247         -153.93         -51.2638         113.652         -51.2638         113.652       -0.0119789         146.921
0.563                   -1.00258        -154.504         -51.1256         111.482         -51.1256         111.482       -0.0120837          146.85
0.564                    -1.0263         -155.08         -50.9882         109.315         -50.9882         109.315       -0.0121902         146.778
0.565                   -1.05043         -155.66         -50.8514         107.151         -50.8514         107.151       -0.0122988         146.706
0.566                   -1.07496        -156.243         -50.7153         104.991         -50.7153         104.991       -0.0124093         146.634
0.567                   -1.09991        -156.828         -50.5798         102.835         -50.5798         102.835       -0.0125221         146.562
0.568                   -1.12528        -157.417         -50.4448         100.682         -50.4448         100.682       -0.0126372          146.49
0.569                   -1.15108        -158.009         -50.3103         98.5327         -50.3103         98.5327       -0.0127547         146.418
0.57                    -1.17732        -158.604         -50.1762         96.3867         -50.1762         96.3867       -0.0128747         146.345
0.571                   -1.20401        -159.202         -50.0426         94.2439         -50.0426         94.2439       -0.0129974         146.273
0.572                   -1.23116        -159.804         -49.9093         92.1043         -49.9093         92.1043       -0.0131228           146.2
0.573                   -1.25878        -160.409         -49.7764         89.9678         -49.7764         89.9678       -0.0132511         146.127
0.574                   -1.28687        -161.017         -49.6437         87.8341         -49.6437         87.8341       -0.0133824         146.054
0.575                   -1.31547        -161.629         -49.5113         85.7032         -49.5113         85.7032       -0.0135169          145.98
0.576                   -1.34457        -162.245         -49.3792         83.5749         -49.3792         83.5749       -0.0136545         145.907
0.577                   -1.37419        -162.864         -49.2472          81.449         -49.2472          81.449       -0.0137954         145.833
0.578                   -1.40435        -163.487         -49.1154         79.3255         -49.1154         79.3254       -0.0139397         145.759
0.579                   -1.43506        -164.114         -48.9838          77.204         -48.9838          77.204       -0.0140875         145.686
0.58                    -1.46634        -164.744         -48.8522         75.0844         -48.8522         75.0844       -0.0142389         145.611
0.581                    -1.4982        -165.379         -48.7208         72.9665         -48.7208         72.9665       -0.0143939         145.537
0.582                   -1.53067        -166.017         -48.5894         70.8502         -48.5894         70.8502       -0.0145526         145.463
0.583                   -1.56377        -166.659         -48.4581         68.7353         -48.4581         68.7353       -0.0147151         145.388
0.584                   -1.59752        -167.306         -48.3269         66.6215         -48.3269         66.6215       -0.0148814         145.314
0.585                   -1.63194        -167.956         -48.1957         64.5086         -48.1957         64.5086       -0.0150516         145.239
0.586                   -1.66705        -168.611         -48.0645         62.3966         -48.0645         62.3966       -0.0152257         145.164
0.587                   -1.70289        -169.269         -47.9334         60.2851         -47.9334         60.2851       -0.0154038         145.088
0.588                   -1.73947        -169.932         -47.8022          58.174         -47.8022          58.174       -0.0155859         145.013
0.589                   -1.77684        -170.599         -47.6711         56.0631         -47.6711         56.0631        -0.015772         144.937
0.59                    -1.81501        -171.271           -47.54         53.9523           -47.54         53.9523       -0.0159621         144.862
0.591                   -1.85401        -171.946         -47.4089         51.8413         -47.4089         51.8413       -0.0161562         144.786
0.592                   -1.89389        -172.626         -47.2778         49.7299         -47.2778         49.7299       -0.0163544          144.71
0.593                   -1.93467        -173.309         -47.1467         47.6181         -47.1467         47.6181       -0.0165566         144.633
0.594                   -1.97639        -173.997         -47.0156         45.5057         -47.0156         45.5056       -0.0167628         144.557
0.595                   -2.01908        -174.689         -46.8846         43.3924         -46.8846         43.3924       -0.0169731          144.48
0.596                   -2.06278        -175.384         -46.7536         41.2782         -46.7536         41.2782       -0.0171873         144.404
0.597                   -2.10752        -176.083         -46.6226         39.1629         -46.6226         39.1628       -0.0174056         144.327
0.598                   -2.15334        -176.786         -46.4917         37.0463         -46.4917         37.0463       -0.0176278         144.249
0.599                   -2.20028        -177.493         -46.3609         34.9285         -46.3609         34.9285       -0.0178539         144.172
0.6                     -2.24837        -178.202         -46.2301         32.8092         -46.2301         32.8091        -0.018084         144.094
0.601                   -2.29764        -178.915         -46.0995         30.6883         -46.0995         30.6883       -0.0183179         144.017
0.602                   -2.34813         -179.63         -45.9689         28.5658         -45.9689         28.5658       -0.0185557         143.939
0.603                   -2.39986         179.652         -45.8385         26.4416         -45.8385         26.4415       -0.0187973         143.861
0.604                   -2.45288         178.932         -45.7082         24.3155         -45.7082         24.3155       -0.0190427         143.782
0.605                   -2.50719          178.21         -45.5781         22.1876         -45.5781         22.1876       -0.0192918         143.704
0.606                   -2.56283         177.487         -45.4481         20.0578         -45.4481         20.0578       -0.0195447         143.625
0.607                    -2.6198         176.762         -45.3183         17.9261         -45.3183         17.9261       -0.0198013         143.546
0.608                   -2.67813         176.036         -45.1888         15.7924         -45.1888         15.7924       -0.0200616         143.467
0.609                   -2.73783          175.31         -45.0595         13.6566         -45.0595         13.6566       -0.0203255         143.388
0.61                    -2.79889         174.584         -44.9304         11.5189         -44.9304         11.5189       -0.0205931         143.308
0.611                   -2.86132         173.858         -44.8015         9.37916         -44.8015         9.37917       -0.0208643         143.229
0.612                   -2.92511         173.132          -44.673         7.23742          -44.673         7.23742       -0.0211391         143.149
0.613                   -2.99024         172.408         -44.5447          5.0937         -44.5447          5.0937       -0.0214175         143.069
0.614                   -3.05671         171.685         -44.4168         2.94803         -44.4168         2.94803       -0.0216996         142.988
0.615                   -3.12448         170.964         -44.2891        0.800448         -44.2891         0.80045       -0.0219852         142.908
0.616                   -3.19352         170.245         -44.1618          -1.349         -44.1618          -1.349       -0.0222744         142.827
0.617                   -3.26381         169.528         -44.0349        -3.50026         -44.0349        -3.50025       -0.0225673         142.746
0.618                   -3.33531         168.815         -43.9083        -5.65326         -43.9083        -5.65326       -0.0228637         142.665
0.619                   -3.40797         168.104         -43.7821        -7.80795         -43.7821        -7.80795       -0.0231639         142.583
0.62                    -3.48176         167.396         -43.6563        -9.96424         -43.6563        -9.96424       -0.0234677         142.501
0.621                   -3.55662         166.691         -43.5309        -12.1221         -43.5309        -12.1221       -0.0237752         142.419
0.622                   -3.63251          165.99         -43.4059        -14.2813         -43.4059        -14.2813       -0.0240864         142.337
0.623                   -3.70938         165.293         -43.2812        -16.4419         -43.2812        -16.4419       -0.0244015         142.254
0.624                   -3.78718         164.599          -43.157        -18.6038          -43.157        -18.6038       -0.0247203         142.172
0.625                   -3.86588         163.908         -43.0333        -20.7668         -43.0333        -20.7668       -0.0250431         142.089
0.626                   -3.94542         163.221         -42.9099        -22.9309         -42.9099        -22.9309       -0.0253699         142.005
0.627                   -4.02577         162.537          -42.787         -25.096          -42.787         -25.096       -0.0257006         141.922
0.628                   -4.10688         161.856         -42.6645        -27.2619         -42.6645        -27.2619       -0.0260355         141.838
0.629                   -4.18873         161.179         -42.5424        -29.4286         -42.5424        -29.4286       -0.0263745         141.754
