! TOUCHSTONE file generated by CST MICROWAVE STUDIO
! Date and time: Fri Oct  2 19:13:22 2020
! Project name: Scenario_1_Free_Space_out_of_line.cst
! Parameters = {Lambda=346.42; Step_1=17.321; dy1=-33.862; dx1=866; L_HA=400; MT=2.54; Rad_Dielectric=30; Rad_Lower=7.3; Rad_Upper=30; a_HA=580; a_WG=246; b_HA=500; b_WG=121; c_HA=0; c_WG=187; d_feed=85; h_feed=15; h_lower=18; h_upper=40}
! Header version: 2018
! Port assignment regex: !\s*Touchstone port\s*([0-9]+)\s*=\s*(CST MWS port|CST DS port)\s*([0-9]+|Zmin|Zmax)\s*\(\"(.*)\"\)(\s*mode\s*([0-9]+))?.*
! Touchstone port assignment:
! Touchstone port 1 = CST MWS port 1 ("")
! Touchstone port 2 = CST MWS port 2 ("")
# GHz S DB R 50
0.5                    -0.149035        -122.568         -63.0212          143.88         -63.0212          143.88      -0.00655373         151.146
0.501                  -0.153195        -123.018         -62.8743         141.875         -62.8745         141.876      -0.00661352          151.08
0.502                  -0.157612         -123.47         -62.7246         139.858          -62.725         139.861      -0.00667454         151.015
0.503                  -0.162289        -123.924         -62.5723          137.83         -62.5728         137.834      -0.00673678         150.949
0.504                  -0.167231         -124.38         -62.4174          135.79          -62.418         135.795      -0.00680026         150.884
0.505                  -0.172442        -124.838         -62.2598         133.739         -62.2606         133.745      -0.00686497         150.818
0.506                  -0.177926        -125.299         -62.0998         131.677         -62.1007         131.684      -0.00693092         150.752
0.507                  -0.183688        -125.761         -61.9372         129.604         -61.9383         129.612      -0.00699811         150.686
0.508                   -0.18973        -126.225         -61.7723          127.52         -61.7735         127.529      -0.00706655          150.62
0.509                  -0.196057        -126.692         -61.6051         125.426         -61.6064         125.436      -0.00713623         150.554
0.51                   -0.202673         -127.16         -61.4356         123.321          -61.437         123.331      -0.00720715         150.488
0.511                  -0.209581        -127.631         -61.2639         121.205         -61.2654         121.217      -0.00727933         150.422
0.512                  -0.216787        -128.104         -61.0901         119.079         -61.0917         119.091      -0.00735276         150.356
0.513                  -0.224292        -128.578         -60.9142         116.943          -60.916         116.956      -0.00742744          150.29
0.514                  -0.232102        -129.055         -60.7365         114.797         -60.7383          114.81      -0.00750338         150.223
0.515                   -0.24022        -129.534         -60.5568          112.64         -60.5588         112.654      -0.00758058         150.157
0.516                  -0.248649        -130.015         -60.3755         110.473         -60.3774         110.487      -0.00765903          150.09
0.517                  -0.257392        -130.497         -60.1924         108.296         -60.1945         108.311      -0.00773875         150.024
0.518                  -0.266455        -130.982         -60.0078         106.109         -60.0099         106.124      -0.00781972         149.957
0.519                  -0.275839        -131.469         -59.8217         103.912         -59.8238         103.927      -0.00790196          149.89
0.52                   -0.285547        -131.957         -59.6342         101.704         -59.6364         101.719      -0.00798546         149.823
0.521                  -0.295585        -132.448         -59.4455         99.4868         -59.4477          99.502      -0.00807022         149.756
0.522                  -0.305953         -132.94         -59.2556         97.2591         -59.2578         97.2743      -0.00815624         149.689
0.523                  -0.316656        -133.435         -59.0646         95.0211         -59.0669         95.0364      -0.00824352         149.622
0.524                  -0.327695        -133.931         -58.8727         92.7729          -58.875         92.7883      -0.00833207         149.555
0.525                  -0.339075        -134.429           -58.68         90.5145         -58.6822         90.5299      -0.00842187         149.488
0.526                  -0.350798        -134.929         -58.4865         88.2458         -58.4887         88.2612      -0.00851293          149.42
0.527                  -0.362865        -135.431         -58.2924         85.9669         -58.2946         85.9822      -0.00860525         149.353
0.528                   -0.37528        -135.935         -58.0978         83.6778            -58.1         83.6929      -0.00869883         149.285
0.529                  -0.388044        -136.441         -57.9028         81.3784          -57.905         81.3934      -0.00879365         149.218
0.53                   -0.401161        -136.948         -57.7076         79.0687         -57.7097         79.0836      -0.00888973          149.15
0.531                  -0.414631        -137.457         -57.5121         76.7488         -57.5142         76.7635      -0.00898705         149.082
0.532                  -0.428457        -137.968         -57.3167         74.4188         -57.3187         74.4332      -0.00908561         149.014
0.533                   -0.44264        -138.481         -57.1213         72.0786         -57.1233         72.0928      -0.00918541         148.946
0.534                  -0.457181        -138.996         -56.9261         69.7283          -56.928         69.7423      -0.00928645         148.878
0.535                  -0.472083        -139.512         -56.7311         67.3681          -56.733         67.3818      -0.00938871          148.81
0.536                  -0.487346         -140.03         -56.5366          64.998         -56.5384         65.0113      -0.00949219         148.741
0.537                  -0.502971         -140.55         -56.3426         62.6181         -56.3444         62.6311      -0.00959688         148.673
0.538                   -0.51896        -141.071         -56.1493         60.2286          -56.151         60.2413      -0.00970279         148.604
0.539                  -0.535312        -141.594         -55.9566         57.8297         -55.9583          57.842      -0.00980989         148.536
0.54                   -0.552028        -142.119         -55.7649         55.4215         -55.7664         55.4334      -0.00991818         148.467
0.541                  -0.569109        -142.645          -55.574         53.0042         -55.5755         53.0158       -0.0100277         148.398
0.542                  -0.586554        -143.174         -55.3842         50.5782         -55.3856         50.5894       -0.0101383         148.329
0.543                  -0.604364        -143.703         -55.1955         48.1436         -55.1969         48.1544       -0.0102501          148.26
0.544                  -0.622538        -144.235         -55.0081         45.7008         -55.0094         45.7112       -0.0103631         148.191
0.545                  -0.641076        -144.768          -54.822         43.2501         -54.8232           43.26       -0.0104772         148.122
0.546                  -0.659977        -145.302         -54.6373         40.7917         -54.6384         40.8012       -0.0105924         148.053
0.547                  -0.679241        -145.838         -54.4541         38.3261         -54.4551         38.3352       -0.0107087         147.983
0.548                  -0.698867        -146.376         -54.2724         35.8536         -54.2734         35.8623       -0.0108261         147.914
0.549                  -0.718852        -146.916         -54.0924         33.3747         -54.0933         33.3829       -0.0109446         147.844
0.55                   -0.739198        -147.457         -53.9141         30.8898         -53.9149         30.8975       -0.0110642         147.774
0.551                    -0.7599        -147.999         -53.7375         28.3992         -53.7383         28.4065       -0.0111848         147.704
0.552                   -0.78096        -148.544         -53.5628         25.9036         -53.5634         25.9104       -0.0113065         147.634
0.553                  -0.802374         -149.09         -53.3899         23.4032         -53.3905         23.4097       -0.0114291         147.564
0.554                  -0.824141        -149.637         -53.2189         20.8987         -53.2194         20.9047       -0.0115528         147.494
0.555                  -0.846259        -150.186         -53.0498         18.3905         -53.0503         18.3961       -0.0116774         147.424
0.556                  -0.868726        -150.737         -52.8827         15.8792         -52.8831         15.8843        -0.011803         147.353
0.557                   -0.89154         -151.29         -52.7176         13.3651          -52.718         13.3698       -0.0119295         147.283
0.558                  -0.914699        -151.844         -52.5545         10.8489         -52.5548         10.8532        -0.012057         147.212
0.559                  -0.938201          -152.4         -52.3933         8.33099         -52.3936         8.33489       -0.0121853         147.141
0.56                   -0.962045        -152.958         -52.2343         5.81195         -52.2345         5.81546       -0.0123145          147.07
0.561                  -0.986227        -153.517         -52.0772         3.29225         -52.0774         3.29539       -0.0124446         146.999
0.562                   -1.01075        -154.078         -51.9221        0.772374         -51.9222        0.775153       -0.0125755         146.928
0.563                    -1.0356        -154.642          -51.769        -1.74719         -51.7691        -1.74476       -0.0127072         146.857
0.564                   -1.06079        -155.207         -51.6178        -4.26598         -51.6179        -4.26387       -0.0128398         146.786
0.565                   -1.08631        -155.773         -51.4686        -6.78354         -51.4687        -6.78175       -0.0129731         146.714
0.566                   -1.11215        -156.342         -51.3213        -9.29945         -51.3213        -9.29796       -0.0131072         146.642
0.567                   -1.13833        -156.913         -51.1758        -11.8133         -51.1759        -11.8121        -0.013242          146.57
0.568                   -1.16484        -157.486         -51.0322        -14.3247         -51.0322        -14.3237       -0.0133776         146.499
0.569                   -1.19167        -158.061         -50.8904        -16.8332         -50.8903        -16.8325       -0.0135139         146.426
0.57                    -1.21883        -158.639         -50.7502        -19.3386         -50.7502        -19.3381        -0.013651         146.354
0.571                   -1.24632        -159.218         -50.6118        -21.8405         -50.6117        -21.8402       -0.0137888         146.282
0.572                   -1.27414          -159.8          -50.475        -24.3386         -50.4749        -24.3385       -0.0139273         146.209
0.573                   -1.30228        -160.385         -50.3397        -26.8327         -50.3396        -26.8328       -0.0140666         146.137
0.574                   -1.33076        -160.971         -50.2059        -29.3225         -50.2059        -29.3227       -0.0142066         146.064
0.575                   -1.35957        -161.561         -50.0736        -31.8078         -50.0735        -31.8082       -0.0143474         145.991
0.576                   -1.38872        -162.153         -49.9426        -34.2884         -49.9425        -34.2889        -0.014489         145.918
0.577                   -1.41821        -162.748          -49.813        -36.7643         -49.8129        -36.7649       -0.0146314         145.845
0.578                   -1.44805        -163.346         -49.6846        -39.2351         -49.6845        -39.2358       -0.0147747         145.771
0.579                   -1.47824        -163.947         -49.5573         -41.701         -49.5572        -41.7018       -0.0149189         145.698
0.58                    -1.50878         -164.55         -49.4312        -44.1618         -49.4311        -44.1626       -0.0150641         145.624
0.581                    -1.5397        -165.158         -49.3061        -46.6174          -49.306        -46.6182       -0.0152104          145.55
0.582                   -1.57099        -165.768          -49.182        -49.0678         -49.1819        -49.0687       -0.0153577         145.476
0.583                   -1.60267        -166.382         -49.0588        -51.5131         -49.0587         -51.514       -0.0155063         145.402
0.584                   -1.63475        -166.999         -48.9364        -53.9532         -48.9363        -53.9542       -0.0156561         145.327
0.585                   -1.66725         -167.62         -48.8148        -56.3883         -48.8147        -56.3892       -0.0158073         145.253
0.586                   -1.70017        -168.245         -48.6939        -58.8184         -48.6938        -58.8193         -0.01596         145.178
0.587                   -1.73353        -168.874         -48.5737        -61.2436         -48.5736        -61.2445       -0.0161144         145.103
0.588                   -1.76736        -169.507         -48.4541         -63.664          -48.454        -63.6648       -0.0162705         145.028
0.589                   -1.80167        -170.144         -48.3351        -66.0797          -48.335        -66.0805       -0.0164285         144.953
0.59                    -1.83649        -170.785         -48.2165        -68.4909         -48.2164        -68.4916       -0.0165885         144.878
0.591                   -1.87184        -171.431         -48.0984        -70.8977         -48.0983        -70.8984       -0.0167507         144.802
0.592                   -1.90773        -172.081         -47.9807        -73.3003         -47.9806         -73.301       -0.0169153         144.726
0.593                   -1.94421        -172.736         -47.8633         -75.699         -47.8633        -75.6995       -0.0170823          144.65
0.594                   -1.98131        -173.396         -47.7463        -78.0938         -47.7462        -78.0943       -0.0172521         144.574
0.595                   -2.01904        -174.061         -47.6295        -80.4849         -47.6294        -80.4854       -0.0174246         144.498
0.596                   -2.05745         -174.73          -47.513        -82.8727         -47.5129        -82.8731       -0.0176002         144.421
0.597                   -2.09657        -175.405         -47.3966        -85.2572         -47.3966        -85.2576        -0.017779         144.344
0.598                   -2.13644        -176.085         -47.2805        -87.6388         -47.2804        -87.6391       -0.0179612         144.267
0.599                    -2.1771         -176.77         -47.1644        -90.0176         -47.1644        -90.0178       -0.0181468          144.19
0.6                      -2.2186         -177.46         -47.0485        -92.3939         -47.0485         -92.394       -0.0183362         144.113
0.601                   -2.26096        -178.156         -46.9327        -94.7679         -46.9326        -94.7679       -0.0185294         144.035
0.602                   -2.30425        -178.856         -46.8169        -97.1398         -46.8169        -97.1398       -0.0187265         143.958
0.603                    -2.3485        -179.563         -46.7012        -99.5098         -46.7012        -99.5097       -0.0189278          143.88
0.604                   -2.39377         179.726         -46.5856        -101.878         -46.5855        -101.878       -0.0191334         143.801
0.605                    -2.4401         179.009           -46.47        -104.245         -46.4699        -104.245       -0.0193433         143.723
0.606                   -2.48755         178.286         -46.3544        -106.611         -46.3543        -106.611       -0.0195577         143.644
0.607                   -2.53617         177.559         -46.2388        -108.976         -46.2387        -108.975       -0.0197767         143.566
0.608                   -2.58601         176.826         -46.1232         -111.34         -46.1231        -111.339       -0.0200003         143.487
0.609                   -2.63712         176.089         -46.0076        -113.703         -46.0076        -113.703       -0.0202287         143.407
0.61                    -2.68957         175.346          -45.892        -116.066          -45.892        -116.066       -0.0204619         143.328
0.611                   -2.74339         174.599         -45.7765        -118.429         -45.7764        -118.428          -0.0207         143.248
0.612                   -2.79865         173.847         -45.6609        -120.792         -45.6609        -120.791        -0.020943         143.168
0.613                    -2.8554          173.09         -45.5454        -123.154         -45.5453        -123.154        -0.021191         143.088
0.614                   -2.91369          172.33         -45.4299        -125.517         -45.4298        -125.517       -0.0214439         143.008
0.615                   -2.97357         171.565         -45.3144        -127.881         -45.3144         -127.88       -0.0217018         142.927
0.616                   -3.03509         170.797          -45.199        -130.245         -45.1989        -130.244       -0.0219647         142.847
0.617                    -3.0983         170.026         -45.0836         -132.61         -45.0836        -132.609       -0.0222327         142.766
0.618                   -3.16325         169.251         -44.9683        -134.975         -44.9683        -134.974       -0.0225057         142.684
0.619                   -3.22997         168.474         -44.8531        -137.341         -44.8531        -137.341       -0.0227836         142.603
0.62                    -3.29851         167.695          -44.738        -139.709          -44.738        -139.708       -0.0230666         142.521
0.621                    -3.3689         166.913         -44.6231        -142.077          -44.623        -142.076       -0.0233546         142.439
0.622                   -3.44118          166.13         -44.5082        -144.446         -44.5082        -144.446       -0.0236476         142.357
0.623                   -3.51538         165.346         -44.3936        -146.817         -44.3935        -146.816       -0.0239456         142.274
0.624                   -3.59151         164.562         -44.2791        -149.189          -44.279        -149.188       -0.0242486         142.192
0.625                   -3.66962         163.777         -44.1648        -151.561         -44.1647        -151.561       -0.0245565         142.109
0.626                   -3.74971         162.992         -44.0507        -153.935         -44.0506        -153.935       -0.0248694         142.026
0.627                   -3.83179         162.208         -43.9368        -156.311         -43.9368         -156.31       -0.0251873         141.942
0.628                   -3.91588         161.426         -43.8232        -158.687         -43.8232        -158.687       -0.0255102         141.858
0.629                   -4.00198         160.645         -43.7099        -161.065         -43.7098        -161.064        -0.025838         141.774
