! TOUCHSTONE file generated by CST MICROWAVE STUDIO
! Date and time: Fri Oct  2 16:23:41 2020
! Project name: Scenario_1_Free_Space_out_of_line.cst
! Parameters = {Lambda=346.42; Step_1=17.321; dy1=-51.203; dx1=346; L_HA=400; MT=2.54; Rad_Dielectric=30; Rad_Lower=7.3; Rad_Upper=30; a_HA=580; a_WG=246; b_HA=500; b_WG=121; c_HA=0; c_WG=187; d_feed=85; h_feed=15; h_lower=18; h_upper=40}
! Header version: 2018
! Port assignment regex: !\s*Touchstone port\s*([0-9]+)\s*=\s*(CST MWS port|CST DS port)\s*([0-9]+|Zmin|Zmax)\s*\(\"(.*)\"\)(\s*mode\s*([0-9]+))?.*
! Touchstone port assignment:
! Touchstone port 1 = CST MWS port 1 ("")
! Touchstone port 2 = CST MWS port 2 ("")
# GHz S DB R 50
0.5                    -0.141813        -122.668         -59.0222         80.8594         -59.0222         80.8594      -0.00660974         151.106
0.501                  -0.148585        -123.132         -58.8124         79.4871         -58.8117         79.4858      -0.00670288         151.041
0.502                  -0.155599        -123.596         -58.6024         78.1053         -58.6011         78.1027      -0.00679637         150.975
0.503                  -0.162857        -124.062         -58.3923         76.7138         -58.3903           76.71      -0.00689019          150.91
0.504                  -0.170359        -124.529          -58.182         75.3125         -58.1795         75.3074      -0.00698436         150.844
0.505                  -0.178105        -124.997         -57.9716         73.9011         -57.9686         73.8949      -0.00707885         150.779
0.506                  -0.186096        -125.466         -57.7612         72.4796         -57.7576         72.4723      -0.00717368         150.713
0.507                  -0.194333        -125.937         -57.5507         71.0478         -57.5467         71.0394      -0.00726883         150.647
0.508                  -0.202815        -126.409         -57.3402         69.6055         -57.3358         69.5961      -0.00736431         150.581
0.509                  -0.211543        -126.882         -57.1298         68.1527          -57.125         68.1422       -0.0074601         150.515
0.51                   -0.220517        -127.356         -56.9194         66.6892         -56.9143         66.6777      -0.00755621         150.449
0.511                  -0.229738        -127.832         -56.7091         65.2149         -56.7037         65.2025      -0.00765264         150.383
0.512                  -0.239206        -128.309          -56.499         63.7296         -56.4933         63.7164      -0.00774938         150.317
0.513                  -0.248921        -128.787          -56.289         62.2334         -56.2832         62.2193      -0.00784642         150.251
0.514                  -0.258884        -129.267         -56.0793          60.726         -56.0732         60.7111      -0.00794376         150.184
0.515                  -0.269094        -129.747         -55.8699         59.2075         -55.8636         59.1918      -0.00804141         150.118
0.516                  -0.279552        -130.229         -55.6608         57.6776         -55.6544         57.6612      -0.00813935         150.051
0.517                  -0.290259        -130.713          -55.452         56.1365         -55.4455         56.1194      -0.00823758         149.985
0.518                  -0.301214        -131.197         -55.2437         54.5839         -55.2371         54.5663       -0.0083361         149.918
0.519                  -0.312418        -131.683         -55.0358           53.02         -55.0292         53.0018      -0.00843491         149.851
0.52                   -0.323871         -132.17         -54.8284         51.4446         -54.8218         51.4259        -0.008534         149.784
0.521                  -0.335573        -132.659         -54.6216         49.8578         -54.6149         49.8386      -0.00863337         149.718
0.522                  -0.347524        -133.148         -54.4154         48.2595         -54.4088         48.2399      -0.00873301         149.651
0.523                  -0.359725        -133.639         -54.2098         46.6498         -54.2033         46.6298      -0.00883293         149.584
0.524                  -0.372175        -134.132          -54.005         45.0287         -53.9985         45.0084      -0.00893312         149.516
0.525                  -0.384876        -134.625         -53.8009         43.3962         -53.7945         43.3757      -0.00903357         149.449
0.526                  -0.397826         -135.12         -53.5977         41.7525         -53.5914         41.7319      -0.00913428         149.382
0.527                  -0.411026        -135.617         -53.3953         40.0976         -53.3892         40.0768      -0.00923526         149.314
0.528                  -0.424477        -136.115         -53.1939         38.4316         -53.1879         38.4108      -0.00933648         149.247
0.529                  -0.438178        -136.614         -52.9935         36.7547         -52.9876         36.7339      -0.00943796         149.179
0.53                    -0.45213        -137.114         -52.7941         35.0669         -52.7884         35.0462      -0.00953969         149.112
0.531                  -0.466333        -137.616         -52.5958         33.3685         -52.5902         33.3479      -0.00964167         149.044
0.532                  -0.480787        -138.119         -52.3986         31.6596         -52.3933         31.6393      -0.00974389         148.976
0.533                  -0.495492        -138.624         -52.2026         29.9405         -52.1975         29.9204      -0.00984635         148.908
0.534                  -0.510449         -139.13         -52.0079         28.2113          -52.003         28.1915      -0.00994904          148.84
0.535                  -0.525658        -139.638         -51.8145         26.4722         -51.8098         26.4529        -0.010052         148.772
0.536                  -0.541118        -140.147         -51.6225         24.7237          -51.618         24.7048       -0.0101551         148.703
0.537                  -0.556832        -140.657         -51.4318         22.9658         -51.4276         22.9474       -0.0102585         148.635
0.538                  -0.572798        -141.169         -51.2426          21.199         -51.2387         21.1812       -0.0103621         148.567
0.539                  -0.589017        -141.683         -51.0549         19.4235         -51.0512         19.4064        -0.010466         148.498
0.54                    -0.60549        -142.198         -50.8688         17.6397         -50.8653         17.6233       -0.0105701         148.429
0.541                  -0.622216        -142.714         -50.6842         15.8479         -50.6809         15.8323       -0.0106743         148.361
0.542                  -0.639197        -143.233         -50.5012         14.0486         -50.4982         14.0337       -0.0107788         148.292
0.543                  -0.656433        -143.752         -50.3198          12.242         -50.3171          12.228       -0.0108836         148.223
0.544                  -0.673925        -144.274         -50.1402         10.4286         -50.1376         10.4155       -0.0109885         148.154
0.545                  -0.691673        -144.797         -49.9622         8.60884         -49.9599         8.59667       -0.0110936         148.085
0.546                  -0.709677        -145.322          -49.786         6.78308         -49.7839          6.7719        -0.011199         148.015
0.547                  -0.727939        -145.848         -49.6115         4.95178         -49.6097         4.94163       -0.0113046         147.946
0.548                   -0.74646        -146.376         -49.4389         3.11538         -49.4372         3.10629       -0.0114103         147.876
0.549                   -0.76524        -146.906          -49.268         1.27435         -49.2665         1.26634       -0.0115163         147.807
0.55                    -0.78428        -147.438         -49.0989       -0.570863         -49.0976       -0.577765       -0.0116226         147.737
0.551                  -0.803581        -147.971         -48.9316         -2.4198         -48.9305        -2.42557        -0.011729         147.667
0.552                  -0.823145        -148.506         -48.7661        -4.27198         -48.7652        -4.27662       -0.0118356         147.597
0.553                  -0.842972        -149.043         -48.6024        -6.12695         -48.6018        -6.13044       -0.0119425         147.527
0.554                  -0.863064        -149.582         -48.4406        -7.98424         -48.4401        -7.98657       -0.0120496         147.457
0.555                  -0.883423        -150.123         -48.2805        -9.84339         -48.2802        -9.84456       -0.0121569         147.387
0.556                  -0.904049        -150.666         -48.1222        -11.7039          -48.122        -11.7039       -0.0122644         147.316
0.557                  -0.924945        -151.211         -47.9657        -13.5654         -47.9657        -13.5643       -0.0123721         147.246
0.558                  -0.946113        -151.758          -47.811        -15.4274         -47.8111        -15.4251       -0.0124801         147.175
0.559                  -0.967553        -152.307          -47.658        -17.2894         -47.6582        -17.2861       -0.0125884         147.104
0.56                    -0.98927        -152.858         -47.5066        -19.1511          -47.507        -19.1467       -0.0126969         147.033
0.561                   -1.01126        -153.412          -47.357         -21.012         -47.3574        -21.0065       -0.0128056         146.962
0.562                   -1.03354        -153.967          -47.209        -22.8717         -47.2095        -22.8652       -0.0129146         146.891
0.563                   -1.05609        -154.525         -47.0626        -24.7299         -47.0632        -24.7224       -0.0130239          146.82
0.564                   -1.07894        -155.085         -46.9178        -26.5861         -46.9184        -26.5776       -0.0131335         146.748
0.565                   -1.10207        -155.647         -46.7745        -28.4401         -46.7752        -28.4306       -0.0132434         146.677
0.566                   -1.12549        -156.212         -46.6327        -30.2914         -46.6334        -30.2811       -0.0133536         146.605
0.567                   -1.14921         -156.78         -46.4923        -32.1398         -46.4931        -32.1287       -0.0134642         146.533
0.568                   -1.17322        -157.349         -46.3533         -33.985         -46.3541        -33.9731       -0.0135751         146.461
0.569                   -1.19754        -157.922         -46.2156        -35.8267         -46.2165         -35.814       -0.0136863         146.389
0.57                    -1.22217        -158.497         -46.0792        -37.6646         -46.0801        -37.6513        -0.013798         146.317
0.571                    -1.2471        -159.074         -45.9441        -39.4986          -45.945        -39.4846       -0.0139101         146.244
0.572                   -1.27236        -159.654         -45.8101        -41.3283          -45.811        -41.3138       -0.0140226         146.172
0.573                   -1.29793        -160.237         -45.6773        -43.1537         -45.6782        -43.1387       -0.0141356         146.099
0.574                   -1.32383        -160.823         -45.5455        -44.9745         -45.5464         -44.959       -0.0142491         146.026
0.575                   -1.35006        -161.412         -45.4148        -46.7907         -45.4156        -46.7748       -0.0143631         145.953
0.576                   -1.37663        -162.004          -45.285         -48.602         -45.2858        -48.5858       -0.0144777          145.88
0.577                   -1.40355        -162.599          -45.156        -50.4084         -45.1568        -50.3919       -0.0145929         145.807
0.578                   -1.43081        -163.197          -45.028        -52.2098         -45.0287        -52.1931       -0.0147088         145.733
0.579                   -1.45844        -163.798         -44.9007        -54.0061         -44.9014        -53.9892       -0.0148254         145.659
0.58                    -1.48643        -164.402         -44.7741        -55.7974         -44.7748        -55.7804       -0.0149428         145.586
0.581                   -1.51479         -165.01         -44.6483        -57.5835         -44.6489        -57.5664       -0.0150609         145.512
0.582                   -1.54354        -165.621          -44.523        -59.3645         -44.5236        -59.3474         -0.01518         145.437
0.583                   -1.57269        -166.236         -44.3983        -61.1403         -44.3988        -61.1233       -0.0152999         145.363
0.584                   -1.60223        -166.854         -44.2741        -62.9111         -44.2746        -62.8942       -0.0154209         145.289
0.585                   -1.63219        -167.476         -44.1504        -64.6768         -44.1508        -64.6601        -0.015543         145.214
0.586                   -1.66257        -168.102         -44.0271        -66.4376         -44.0275        -66.4211       -0.0156662         145.139
0.587                   -1.69339        -168.731         -43.9041        -68.1935         -43.9045        -68.1772       -0.0157907         145.064
0.588                   -1.72465        -169.365         -43.7815        -69.9446         -43.7818        -69.9286       -0.0159165         144.989
0.589                   -1.75638        -170.002         -43.6591         -71.691         -43.6594        -71.6753       -0.0160438         144.914
0.59                    -1.78858        -170.644         -43.5369        -73.4328         -43.5372        -73.4175       -0.0161726         144.838
0.591                   -1.82127        -171.289          -43.415        -75.1702         -43.4151        -75.1553       -0.0163031         144.762
0.592                   -1.85446        -171.939         -43.2931        -76.9034         -43.2933        -76.8889       -0.0164353         144.686
0.593                   -1.88818        -172.594         -43.1714        -78.6324         -43.1715        -78.6184       -0.0165695          144.61
0.594                   -1.92244        -173.252         -43.0497        -80.3574         -43.0498        -80.3439       -0.0167057         144.534
0.595                   -1.95725        -173.916         -42.9281        -82.0787         -42.9281        -82.0657        -0.016844         144.457
0.596                   -1.99264        -174.584         -42.8064        -83.7963         -42.8064        -83.7839       -0.0169847         144.381
0.597                   -2.02863        -175.257         -42.6847        -85.5106         -42.6846        -85.4987       -0.0171279         144.304
0.598                   -2.06523        -175.935         -42.5629        -87.2217         -42.5628        -87.2104       -0.0172737         144.227
0.599                   -2.10248        -176.618          -42.441        -88.9297         -42.4409        -88.9191       -0.0174224         144.149
0.6                     -2.14039        -177.306          -42.319         -90.635         -42.3189         -90.625        -0.017574         144.072
0.601                     -2.179        -177.999         -42.1969        -92.3377         -42.1967        -92.3283       -0.0177289         143.994
0.602                   -2.21832        -178.697         -42.0745        -94.0381         -42.0744        -94.0293       -0.0178871         143.916
0.603                   -2.25839        -179.401          -41.952        -95.7364         -41.9519        -95.7282        -0.018049         143.838
0.604                   -2.29923         179.889         -41.8293        -97.4327         -41.8291        -97.4252       -0.0182146         143.759
0.605                   -2.34089         179.174         -41.7063        -99.1275         -41.7061        -99.1206       -0.0183843         143.681
0.606                   -2.38338         178.453         -41.5831        -100.821         -41.5829        -100.815       -0.0185582         143.602
0.607                   -2.42675         177.727         -41.4596        -102.513         -41.4594        -102.507       -0.0187367         143.523
0.608                   -2.47103         176.994         -41.3359        -104.204         -41.3357        -104.199       -0.0189198         143.443
0.609                   -2.51626         176.255         -41.2119        -105.895         -41.2117         -105.89        -0.019108         143.364
0.61                    -2.56248          175.51         -41.0876        -107.585         -41.0874        -107.581       -0.0193013         143.284
0.611                   -2.60974         174.759          -40.963        -109.274         -40.9628        -109.271       -0.0195001         143.204
0.612                   -2.65807         174.002         -40.8381        -110.964          -40.838        -110.962       -0.0197046         143.124
0.613                   -2.70753         173.238          -40.713        -112.654         -40.7128        -112.653       -0.0199151         143.043
0.614                   -2.75817         172.467         -40.5875        -114.345         -40.5874        -114.344       -0.0201318         142.963
0.615                   -2.81004          171.69         -40.4618        -116.036         -40.4616        -116.036        -0.020355         142.882
0.616                   -2.86318         170.907         -40.3357        -117.729         -40.3356        -117.728       -0.0205849           142.8
0.617                   -2.91767         170.116         -40.2094        -119.422         -40.2093        -119.422       -0.0208217         142.719
0.618                   -2.97356         169.319         -40.0828        -121.117         -40.0827        -121.118       -0.0210656         142.637
0.619                    -3.0309         168.516         -39.9559        -122.814         -39.9559        -122.815        -0.021317         142.555
0.62                    -3.08978         167.705         -39.8288        -124.512         -39.8288        -124.514        -0.021576         142.473
0.621                   -3.15025         166.887         -39.7014        -126.212         -39.7014        -126.215       -0.0218427          142.39
0.622                   -3.21239         166.063         -39.5738        -127.915         -39.5739        -127.918       -0.0221174         142.308
0.623                   -3.27626         165.232          -39.446         -129.62         -39.4461        -129.623       -0.0224003         142.225
0.624                   -3.34196         164.394          -39.318        -131.328         -39.3181        -131.332       -0.0226915         142.141
0.625                   -3.40956         163.549         -39.1899        -133.039           -39.19        -133.043       -0.0229911         142.058
0.626                   -3.47914         162.698         -39.0615        -134.753         -39.0617        -134.757       -0.0232993         141.974
0.627                    -3.5508          161.84         -38.9331         -136.47         -38.9333        -136.474        -0.023616          141.89
0.628                   -3.62461         160.975         -38.8045         -138.19         -38.8047        -138.195       -0.0239415         141.806
0.629                   -3.70069         160.105         -38.6758        -139.914         -38.6761        -139.919       -0.0242758         141.721
