! TOUCHSTONE file generated by CST MICROWAVE STUDIO
! Date and time: Fri Oct  2 16:37:27 2020
! Project name: Scenario_1_Free_Space_out_of_line.cst
! Parameters = {Lambda=346.42; Step_1=17.321; dy1=-51.203; dx1=520; L_HA=400; MT=2.54; Rad_Dielectric=30; Rad_Lower=7.3; Rad_Upper=30; a_HA=580; a_WG=246; b_HA=500; b_WG=121; c_HA=0; c_WG=187; d_feed=85; h_feed=15; h_lower=18; h_upper=40}
! Header version: 2018
! Port assignment regex: !\s*Touchstone port\s*([0-9]+)\s*=\s*(CST MWS port|CST DS port)\s*([0-9]+|Zmin|Zmax)\s*\(\"(.*)\"\)(\s*mode\s*([0-9]+))?.*
! Touchstone port assignment:
! Touchstone port 1 = CST MWS port 1 ("")
! Touchstone port 2 = CST MWS port 2 ("")
# GHz S DB R 50
0.5                    -0.150936        -122.425         -61.0006        -17.4768          -60.999        -17.4642      -0.00655782         151.143
0.501                   -0.15614          -122.9         -60.8503        -19.1689         -60.8484        -19.1573       -0.0066123         151.078
0.502                  -0.161609        -123.377         -60.6984        -20.8628         -60.6963        -20.8521        -0.006668         151.012
0.503                  -0.167343        -123.855         -60.5449        -22.5584         -60.5425        -22.5487      -0.00672493         150.947
0.504                  -0.173346        -124.334         -60.3898        -24.2559         -60.3872         -24.247      -0.00678307         150.881
0.505                  -0.179618        -124.815         -60.2332        -25.9552         -60.2303         -25.947      -0.00684245         150.815
0.506                  -0.186161        -125.298         -60.0751        -27.6563         -60.0719        -27.6489      -0.00690305         150.749
0.507                  -0.192977        -125.781         -59.9155        -29.3593         -59.9122        -29.3526       -0.0069649         150.684
0.508                  -0.200067        -126.266         -59.7545        -31.0641         -59.7509        -31.0581      -0.00702798         150.618
0.509                  -0.207434        -126.753         -59.5921        -32.7709         -59.5884        -32.7655      -0.00709231         150.552
0.51                   -0.215078        -127.241         -59.4283        -34.4797         -59.4244        -34.4748      -0.00715789         150.486
0.511                  -0.223002         -127.73         -59.2633        -36.1906         -59.2592        -36.1862      -0.00722473         150.419
0.512                  -0.231207        -128.221          -59.097        -37.9036         -59.0928        -37.8997      -0.00729282         150.353
0.513                  -0.239694        -128.713         -58.9295        -39.6187         -58.9251        -39.6153      -0.00736217         150.287
0.514                  -0.248466        -129.207         -58.7608        -41.3362         -58.7563        -41.3332       -0.0074328         150.221
0.515                  -0.257523        -129.702         -58.5909        -43.0561         -58.5863        -43.0535      -0.00750469         150.154
0.516                  -0.266868        -130.198           -58.42        -44.7784         -58.4152        -44.7762      -0.00757786         150.088
0.517                  -0.276502        -130.696          -58.248        -46.5033         -58.2431        -46.5014      -0.00765231         150.021
0.518                  -0.286426        -131.195         -58.0749        -48.2308         -58.0699        -48.2293      -0.00772805         149.954
0.519                  -0.296643        -131.695         -57.9009        -49.9612         -57.8958          -49.96      -0.00780508         149.887
0.52                   -0.307153        -132.197         -57.7259        -51.6945         -57.7207        -51.6936      -0.00788341         149.821
0.521                  -0.317959        -132.701           -57.55        -53.4308         -57.5448        -53.4302      -0.00796304         149.754
0.522                  -0.329061        -133.205         -57.3733        -55.1703          -57.368          -55.17      -0.00804398         149.687
0.523                  -0.340462        -133.712         -57.1957        -56.9131         -57.1904         -56.913      -0.00812623         149.619
0.524                  -0.352164        -134.219         -57.0174        -58.6593          -57.012        -58.6594       -0.0082098         149.552
0.525                  -0.364166        -134.728         -56.8383        -60.4091         -56.8329        -60.4094      -0.00829469         149.485
0.526                  -0.376473        -135.238         -56.6586        -62.1625         -56.6531        -62.1631      -0.00838091         149.418
0.527                  -0.389083         -135.75         -56.4781        -63.9198         -56.4726        -63.9206      -0.00846847          149.35
0.528                  -0.402001        -136.263         -56.2971        -65.6811         -56.2916        -65.6821      -0.00855736         149.283
0.529                  -0.415226        -136.777         -56.1155        -67.4465           -56.11        -67.4477      -0.00864761         149.215
0.53                   -0.428761        -137.293         -55.9334        -69.2161         -55.9278        -69.2175       -0.0087392         149.147
0.531                  -0.442608        -137.811         -55.7507        -70.9901         -55.7452        -70.9917      -0.00883216         149.079
0.532                  -0.456767        -138.329         -55.5677        -72.7687         -55.5622        -72.7704      -0.00892648         149.011
0.533                   -0.47124        -138.849         -55.3842        -74.5519         -55.3787        -74.5537      -0.00902217         148.943
0.534                   -0.48603        -139.371         -55.2004        -76.3399         -55.1949        -76.3419      -0.00911924         148.875
0.535                  -0.501137        -139.894         -55.0162        -78.1329         -55.0108         -78.135       -0.0092177         148.807
0.536                  -0.516564        -140.418         -54.8318        -79.9309         -54.8264        -79.9331      -0.00931754         148.739
0.537                  -0.532311        -140.943         -54.6471         -81.734         -54.6418        -81.7365      -0.00941879          148.67
0.538                  -0.548382        -141.471         -54.4623        -83.5425          -54.457        -83.5451      -0.00952144         148.602
0.539                  -0.564777        -141.999         -54.2773        -85.3564         -54.2721        -85.3591       -0.0096255         148.533
0.54                   -0.581498        -142.529         -54.0922        -87.1759         -54.0871        -87.1787      -0.00973098         148.465
0.541                  -0.598547         -143.06          -53.907        -89.0009          -53.902        -89.0039      -0.00983788         148.396
0.542                  -0.615926        -143.593         -53.7219        -90.8318         -53.7169        -90.8348      -0.00994622         148.327
0.543                  -0.633636        -144.127         -53.5368        -92.6684         -53.5319        -92.6715        -0.010056         148.258
0.544                  -0.651679        -144.663         -53.3517         -94.511         -53.3469        -94.5142       -0.0101672         148.189
0.545                  -0.670058          -145.2         -53.1668        -96.3595         -53.1621        -96.3629       -0.0102799          148.12
0.546                  -0.688774        -145.738          -52.982        -98.2142         -52.9774        -98.2176       -0.0103941          148.05
0.547                  -0.707828        -146.278         -52.7975        -100.075          -52.793        -100.078       -0.0105097         147.981
0.548                  -0.727224         -146.82         -52.6132        -101.942         -52.6088        -101.945       -0.0106268         147.912
0.549                  -0.746962        -147.362         -52.4292        -103.815         -52.4249        -103.819       -0.0107454         147.842
0.55                   -0.767045        -147.907         -52.2455        -105.695         -52.2414        -105.698       -0.0108655         147.772
0.551                  -0.787476        -148.452         -52.0623         -107.58         -52.0582        -107.584       -0.0109871         147.702
0.552                  -0.808255            -149         -51.8795        -109.472         -51.8755        -109.476       -0.0111102         147.632
0.553                  -0.829386        -149.548         -51.6971        -111.371         -51.6933        -111.375       -0.0112348         147.562
0.554                   -0.85087        -150.099         -51.5153        -113.275         -51.5116        -113.279        -0.011361         147.492
0.555                   -0.87271         -150.65          -51.334        -115.186         -51.3305         -115.19       -0.0114887         147.422
0.556                  -0.894908        -151.204         -51.1534        -117.104         -51.1499        -117.107        -0.011618         147.352
0.557                  -0.917467        -151.759         -50.9734        -119.027         -50.9701        -119.031       -0.0117488         147.281
0.558                  -0.940388        -152.315         -50.7941        -120.957         -50.7909        -120.961       -0.0118812          147.21
0.559                  -0.963675        -152.873         -50.6155        -122.892         -50.6125        -122.896       -0.0120152          147.14
0.56                    -0.98733        -153.432         -50.4377        -124.834         -50.4348        -124.838       -0.0121508         147.069
0.561                   -1.01136        -153.993         -50.2608        -126.782         -50.2579        -126.786       -0.0122879         146.998
0.562                   -1.03576        -154.556         -50.0846        -128.735         -50.0819        -128.739       -0.0124267         146.927
0.563                   -1.06053         -155.12         -49.9094        -130.695         -49.9068        -130.698       -0.0125671         146.855
0.564                   -1.08569        -155.686         -49.7351        -132.659         -49.7326        -132.663       -0.0127091         146.784
0.565                   -1.11122        -156.253         -49.5617         -134.63         -49.5594        -134.633       -0.0128528         146.713
0.566                   -1.13715        -156.822         -49.3894        -136.605         -49.3872        -136.609       -0.0129982         146.641
0.567                   -1.16346        -157.393          -49.218        -138.586          -49.216        -138.589       -0.0131452         146.569
0.568                   -1.19016        -157.966         -49.0478        -140.572         -49.0458        -140.575       -0.0132938         146.497
0.569                   -1.21726         -158.54         -48.8786        -142.562         -48.8768        -142.565       -0.0134442         146.425
0.57                    -1.24476        -159.115         -48.7105        -144.557         -48.7088         -144.56       -0.0135963         146.353
0.571                   -1.27266        -159.693         -48.5435        -146.557          -48.542         -146.56       -0.0137501         146.281
0.572                   -1.30097        -160.272         -48.3778        -148.561         -48.3763        -148.563       -0.0139056         146.209
0.573                   -1.32969        -160.853         -48.2132        -150.569         -48.2118        -150.571       -0.0140628         146.136
0.574                   -1.35883        -161.436         -48.0498         -152.58         -48.0485        -152.582       -0.0142218         146.063
0.575                   -1.38838        -162.021         -47.8876        -154.595         -47.8865        -154.597       -0.0143826         145.991
0.576                   -1.41836        -162.607         -47.7266        -156.614         -47.7256        -156.616       -0.0145452         145.918
0.577                   -1.44876        -163.195         -47.5669        -158.635          -47.566        -158.637       -0.0147095         145.844
0.578                    -1.4796        -163.785         -47.4085         -160.66         -47.4077        -160.661       -0.0148757         145.771
0.579                   -1.51087        -164.378         -47.2513        -162.686         -47.2506        -162.688       -0.0150437         145.698
0.58                    -1.54259        -164.971         -47.0954        -164.716         -47.0948        -164.717       -0.0152135         145.624
0.581                   -1.57476        -165.567         -46.9408        -166.747         -46.9402        -166.748       -0.0153852         145.551
0.582                   -1.60738        -166.165         -46.7874         -168.78         -46.7869         -168.78       -0.0155587         145.477
0.583                   -1.64046        -166.765         -46.6353        -170.815         -46.6349        -170.815       -0.0157342         145.403
0.584                   -1.67401        -167.367         -46.4845        -172.851         -46.4842        -172.851       -0.0159115         145.329
0.585                   -1.70802        -167.971          -46.335        -174.888         -46.3347        -174.887       -0.0160908         145.254
0.586                   -1.74252        -168.577         -46.1867        -176.926         -46.1865        -176.925        -0.016272          145.18
0.587                    -1.7775        -169.185         -46.0396        -178.964         -46.0395        -178.963       -0.0164551         145.105
0.588                   -1.81298        -169.795         -45.8938         178.997         -45.8937         178.998       -0.0166403          145.03
0.589                   -1.84895        -170.407         -45.7492         176.958         -45.7492          176.96       -0.0168274         144.956
0.59                    -1.88543        -171.022         -45.6058          174.92         -45.6059         174.921       -0.0170165          144.88
0.591                   -1.92243        -171.639         -45.4636         172.881         -45.4637         172.883       -0.0172077         144.805
0.592                   -1.95995        -172.258         -45.3225         170.843         -45.3227         170.845       -0.0174009          144.73
0.593                     -1.998        -172.879         -45.1826         168.806         -45.1828         168.808       -0.0175962         144.654
0.594                   -2.03659        -173.503         -45.0438          166.77         -45.0441         166.773       -0.0177936         144.578
0.595                   -2.07573        -174.129         -44.9061         164.735         -44.9064         164.738       -0.0179932         144.502
0.596                   -2.11543        -174.757         -44.7695         162.702         -44.7698         162.704       -0.0181948         144.426
0.597                    -2.1557        -175.388         -44.6339         160.669         -44.6342         160.672       -0.0183986          144.35
0.598                   -2.19656        -176.021         -44.4993         158.639         -44.4996         158.642       -0.0186047         144.273
0.599                     -2.238        -176.657         -44.3657          156.61          -44.366         156.613       -0.0188129         144.197
0.6                     -2.28004        -177.296          -44.233         154.583         -44.2334         154.586       -0.0190234          144.12
0.601                   -2.32271        -177.937         -44.1012         152.558         -44.1016         152.562       -0.0192361         144.043
0.602                   -2.36599        -178.581         -43.9704         150.535         -43.9708         150.539       -0.0194512         143.966
0.603                   -2.40992        -179.227         -43.8403         148.515         -43.8407         148.518       -0.0196685         143.888
0.604                    -2.4545        -179.876         -43.7111         146.496         -43.7115           146.5       -0.0198883         143.811
0.605                   -2.49974         179.472         -43.5826          144.48         -43.5831         144.484       -0.0201104         143.733
0.606                   -2.54567         178.817         -43.4549         142.467         -43.4554         142.471        -0.020335         143.655
0.607                    -2.5923         178.159          -43.328         140.456         -43.3284          140.46        -0.020562         143.576
0.608                   -2.63963         177.498         -43.2016         138.447         -43.2021         138.451       -0.0207915         143.498
0.609                    -2.6877         176.835          -43.076         136.441         -43.0764         136.445       -0.0210236         143.419
0.61                    -2.73651         176.168         -42.9509         134.437         -42.9513         134.441       -0.0212582         143.341
0.611                   -2.78608         175.498         -42.8264         132.436         -42.8268          132.44       -0.0214954         143.261
0.612                   -2.83644         174.825         -42.7024         130.437         -42.7028         130.442       -0.0217354         143.182
0.613                    -2.8876         174.149          -42.579         128.441         -42.5794         128.445        -0.021978         143.103
0.614                   -2.93958         173.469          -42.456         126.447         -42.4564         126.451       -0.0222234         143.023
0.615                    -2.9924         172.787         -42.3334         124.456         -42.3338          124.46       -0.0224716         142.943
0.616                   -3.04609           172.1         -42.2113         122.466         -42.2117         122.471       -0.0227226         142.863
0.617                   -3.10066         171.411         -42.0896         120.479         -42.0899         120.484       -0.0229766         142.783
0.618                   -3.15615         170.718         -41.9682         118.494         -41.9685         118.499       -0.0232336         142.702
0.619                   -3.21257         170.021         -41.8471         116.512         -41.8474         116.516       -0.0234936         142.621
0.62                    -3.26995         169.321         -41.7263         114.531         -41.7266         114.535       -0.0237567          142.54
0.621                   -3.32832         168.617         -41.6058         112.552         -41.6061         112.556        -0.024023         142.459
0.622                    -3.3877         167.909         -41.4856         110.574         -41.4858         110.578       -0.0242926         142.377
0.623                   -3.44813         167.197         -41.3655         108.599         -41.3658         108.603       -0.0245656         142.295
0.624                   -3.50964         166.482         -41.2457         106.625         -41.2459         106.628       -0.0248419         142.213
0.625                   -3.57225         165.762          -41.126         104.652         -41.1263         104.656       -0.0251218         142.131
0.626                     -3.636         165.039         -41.0066          102.68         -41.0068         102.684       -0.0254053         142.048
0.627                   -3.70093         164.312         -40.8872          100.71         -40.8874         100.713       -0.0256926         141.965
0.628                   -3.76706          163.58          -40.768         98.7401         -40.7682         98.7435       -0.0259836         141.882
0.629                   -3.83444         162.844         -40.6489         96.7714         -40.6491         96.7746       -0.0262787         141.799
