! TOUCHSTONE file generated by CST MICROWAVE STUDIO
! Date and time: Fri Oct  2 16:57:54 2020
! Project name: Scenario_1_Free_Space_out_of_line.cst
! Parameters = {Lambda=346.42; Step_1=17.321; dy1=-51.203; dx1=693; L_HA=400; MT=2.54; Rad_Dielectric=30; Rad_Lower=7.3; Rad_Upper=30; a_HA=580; a_WG=246; b_HA=500; b_WG=121; c_HA=0; c_WG=187; d_feed=85; h_feed=15; h_lower=18; h_upper=40}
! Header version: 2018
! Port assignment regex: !\s*Touchstone port\s*([0-9]+)\s*=\s*(CST MWS port|CST DS port)\s*([0-9]+|Zmin|Zmax)\s*\(\"(.*)\"\)(\s*mode\s*([0-9]+))?.*
! Touchstone port assignment:
! Touchstone port 1 = CST MWS port 1 ("")
! Touchstone port 2 = CST MWS port 2 ("")
# GHz S DB R 50
0.5                    -0.145291        -122.491         -62.3924        -116.266         -62.3924        -116.266      -0.00662039         151.161
0.501                  -0.148114        -122.915          -62.338        -117.861          -62.338        -117.858      -0.00666984         151.096
0.502                  -0.151164        -123.341         -62.2812        -119.479         -62.2812        -119.472      -0.00672002         151.031
0.503                  -0.154445         -123.77         -62.2218         -121.12         -62.2218         -121.11      -0.00677095         150.965
0.504                  -0.157962        -124.202         -62.1597        -122.784         -62.1598        -122.771      -0.00682262           150.9
0.505                  -0.161719        -124.636         -62.0949        -124.472          -62.095        -124.455      -0.00687506         150.835
0.506                  -0.165721        -125.073         -62.0271        -126.182         -62.0273        -126.163      -0.00692829         150.769
0.507                  -0.169972        -125.512         -61.9563        -127.916         -61.9566        -127.893      -0.00698231         150.704
0.508                  -0.174477        -125.955         -61.8823        -129.672         -61.8827        -129.646      -0.00703715         150.638
0.509                   -0.17924        -126.399         -61.8051        -131.451         -61.8056        -131.422      -0.00709282         150.573
0.51                   -0.184266        -126.847         -61.7245        -133.251         -61.7251         -133.22      -0.00714933         150.507
0.511                   -0.18956        -127.297         -61.6404        -135.074         -61.6412         -135.04       -0.0072067         150.441
0.512                  -0.195127         -127.75         -61.5527        -136.919         -61.5536        -136.882      -0.00726495         150.375
0.513                  -0.200971        -128.205         -61.4613        -138.785         -61.4624        -138.745      -0.00732408         150.309
0.514                  -0.207097        -128.664         -61.3661        -140.671         -61.3674        -140.629      -0.00738412         150.243
0.515                  -0.213509        -129.124          -61.267        -142.578         -61.2684        -142.533      -0.00744508         150.177
0.516                  -0.220214        -129.588         -61.1639        -144.505         -61.1655        -144.457      -0.00750697         150.111
0.517                  -0.227215        -130.054         -61.0567        -146.451         -61.0586        -146.401      -0.00756981         150.044
0.518                  -0.234518        -130.523         -60.9454        -148.415         -60.9474        -148.364      -0.00763362         149.978
0.519                  -0.242127        -130.994         -60.8298        -150.398         -60.8321        -150.344      -0.00769842         149.911
0.52                   -0.250048        -131.469         -60.7099        -152.397         -60.7124        -152.342      -0.00776421         149.845
0.521                  -0.258285        -131.945         -60.5857        -154.414         -60.5884        -154.357      -0.00783101         149.778
0.522                  -0.266843        -132.425         -60.4571        -156.446           -60.46        -156.388      -0.00789884         149.711
0.523                  -0.275728        -132.907          -60.324        -158.494         -60.3271        -158.434      -0.00796772         149.644
0.524                  -0.284945        -133.392         -60.1865        -160.556         -60.1898        -160.495      -0.00803765         149.577
0.525                  -0.294499        -133.879         -60.0444        -162.632          -60.048         -162.57      -0.00810867          149.51
0.526                  -0.304394        -134.369         -59.8979        -164.721         -59.9018        -164.658      -0.00818078         149.443
0.527                  -0.314636        -134.861          -59.747        -166.822          -59.751        -166.758      -0.00825399         149.376
0.528                  -0.325231        -135.357         -59.5915        -168.934         -59.5958         -168.87      -0.00832833         149.308
0.529                  -0.336182        -135.855         -59.4316        -171.057         -59.4361        -170.993      -0.00840382         149.241
0.53                   -0.347496        -136.355         -59.2673         -173.19          -59.272        -173.125      -0.00848046         149.173
0.531                  -0.359178        -136.858         -59.0987        -175.333         -59.1035        -175.268      -0.00855827         149.106
0.532                  -0.371233        -137.364         -58.9257        -177.484         -58.9308        -177.419      -0.00863728         149.038
0.533                  -0.383665        -137.872         -58.7486        -179.643         -58.7538        -179.578       -0.0087175          148.97
0.534                  -0.396481        -138.383         -58.5672         178.191         -58.5726         178.256      -0.00879894         148.902
0.535                  -0.409685        -138.896         -58.3818         176.018         -58.3873         176.082      -0.00888162         148.834
0.536                  -0.423284        -139.412         -58.1925         173.839         -58.1981         173.903      -0.00896556         148.766
0.537                  -0.437281         -139.93         -57.9993         171.654          -58.005         171.717      -0.00905078         148.698
0.538                  -0.451682        -140.452         -57.8023         169.463         -57.8081         169.526      -0.00913729         148.629
0.539                  -0.466493        -140.975         -57.6017         167.268         -57.6076         167.329      -0.00922511         148.561
0.54                   -0.481719        -141.501         -57.3976         165.068         -57.4036         165.128      -0.00931426         148.492
0.541                  -0.497364         -142.03         -57.1902         162.863         -57.1962         162.923      -0.00940476         148.423
0.542                  -0.513435        -142.561         -56.9795         160.655         -56.9855         160.713      -0.00949662         148.355
0.543                  -0.529936        -143.094         -56.7658         158.443         -56.7718           158.5      -0.00958986         148.286
0.544                  -0.546873         -143.63         -56.5491         156.226         -56.5551         156.282       -0.0096845         148.217
0.545                  -0.564251        -144.169         -56.3297         154.007         -56.3356         154.061      -0.00978056         148.148
0.546                  -0.582075         -144.71         -56.1077         151.783         -56.1136         151.836      -0.00987806         148.078
0.547                  -0.600351        -145.253         -55.8832         149.556          -55.889         149.607      -0.00997702         148.009
0.548                  -0.619083        -145.799         -55.6565         147.325         -55.6622         147.374       -0.0100774          147.94
0.549                  -0.638277        -146.347         -55.4277          145.09         -55.4332         145.138       -0.0101794          147.87
0.55                   -0.657938        -146.898         -55.1969         142.851         -55.2023         142.897       -0.0102828           147.8
0.551                  -0.678071        -147.451         -54.9644         140.608         -54.9697         140.652       -0.0103878         147.731
0.552                  -0.698681        -148.006         -54.7303          138.36         -54.7354         138.403       -0.0104943         147.661
0.553                  -0.719774        -148.564         -54.4948         136.108         -54.4998         136.149       -0.0106024         147.591
0.554                  -0.741355        -149.124         -54.2581         133.851         -54.2629          133.89       -0.0107121         147.521
0.555                  -0.763428        -149.686         -54.0204         131.589         -54.0249         131.626       -0.0108234          147.45
0.556                  -0.785999        -150.251         -53.7818         129.322         -53.7861         129.357       -0.0109363          147.38
0.557                  -0.809072        -150.817         -53.5426         127.049         -53.5467         127.082       -0.0110509         147.309
0.558                  -0.832654        -151.387         -53.3028          124.77         -53.3067         124.801       -0.0111671         147.239
0.559                  -0.856749        -151.958         -53.0629         122.485         -53.0664         122.514       -0.0112851         147.168
0.56                   -0.881362        -152.532         -52.8228         120.193         -52.8261          120.22       -0.0114047         147.097
0.561                  -0.906497        -153.108         -52.5827         117.894         -52.5858         117.919       -0.0115261         147.026
0.562                  -0.932161        -153.686          -52.343         115.589         -52.3458         115.611       -0.0116493         146.955
0.563                  -0.958358        -154.266         -52.1038         113.275         -52.1062         113.296       -0.0117742         146.884
0.564                  -0.985093        -154.848         -51.8652         110.955         -51.8673         110.973        -0.011901         146.812
0.565                   -1.01237        -155.433         -51.6274         108.627         -51.6293         108.643       -0.0120296         146.741
0.566                    -1.0402         -156.02         -51.3907          106.29         -51.3922         106.304         -0.01216         146.669
0.567                   -1.06857        -156.608         -51.1552         103.946         -51.1564         103.958       -0.0122923         146.597
0.568                   -1.09751        -157.199         -50.9211         101.594          -50.922         101.603       -0.0124265         146.525
0.569                   -1.12701        -157.792         -50.6886         99.2334         -50.6892         99.2407       -0.0125626         146.453
0.57                    -1.15707        -158.387         -50.4578         96.8649         -50.4582         96.8698       -0.0127007         146.381
0.571                   -1.18771        -158.984          -50.229         94.4883         -50.2291         94.4909       -0.0128407         146.309
0.572                   -1.21892        -159.583         -50.0024         92.1039         -50.0021         92.1041       -0.0129827         146.236
0.573                   -1.25072        -160.184          -49.778         89.7117         -49.7775         89.7096       -0.0131268         146.164
0.574                    -1.2831        -160.787         -49.5561          87.312         -49.5553         87.3075       -0.0132729         146.091
0.575                   -1.31608        -161.392         -49.3368         84.9052         -49.3357         84.8983       -0.0134211         146.018
0.576                   -1.34965        -161.999         -49.1203         82.4915          -49.119         82.4822       -0.0135713         145.945
0.577                   -1.38382        -162.608         -48.9068         80.0714         -48.9052         80.0597       -0.0137237         145.872
0.578                   -1.41859        -163.219         -48.6963         77.6454         -48.6944         77.6314       -0.0138783         145.798
0.579                   -1.45398        -163.832          -48.489          75.214         -48.4869         75.1976        -0.014035         145.725
0.58                    -1.48998        -164.446          -48.285         72.7779         -48.2827         72.7591        -0.014194         145.651
0.581                   -1.52661        -165.062         -48.0845         70.3376          -48.082         70.3165       -0.0143552         145.577
0.582                   -1.56385        -165.681         -47.8875         67.8939         -47.8848         67.8704       -0.0145186         145.503
0.583                   -1.60173        -166.301         -47.6942         65.4475         -47.6913         65.4217       -0.0146844         145.429
0.584                   -1.64024        -166.923         -47.5045         62.9993         -47.5014         62.9712       -0.0148525         145.355
0.585                   -1.67939        -167.546         -47.3187         60.5499         -47.3154         60.5196       -0.0150229         145.281
0.586                   -1.71919        -168.172         -47.1367         58.1004         -47.1333         58.0679       -0.0151957         145.206
0.587                   -1.75964        -168.799         -46.9586         55.6515          -46.955         55.6169        -0.015371         145.131
0.588                   -1.80074        -169.428         -46.7843         53.2042         -46.7807         53.1675       -0.0155487         145.056
0.589                   -1.84249        -170.058         -46.6141         50.7594         -46.6103         50.7207        -0.015729         144.981
0.59                    -1.88492         -170.69         -46.4477          48.318         -46.4439         48.2773       -0.0159117         144.906
0.591                   -1.92801        -171.324         -46.2853         45.8808         -46.2814         45.8383        -0.016097         144.831
0.592                   -1.97178         -171.96         -46.1267         43.4489         -46.1228         43.4045       -0.0162849         144.755
0.593                   -2.01622        -172.597          -45.972         41.0231          -45.968          40.977       -0.0164755         144.679
0.594                   -2.06136        -173.236         -45.8211         38.6042         -45.8171         38.5565       -0.0166687         144.603
0.595                   -2.10718        -173.877          -45.674         36.1931           -45.67         36.1438       -0.0168647         144.527
0.596                    -2.1537        -174.519         -45.5306         33.7905         -45.5266         33.7398       -0.0170634         144.451
0.597                   -2.20092        -175.163         -45.3907         31.3973         -45.3867         31.3453       -0.0172649         144.374
0.598                   -2.24884        -175.808         -45.2544         29.0142         -45.2504         28.9609       -0.0174692         144.297
0.599                   -2.29748        -176.455         -45.1215         26.6418         -45.1175         26.5874       -0.0176764         144.221
0.6                     -2.34684        -177.104         -44.9918         24.2807         -44.9879         24.2252       -0.0178865         144.144
0.601                   -2.39693        -177.754         -44.8654         21.9315         -44.8616         21.8751       -0.0180996         144.066
0.602                   -2.44774        -178.405          -44.742         19.5948         -44.7382         19.5375       -0.0183157         143.989
0.603                    -2.4993        -179.058         -44.6216         17.2709         -44.6179         17.2129       -0.0185349         143.911
0.604                   -2.55159        -179.713          -44.504         14.9602         -44.5003         14.9016       -0.0187572         143.833
0.605                   -2.60464         179.631          -44.389          12.663         -44.3855         12.6039       -0.0189826         143.755
0.606                   -2.65844         178.973         -44.2766         10.3798         -44.2731         10.3202       -0.0192113         143.677
0.607                   -2.71301         178.314         -44.1666         8.11052         -44.1632         8.05066       -0.0194432         143.599
0.608                   -2.76835         177.653         -44.0589         5.85548         -44.0556         5.79539       -0.0196784          143.52
0.609                   -2.82447         176.991         -43.9532         3.61473           -43.95         3.55452       -0.0199171         143.441
0.61                    -2.88138         176.327         -43.8496         1.38831         -43.8465         1.32808       -0.0201591         143.362
0.611                   -2.93908         175.662         -43.7478       -0.823771         -43.7448       -0.883947       -0.0204046         143.283
0.612                   -2.99758         174.996         -43.6477        -3.02159         -43.6448        -3.08161       -0.0206537         143.203
0.613                   -3.05689         174.328         -43.5492        -5.20524         -43.5464        -5.26503       -0.0209064         143.124
0.614                   -3.11703         173.658         -43.4521        -7.37488         -43.4494        -7.43436       -0.0211628         143.044
0.615                   -3.17799         172.987         -43.3564         -9.5307         -43.3538        -9.58979       -0.0214229         142.964
0.616                   -3.23979         172.315         -43.2618        -11.6729         -43.2593        -11.7315       -0.0216868         142.883
0.617                   -3.30244         171.641         -43.1683        -13.8018         -43.1659        -13.8599       -0.0219545         142.803
0.618                   -3.36594         170.966         -43.0757        -15.9177         -43.0734        -15.9752       -0.0222263         142.722
0.619                   -3.43032         170.289          -42.984        -18.0209         -42.9818        -18.0777        -0.022502         142.641
0.62                    -3.49557         169.611          -42.893        -20.1117         -42.8909        -20.1678       -0.0227819         142.559
0.621                   -3.56171         168.932         -42.8026        -22.1906         -42.8005        -22.2459       -0.0230659         142.478
0.622                   -3.62876         168.251         -42.7127        -24.2579         -42.7107        -24.3124       -0.0233542         142.396
0.623                   -3.69672         167.568         -42.6232        -26.3141         -42.6213        -26.3677       -0.0236469         142.314
0.624                    -3.7656         166.884          -42.534        -28.3596         -42.5322        -28.4123       -0.0239439         142.232
0.625                   -3.83543         166.199         -42.4451        -30.3949         -42.4434        -30.4466       -0.0242455         142.149
0.626                   -3.90621         165.512         -42.3562        -32.4204         -42.3546        -32.4712       -0.0245517         142.066
0.627                   -3.97796         164.824         -42.2675        -34.4367          -42.266        -34.4864       -0.0248626         141.983
0.628                   -4.05069         164.135         -42.1787        -36.4441         -42.1773        -36.4928       -0.0251783           141.9
0.629                   -4.12442         163.444         -42.0899        -38.4433         -42.0885        -38.4908       -0.0254989         141.816
