! TOUCHSTONE file generated by CST MICROWAVE STUDIO
! Date and time: Fri Oct  2 19:14:25 2020
! Project name: Scenario_1_Free_Space_out_of_line.cst
! Parameters = {Lambda=346.42; Step_1=17.321; dy1=-51.203; dx1=866; L_HA=400; MT=2.54; Rad_Dielectric=30; Rad_Lower=7.3; Rad_Upper=30; a_HA=580; a_WG=246; b_HA=500; b_WG=121; c_HA=0; c_WG=187; d_feed=85; h_feed=15; h_lower=18; h_upper=40}
! Header version: 2018
! Port assignment regex: !\s*Touchstone port\s*([0-9]+)\s*=\s*(CST MWS port|CST DS port)\s*([0-9]+|Zmin|Zmax)\s*\(\"(.*)\"\)(\s*mode\s*([0-9]+))?.*
! Touchstone port assignment:
! Touchstone port 1 = CST MWS port 1 ("")
! Touchstone port 2 = CST MWS port 2 ("")
# GHz S DB R 50
0.5                    -0.149072        -122.662         -63.0475         143.727         -63.0475         143.727        -0.006569         151.115
0.501                  -0.153139        -123.108         -62.8718          141.68         -62.8718         141.681      -0.00662589          151.05
0.502                  -0.157469        -123.556         -62.6945         139.623         -62.6946         139.624      -0.00668386         150.984
0.503                  -0.162066        -124.005         -62.5157         137.555         -62.5158         137.557       -0.0067429         150.919
0.504                  -0.166933        -124.457         -62.3354         135.476         -62.3356         135.479      -0.00680301         150.853
0.505                   -0.17207        -124.911         -62.1538         133.387          -62.154          133.39      -0.00686421         150.787
0.506                  -0.177482        -125.367         -61.9708         131.288         -61.9711         131.291      -0.00692649         150.721
0.507                  -0.183171        -125.825         -61.7866         129.177         -61.7869         129.181      -0.00698986         150.655
0.508                  -0.189138        -126.285         -61.6012         127.057         -61.6015         127.061      -0.00705432         150.589
0.509                  -0.195387        -126.747         -61.4147         124.925          -61.415          124.93      -0.00711988         150.523
0.51                   -0.201921        -127.211         -61.2271         122.783         -61.2274         122.788      -0.00718655         150.457
0.511                  -0.208741        -127.677         -61.0385         120.631         -61.0389         120.636      -0.00725431         150.391
0.512                   -0.21585        -128.145          -60.849         118.468         -60.8494         118.473       -0.0073232         150.325
0.513                  -0.223251        -128.615         -60.6587         116.294         -60.6591         116.299       -0.0073932         150.258
0.514                  -0.230947        -129.087         -60.4676          114.11          -60.468         114.115      -0.00746432         150.192
0.515                  -0.238938        -129.561         -60.2758         111.915         -60.2762         111.921      -0.00753656         150.125
0.516                   -0.24723        -130.037         -60.0835          109.71         -60.0838         109.715      -0.00760994         150.059
0.517                  -0.255822        -130.515         -59.8905         107.494         -59.8909           107.5      -0.00768446         149.992
0.518                  -0.264719        -130.995         -59.6972         105.268         -59.6976         105.273      -0.00776012         149.925
0.519                  -0.273923        -131.477         -59.5035         103.031         -59.5038         103.036      -0.00783692         149.858
0.52                   -0.283435        -131.961         -59.3095         100.783         -59.3098         100.789      -0.00791489         149.792
0.521                  -0.293259        -132.447         -59.1153         98.5258         -59.1156         98.5315      -0.00799401         149.725
0.522                  -0.303397        -132.935          -58.921         96.2579         -58.9213         96.2635       -0.0080743         149.657
0.523                  -0.313851        -133.425         -58.7267         93.9797          -58.727         93.9852      -0.00815576          149.59
0.524                  -0.324623        -133.917         -58.5324         91.6914         -58.5327         91.6968      -0.00823839         149.523
0.525                  -0.335717         -134.41         -58.3383         89.3931         -58.3386         89.3983      -0.00832222         149.456
0.526                  -0.347134        -134.906         -58.1444         87.0847         -58.1447         87.0898      -0.00840723         149.388
0.527                  -0.358876        -135.404         -57.9509         84.7666         -57.9511         84.7715      -0.00849344          149.32
0.528                  -0.370947        -135.904         -57.7577         82.4388         -57.7579         82.4435      -0.00858086         149.253
0.529                  -0.383348        -136.405          -57.565         80.1015         -57.5652         80.1059      -0.00866948         149.185
0.53                   -0.396082        -136.909         -57.3729         77.7548         -57.3731          77.759      -0.00875933         149.117
0.531                  -0.409151        -137.415         -57.1815          75.399         -57.1816          75.403       -0.0088504         149.049
0.532                  -0.422557        -137.922         -56.9907         73.0342         -56.9908         73.0379       -0.0089427         148.981
0.533                  -0.436303        -138.432         -56.8008         70.6607         -56.8009         70.6642      -0.00903625         148.913
0.534                   -0.45039        -138.943         -56.6118         68.2788         -56.6118          68.282      -0.00913104         148.845
0.535                  -0.464822        -139.457         -56.4237         65.8886         -56.4237         65.8916      -0.00922708         148.777
0.536                    -0.4796        -139.972         -56.2366         63.4906         -56.2366         63.4932       -0.0093244         148.708
0.537                  -0.494727         -140.49         -56.0507         61.0848         -56.0507         61.0872      -0.00942298          148.64
0.538                  -0.510205        -141.009         -55.8659         58.6718         -55.8658         58.6739      -0.00952284         148.571
0.539                  -0.526036         -141.53         -55.6823         56.2518         -55.6823         56.2535      -0.00962399         148.502
0.54                   -0.542222        -142.053            -55.5         53.8251            -55.5         53.8266      -0.00972644         148.434
0.541                  -0.558765        -142.579         -55.3191         51.3921          -55.319         51.3933       -0.0098302         148.365
0.542                  -0.575669        -143.106         -55.1395         48.9533         -55.1394         48.9541      -0.00993527         148.296
0.543                  -0.592934        -143.635         -54.9614         46.5088         -54.9613         46.5094       -0.0100417         148.226
0.544                  -0.610564        -144.166         -54.7848         44.0593         -54.7847         44.0596       -0.0101494         148.157
0.545                   -0.62856        -144.699         -54.6097          41.605         -54.6095          41.605       -0.0102585         148.088
0.546                  -0.646924        -145.234         -54.4361         39.1463          -54.436         39.1461       -0.0103689         148.018
0.547                  -0.665659        -145.771         -54.2642         36.6838          -54.264         36.6832       -0.0104807         147.949
0.548                  -0.684768         -146.31         -54.0939         34.2177         -54.0937         34.2169       -0.0105938         147.879
0.549                  -0.704251        -146.851         -53.9252         31.7486          -53.925         31.7476       -0.0107084         147.809
0.55                   -0.724112        -147.394         -53.7581         29.2768         -53.7579         29.2755       -0.0108243          147.74
0.551                  -0.744353        -147.939         -53.5927         26.8028         -53.5926         26.8013       -0.0109417          147.67
0.552                  -0.764975        -148.486          -53.429          24.327         -53.4289         24.3253       -0.0110604         147.599
0.553                  -0.785982        -149.035          -53.267         21.8497         -53.2668         21.8479       -0.0111806         147.529
0.554                  -0.807375        -149.586         -53.1067         19.3715         -53.1065         19.3695       -0.0113022         147.459
0.555                  -0.829157        -150.139          -52.948         16.8927         -52.9478         16.8905       -0.0114253         147.388
0.556                   -0.85133        -150.694          -52.791         14.4137         -52.7908         14.4113       -0.0115498         147.318
0.557                  -0.873897        -151.251         -52.6356         11.9348         -52.6354         11.9324       -0.0116758         147.247
0.558                   -0.89686         -151.81         -52.4818          9.4565         -52.4817         9.45395       -0.0118033         147.176
0.559                  -0.920221        -152.372         -52.3297         6.97907         -52.3295         6.97643       -0.0119323         147.105
0.56                   -0.943983        -152.935         -52.1791         4.50285          -52.179         4.50015       -0.0120628         147.034
0.561                  -0.968148          -153.5         -52.0301         2.02816           -52.03         2.02541       -0.0121948         146.963
0.562                   -0.99272        -154.068         -51.8826       -0.444697         -51.8825        -0.44748       -0.0123284         146.892
0.563                    -1.0177        -154.637         -51.7366        -2.91545         -51.7365        -2.91825       -0.0124635          146.82
0.564                   -1.04309        -155.209          -51.592        -5.38385         -51.5919        -5.38664       -0.0126002         146.749
0.565                    -1.0689        -155.783         -51.4488        -7.84965         -51.4487        -7.85241       -0.0127385         146.677
0.566                   -1.09512        -156.359          -51.307        -10.3126         -51.3069        -10.3154       -0.0128783         146.605
0.567                   -1.12177        -156.937         -51.1665        -12.7726         -51.1665        -12.7753       -0.0130198         146.533
0.568                   -1.14883        -157.517         -51.0273        -15.2294         -51.0273         -15.232       -0.0131629         146.461
0.569                   -1.17633          -158.1         -50.8893        -17.6829         -50.8893        -17.6854       -0.0133077         146.389
0.57                    -1.20425        -158.684         -50.7525        -20.1329         -50.7525        -20.1353       -0.0134541         146.317
0.571                   -1.23261        -159.272         -50.6168        -22.5793         -50.6168        -22.5816       -0.0136021         146.244
0.572                    -1.2614        -159.861         -50.4822        -25.0221         -50.4822        -25.0243       -0.0137519         146.172
0.573                   -1.29063        -160.453         -50.3487        -27.4612         -50.3487        -27.4632       -0.0139034         146.099
0.574                   -1.32031        -161.047         -50.2161        -29.8966         -50.2161        -29.8984       -0.0140566         146.026
0.575                   -1.35044        -161.643         -50.0845        -32.3282         -50.0845        -32.3298       -0.0142116         145.953
0.576                   -1.38102        -162.242         -49.9537         -34.756         -49.9538        -34.7575       -0.0143683          145.88
0.577                   -1.41206        -162.843         -49.8238          -37.18         -49.8239        -37.1813       -0.0145269         145.806
0.578                   -1.44356        -163.446         -49.6947        -39.6003         -49.6948        -39.6014       -0.0146873         145.733
0.579                   -1.47553        -164.053         -49.5663        -42.0169         -49.5664        -42.0178       -0.0148495         145.659
0.58                    -1.50797        -164.661         -49.4387          -44.43         -49.4388        -44.4307       -0.0150136         145.586
0.581                   -1.54089        -165.273         -49.3117        -46.8394         -49.3118        -46.8399       -0.0151797         145.512
0.582                    -1.5743        -165.887         -49.1853        -49.2455         -49.1854        -49.2458       -0.0153478         145.438
0.583                   -1.60819        -166.503         -49.0595        -51.6483         -49.0596        -51.6483       -0.0155179         145.364
0.584                   -1.64259        -167.122         -48.9343        -54.0478         -48.9344        -54.0476       -0.0156901         145.289
0.585                   -1.67748        -167.744         -48.8095        -56.4443         -48.8096        -56.4439       -0.0158645         145.215
0.586                   -1.71289        -168.369         -48.6853        -58.8378         -48.6854        -58.8372       -0.0160412          145.14
0.587                   -1.74882        -168.997         -48.5614        -61.2286         -48.5615        -61.2277       -0.0162203         145.065
0.588                   -1.78528        -169.627          -48.438        -63.6167         -48.4381        -63.6157       -0.0164021         144.991
0.589                   -1.82227        -170.261          -48.315        -66.0024          -48.315        -66.0011       -0.0165868         144.916
0.59                    -1.85981        -170.897         -48.1923        -68.3859         -48.1923        -68.3844       -0.0167747          144.84
0.591                    -1.8979        -171.537         -48.0699        -70.7672           -48.07        -70.7655       -0.0169662         144.765
0.592                   -1.93657         -172.18         -47.9478        -73.1466         -47.9479        -73.1447       -0.0171622          144.69
0.593                   -1.97581        -172.826          -47.826        -75.5243         -47.8261        -75.5221       -0.0173635         144.614
0.594                   -2.01564        -173.475         -47.7045        -77.9004         -47.7046         -77.898       -0.0175716         144.539
0.595                   -2.05608        -174.127         -47.5833        -80.2751         -47.5833        -80.2726       -0.0177889         144.463
0.596                   -2.09714        -174.783         -47.4622        -82.6487         -47.4623        -82.6459       -0.0180187         144.387
0.597                   -2.13883        -175.443         -47.3414        -85.0212         -47.3414        -85.0183       -0.0182669         144.312
0.598                   -2.18117        -176.105         -47.2208        -87.3929         -47.2208        -87.3899        -0.018543         144.236
0.599                   -2.22417        -176.772         -47.1005         -89.764         -47.1004        -89.7608       -0.0188636         144.161
0.6                     -2.26786        -177.442         -46.9803        -92.1347         -46.9802        -92.1313       -0.0192588         144.085
0.601                   -2.31225        -178.116         -46.8603         -94.505         -46.8602        -94.5015       -0.0197839          144.01
0.602                   -2.35736        -178.794         -46.7405        -96.8752         -46.7404        -96.8716        -0.020541         143.936
0.603                   -2.40322        -179.475         -46.6209        -99.2455         -46.6208        -99.2418       -0.0216942          143.86
0.604                   -2.44985         179.839         -46.5014        -101.616         -46.5014        -101.612        -0.023362         143.781
0.605                   -2.49728          179.15         -46.3822        -103.987         -46.3821        -103.983       -0.0250879         143.695
0.606                   -2.54552         178.456         -46.2631        -106.358          -46.263        -106.354       -0.0256737         143.603
0.607                   -2.59461         177.758         -46.1443        -108.729         -46.1442        -108.725       -0.0250394         143.514
0.608                   -2.64459         177.056         -46.0257        -111.102         -46.0256        -111.097       -0.0241781         143.431
0.609                   -2.69547          176.35         -45.9074        -113.475         -45.9072        -113.471       -0.0235584         143.351
0.61                     -2.7473         175.639         -45.7892        -115.849         -45.7891        -115.845       -0.0231995         143.273
0.611                   -2.80011         174.924         -45.6713        -118.224         -45.6712         -118.22       -0.0230275         143.194
0.612                   -2.85394         174.204         -45.5537          -120.6         -45.5535        -120.596       -0.0229797         143.115
0.613                   -2.90883         173.479         -45.4363        -122.978         -45.4361        -122.974       -0.0230145         143.036
0.614                   -2.96482         172.751         -45.3192        -125.357          -45.319        -125.352       -0.0231061         142.956
0.615                   -3.02196         172.017         -45.2023        -127.737         -45.2022        -127.732       -0.0232378         142.876
0.616                   -3.08031         171.279         -45.0858        -130.118         -45.0856        -130.114       -0.0233992         142.796
0.617                   -3.13989         170.536         -44.9696          -132.5         -44.9694        -132.496       -0.0235831         142.716
0.618                   -3.20079         169.789         -44.8537        -134.884         -44.8535         -134.88       -0.0237848         142.635
0.619                   -3.26303         169.037         -44.7382         -137.27          -44.738        -137.266        -0.024001         142.554
0.62                     -3.3267         168.281          -44.623        -139.656         -44.6228        -139.652       -0.0242292         142.473
0.621                   -3.39184          167.52         -44.5082        -142.044          -44.508         -142.04       -0.0244678         142.391
0.622                   -3.45852         166.755         -44.3938        -144.434         -44.3936         -144.43       -0.0247155         142.309
0.623                   -3.52681         165.986         -44.2798        -146.824         -44.2796         -146.82       -0.0249714         142.227
0.624                   -3.59677         165.213         -44.1662        -149.216          -44.166        -149.212       -0.0252348         142.144
0.625                   -3.66848         164.436         -44.0531        -151.609         -44.0529        -151.605       -0.0255052         142.061
0.626                     -3.742         163.655         -43.9403        -154.002         -43.9402        -153.999       -0.0257821         141.978
0.627                    -3.8174         162.871         -43.8281        -156.397         -43.8279        -156.394       -0.0260654         141.895
0.628                   -3.89477         162.084         -43.7163        -158.793         -43.7161         -158.79       -0.0263547         141.811
0.629                   -3.97418         161.294         -43.6049        -161.189         -43.6047        -161.186         -0.02665         141.727
