! TOUCHSTONE file generated by CST MICROWAVE STUDIO
! Date and time: Fri Oct  2 18:57:53 2020
! Project name: Scenario_1_Free_Space_out_of_line.cst
! Parameters = {Lambda=346.42; Step_1=17.321; dy1=-51.203; dx1=1039; L_HA=400; MT=2.54; Rad_Dielectric=30; Rad_Lower=7.3; Rad_Upper=30; a_HA=580; a_WG=246; b_HA=500; b_WG=121; c_HA=0; c_WG=187; d_feed=85; h_feed=15; h_lower=18; h_upper=40}
! Header version: 2018
! Port assignment regex: !\s*Touchstone port\s*([0-9]+)\s*=\s*(CST MWS port|CST DS port)\s*([0-9]+|Zmin|Zmax)\s*\(\"(.*)\"\)(\s*mode\s*([0-9]+))?.*
! Touchstone port assignment:
! Touchstone port 1 = CST MWS port 1 ("")
! Touchstone port 2 = CST MWS port 2 ("")
# GHz S DB R 50
0.5                    -0.147747        -122.582         -63.5086         46.7956         -63.5086         46.7956      -0.00669947         151.151
0.501                  -0.153318        -123.025         -63.3928         44.4514         -63.3928         44.4517      -0.00672507         151.086
0.502                  -0.159074        -123.469          -63.273         42.0923          -63.273         42.0929      -0.00674858          151.02
0.503                  -0.165018        -123.915         -63.1494         39.7189         -63.1493         39.7198       -0.0067699         150.954
0.504                  -0.171151        -124.364         -63.0217         37.3319         -63.0217          37.333      -0.00678897         150.888
0.505                  -0.177477        -124.814         -62.8902         34.9318         -62.8902         34.9332       -0.0068058         150.822
0.506                  -0.183998        -125.266         -62.7548         32.5195         -62.7548         32.5211      -0.00682045         150.756
0.507                  -0.190716         -125.72         -62.6156         30.0955         -62.6155         30.0974       -0.0068331          150.69
0.508                  -0.197636        -126.176         -62.4726         27.6604         -62.4725         27.6625      -0.00684402         150.624
0.509                  -0.204759        -126.633         -62.3258         25.2149         -62.3258         25.2172      -0.00685359         150.558
0.51                   -0.212088        -127.093         -62.1754         22.7595         -62.1754          22.762      -0.00686233         150.492
0.511                  -0.219626        -127.555         -62.0214         20.2948         -62.0214         20.2974      -0.00687085         150.426
0.512                  -0.227376        -128.019         -61.8639         17.8212         -61.8639          17.824      -0.00687987         150.359
0.513                  -0.235341        -128.485          -61.703         15.3394          -61.703         15.3424       -0.0068902         150.293
0.514                  -0.243523        -128.952         -61.5388         12.8498         -61.5388         12.8529      -0.00690272         150.227
0.515                  -0.251927        -129.422         -61.3714         10.3528         -61.3714          10.356       -0.0069183          150.16
0.516                  -0.260555        -129.894         -61.2009         7.84871         -61.2008         7.85201      -0.00693783         150.094
0.517                  -0.269409        -130.368         -61.0273         5.33803         -61.0273         5.34141      -0.00696211         150.028
0.518                  -0.278495        -130.844         -60.8509         2.82101         -60.8509         2.82447      -0.00699186         149.961
0.519                  -0.287813        -131.322         -60.6718        0.297966         -60.6718        0.301486      -0.00702768         149.894
0.52                   -0.297368        -131.802           -60.49        -2.23087         -60.4901         -2.2273         -0.00707         149.828
0.521                  -0.307164        -132.284         -60.3058        -4.76529         -60.3058        -4.76169       -0.0071191         149.761
0.522                  -0.317203        -132.768         -60.1192         -7.3051         -60.1192        -7.30148      -0.00717509         149.694
0.523                  -0.327488        -133.255         -59.9304        -9.85017         -59.9305        -9.84654      -0.00723794         149.627
0.524                  -0.338024        -133.743         -59.7396        -12.4004         -59.7396        -12.3967      -0.00730747          149.56
0.525                  -0.348814        -134.234         -59.5468        -14.9556         -59.5468         -14.952       -0.0073834         149.493
0.526                  -0.359862        -134.726         -59.3523        -17.5159         -59.3523        -17.5123      -0.00746538         149.426
0.527                   -0.37117        -135.221         -59.1561        -20.0812         -59.1561        -20.0776      -0.00755297         149.359
0.528                  -0.382744        -135.718         -58.9584        -22.6514         -58.9584        -22.6479      -0.00764572         149.292
0.529                  -0.394586        -136.218         -58.7594        -25.2266         -58.7594        -25.2232      -0.00774317         149.224
0.53                     -0.4067        -136.719         -58.5592        -27.8069         -58.5593        -27.8035      -0.00784485         149.157
0.531                  -0.419091        -137.223          -58.358        -30.3922          -58.358        -30.3889      -0.00795032         149.089
0.532                  -0.431763        -137.728         -58.1559        -32.9827         -58.1559        -32.9794      -0.00805916         149.021
0.533                  -0.444718        -138.236          -57.953        -35.5783         -57.9531        -35.5752        -0.008171         148.953
0.534                  -0.457963        -138.747         -57.7496        -38.1793         -57.7496        -38.1763      -0.00828548         148.885
0.535                    -0.4715        -139.259         -57.5457        -40.7857         -57.5457        -40.7827       -0.0084023         148.817
0.536                  -0.485334        -139.774         -57.3415        -43.3975         -57.3415        -43.3946       -0.0085212         148.749
0.537                   -0.49947        -140.291         -57.1371        -46.0148         -57.1372        -46.0121      -0.00864195          148.68
0.538                  -0.513911        -140.811         -56.9327        -48.6378         -56.9328        -48.6351      -0.00876434         148.612
0.539                  -0.528663        -141.332         -56.7285        -51.2664         -56.7285        -51.2639      -0.00888822         148.543
0.54                   -0.543731        -141.856         -56.5245        -53.9008         -56.5245        -53.8984      -0.00901344         148.475
0.541                  -0.559118        -142.382         -56.3209         -56.541         -56.3209        -56.5388       -0.0091399         148.406
0.542                  -0.574829        -142.911         -56.1178        -59.1871         -56.1178        -59.1849      -0.00926749         148.337
0.543                  -0.590871        -143.442         -55.9153         -61.839         -55.9154         -61.837      -0.00939614         148.268
0.544                  -0.607247        -143.975         -55.7137        -64.4967         -55.7137        -64.4948      -0.00952581         148.199
0.545                  -0.623963        -144.511         -55.5129        -67.1602         -55.5129        -67.1585      -0.00965644          148.13
0.546                  -0.641024        -145.049         -55.3132        -69.8296         -55.3132         -69.828        -0.009788          148.06
0.547                  -0.658436         -145.59         -55.1146        -72.5047         -55.1146        -72.5032      -0.00992047         147.991
0.548                  -0.676204        -146.133         -54.9172        -75.1854         -54.9172        -75.1841       -0.0100538         147.921
0.549                  -0.694334        -146.678         -54.7212        -77.8716         -54.7212        -77.8704       -0.0101881         147.851
0.55                   -0.712831        -147.226         -54.5266        -80.5632         -54.5266        -80.5621       -0.0103232         147.781
0.551                  -0.731702        -147.776         -54.3336          -83.26         -54.3336        -83.2591       -0.0104593         147.711
0.552                  -0.750952        -148.329         -54.1423        -85.9618         -54.1423         -85.961       -0.0105962         147.641
0.553                  -0.770589        -148.884         -53.9526        -88.6684         -53.9526        -88.6678       -0.0107341         147.571
0.554                  -0.790617        -149.441         -53.7648        -91.3796         -53.7648        -91.3791       -0.0108729         147.501
0.555                  -0.811045        -150.002         -53.5789        -94.0951         -53.5789        -94.0948       -0.0110126          147.43
0.556                  -0.831878        -150.564         -53.3949        -96.8147         -53.3949        -96.8144       -0.0111533          147.36
0.557                  -0.853124        -151.129         -53.2129        -99.5379         -53.2129        -99.5378        -0.011295         147.289
0.558                  -0.874789        -151.697          -53.033        -102.265          -53.033        -102.265       -0.0114377         147.218
0.559                  -0.896882        -152.267         -52.8552        -104.994         -52.8552        -104.994       -0.0115814         147.147
0.56                   -0.919409         -152.84         -52.6796        -107.727         -52.6796        -107.727       -0.0117261         147.076
0.561                  -0.942379        -153.416         -52.5062        -110.461         -52.5062        -110.462        -0.011872         147.005
0.562                  -0.965799        -153.994          -52.335        -113.198          -52.335        -113.198       -0.0120189         146.934
0.563                  -0.989677        -154.574         -52.1661        -115.936         -52.1661        -115.937       -0.0121669         146.862
0.564                   -1.01402        -155.157         -51.9994        -118.676         -51.9994        -118.676       -0.0123161         146.791
0.565                   -1.03884        -155.743          -51.835        -121.416          -51.835        -121.416       -0.0124664         146.719
0.566                   -1.06415        -156.332         -51.6729        -124.156         -51.6729        -124.157       -0.0126179         146.647
0.567                   -1.08995        -156.923          -51.513        -126.897          -51.513        -126.897       -0.0127706         146.575
0.568                   -1.11625        -157.516         -51.3554        -129.637         -51.3554        -129.638       -0.0129246         146.503
0.569                   -1.14307        -158.113         -51.2001        -132.376         -51.2001        -132.377       -0.0130798         146.431
0.57                    -1.17041        -158.711          -51.047        -135.114          -51.047        -135.115       -0.0132363         146.359
0.571                   -1.19829        -159.313          -50.896         -137.85          -50.896        -137.851       -0.0133941         146.286
0.572                   -1.22671        -159.917         -50.7472        -140.584         -50.7473        -140.586       -0.0135532         146.213
0.573                   -1.25568        -160.524         -50.6006        -143.317         -50.6006        -143.318       -0.0137137         146.141
0.574                   -1.28522        -161.133          -50.456        -146.046          -50.456        -146.047       -0.0138756         146.068
0.575                   -1.31534        -161.745         -50.3134        -148.773         -50.3135        -148.774       -0.0140389         145.994
0.576                   -1.34605         -162.36         -50.1728        -151.496         -50.1729        -151.497       -0.0142037         145.921
0.577                   -1.37737        -162.977         -50.0341        -154.216         -50.0342        -154.217       -0.0143699         145.848
0.578                   -1.40929        -163.597         -49.8973        -156.932         -49.8974        -156.934       -0.0145375         145.774
0.579                   -1.44185        -164.219         -49.7623        -159.645         -49.7623        -159.646       -0.0147068         145.701
0.58                    -1.47505        -164.844          -49.629        -162.353          -49.629        -162.354       -0.0148775         145.627
0.581                    -1.5089        -165.471         -49.4973        -165.057         -49.4973        -165.058       -0.0150499         145.553
0.582                   -1.54341        -166.101         -49.3672        -167.757         -49.3673        -167.758       -0.0152238         145.479
0.583                   -1.57861        -166.733         -49.2387        -170.452         -49.2387        -170.453       -0.0153994         145.404
0.584                    -1.6145        -167.367         -49.1116        -173.142         -49.1116        -173.144       -0.0155766          145.33
0.585                    -1.6511        -168.004         -48.9858        -175.828         -48.9859        -175.829       -0.0157556         145.255
0.586                   -1.68841        -168.642         -48.8614        -178.509         -48.8615        -178.511       -0.0159363          145.18
0.587                   -1.72645        -169.283         -48.7382         178.814         -48.7382         178.813       -0.0161187         145.105
0.588                   -1.76524        -169.926         -48.6161         176.142         -48.6162         176.141        -0.016303          145.03
0.589                   -1.80477        -170.571         -48.4952         173.475         -48.4952         173.474       -0.0164891         144.955
0.59                    -1.84507        -171.218         -48.3752         170.813         -48.3753         170.812       -0.0166771         144.879
0.591                   -1.88614        -171.866         -48.2562         168.155         -48.2563         168.154        -0.016867         144.804
0.592                   -1.92798        -172.516         -48.1381         165.501         -48.1381           165.5       -0.0170589         144.728
0.593                   -1.97059        -173.167         -48.0208         162.852         -48.0208         162.851       -0.0172528         144.652
0.594                   -2.01398         -173.82         -47.9042         160.207         -47.9042         160.206       -0.0174488         144.576
0.595                   -2.05814        -174.473         -47.7883         157.566         -47.7883         157.565       -0.0176468         144.499
0.596                   -2.10307        -175.128          -47.673         154.929         -47.6731         154.928        -0.017847         144.423
0.597                   -2.14875        -175.783         -47.5583         152.296         -47.5584         152.295       -0.0180495         144.346
0.598                   -2.19517        -176.439         -47.4441         149.666         -47.4442         149.665       -0.0182541         144.269
0.599                   -2.24229        -177.096         -47.3304         147.039         -47.3304         147.039       -0.0184611         144.192
0.6                      -2.2901        -177.753         -47.2171         144.416         -47.2171         144.415       -0.0186705         144.115
0.601                   -2.33854        -178.409         -47.1041         141.796         -47.1041         141.795       -0.0188823         144.037
0.602                   -2.38759        -179.067         -46.9915         139.178         -46.9915         139.177       -0.0190966         143.959
0.603                   -2.43719        -179.724         -46.8791         136.562         -46.8791         136.562       -0.0193135         143.881
0.604                   -2.48728         179.619          -46.767         133.949          -46.767         133.949       -0.0195331         143.803
0.605                   -2.53781         178.961         -46.6551         131.338         -46.6551         131.338       -0.0197554         143.725
0.606                    -2.5887         178.303         -46.5433         128.729         -46.5434         128.728       -0.0199804         143.646
0.607                   -2.63991         177.644         -46.4317          126.12         -46.4318          126.12       -0.0202084         143.568
0.608                   -2.69136         176.983         -46.3203         123.514         -46.3203         123.513       -0.0204394         143.489
0.609                   -2.74301         176.321         -46.2089         120.908         -46.2089         120.908       -0.0206734         143.409
0.61                    -2.79482         175.657         -46.0976         118.303         -46.0976         118.303       -0.0209106          143.33
0.611                   -2.84677         174.989         -45.9864         115.698         -45.9864         115.698       -0.0211511          143.25
0.612                   -2.89885         174.317         -45.8752         113.094         -45.8752         113.094        -0.021395         143.171
0.613                   -2.95109          173.64          -45.764          110.49          -45.764          110.49       -0.0216424          143.09
0.614                   -3.00354         172.958         -45.6529         107.885         -45.6529         107.885       -0.0218934          143.01
0.615                   -3.05626         172.268         -45.5418          105.28         -45.5418          105.28       -0.0221481          142.93
0.616                   -3.10938         171.571         -45.4307         102.675         -45.4307         102.675       -0.0224067         142.849
0.617                   -3.16301         170.866         -45.3196         100.069         -45.3196         100.069       -0.0226694         142.768
0.618                    -3.2173         170.152         -45.2085         97.4614         -45.2085         97.4615       -0.0229361         142.686
0.619                   -3.27241         169.429         -45.0975          94.853         -45.0975          94.853       -0.0232072         142.605
0.62                    -3.32853         168.696         -44.9865         92.2432         -44.9865         92.2432       -0.0234827         142.523
0.621                   -3.38581         167.954         -44.8756         89.6318         -44.8756         89.6319       -0.0237628         142.441
0.622                   -3.44444         167.202         -44.7647         87.0188         -44.7647         87.0189       -0.0240476         142.359
0.623                   -3.50457         166.441         -44.6539          84.404         -44.6538         84.4041       -0.0243374         142.276
0.624                   -3.56636         165.672         -44.5431         81.7872         -44.5431         81.7873       -0.0246323         142.193
0.625                   -3.62995         164.894         -44.4325         79.1684         -44.4324         79.1686       -0.0249324          142.11
0.626                   -3.69545         164.108         -44.3219         76.5475         -44.3219         76.5476        -0.025238         142.027
0.627                   -3.76297         163.316         -44.2115         73.9243         -44.2115         73.9245       -0.0255491         141.943
0.628                   -3.83262         162.517         -44.1013         71.2989         -44.1013         71.2991        -0.025866          141.86
0.629                   -3.90447         161.712         -43.9912         68.6711         -43.9912         68.6713       -0.0261889         141.775
