! TOUCHSTONE file generated by CST MICROWAVE STUDIO
! Date and time: Fri Oct  2 18:37:49 2020
! Project name: Scenario_1_Free_Space_out_of_line.cst
! Parameters = {Lambda=346.42; Step_1=17.321; dy1=-68.544; dx1=173; L_HA=400; MT=2.54; Rad_Dielectric=30; Rad_Lower=7.3; Rad_Upper=30; a_HA=580; a_WG=246; b_HA=500; b_WG=121; c_HA=0; c_WG=187; d_feed=85; h_feed=15; h_lower=18; h_upper=40}
! Header version: 2018
! Port assignment regex: !\s*Touchstone port\s*([0-9]+)\s*=\s*(CST MWS port|CST DS port)\s*([0-9]+|Zmin|Zmax)\s*\(\"(.*)\"\)(\s*mode\s*([0-9]+))?.*
! Touchstone port assignment:
! Touchstone port 1 = CST MWS port 1 ("")
! Touchstone port 2 = CST MWS port 2 ("")
# GHz S DB R 50
0.5                    -0.160691        -122.719         -56.2165         169.237         -56.2165         169.237      -0.00683777         151.073
0.501                  -0.166629        -123.148         -56.0567         167.758         -56.0567         167.757      -0.00685262         151.008
0.502                  -0.172673        -123.579         -55.8959         166.283         -55.8959         166.281      -0.00686881         150.943
0.503                  -0.178826        -124.012         -55.7339         164.813         -55.7339         164.809      -0.00688637         150.877
0.504                  -0.185089        -124.447         -55.5709         163.346         -55.5709          163.34       -0.0069053         150.811
0.505                  -0.191467        -124.884         -55.4069         161.883         -55.4069         161.876      -0.00692564         150.746
0.506                   -0.19796        -125.323         -55.2419         160.423          -55.242         160.416      -0.00694738          150.68
0.507                  -0.204571        -125.764         -55.0761         158.968         -55.0761         158.959      -0.00697056         150.614
0.508                  -0.211303        -126.208         -54.9093         157.516         -54.9094         157.506      -0.00699518         150.548
0.509                   -0.21816        -126.654         -54.7418         156.067         -54.7419         156.057      -0.00702126         150.482
0.51                   -0.225143        -127.101         -54.5735         154.622         -54.5736         154.611      -0.00704882         150.416
0.511                  -0.232256        -127.552         -54.4045          153.18         -54.4045         153.168      -0.00707789          150.35
0.512                  -0.239501        -128.004         -54.2347          151.74         -54.2348         151.728      -0.00710846         150.283
0.513                  -0.246882        -128.459         -54.0644         150.304         -54.0644         150.291      -0.00714057         150.217
0.514                  -0.254402        -128.916         -53.8934         148.871         -53.8934         148.857      -0.00717423          150.15
0.515                  -0.262065        -129.375         -53.7218          147.44         -53.7219         147.426      -0.00720946         150.084
0.516                  -0.269874        -129.837         -53.5497         146.012         -53.5498         145.998      -0.00724628         150.017
0.517                  -0.277832        -130.301         -53.3771         144.586         -53.3772         144.571      -0.00728471          149.95
0.518                  -0.285944        -130.767          -53.204         143.163         -53.2041         143.148      -0.00732477         149.883
0.519                  -0.294213        -131.236         -53.0305         141.741         -53.0306         141.726      -0.00736647         149.817
0.52                   -0.302644        -131.708         -52.8565         140.322         -52.8566         140.306      -0.00740983         149.749
0.521                   -0.31124        -132.182         -52.6822         138.904         -52.6823         138.888      -0.00745488         149.682
0.522                  -0.320006        -132.658         -52.5076         137.487         -52.5077         137.471      -0.00750164         149.615
0.523                  -0.328946        -133.138         -52.3327         136.072         -52.3328         136.056      -0.00755013         149.548
0.524                  -0.338065        -133.619         -52.1574         134.659         -52.1575         134.642      -0.00760036          149.48
0.525                  -0.347368        -134.104         -51.9819         133.246         -51.9821          133.23      -0.00765236         149.413
0.526                   -0.35686        -134.591         -51.8062         131.834         -51.8064         131.818      -0.00770615         149.345
0.527                  -0.366545        -135.081         -51.6303         130.423         -51.6304         130.407      -0.00776175         149.277
0.528                   -0.37643        -135.574         -51.4542         129.013         -51.4544         128.997      -0.00781919          149.21
0.529                   -0.38652        -136.069          -51.278         127.603         -51.2781         127.587      -0.00787848         149.142
0.53                    -0.39682        -136.567         -51.1016         126.194         -51.1018         126.178      -0.00793965         149.074
0.531                  -0.407336        -137.068         -50.9252         124.784         -50.9253         124.769      -0.00800272         149.006
0.532                  -0.418075        -137.572         -50.7486         123.375         -50.7488         123.359      -0.00806772         148.937
0.533                  -0.429042        -138.079          -50.572         121.965         -50.5722          121.95      -0.00813467         148.869
0.534                  -0.440245        -138.589         -50.3954         120.555         -50.3956          120.54      -0.00820359         148.801
0.535                   -0.45169        -139.102         -50.2188         119.145          -50.219          119.13      -0.00827452         148.732
0.536                  -0.463384        -139.618         -50.0422         117.733         -50.0423         117.719      -0.00834746         148.664
0.537                  -0.475335        -140.137         -49.8656         116.322         -49.8658         116.308      -0.00842245         148.595
0.538                  -0.487549        -140.659          -49.689         114.909         -49.6892         114.896      -0.00849952         148.526
0.539                  -0.500035        -141.185         -49.5126         113.495         -49.5128         113.482      -0.00857868         148.457
0.54                   -0.512801        -141.713         -49.3362          112.08         -49.3364         112.067      -0.00865998         148.388
0.541                  -0.525855        -142.245         -49.1599         110.663         -49.1601         110.651      -0.00874343         148.319
0.542                  -0.539206         -142.78         -48.9838         109.245          -48.984         109.234      -0.00882905         148.249
0.543                  -0.552863        -143.318         -48.8078         107.826          -48.808         107.815      -0.00891689          148.18
0.544                  -0.566834        -143.859          -48.632         106.405         -48.6322         106.394      -0.00900697         148.111
0.545                   -0.58113        -144.404         -48.4564         104.982         -48.4566         104.972      -0.00909931         148.041
0.546                  -0.595759        -144.952         -48.2809         103.557         -48.2811         103.547      -0.00919395         147.971
0.547                  -0.610734        -145.504         -48.1057         102.129         -48.1059         102.121      -0.00929092         147.901
0.548                  -0.626063        -146.059         -47.9307           100.7         -47.9309         100.692      -0.00939024         147.831
0.549                  -0.641758        -146.618          -47.756         99.2684         -47.7562          99.261      -0.00949195         147.761
0.55                   -0.657831         -147.18         -47.5815         97.8344         -47.5817         97.8276      -0.00959608         147.691
0.551                  -0.674292        -147.746         -47.4074         96.3978         -47.4075         96.3916      -0.00970265         147.621
0.552                  -0.691154        -148.315         -47.2335         94.9586         -47.2337          94.953      -0.00981172          147.55
0.553                  -0.708429        -148.888         -47.0599         93.5167         -47.0601         93.5118      -0.00992329          147.48
0.554                   -0.72613        -149.465         -46.8867          92.072         -46.8869         92.0677       -0.0100374         147.409
0.555                  -0.744271        -150.045         -46.7138         90.6244          -46.714         90.6207       -0.0101541         147.338
0.556                  -0.762864        -150.629         -46.5413         89.1739         -46.5414         89.1708       -0.0102735         147.267
0.557                  -0.781925        -151.217         -46.3692         87.7202         -46.3693         87.7178       -0.0103954         147.196
0.558                  -0.801467        -151.808         -46.1974         86.2635         -46.1975         86.2617       -0.0105201         147.125
0.559                  -0.821505        -152.404         -46.0261         84.8035         -46.0261         84.8023       -0.0106475         147.054
0.56                   -0.842056        -153.003         -45.8552         83.3403         -45.8552         83.3397       -0.0107777         146.982
0.561                  -0.863135        -153.606         -45.6847         81.8738         -45.6847         81.8738       -0.0109106         146.911
0.562                  -0.884759        -154.213         -45.5146         80.4038         -45.5146         80.4044       -0.0110464         146.839
0.563                  -0.906944        -154.823         -45.3451         78.9304          -45.345         78.9316       -0.0111851         146.767
0.564                  -0.929708        -155.438         -45.1759         77.4535         -45.1759         77.4552       -0.0113267         146.695
0.565                  -0.953069        -156.057         -45.0073          75.973         -45.0072         75.9753       -0.0114713         146.623
0.566                  -0.977045        -156.679         -44.8392         74.4889         -44.8391         74.4918       -0.0116189         146.551
0.567                   -1.00166        -157.305         -44.6716         73.0011         -44.6714         73.0046       -0.0117695         146.479
0.568                   -1.02692        -157.936         -44.5045         71.5097         -44.5043         71.5137       -0.0119232         146.406
0.569                   -1.05286         -158.57          -44.338         70.0146         -44.3377         70.0191         -0.01208         146.333
0.57                    -1.07949        -159.208          -44.172         68.5157         -44.1717         68.5206         -0.01224         146.261
0.571                   -1.10684         -159.85         -44.0066          67.013         -44.0062         67.0184       -0.0124032         146.188
0.572                   -1.13493        -160.496         -43.8418         65.5065         -43.8413         65.5124       -0.0125696         146.115
0.573                   -1.16378        -161.146         -43.6775         63.9962          -43.677         64.0025       -0.0127394         146.041
0.574                   -1.19341          -161.8         -43.5138          62.482         -43.5133         62.4888       -0.0129126         145.968
0.575                   -1.22384        -162.458         -43.3508          60.964         -43.3502         60.9712       -0.0130891         145.894
0.576                   -1.25511         -163.12         -43.1883         59.4421         -43.1878         59.4496       -0.0132691         145.821
0.577                   -1.28723        -163.785         -43.0265         57.9163         -43.0259         57.9242       -0.0134526         145.747
0.578                   -1.32023        -164.454         -42.8654         56.3867         -42.8647         56.3949       -0.0136396         145.673
0.579                   -1.35413        -165.127         -42.7049         54.8531         -42.7041         54.8617       -0.0138302         145.599
0.58                    -1.38897        -165.804          -42.545         53.3157         -42.5442         53.3245       -0.0140245         145.525
0.581                   -1.42476        -166.484         -42.3859         51.7744          -42.385         51.7835       -0.0142225          145.45
0.582                   -1.46153        -167.167         -42.2274         50.2293         -42.2265         50.2385       -0.0144242         145.375
0.583                   -1.49932        -167.855         -42.0695         48.6802         -42.0686         48.6897       -0.0146297         145.301
0.584                   -1.53814        -168.545         -41.9124         47.1274         -41.9114          47.137       -0.0148391         145.226
0.585                   -1.57803        -169.239          -41.756         45.5707          -41.755         45.5805       -0.0150524         145.151
0.586                   -1.61902        -169.936         -41.6004         44.0101         -41.5992         44.0201       -0.0152696         145.076
0.587                   -1.66113        -170.637         -41.4454         42.4458         -41.4442         42.4559       -0.0154909             145
0.588                   -1.70439         -171.34         -41.2912         40.8777           -41.29         40.8878       -0.0157162         144.925
0.589                   -1.74883        -172.046         -41.1377         39.3059         -41.1364         39.3161       -0.0159457         144.849
0.59                    -1.79448        -172.755         -40.9849         37.7304         -40.9836         37.7405       -0.0161793         144.773
0.591                   -1.84137        -173.467         -40.8329         36.1511         -40.8316         36.1613       -0.0164172         144.697
0.592                   -1.88952        -174.181         -40.6817         34.5682         -40.6803         34.5784       -0.0166593         144.621
0.593                   -1.93897        -174.897         -40.5313         32.9817         -40.5298         32.9918       -0.0169058         144.544
0.594                   -1.98975        -175.615         -40.3816         31.3916         -40.3801         31.4016       -0.0171566         144.468
0.595                   -2.04188        -176.335         -40.2327          29.798         -40.2312         29.8079       -0.0174119         144.391
0.596                   -2.09539        -177.057         -40.0846         28.2008          -40.083         28.2106       -0.0176717         144.314
0.597                   -2.15031         -177.78         -39.9372         26.6002         -39.9357         26.6098        -0.017936         144.237
0.598                   -2.20666        -178.505         -39.7907         24.9962         -39.7891         25.0056       -0.0182049          144.16
0.599                   -2.26447         -179.23          -39.645         23.3888         -39.6434          23.398       -0.0184785         144.082
0.6                     -2.32377        -179.957         -39.5001          21.778         -39.4984          21.787       -0.0187567         144.004
0.601                   -2.38458         179.317          -39.356          20.164         -39.3543         20.1727       -0.0190397         143.926
0.602                   -2.44692          178.59         -39.2127         18.5467          -39.211         18.5552       -0.0193274         143.848
0.603                   -2.51081         177.863         -39.0703         16.9262         -39.0686         16.9345       -0.0196199          143.77
0.604                   -2.57627         177.137         -38.9287         15.3026         -38.9269         15.3106       -0.0199172         143.692
0.605                   -2.64333         176.411         -38.7879          13.676         -38.7861         13.6836       -0.0202194         143.613
0.606                   -2.71199         175.687         -38.6479         12.0463         -38.6462         12.0536       -0.0205265         143.534
0.607                   -2.78227         174.964         -38.5088         10.4136         -38.5071         10.4207       -0.0208385         143.455
0.608                   -2.85419         174.243         -38.3706          8.7781         -38.3688         8.78478       -0.0211555         143.376
0.609                   -2.92774         173.524         -38.2332         7.13972         -38.2314         7.14606       -0.0214774         143.297
0.61                    -3.00294         172.808         -38.0966         5.49855         -38.0949         5.50455       -0.0218042         143.217
0.611                    -3.0798         172.095          -37.961         3.85467         -37.9592         3.86032        -0.022136         143.137
0.612                    -3.1583         171.386         -37.8261         2.20815         -37.8244         2.21344       -0.0224727         143.057
0.613                   -3.23845          170.68         -37.6922        0.559042         -37.6904        0.563975       -0.0228144         142.977
0.614                   -3.32024         169.979         -37.5591        -1.09257         -37.5574          -1.088        -0.023161         142.897
0.615                   -3.40366         169.283         -37.4268        -2.74663         -37.4252        -2.74241       -0.0235125         142.816
0.616                   -3.48869         168.592         -37.2955        -4.40305         -37.2938        -4.39918       -0.0238688         142.735
0.617                   -3.57532         167.907          -37.165        -6.06176         -37.1634        -6.05824       -0.0242299         142.654
0.618                   -3.66352         167.228         -37.0354        -7.72268         -37.0338         -7.7195       -0.0245957         142.573
0.619                   -3.75326         166.556         -36.9067        -9.38573         -36.9052        -9.38289       -0.0249662         142.491
0.62                    -3.84451         165.891         -36.7789        -11.0508         -36.7774        -11.0483       -0.0253413          142.41
0.621                   -3.93723         165.234          -36.652        -12.7179         -36.6505        -12.7157       -0.0257208         142.328
0.622                   -4.03138         164.585         -36.5259        -14.3868         -36.5245         -14.385       -0.0261048         142.246
0.623                    -4.1269         163.944         -36.4007        -16.0576         -36.3994         -16.056       -0.0264929         142.163
0.624                   -4.22375         163.313         -36.2765          -17.73         -36.2752        -17.7287       -0.0268852          142.08
0.625                   -4.32186         162.691         -36.1531        -19.4041         -36.1518         -19.403       -0.0272815         141.998
0.626                   -4.42116         162.079         -36.0306        -21.0796         -36.0294        -21.0788       -0.0276816         141.914
0.627                   -4.52159         161.477          -35.909        -22.7566         -35.9079         -22.756       -0.0280854         141.831
0.628                   -4.62307         160.886         -35.7884        -24.4349         -35.7873        -24.4345       -0.0284926         141.748
0.629                    -4.7255         160.307         -35.6686        -26.1143         -35.6675        -26.1142       -0.0289032         141.664
