! TOUCHSTONE file generated by CST MICROWAVE STUDIO
! Date and time: Fri Oct  2 16:23:19 2020
! Project name: Scenario_1_Free_Space_out_of_line.cst
! Parameters = {Lambda=346.42; Step_1=17.321; dy1=-68.544; dx1=346; L_HA=400; MT=2.54; Rad_Dielectric=30; Rad_Lower=7.3; Rad_Upper=30; a_HA=580; a_WG=246; b_HA=500; b_WG=121; c_HA=0; c_WG=187; d_feed=85; h_feed=15; h_lower=18; h_upper=40}
! Header version: 2018
! Port assignment regex: !\s*Touchstone port\s*([0-9]+)\s*=\s*(CST MWS port|CST DS port)\s*([0-9]+|Zmin|Zmax)\s*\(\"(.*)\"\)(\s*mode\s*([0-9]+))?.*
! Touchstone port assignment:
! Touchstone port 1 = CST MWS port 1 ("")
! Touchstone port 2 = CST MWS port 2 ("")
# GHz S DB R 50
0.5                    -0.141658        -122.723         -59.1237         80.6924         -59.0889         80.5657      -0.00663425         151.072
0.501                   -0.14667        -123.168         -58.9106         79.3075         -58.8784         79.1913      -0.00670543         151.007
0.502                  -0.151903        -123.614         -58.6974         77.9136         -58.6678         77.8073      -0.00677799         150.941
0.503                  -0.157363        -124.064         -58.4842         76.5103          -58.457         76.4134      -0.00685195         150.875
0.504                  -0.163056        -124.515          -58.271         75.0976         -58.2461         75.0096      -0.00692731          150.81
0.505                  -0.168987        -124.969         -58.0577         73.6753         -58.0351         73.5958      -0.00700406         150.744
0.506                  -0.175163        -125.425         -57.8446         72.2432          -57.824         72.1716       -0.0070822         150.678
0.507                   -0.18159        -125.883         -57.6315         70.8012         -57.6129         70.7372      -0.00716174         150.612
0.508                  -0.188273        -126.344         -57.4185         69.3491         -57.4018         69.2921      -0.00724266         150.546
0.509                  -0.195219        -126.807         -57.2057         67.8868         -57.1907         67.8365      -0.00732498          150.48
0.51                   -0.202434        -127.272          -56.993         66.4141         -56.9798         66.3701      -0.00740867         150.414
0.511                  -0.209924         -127.74         -56.7806         64.9309         -56.7689         64.8929      -0.00749374         150.348
0.512                  -0.217695         -128.21         -56.5684         63.4372         -56.5582         63.4047      -0.00758018         150.281
0.513                  -0.225753        -128.682         -56.3565         61.9327         -56.3477         61.9054      -0.00766798         150.215
0.514                  -0.234104        -129.156         -56.1449         60.4175         -56.1375          60.395      -0.00775712         150.148
0.515                  -0.242756        -129.633         -55.9338         58.8913         -55.9275         58.8733      -0.00784761         150.082
0.516                  -0.251712        -130.112          -55.723         57.3542         -55.7179         57.3404      -0.00793941         150.015
0.517                  -0.260981        -130.593         -55.5127          55.806         -55.5087         55.7961      -0.00803253         149.948
0.518                  -0.270567        -131.076         -55.3029         54.2467         -55.2999         54.2404      -0.00812694         149.882
0.519                  -0.280476        -131.562         -55.0937         52.6763         -55.0916         52.6733      -0.00822263         149.815
0.52                   -0.290715         -132.05         -54.8851         51.0948         -54.8838         51.0948      -0.00831957         149.748
0.521                  -0.301289        -132.539         -54.6771          49.502         -54.6766         49.5048      -0.00841774         149.681
0.522                  -0.312203        -133.031         -54.4698         47.8981           -54.47         47.9035      -0.00851712         149.614
0.523                  -0.323463        -133.525         -54.2633          46.283         -54.2641         46.2907      -0.00861769         149.546
0.524                  -0.335075        -134.021         -54.0576         44.6568          -54.059         44.6665      -0.00871941         149.479
0.525                  -0.347042        -134.519         -53.8527         43.0195         -53.8546         43.0311      -0.00882225         149.412
0.526                  -0.359371        -135.019         -53.6487         41.3713         -53.6511         41.3844      -0.00892619         149.344
0.527                  -0.372065        -135.521         -53.4457         39.7121         -53.4485         39.7266      -0.00903118         149.277
0.528                  -0.385128        -136.025         -53.2437          38.042         -53.2468         38.0578       -0.0091372         149.209
0.529                  -0.398565        -136.531         -53.0427         36.3613         -53.0462         36.3781       -0.0092442         149.142
0.53                    -0.41238        -137.039         -52.8429           34.67         -52.8466         34.6877      -0.00935214         149.074
0.531                  -0.426574        -137.548         -52.6442         32.9683         -52.6481         32.9867      -0.00946098         149.006
0.532                  -0.441153        -138.059         -52.4467         31.2564         -52.4508         31.2754      -0.00957067         148.938
0.533                  -0.456117        -138.572         -52.2505         29.5345         -52.2548         29.5538      -0.00968117          148.87
0.534                  -0.471469        -139.087         -52.0556         27.8028         -52.0599         27.8224      -0.00979242         148.802
0.535                   -0.48721        -139.603         -51.8621         26.0616         -51.8665         26.0812      -0.00990438         148.733
0.536                  -0.503341        -140.121         -51.6699          24.311         -51.6743         24.3306        -0.010017         148.665
0.537                  -0.519864         -140.64         -51.4793         22.5514         -51.4837         22.5709       -0.0101302         148.597
0.538                  -0.536778        -141.161         -51.2901         20.7831         -51.2944         20.8023       -0.0102439         148.528
0.539                  -0.554081        -141.683         -51.1024         19.0064         -51.1067         19.0252       -0.0103581         148.459
0.54                   -0.571774        -142.207         -50.9163         17.2216         -50.9205           17.24       -0.0104728         148.391
0.541                  -0.589855        -142.732         -50.7318         15.4291         -50.7359         15.4469       -0.0105878         148.322
0.542                   -0.60832        -143.259          -50.549         13.6292          -50.553         13.6463        -0.010703         148.253
0.543                  -0.627167        -143.786         -50.3678         11.8223         -50.3716         11.8387       -0.0108185         148.184
0.544                  -0.646393        -144.315         -50.1884         10.0088          -50.192         10.0245       -0.0109342         148.115
0.545                  -0.665992        -144.846         -50.0106         8.18914         -50.0141         8.20398         -0.01105         148.046
0.546                   -0.68596        -145.377         -49.8346         6.36372         -49.8379         6.37765       -0.0111658         147.976
0.547                  -0.706291        -145.909         -49.6604         4.53295         -49.6635         4.54594       -0.0112815         147.907
0.548                  -0.726978        -146.443          -49.488         2.69728         -49.4908         2.70928       -0.0113972         147.837
0.549                  -0.748016        -146.978         -49.3174        0.857145           -49.32        0.868117       -0.0115127         147.768
0.55                   -0.769395        -147.513         -49.1485       -0.987001         -49.1509       -0.977083        -0.011628         147.698
0.551                  -0.791109         -148.05         -48.9815        -2.83471         -48.9836        -2.82587        -0.011743         147.628
0.552                  -0.813148        -148.588         -48.8163        -4.68552         -48.8182        -4.67777       -0.0118576         147.558
0.553                  -0.835502        -149.126         -48.6529        -6.53898         -48.6545        -6.53234       -0.0119719         147.488
0.554                  -0.858164        -149.666         -48.4913        -8.39464         -48.4927        -8.38912       -0.0120857         147.418
0.555                  -0.881121        -150.207         -48.3315        -10.2521         -48.3326        -10.2476        -0.012199         147.348
0.556                  -0.904365        -150.749         -48.1735        -12.1108         -48.1743        -12.1075       -0.0123118         147.277
0.557                  -0.927884        -151.292         -48.0172        -13.9703         -48.0177        -13.9681       -0.0124241         147.207
0.558                  -0.951667        -151.836         -47.8627        -15.8303         -47.8629        -15.8292       -0.0125357         147.136
0.559                  -0.975703        -152.381         -47.7098        -17.6903         -47.7098        -17.6903       -0.0126467         147.065
0.56                   -0.999981        -152.927         -47.5587          -19.55         -47.5584         -19.551        -0.012757         146.994
0.561                   -1.02449        -153.475         -47.4092        -21.4088         -47.4087        -21.4109       -0.0128667         146.923
0.562                   -1.04922        -154.023         -47.2614        -23.2664         -47.2606        -23.2695       -0.0129757         146.852
0.563                   -1.07416        -154.573         -47.1151        -25.1224          -47.114        -25.1266       -0.0130841         146.781
0.564                    -1.0993        -155.125         -46.9703        -26.9766          -46.969        -26.9817       -0.0131918         146.709
0.565                   -1.12463        -155.678         -46.8271        -28.8285         -46.8255        -28.8346       -0.0132988         146.638
0.566                   -1.15014        -156.233         -46.6853        -30.6779         -46.6835        -30.6848       -0.0134053         146.566
0.567                   -1.17582        -156.789         -46.5449        -32.5243         -46.5428        -32.5322       -0.0135112         146.494
0.568                   -1.20167        -157.347         -46.4059        -34.3677         -46.4036        -34.3764       -0.0136166         146.422
0.569                   -1.22768        -157.907         -46.2682        -36.2076         -46.2656        -36.2171       -0.0137215          146.35
0.57                    -1.25384        -158.469         -46.1317        -38.0439         -46.1289        -38.0542        -0.013826         146.278
0.571                   -1.28015        -159.034         -45.9965        -39.8763         -45.9934        -39.8874       -0.0139302         146.205
0.572                    -1.3066          -159.6         -45.8624        -41.7047         -45.8591        -41.7164       -0.0140342         146.133
0.573                    -1.3332         -160.17         -45.7294        -43.5288         -45.7259        -43.5413        -0.014138          146.06
0.574                   -1.35995        -160.741         -45.5974        -45.3486         -45.5937        -45.3616       -0.0142418         145.987
0.575                   -1.38683        -161.316         -45.4664        -47.1638         -45.4625        -47.1775       -0.0143458         145.914
0.576                   -1.41387        -161.894         -45.3363        -48.9743         -45.3323        -48.9886       -0.0144499         145.841
0.577                   -1.44106        -162.475         -45.2071        -50.7802         -45.2029         -50.795       -0.0145544         145.767
0.578                   -1.46841        -163.059         -45.0788        -52.5812         -45.0743        -52.5965       -0.0146594         145.694
0.579                   -1.49593        -163.647         -44.9512        -54.3773         -44.9465        -54.3932        -0.014765          145.62
0.58                    -1.52362        -164.238         -44.8242        -56.1686         -44.8195        -56.1849       -0.0148715         145.546
0.581                    -1.5515        -164.833          -44.698         -57.955         -44.6931        -57.9717       -0.0149789         145.472
0.582                   -1.57959        -165.433         -44.5723        -59.7364         -44.5672        -59.7535       -0.0150874         145.398
0.583                    -1.6079        -166.036         -44.4472         -61.513          -44.442        -61.5304       -0.0151973         145.323
0.584                   -1.63644        -166.644         -44.3226        -63.2847         -44.3172        -63.3025       -0.0153087         145.249
0.585                   -1.66523        -167.257         -44.1984        -65.0516         -44.1929        -65.0697       -0.0154218         145.174
0.586                   -1.69431        -167.874         -44.0745        -66.8138          -44.069        -66.8322       -0.0155367         145.099
0.587                   -1.72368        -168.496         -43.9511        -68.5713         -43.9454          -68.59       -0.0156537         145.024
0.588                   -1.75338        -169.124         -43.8279        -70.3243         -43.8222        -70.3433        -0.015773         144.948
0.589                   -1.78343        -169.756          -43.705        -72.0729         -43.6992        -72.0921       -0.0158947         144.873
0.59                    -1.81386        -170.394         -43.5823        -73.8172         -43.5764        -73.8366        -0.016019         144.797
0.591                   -1.84469        -171.038         -43.4597        -75.5573         -43.4538        -75.5769       -0.0161462         144.721
0.592                   -1.87597        -171.687         -43.3373        -77.2934         -43.3314        -77.3131       -0.0162764         144.645
0.593                   -1.90772        -172.342          -43.215        -79.0256          -43.209        -79.0455       -0.0164098         144.569
0.594                   -1.93998        -173.004         -43.0927        -80.7541         -43.0867        -80.7741       -0.0165467         144.492
0.595                   -1.97279        -173.671         -42.9704        -82.4791         -42.9644        -82.4992       -0.0166871         144.416
0.596                   -2.00618        -174.344         -42.8481        -84.2008         -42.8422         -84.221       -0.0168313         144.339
0.597                   -2.04018        -175.024         -42.7258        -85.9194         -42.7198        -85.9396       -0.0169795         144.261
0.598                   -2.07485         -175.71         -42.6034         -87.635         -42.5975        -87.6552       -0.0171318         144.184
0.599                   -2.11022        -176.403         -42.4809        -89.3479          -42.475        -89.3681       -0.0172884         144.107
0.6                     -2.14634        -177.102         -42.3582        -91.0583         -42.3524        -91.0785       -0.0174495         144.029
0.601                   -2.18324        -177.808         -42.2354        -92.7663         -42.2297        -92.7865       -0.0176152         143.951
0.602                   -2.22097        -178.521         -42.1124        -94.4723         -42.1068        -94.4924       -0.0177857         143.873
0.603                   -2.25959        -179.241         -41.9893        -96.1765         -41.9837        -96.1964       -0.0179612         143.794
0.604                   -2.29913        -179.967         -41.8659         -97.879         -41.8604        -97.8988       -0.0181417         143.716
0.605                   -2.33964           179.3         -41.7423        -99.5801          -41.737        -99.5997       -0.0183274         143.637
0.606                   -2.38117          178.56         -41.6184         -101.28         -41.6133        -101.299       -0.0185185         143.558
0.607                   -2.42378         177.813         -41.4943        -102.979         -41.4893        -102.998        -0.018715         143.479
0.608                    -2.4675         177.059           -41.37        -104.678         -41.3651        -104.696       -0.0189172         143.399
0.609                    -2.5124         176.298         -41.2454        -106.375         -41.2407        -106.394       -0.0191251          143.32
0.61                    -2.55853         175.531         -41.1205        -108.073          -41.116        -108.091       -0.0193388          143.24
0.611                   -2.60594         174.756         -40.9953        -109.771          -40.991        -109.789       -0.0195584         143.159
0.612                   -2.65468         173.975         -40.8699        -111.469         -40.8657        -111.486       -0.0197841         143.079
0.613                   -2.70481         173.187         -40.7442        -113.167         -40.7402        -113.184       -0.0200159         142.999
0.614                   -2.75639         172.392         -40.6182        -114.867         -40.6144        -114.883       -0.0202539         142.918
0.615                   -2.80947          171.59         -40.4919        -116.567         -40.4884        -116.582       -0.0204982         142.837
0.616                   -2.86411         170.782         -40.3654        -118.268         -40.3621        -118.283       -0.0207489         142.755
0.617                   -2.92037         169.968         -40.2386        -119.971         -40.2355        -119.985       -0.0210061         142.674
0.618                   -2.97831         169.147         -40.1115        -121.675         -40.1087        -121.688       -0.0212698         142.592
0.619                   -3.03799          168.32         -39.9842        -123.381         -39.9817        -123.394       -0.0215401          142.51
0.62                    -3.09948         167.487         -39.8567         -125.09         -39.8544        -125.101        -0.021817         142.428
0.621                   -3.16283         166.647          -39.729          -126.8          -39.727         -126.81       -0.0221007         142.345
0.622                   -3.22811         165.802         -39.6011        -128.513         -39.5993        -128.522       -0.0223911         142.262
0.623                    -3.2954         164.952          -39.473        -130.229         -39.4715        -130.237       -0.0226884         142.179
0.624                   -3.36474         164.096         -39.3447        -131.947         -39.3435        -131.954       -0.0229925         142.096
0.625                   -3.43622         163.234         -39.2163        -133.668         -39.2153        -133.674       -0.0233036         142.013
0.626                   -3.50989         162.368         -39.0878        -135.393         -39.0871        -135.397       -0.0236216         141.929
0.627                   -3.58584         161.497         -38.9592        -137.121         -38.9587        -137.124       -0.0239466         141.845
0.628                   -3.66412         160.622         -38.8305        -138.852         -38.8303        -138.854       -0.0242787          141.76
0.629                   -3.74482         159.742         -38.7018        -140.587         -38.7018        -140.587       -0.0246178         141.676
