! TOUCHSTONE file generated by CST MICROWAVE STUDIO
! Date and time: Fri Oct  2 16:37:18 2020
! Project name: Scenario_1_Free_Space_out_of_line.cst
! Parameters = {Lambda=346.42; Step_1=17.321; dy1=-68.544; dx1=520; L_HA=400; MT=2.54; Rad_Dielectric=30; Rad_Lower=7.3; Rad_Upper=30; a_HA=580; a_WG=246; b_HA=500; b_WG=121; c_HA=0; c_WG=187; d_feed=85; h_feed=15; h_lower=18; h_upper=40}
! Header version: 2018
! Port assignment regex: !\s*Touchstone port\s*([0-9]+)\s*=\s*(CST MWS port|CST DS port)\s*([0-9]+|Zmin|Zmax)\s*\(\"(.*)\"\)(\s*mode\s*([0-9]+))?.*
! Touchstone port assignment:
! Touchstone port 1 = CST MWS port 1 ("")
! Touchstone port 2 = CST MWS port 2 ("")
# GHz S DB R 50
0.5                    -0.151888        -122.632         -60.9805        -18.0203         -60.9805        -18.0203      -0.00667151         151.091
0.501                   -0.15535        -123.093         -60.8639        -19.6948         -60.8639        -19.6923      -0.00670863         151.025
0.502                  -0.159086        -123.556         -60.7443        -21.3771         -60.7443        -21.3722      -0.00674749          150.96
0.503                  -0.163099         -124.02         -60.6218        -23.0668         -60.6218        -23.0596      -0.00678807         150.894
0.504                  -0.167391        -124.487         -60.4963        -24.7635         -60.4964        -24.7542      -0.00683039         150.828
0.505                  -0.171964        -124.955          -60.368         -26.467         -60.3681        -26.4555      -0.00687444         150.762
0.506                  -0.176821        -125.425         -60.2367        -28.1768         -60.2368        -28.1632      -0.00692023         150.696
0.507                  -0.181964        -125.896         -60.1025        -29.8926         -60.1027        -29.8771      -0.00696774          150.63
0.508                  -0.187395        -126.369         -59.9655        -31.6141         -59.9658        -31.5967      -0.00701699         150.564
0.509                  -0.193118        -126.844         -59.8257        -33.3409          -59.826        -33.3217      -0.00706796         150.498
0.51                   -0.199134        -127.321         -59.6831        -35.0727         -59.6834        -35.0518      -0.00712067         150.432
0.511                  -0.205445        -127.799         -59.5377        -36.8094         -59.5381        -36.7868      -0.00717511         150.365
0.512                  -0.212055        -128.279         -59.3897        -38.5505         -59.3901        -38.5264      -0.00723128         150.299
0.513                  -0.218965        -128.761          -59.239        -40.2958         -59.2395        -40.2703      -0.00728918         150.232
0.514                  -0.226178        -129.244         -59.0856        -42.0451         -59.0862        -42.0183      -0.00734882         150.166
0.515                  -0.233696        -129.729         -58.9298        -43.7982         -58.9304        -43.7701      -0.00741018         150.099
0.516                  -0.241522        -130.216         -58.7714        -45.5549         -58.7721        -45.5256      -0.00747328         150.032
0.517                  -0.249657        -130.705         -58.6106        -47.3149         -58.6113        -47.2846       -0.0075381         149.966
0.518                  -0.258105        -131.195         -58.4474        -49.0782         -58.4482        -49.0469      -0.00760467         149.899
0.519                  -0.266868        -131.687         -58.2818        -50.8446         -58.2827        -50.8124      -0.00767296         149.832
0.52                   -0.275947        -132.181         -58.1141         -52.614          -58.115         -52.581      -0.00774299         149.765
0.521                  -0.285346        -132.676         -57.9441        -54.3863         -57.9451        -54.3526      -0.00781475         149.697
0.522                  -0.295067        -133.173          -57.772        -56.1613          -57.773        -56.1271      -0.00788824          149.63
0.523                  -0.305112        -133.672         -57.5979        -57.9391          -57.599        -57.9044      -0.00796348         149.563
0.524                  -0.315483        -134.172         -57.4218        -59.7197         -57.4229        -59.6845      -0.00804045         149.495
0.525                  -0.326184        -134.674         -57.2437        -61.5029         -57.2449        -61.4674      -0.00811915         149.428
0.526                  -0.337215        -135.178         -57.0639        -63.2889         -57.0651        -63.2531      -0.00819959          149.36
0.527                   -0.34858        -135.684         -56.8823        -65.0776         -56.8835        -65.0416      -0.00828178         149.293
0.528                  -0.360282        -136.191          -56.699         -66.869         -56.7003        -66.8329       -0.0083657         149.225
0.529                  -0.372321          -136.7         -56.5141        -68.6633         -56.5155        -68.6272      -0.00845136         149.157
0.53                   -0.384701        -137.211         -56.3277        -70.4605         -56.3291        -70.4244      -0.00853877         149.089
0.531                  -0.397424        -137.723         -56.1399        -72.2607         -56.1413        -72.2247      -0.00862792         149.021
0.532                  -0.410493        -138.237         -55.9507        -74.0639         -55.9521        -74.0282      -0.00871882         148.953
0.533                  -0.423909        -138.753         -55.7602        -75.8704         -55.7616        -75.8349      -0.00881146         148.884
0.534                  -0.437676         -139.27         -55.5686        -77.6802         -55.5699         -77.645      -0.00890585         148.816
0.535                  -0.451795        -139.789         -55.3758        -79.4934         -55.3772        -79.4587      -0.00900199         148.748
0.536                   -0.46627         -140.31          -55.182        -81.3103         -55.1833         -81.276      -0.00909988         148.679
0.537                  -0.481101        -140.833         -54.9872        -83.1309         -54.9885        -83.0972      -0.00919953          148.61
0.538                  -0.496293        -141.357         -54.7915        -84.9554         -54.7929        -84.9223      -0.00930093         148.542
0.539                  -0.511847        -141.883         -54.5951        -86.7841         -54.5964        -86.7516      -0.00940409         148.473
0.54                   -0.527765         -142.41         -54.3979         -88.617         -54.3992        -88.5852        -0.009509         148.404
0.541                  -0.544051         -142.94         -54.2002        -90.4543         -54.2014        -90.4233      -0.00961568         148.335
0.542                  -0.560706        -143.471         -54.0019        -92.2963         -54.0031        -92.2661      -0.00972412         148.266
0.543                  -0.577734        -144.003         -53.8031         -94.143         -53.8043        -94.1137      -0.00983433         148.196
0.544                  -0.595136        -144.538          -53.604        -95.9948         -53.6051        -95.9663      -0.00994631         148.127
0.545                  -0.612915        -145.074         -53.4045        -97.8516         -53.4056        -97.8241       -0.0100601         148.057
0.546                  -0.631073        -145.612         -53.2049        -99.7138          -53.206        -99.6873       -0.0101756         147.988
0.547                  -0.649614        -146.151         -53.0051        -101.581         -53.0062        -101.556       -0.0102929         147.918
0.548                   -0.66854        -146.693         -52.8053        -103.455         -52.8063         -103.43       -0.0104119         147.848
0.549                  -0.687853        -147.235         -52.6056        -105.334         -52.6065         -105.31       -0.0105328         147.778
0.55                   -0.707556         -147.78         -52.4059        -107.219         -52.4068        -107.197       -0.0106554         147.708
0.551                  -0.727652        -148.327         -52.2065         -109.11         -52.2073        -109.089       -0.0107799         147.638
0.552                  -0.748143        -148.875         -52.0074        -111.007         -52.0081        -110.987       -0.0109061         147.568
0.553                  -0.769033        -149.425         -51.8086         -112.91         -51.8093        -112.892       -0.0110341         147.498
0.554                  -0.790323        -149.976         -51.6103         -114.82         -51.6109        -114.803       -0.0111639         147.427
0.555                  -0.812017         -150.53         -51.4125        -116.736         -51.4131         -116.72       -0.0112955         147.357
0.556                  -0.834117        -151.085         -51.2153        -118.659         -51.2159        -118.644        -0.011429         147.286
0.557                  -0.856627        -151.642         -51.0188        -120.588         -51.0193        -120.575       -0.0115642         147.215
0.558                  -0.879549        -152.201         -50.8231        -122.524         -50.8235        -122.512       -0.0117012         147.144
0.559                  -0.902887        -152.761         -50.6282        -124.467         -50.6286        -124.456       -0.0118401         147.073
0.56                   -0.926642        -153.323         -50.4343        -126.416         -50.4346        -126.407       -0.0119808         147.002
0.561                  -0.950819        -153.887         -50.2413        -128.371         -50.2416        -128.364       -0.0121233          146.93
0.562                  -0.975421        -154.453         -50.0495        -130.333         -50.0497        -130.327       -0.0122676         146.859
0.563                   -1.00045        -155.021         -49.8587        -132.302         -49.8589        -132.297       -0.0124138         146.787
0.564                   -1.02591         -155.59         -49.6692        -134.277         -49.6693        -134.273       -0.0125618         146.716
0.565                   -1.05181        -156.162         -49.4809        -136.258          -49.481        -136.256       -0.0127117         146.644
0.566                   -1.07814        -156.735          -49.294        -138.245          -49.294        -138.244       -0.0128634         146.572
0.567                   -1.10491         -157.31         -49.1084        -140.238         -49.1085        -140.239        -0.013017           146.5
0.568                   -1.13213        -157.887         -48.9244        -142.237         -48.9244        -142.239       -0.0131724         146.428
0.569                    -1.1598        -158.465         -48.7418        -144.241         -48.7418        -144.245       -0.0133297         146.355
0.57                    -1.18792        -159.046         -48.5608        -146.251         -48.5608        -146.256       -0.0134889         146.283
0.571                    -1.2165        -159.628         -48.3815        -148.266         -48.3814        -148.272       -0.0136499          146.21
0.572                   -1.24553        -160.213         -48.2038        -150.286         -48.2037        -150.293       -0.0138129         146.137
0.573                   -1.27503        -160.799         -48.0278         -152.31         -48.0277        -152.318       -0.0139777         146.064
0.574                     -1.305        -161.387         -47.8535        -154.338         -47.8535        -154.348       -0.0141445         145.991
0.575                   -1.33544        -161.977         -47.6811        -156.371          -47.681        -156.382       -0.0143131         145.918
0.576                   -1.36636         -162.57         -47.5104        -158.407         -47.5104        -158.419       -0.0144837         145.845
0.577                   -1.39776        -163.164         -47.3416        -160.447         -47.3416         -160.46       -0.0146562         145.771
0.578                   -1.42965         -163.76         -47.1747        -162.489         -47.1747        -162.503       -0.0148306         145.698
0.579                   -1.46203        -164.358         -47.0096        -164.535         -47.0097         -164.55        -0.015007         145.624
0.58                     -1.4949        -164.958         -46.8465        -166.582         -46.8465        -166.598       -0.0151853          145.55
0.581                   -1.52828        -165.561         -46.6852        -168.632         -46.6853        -168.649       -0.0153656         145.476
0.582                   -1.56216        -166.165         -46.5259        -170.683          -46.526          -170.7       -0.0155479         145.402
0.583                   -1.59656        -166.771         -46.3684        -172.735         -46.3686        -172.754       -0.0157321         145.327
0.584                   -1.63147         -167.38         -46.2129        -174.788         -46.2131        -174.807       -0.0159183         145.253
0.585                    -1.6669        -167.991         -46.0593        -176.842         -46.0595        -176.862       -0.0161065         145.178
0.586                   -1.70287        -168.603         -45.9075        -178.895         -45.9078        -178.916       -0.0162968         145.103
0.587                   -1.73937        -169.218         -45.7576         179.051         -45.7579          179.03       -0.0164891         145.028
0.588                   -1.77642        -169.836         -45.6096         176.999           -45.61         176.977       -0.0166834         144.953
0.589                   -1.81401        -170.455         -45.4634         174.947         -45.4638         174.924       -0.0168797         144.877
0.59                    -1.85216        -171.077         -45.3189         172.896         -45.3194         172.873       -0.0170782         144.802
0.591                   -1.89087        -171.701         -45.1762         170.847         -45.1768         170.824       -0.0172787         144.726
0.592                   -1.93015        -172.327         -45.0353           168.8         -45.0358         168.776       -0.0174813          144.65
0.593                   -1.97002        -172.956          -44.896         166.755         -44.8966         166.731        -0.017686         144.574
0.594                   -2.01047        -173.587         -44.7583         164.712          -44.759         164.688       -0.0178929         144.498
0.595                   -2.05151         -174.22         -44.6223         162.672          -44.623         162.648       -0.0181019         144.421
0.596                   -2.09316        -174.856         -44.4878         160.636         -44.4885         160.612       -0.0183131         144.345
0.597                   -2.13542        -175.494         -44.3547         158.602         -44.3555         158.578       -0.0185265         144.268
0.598                    -2.1783        -176.135         -44.2231         156.571          -44.224         156.547        -0.018742         144.191
0.599                   -2.22181        -176.778         -44.0929         154.544         -44.0938         154.521       -0.0189598         144.114
0.6                     -2.26597        -177.424          -43.964         152.521          -43.965         152.497       -0.0191799         144.036
0.601                   -2.31078        -178.072         -43.8364         150.502         -43.8374         150.478       -0.0194023         143.959
0.602                   -2.35625        -178.723           -43.71         148.486          -43.711         148.463       -0.0196269         143.881
0.603                   -2.40239        -179.376         -43.5847         146.475         -43.5858         146.452       -0.0198539         143.803
0.604                   -2.44923         179.967         -43.4605         144.468         -43.4616         144.445       -0.0200833         143.725
0.605                   -2.49676         179.308         -43.3374         142.464         -43.3385         142.442        -0.020315         143.647
0.606                     -2.545         178.647         -43.2152         140.465         -43.2163         140.443       -0.0205492         143.568
0.607                   -2.59397         177.982         -43.0939         138.471         -43.0951         138.449       -0.0207858         143.489
0.608                   -2.64367         177.315         -42.9735          136.48         -42.9747         136.459        -0.021025          143.41
0.609                   -2.69413         176.645         -42.8538         134.493          -42.855         134.473       -0.0212667         143.331
0.61                    -2.74536         175.972         -42.7349         132.511         -42.7361         132.491       -0.0215109         143.252
0.611                   -2.79737         175.296         -42.6166         130.532         -42.6178         130.513       -0.0217579         143.172
0.612                   -2.85019         174.617          -42.499         128.558         -42.5002         128.539       -0.0220075         143.092
0.613                   -2.90382         173.934         -42.3819         126.587         -42.3831         126.569       -0.0222598         143.012
0.614                   -2.95828         173.249         -42.2653         124.621         -42.2665         124.603       -0.0225149         142.932
0.615                    -3.0136         172.561         -42.1492         122.657         -42.1503          122.64       -0.0227728         142.851
0.616                   -3.06979          171.87         -42.0334         120.697         -42.0346         120.681       -0.0230337          142.77
0.617                   -3.12688         171.175          -41.918         118.741         -41.9192         118.725       -0.0232975         142.689
0.618                   -3.18488         170.478         -41.8029         116.787          -41.804         116.772       -0.0235644         142.608
0.619                   -3.24381         169.777          -41.688         114.837         -41.6892         114.823       -0.0238344         142.527
0.62                    -3.30371         169.073         -41.5734         112.889         -41.5745         112.875       -0.0241077         142.445
0.621                   -3.36458         168.365         -41.4589         110.944           -41.46         110.931       -0.0243842         142.363
0.622                   -3.42647         167.654         -41.3445         109.001         -41.3456         108.989       -0.0246641         142.281
0.623                   -3.48939          166.94         -41.2303          107.06         -41.2313         107.048       -0.0249474         142.198
0.624                   -3.55338         166.222         -41.1161         105.121          -41.117          105.11       -0.0252344         142.115
0.625                   -3.61845           165.5         -41.0019         103.183         -41.0028         103.173       -0.0255251         142.032
0.626                   -3.68464         164.776         -40.8877         101.247         -40.8886         101.238       -0.0258196         141.949
0.627                   -3.75199         164.047         -40.7734         99.3124         -40.7743         99.3039       -0.0261181         141.865
0.628                   -3.82052         163.315         -40.6591         97.3783         -40.6599         97.3706       -0.0264206         141.781
0.629                   -3.89027          162.58         -40.5447         95.4449         -40.5455         95.4378       -0.0267274         141.697
