! TOUCHSTONE file generated by CST MICROWAVE STUDIO
! Date and time: Fri Oct  2 16:58:05 2020
! Project name: Scenario_1_Free_Space_out_of_line.cst
! Parameters = {Lambda=346.42; Step_1=17.321; dy1=-68.544; dx1=693; L_HA=400; MT=2.54; Rad_Dielectric=30; Rad_Lower=7.3; Rad_Upper=30; a_HA=580; a_WG=246; b_HA=500; b_WG=121; c_HA=0; c_WG=187; d_feed=85; h_feed=15; h_lower=18; h_upper=40}
! Header version: 2018
! Port assignment regex: !\s*Touchstone port\s*([0-9]+)\s*=\s*(CST MWS port|CST DS port)\s*([0-9]+|Zmin|Zmax)\s*\(\"(.*)\"\)(\s*mode\s*([0-9]+))?.*
! Touchstone port assignment:
! Touchstone port 1 = CST MWS port 1 ("")
! Touchstone port 2 = CST MWS port 2 ("")
# GHz S DB R 50
0.5                     -0.14611         -122.63         -62.3419        -116.423         -62.3419        -116.423      -0.00671947          151.11
0.501                  -0.152932         -123.07         -62.2054        -118.932          -62.205        -118.932      -0.00678415         151.045
0.502                  -0.159915        -123.513         -62.0637        -121.423         -62.0629        -121.422      -0.00684981         150.979
0.503                   -0.16706        -123.957         -61.9169        -123.895         -61.9157        -123.894      -0.00691643         150.914
0.504                  -0.174369        -124.403         -61.7653        -126.348         -61.7639        -126.347      -0.00698401         150.848
0.505                  -0.181843         -124.85         -61.6094        -128.781         -61.6076        -128.779      -0.00705256         150.782
0.506                  -0.189486          -125.3         -61.4493        -131.193         -61.4473        -131.191      -0.00712208         150.716
0.507                  -0.197298        -125.751         -61.2854        -133.584         -61.2831        -133.581      -0.00719255         150.651
0.508                  -0.205281        -126.204          -61.118        -135.954         -61.1155         -135.95      -0.00726399         150.585
0.509                  -0.213439        -126.659         -60.9474        -138.302         -60.9446        -138.298      -0.00733639         150.519
0.51                   -0.221773        -127.115         -60.7738        -140.629         -60.7709        -140.624      -0.00740975         150.452
0.511                  -0.230285        -127.574         -60.5976        -142.935         -60.5945        -142.929      -0.00748406         150.386
0.512                  -0.238977        -128.034         -60.4189        -145.219         -60.4157        -145.214      -0.00755932          150.32
0.513                  -0.247852        -128.496         -60.2381        -147.484         -60.2347        -147.477      -0.00763553         150.254
0.514                  -0.256911         -128.96         -60.0553        -149.728         -60.0519        -149.721      -0.00771269         150.187
0.515                  -0.266158        -129.426         -59.8709        -151.953         -59.8673        -151.945      -0.00779079         150.121
0.516                  -0.275595        -129.894         -59.6849        -154.158         -59.6813         -154.15      -0.00786981         150.054
0.517                  -0.285224        -130.364         -59.4977        -156.346         -59.4939        -156.337      -0.00794977         149.988
0.518                  -0.295048        -130.836         -59.3093        -158.515         -59.3055        -158.506      -0.00803065         149.921
0.519                  -0.305069        -131.309           -59.12        -160.668         -59.1162        -160.658      -0.00811244         149.854
0.52                   -0.315291        -131.785         -58.9299        -162.804         -58.9261        -162.794      -0.00819514         149.787
0.521                  -0.325715        -132.263         -58.7392        -164.925         -58.7354        -164.914      -0.00827873          149.72
0.522                  -0.336344        -132.742          -58.548        -167.031         -58.5442         -167.02      -0.00836321         149.653
0.523                  -0.347182        -133.224         -58.3564        -169.123         -58.3526        -169.112      -0.00844857         149.586
0.524                  -0.358231        -133.708         -58.1647        -171.202         -58.1609         -171.19      -0.00853478         149.519
0.525                  -0.369495        -134.194         -57.9728        -173.268          -57.969        -173.257      -0.00862184         149.451
0.526                  -0.380976        -134.682         -57.7809        -175.323         -57.7772        -175.311      -0.00870973         149.384
0.527                  -0.392678        -135.172          -57.589        -177.367         -57.5854        -177.355      -0.00879844         149.316
0.528                  -0.404604        -135.664         -57.3974        -179.401         -57.3938        -179.389      -0.00888794         149.249
0.529                  -0.416757        -136.159          -57.206         178.575         -57.2025         178.587      -0.00897821         149.181
0.53                    -0.42914        -136.655         -57.0149         176.559         -57.0114         176.571      -0.00906923         149.113
0.531                  -0.441758        -137.154         -56.8242         174.551         -56.8208         174.563      -0.00916098         149.045
0.532                  -0.454614        -137.655          -56.634          172.55         -56.6307         172.562      -0.00925343         148.977
0.533                  -0.467711        -138.158         -56.4443         170.556          -56.441         170.567      -0.00934654         148.909
0.534                  -0.481053        -138.664         -56.2551         168.567          -56.252         168.579      -0.00944029         148.841
0.535                  -0.494645        -139.171         -56.0666         166.584         -56.0635         166.595      -0.00953464         148.773
0.536                  -0.508491        -139.681         -55.8787         164.605         -55.8757         164.616      -0.00962954         148.705
0.537                  -0.522594        -140.194         -55.6915          162.63         -55.6886         162.641      -0.00972496         148.636
0.538                  -0.536959        -140.708          -55.505         160.658         -55.5023         160.669      -0.00982086         148.568
0.539                   -0.55159        -141.225         -55.3193         158.689         -55.3167           158.7      -0.00991717         148.499
0.54                   -0.566492        -141.745         -55.1344         156.723         -55.1319         156.733       -0.0100139          148.43
0.541                  -0.581669        -142.267         -54.9504         154.757          -54.948         154.768       -0.0101108         148.361
0.542                  -0.597127        -142.791         -54.7672         152.794         -54.7648         152.803       -0.0102081         148.292
0.543                  -0.612871        -143.318         -54.5848          150.83         -54.5826          150.84       -0.0103055         148.223
0.544                  -0.628905        -143.847         -54.4034         148.867         -54.4013         148.877        -0.010403         148.154
0.545                  -0.645235        -144.379         -54.2229         146.904         -54.2209         146.913       -0.0105006         148.085
0.546                  -0.661866        -144.913         -54.0433          144.94         -54.0414         144.949       -0.0105981         148.015
0.547                  -0.678804         -145.45         -53.8647         142.976         -53.8629         142.984       -0.0106955         147.946
0.548                  -0.696055        -145.989          -53.687         141.009         -53.6854         141.017       -0.0107926         147.876
0.549                  -0.713624        -146.531         -53.5103         139.041         -53.5088         139.048       -0.0108895         147.807
0.55                   -0.731518        -147.075         -53.3347         137.071         -53.3332         137.078        -0.010986         147.737
0.551                  -0.749744        -147.623           -53.16         135.098         -53.1587         135.104       -0.0110819         147.667
0.552                  -0.768308        -148.173         -52.9863         133.122         -52.9851         133.128       -0.0111773         147.597
0.553                  -0.787216        -148.725         -52.8137         131.144         -52.8126         131.149        -0.011272         147.527
0.554                  -0.806476        -149.281         -52.6422         129.162         -52.6412         129.167        -0.011366         147.456
0.555                  -0.826095        -149.839         -52.4716         127.176         -52.4708         127.181       -0.0114591         147.386
0.556                   -0.84608          -150.4         -52.3022         125.186         -52.3014         125.191       -0.0115514         147.315
0.557                   -0.86644        -150.963         -52.1338         123.193         -52.1331         123.197       -0.0116427         147.245
0.558                  -0.887181         -151.53         -51.9664         121.195         -51.9659         121.199       -0.0117331         147.174
0.559                  -0.908313        -152.099         -51.8002         119.193         -51.7997         119.197       -0.0118225         147.103
0.56                   -0.929843        -152.671          -51.635         117.186         -51.6347          117.19        -0.011911         147.032
0.561                  -0.951782        -153.246         -51.4709         115.175         -51.4707         115.178       -0.0119987         146.961
0.562                  -0.974136        -153.824          -51.308         113.159         -51.3078         113.161       -0.0120857         146.889
0.563                  -0.996917        -154.405         -51.1461         111.137          -51.146         111.139       -0.0121722         146.818
0.564                   -1.02013        -154.989         -50.9853         109.111         -50.9853         109.113       -0.0122585         146.746
0.565                    -1.0438        -155.576         -50.8256          107.08         -50.8257         107.081       -0.0123448         146.674
0.566                   -1.06791        -156.166          -50.667         105.043         -50.6672         105.044       -0.0124315         146.602
0.567                    -1.0925        -156.759         -50.5096         103.001         -50.5098         103.002       -0.0125192          146.53
0.568                   -1.11756        -157.356         -50.3532         100.953         -50.3535         100.954       -0.0126084         146.458
0.569                   -1.14311        -157.955         -50.1979         98.9008         -50.1984         98.9012       -0.0126995         146.385
0.57                    -1.16916        -158.557         -50.0438         96.8429         -50.0443          96.843       -0.0127934         146.313
0.571                   -1.19573        -159.162         -49.8908         94.7795         -49.8913         94.7794       -0.0128907          146.24
0.572                   -1.22281        -159.771         -49.7388         92.7108         -49.7395         92.7106       -0.0129921         146.167
0.573                   -1.25044        -160.383          -49.588         90.6369         -49.5887         90.6364       -0.0130983         146.093
0.574                   -1.27862        -160.998         -49.4383         88.5576         -49.4391          88.557         -0.01321          146.02
0.575                   -1.30736        -161.616         -49.2897         86.4732         -49.2905         86.4724       -0.0133279         145.946
0.576                   -1.33668        -162.237         -49.1422         84.3836          -49.143         84.3826       -0.0134525         145.873
0.577                   -1.36659        -162.861         -48.9957         82.2889         -48.9966         82.2878       -0.0135842         145.799
0.578                   -1.39711        -163.489         -48.8504         80.1893         -48.8513          80.188       -0.0137235         145.725
0.579                   -1.42825         -164.12         -48.7061         78.0847         -48.7071         78.0834       -0.0138706         145.651
0.58                    -1.46003        -164.754         -48.5629         75.9753         -48.5639         75.9739       -0.0140255         145.576
0.581                   -1.49247        -165.391         -48.4207         73.8613         -48.4218         73.8598       -0.0141883         145.502
0.582                   -1.52557        -166.032         -48.2796         71.7427         -48.2807         71.7411       -0.0143588         145.427
0.583                   -1.55936        -166.675         -48.1396         69.6197         -48.1407          69.618       -0.0145368         145.352
0.584                   -1.59386        -167.322         -48.0005         67.4923         -48.0017         67.4906       -0.0147219         145.277
0.585                   -1.62908        -167.972         -47.8625         65.3608         -47.8637         65.3591       -0.0149138         145.202
0.586                   -1.66504        -168.626         -47.7255         63.2253         -47.7267         63.2235        -0.015112         145.127
0.587                   -1.70175        -169.282         -47.5895         61.0859         -47.5907         61.0841       -0.0153161         145.051
0.588                   -1.73925        -169.942         -47.4544         58.9427         -47.4557          58.941       -0.0155256         144.976
0.589                   -1.77754        -170.604         -47.3204         56.7961         -47.3216         56.7943         -0.01574           144.9
0.59                    -1.81665         -171.27         -47.1872          54.646         -47.1885         54.6443       -0.0159589         144.824
0.591                   -1.85659        -171.939          -47.055         52.4927         -47.0562          52.491       -0.0161819         144.748
0.592                   -1.89739        -172.611         -46.9237         50.3364         -46.9249         50.3347       -0.0164086         144.672
0.593                   -1.93906        -173.285         -46.7933         48.1771         -46.7945         48.1755       -0.0166387         144.595
0.594                   -1.98163        -173.963         -46.6638         46.0152          -46.665         46.0135       -0.0168718         144.519
0.595                   -2.02511        -174.643         -46.5351         43.8507         -46.5363         43.8491       -0.0171077         144.442
0.596                   -2.06954        -175.327         -46.4072         41.6838         -46.4084         41.6823       -0.0173462         144.365
0.597                   -2.11492        -176.012         -46.2802         39.5147         -46.2814         39.5132       -0.0175871         144.288
0.598                   -2.16127        -176.701         -46.1539         37.3436         -46.1551         37.3422       -0.0178303         144.211
0.599                   -2.20863        -177.392         -46.0284         35.1706         -46.0296         35.1693       -0.0180756         144.134
0.6                     -2.25701        -178.085         -45.9037         32.9959         -45.9048         32.9947       -0.0183229         144.056
0.601                   -2.30643        -178.781         -45.7796         30.8197         -45.7807         30.8185       -0.0185723         143.978
0.602                    -2.3569        -179.479         -45.6563         28.6421         -45.6574          28.641       -0.0188236         143.901
0.603                   -2.40846         179.821         -45.5336         26.4633         -45.5346         26.4623       -0.0190769         143.822
0.604                   -2.46111          179.12         -45.4116         24.2835         -45.4126         24.2825       -0.0193321         143.744
0.605                   -2.51489         178.416         -45.2902         22.1027         -45.2911         22.1018       -0.0195893         143.666
0.606                   -2.56979          177.71         -45.1694         19.9212         -45.1703         19.9203       -0.0198485         143.587
0.607                   -2.62585         177.003         -45.0491          17.739           -45.05         17.7382       -0.0201098         143.508
0.608                   -2.68308         176.295         -44.9294         15.5564         -44.9303         15.5556       -0.0203732         143.429
0.609                   -2.74149         175.586         -44.8102         13.3734          -44.811         13.3727       -0.0206387          143.35
0.61                    -2.80109         174.875         -44.6915         11.1901         -44.6923         11.1895       -0.0209065          143.27
0.611                   -2.86191         174.164         -44.5733         9.00676          -44.574         9.00617       -0.0211766          143.19
0.612                   -2.92395         173.452         -44.4555         6.82339         -44.4562         6.82285       -0.0214491         143.111
0.613                   -2.98722         172.739         -44.3381         4.64012         -44.3387         4.63963       -0.0217241          143.03
0.614                   -3.05172         172.026         -44.2211         2.45705         -44.2217          2.4566       -0.0220017          142.95
0.615                   -3.11748         171.313         -44.1044        0.274269          -44.105         0.27386       -0.0222819         142.869
0.616                   -3.18448           170.6         -43.9881        -1.90813         -43.9887        -1.90851        -0.022565         142.788
0.617                   -3.25274         169.888         -43.8721        -4.09008         -43.8726        -4.09042       -0.0228509         142.707
0.618                   -3.32225         169.176         -43.7564        -6.27149         -43.7569        -6.27181       -0.0231398         142.626
0.619                   -3.39301         168.465          -43.641        -8.45232         -43.6414        -8.45261       -0.0234318         142.544
0.62                    -3.46501         167.755         -43.5258        -10.6325         -43.5261        -10.6328        -0.023727         142.463
0.621                   -3.53826         167.046         -43.4108         -12.812         -43.4111        -12.8122       -0.0240256          142.38
0.622                   -3.61275         166.338          -43.296        -14.9907         -43.2962        -14.9909       -0.0243275         142.298
0.623                   -3.68845         165.632         -43.1813        -17.1686         -43.1816        -17.1689       -0.0246331         142.216
0.624                   -3.76537         164.927         -43.0668        -19.3458         -43.0671         -19.346       -0.0249423         142.133
0.625                   -3.84348         164.225         -42.9525        -21.5221         -42.9527        -21.5223       -0.0252553          142.05
0.626                   -3.92276         163.524         -42.8382        -23.6976         -42.8384        -23.6978       -0.0255723         141.966
0.627                   -4.00321         162.826         -42.7241        -25.8722         -42.7242        -25.8724       -0.0258934         141.883
0.628                   -4.08479          162.13           -42.61        -28.0459         -42.6101        -28.0462       -0.0262186         141.799
0.629                   -4.16748         161.437         -42.4959        -30.2188          -42.496        -30.2191       -0.0265482         141.714
