! TOUCHSTONE file generated by CST MICROWAVE STUDIO
! Date and time: Fri Oct  2 18:37:39 2020
! Project name: Scenario_1_Free_Space_out_of_line.cst
! Parameters = {Lambda=346.42; Step_1=17.321; dy1=-85.885; dx1=173; L_HA=400; MT=2.54; Rad_Dielectric=30; Rad_Lower=7.3; Rad_Upper=30; a_HA=580; a_WG=246; b_HA=500; b_WG=121; c_HA=0; c_WG=187; d_feed=85; h_feed=15; h_lower=18; h_upper=40}
! Header version: 2018
! Port assignment regex: !\s*Touchstone port\s*([0-9]+)\s*=\s*(CST MWS port|CST DS port)\s*([0-9]+|Zmin|Zmax)\s*\(\"(.*)\"\)(\s*mode\s*([0-9]+))?.*
! Touchstone port assignment:
! Touchstone port 1 = CST MWS port 1 ("")
! Touchstone port 2 = CST MWS port 2 ("")
# GHz S DB R 50
0.5                    -0.159659        -122.697         -56.4196         168.264         -56.4196         168.264      -0.00680587         151.099
0.501                  -0.164568        -123.115         -56.2122         167.016         -56.2129         167.015      -0.00682121         151.034
0.502                  -0.169584        -123.536         -56.0059         165.755         -56.0072         165.753      -0.00683794         150.968
0.503                   -0.17471        -123.959         -55.8008         164.481         -55.8027         164.478      -0.00685606         150.903
0.504                   -0.17995        -124.385         -55.5968         163.195         -55.5992         163.192      -0.00687558         150.837
0.505                  -0.185308        -124.813          -55.394         161.897          -55.397         161.894      -0.00689652         150.771
0.506                  -0.190785        -125.244         -55.1924         160.588         -55.1959         160.584       -0.0069189         150.706
0.507                  -0.196388        -125.677         -54.9921         159.267         -54.9961         159.264      -0.00694273          150.64
0.508                  -0.202118        -126.113         -54.7931         157.936         -54.7975         157.932      -0.00696802         150.574
0.509                  -0.207981        -126.551         -54.5954         156.594         -54.6001         156.591       -0.0069948         150.508
0.51                    -0.21398        -126.992         -54.3989         155.243          -54.404          155.24      -0.00702307         150.441
0.511                  -0.220119        -127.435         -54.2038         153.882         -54.2093         153.879      -0.00705284         150.375
0.512                  -0.226402        -127.882         -54.0101         152.511         -54.0158         152.509      -0.00708415         150.309
0.513                  -0.232834         -128.33         -53.8177         151.132         -53.8237         151.131        -0.007117         150.242
0.514                  -0.239419        -128.782         -53.6266         149.744         -53.6329         149.744      -0.00715141         150.176
0.515                  -0.246162        -129.236          -53.437         148.349         -53.4434         148.349       -0.0071874         150.109
0.516                  -0.253067        -129.693         -53.2487         146.946         -53.2553         146.947      -0.00722497         150.043
0.517                   -0.26014        -130.153         -53.0618         145.536         -53.0686         145.537      -0.00726416         149.976
0.518                  -0.267385        -130.616         -52.8763         144.118         -52.8832         144.121      -0.00730498         149.909
0.519                  -0.274807        -131.081         -52.6921         142.695         -52.6991         142.699      -0.00734744         149.842
0.52                   -0.282412         -131.55         -52.5093         141.266         -52.5164          141.27      -0.00739156         149.775
0.521                  -0.290205        -132.021         -52.3279         139.831          -52.335         139.836      -0.00743737         149.708
0.522                  -0.298191        -132.495         -52.1478          138.39          -52.155         138.397      -0.00748488         149.641
0.523                  -0.306376        -132.972         -51.9691         136.945         -51.9763         136.952       -0.0075341         149.573
0.524                  -0.314767        -133.452         -51.7917         135.496         -51.7988         135.504      -0.00758507         149.506
0.525                  -0.323368        -133.935         -51.6156         134.042         -51.6227         134.051      -0.00763779         149.439
0.526                  -0.332187        -134.421         -51.4407         132.585         -51.4478         132.594      -0.00769229         149.371
0.527                  -0.341229         -134.91         -51.2672         131.124         -51.2742         131.134      -0.00774858         149.303
0.528                  -0.350501        -135.402         -51.0949          129.66         -51.1018         129.671       -0.0078067         149.235
0.529                  -0.360009        -135.897         -50.9238         128.193         -50.9306         128.205      -0.00786665         149.168
0.53                   -0.369762        -136.395         -50.7539         126.724         -50.7606         126.736      -0.00792846           149.1
0.531                  -0.379765        -136.897         -50.5852         125.252         -50.5917         125.265      -0.00799215         149.031
0.532                  -0.390026        -137.401         -50.4176         123.779          -50.424         123.792      -0.00805775         148.963
0.533                  -0.400552        -137.909         -50.2511         122.304         -50.2573         122.318      -0.00812527         148.895
0.534                  -0.411351         -138.42         -50.0856         120.827         -50.0917         120.842      -0.00819474         148.827
0.535                  -0.422431        -138.934         -49.9212         119.349         -49.9271         119.365      -0.00826617         148.758
0.536                    -0.4338        -139.452         -49.7579         117.871         -49.7636         117.886      -0.00833961         148.689
0.537                  -0.445467        -139.972         -49.5954         116.391          -49.601         116.407      -0.00841506         148.621
0.538                  -0.457439        -140.496         -49.4339         114.911         -49.4393         114.927      -0.00849255         148.552
0.539                  -0.469726        -141.024         -49.2734         113.431         -49.2785         113.447       -0.0085721         148.483
0.54                   -0.482337        -141.555         -49.1136         111.951         -49.1186         111.967      -0.00865375         148.414
0.541                   -0.49528        -142.089         -48.9547          110.47         -48.9594         110.486      -0.00873751         148.345
0.542                  -0.508566        -142.626         -48.7966          108.99         -48.8011         109.006      -0.00882342         148.275
0.543                  -0.522204        -143.167         -48.6392         107.509         -48.6435         107.525      -0.00891149         148.206
0.544                  -0.536204        -143.712         -48.4825         106.029         -48.4866         106.045      -0.00900176         148.137
0.545                  -0.550577         -144.26         -48.3265         104.549         -48.3304         104.565      -0.00909425         148.067
0.546                  -0.565333        -144.811         -48.1711          103.07         -48.1749         103.086      -0.00918899         147.997
0.547                  -0.580482        -145.366         -48.0164         101.591         -48.0199         101.607      -0.00928601         147.928
0.548                  -0.596036        -145.925         -47.8622         100.113         -47.8655         100.128      -0.00938534         147.858
0.549                  -0.612007        -146.487         -47.7085         98.6353         -47.7116         98.6499      -0.00948699         147.788
0.55                   -0.628405        -147.053         -47.5553         97.1581         -47.5582         97.1724      -0.00959102         147.717
0.551                  -0.645244        -147.622         -47.4025         95.6816         -47.4052         95.6955      -0.00969744         147.647
0.552                  -0.662535        -148.195         -47.2502         94.2057         -47.2527         94.2191      -0.00980628         147.577
0.553                   -0.68029        -148.771         -47.0982         92.7303         -47.1006         92.7432      -0.00991758         147.506
0.554                  -0.698524        -149.351         -46.9466         91.2555         -46.9488         91.2678       -0.0100314         147.436
0.555                  -0.717248        -149.935         -46.7954         89.7812         -46.7974         89.7929       -0.0101477         147.365
0.556                  -0.736478        -150.522         -46.6444         88.3073         -46.6462         88.3185       -0.0102665         147.294
0.557                  -0.756225        -151.113         -46.4937         86.8338         -46.4954         86.8444        -0.010388         147.223
0.558                  -0.776506        -151.708         -46.3432         85.3606         -46.3447         85.3706       -0.0105121         147.152
0.559                  -0.797333        -152.307         -46.1929         83.8877         -46.1943          83.897       -0.0106388          147.08
0.56                   -0.818723        -152.909         -46.0429         82.4149         -46.0441         82.4236       -0.0107682         147.009
0.561                   -0.84069        -153.514         -45.8929         80.9422          -45.894         80.9502       -0.0109003         146.937
0.562                   -0.86325        -154.124         -45.7431         79.4694         -45.7441         79.4767       -0.0110352         146.866
0.563                  -0.886419        -154.737         -45.5934         77.9964         -45.5943         78.0031       -0.0111729         146.794
0.564                  -0.910213        -155.354         -45.4439         76.5232         -45.4446         76.5291       -0.0113135         146.722
0.565                  -0.934649        -155.974         -45.2943         75.0495          -45.295         75.0548       -0.0114569          146.65
0.566                  -0.959744        -156.599         -45.1449         73.5753         -45.1454         73.5799       -0.0116032         146.578
0.567                  -0.985515        -157.226         -44.9955         72.1004         -44.9959         72.1044       -0.0117525         146.505
0.568                   -1.01198        -157.858         -44.8461         70.6248         -44.8464          70.628       -0.0119047         146.433
0.569                   -1.03916        -158.493         -44.6967         69.1481          -44.697         69.1507         -0.01206          146.36
0.57                    -1.06706        -159.131         -44.5473         67.6703         -44.5475         67.6722       -0.0122184         146.288
0.571                   -1.09572        -159.774         -44.3979         66.1913          -44.398         66.1926       -0.0123799         146.215
0.572                   -1.12514        -160.419         -44.2485         64.7108         -44.2486         64.7115       -0.0125445         146.142
0.573                   -1.15535        -161.068         -44.0991         63.2288         -44.0991         63.2288       -0.0127123         146.069
0.574                   -1.18636        -161.721         -43.9496          61.745         -43.9496         61.7444       -0.0128834         145.995
0.575                    -1.2182        -162.377         -43.8001         60.2593            -43.8         60.2581       -0.0130577         145.922
0.576                   -1.25089        -163.037         -43.6506         58.7716         -43.6505         58.7698       -0.0132354         145.848
0.577                   -1.28445        -163.699          -43.501         57.2816         -43.5009         57.2792       -0.0134165         145.774
0.578                   -1.31889        -164.366         -43.3514         55.7892         -43.3512         55.7863       -0.0136009           145.7
0.579                   -1.35424        -165.035         -43.2018         54.2942         -43.2016         54.2908       -0.0137889         145.626
0.58                    -1.39053        -165.707         -43.0521         52.7965         -43.0519         52.7926       -0.0139803         145.552
0.581                   -1.42776        -166.383         -42.9024          51.296         -42.9021         51.2916       -0.0141753         145.478
0.582                   -1.46597        -167.061         -42.7527         49.7923         -42.7524         49.7875       -0.0143739         145.403
0.583                   -1.50517        -167.742          -42.603         48.2855         -42.6027         48.2802       -0.0145762         145.329
0.584                   -1.54539        -168.427         -42.4533         46.7752         -42.4529         46.7696       -0.0147821         145.254
0.585                   -1.58664        -169.114         -42.3035         45.2615         -42.3032         45.2554       -0.0149918         145.179
0.586                   -1.62896        -169.803         -42.1538          43.744         -42.1535         43.7376       -0.0152052         145.103
0.587                   -1.67236        -170.495         -42.0042         42.2228         -42.0039          42.216       -0.0154225         145.028
0.588                   -1.71686         -171.19         -41.8546         40.6975         -41.8543         40.6905       -0.0156437         144.953
0.589                   -1.76249        -171.886         -41.7051         39.1682         -41.7048         39.1609       -0.0158688         144.877
0.59                    -1.80927        -172.585         -41.5556         37.6346         -41.5553          37.627       -0.0160979         144.801
0.591                   -1.85721        -173.286         -41.4063         36.0966          -41.406         36.0888        -0.016331         144.725
0.592                   -1.90635        -173.989         -41.2571         34.5541         -41.2568         34.5461       -0.0165682         144.649
0.593                    -1.9567        -174.693          -41.108          33.007         -41.1078         32.9988       -0.0168094         144.573
0.594                   -2.00829        -175.399         -40.9591         31.4552         -40.9589         31.4469       -0.0170549         144.496
0.595                   -2.06112        -176.106         -40.8105         29.8986         -40.8103         29.8901       -0.0173045         144.419
0.596                   -2.11523        -176.815          -40.662          28.337         -40.6618         28.3284       -0.0175584         144.342
0.597                   -2.17064        -177.524         -40.5138         26.7705         -40.5137         26.7618       -0.0178165         144.265
0.598                   -2.22735        -178.235         -40.3659         25.1988         -40.3658         25.1901        -0.018079         144.188
0.599                    -2.2854        -178.945         -40.2183          23.622         -40.2182         23.6133       -0.0183458         144.111
0.6                     -2.34479        -179.657          -40.071           22.04         -40.0709         22.0313        -0.018617         144.033
0.601                   -2.40554         179.632         -39.9241         20.4528          -39.924          20.444       -0.0188926         143.955
0.602                   -2.46768         178.921         -39.7776         18.8603         -39.7776         18.8515       -0.0191726         143.877
0.603                    -2.5312          178.21         -39.6315         17.2624         -39.6315         17.2538       -0.0194572         143.799
0.604                   -2.59613         177.499         -39.4859         15.6593         -39.4859         15.6507       -0.0197462         143.721
0.605                   -2.66248          176.79         -39.3408         14.0508         -39.3408         14.0423       -0.0200398         143.642
0.606                   -2.73026         176.082         -39.1962          12.437         -39.1963         12.4286       -0.0203379         143.563
0.607                   -2.79947         175.375         -39.0521         10.8179         -39.0523         10.8096       -0.0206406         143.484
0.608                   -2.87013          174.67         -38.9087         9.19354         -38.9089         9.18539       -0.0209478         143.405
0.609                   -2.94224         173.967         -38.7659         7.56397         -38.7661         7.55597       -0.0212596         143.326
0.61                     -3.0158         173.266         -38.6238         5.92924          -38.624         5.92142        -0.021576         143.246
0.611                   -3.09081         172.568         -38.4824         4.28944         -38.4826          4.2818       -0.0218969         143.167
0.612                   -3.16728         171.872         -38.3417         2.64464         -38.3419          2.6372       -0.0222224         143.087
0.613                   -3.24519         171.181         -38.2017        0.994944          -38.202        0.987709       -0.0225524         143.006
0.614                   -3.32455         170.492         -38.0626       -0.659534         -38.0628       -0.666551        -0.022887         142.926
0.615                   -3.40535         169.808         -37.9243        -2.31867         -37.9245        -2.32546        -0.023226         142.845
0.616                   -3.48757         169.128         -37.7868        -3.98233         -37.7871        -3.98889       -0.0235694         142.765
0.617                    -3.5712         168.453         -37.6502        -5.65036         -37.6505        -5.65667       -0.0239172         142.684
0.618                   -3.65622         167.783         -37.5146         -7.3226         -37.5149        -7.32867       -0.0242694         142.602
0.619                   -3.74262         167.118         -37.3799        -8.99888         -37.3802        -9.00469       -0.0246258         142.521
0.62                    -3.83036          166.46         -37.2461         -10.679         -37.2464        -10.6846       -0.0249865         142.439
0.621                   -3.91943         165.807         -37.1134        -12.3628         -37.1137        -12.3681       -0.0253512         142.357
0.622                   -4.00979         165.161         -36.9816          -14.05          -36.982        -14.0551       -0.0257201         142.275
0.623                   -4.10141         164.521         -36.8509        -15.7405         -36.8513        -15.7453       -0.0260928         142.193
0.624                   -4.19425         163.889         -36.7213         -17.434         -36.7216        -17.4385       -0.0264694          142.11
0.625                   -4.28827         163.264         -36.5927        -19.1302          -36.593        -19.1345       -0.0268497         142.027
0.626                   -4.38342         162.648         -36.4652         -20.829         -36.4656         -20.833       -0.0272337         141.944
0.627                   -4.47966         162.039         -36.3389        -22.5301         -36.3392        -22.5338       -0.0276211         141.861
0.628                   -4.57692         161.439         -36.2136        -24.2331         -36.2139        -24.2366       -0.0280119         141.777
0.629                   -4.67515         160.848         -36.0895         -25.938         -36.0898        -25.9413        -0.028406         141.693
