! TOUCHSTONE file generated by CST MICROWAVE STUDIO
! Date and time: Fri Oct  2 16:23:10 2020
! Project name: Scenario_1_Free_Space_out_of_line.cst
! Parameters = {Lambda=346.42; Step_1=17.321; dy1=-85.885; dx1=346; L_HA=400; MT=2.54; Rad_Dielectric=30; Rad_Lower=7.3; Rad_Upper=30; a_HA=580; a_WG=246; b_HA=500; b_WG=121; c_HA=0; c_WG=187; d_feed=85; h_feed=15; h_lower=18; h_upper=40}
! Header version: 2018
! Port assignment regex: !\s*Touchstone port\s*([0-9]+)\s*=\s*(CST MWS port|CST DS port)\s*([0-9]+|Zmin|Zmax)\s*\(\"(.*)\"\)(\s*mode\s*([0-9]+))?.*
! Touchstone port assignment:
! Touchstone port 1 = CST MWS port 1 ("")
! Touchstone port 2 = CST MWS port 2 ("")
# GHz S DB R 50
0.5                    -0.142093        -122.687         -59.2064         79.9391         -59.2064         79.9391      -0.00662678         151.091
0.501                  -0.147982        -123.161         -59.0202         78.3585         -59.0199         78.3586      -0.00674187         151.025
0.502                  -0.154178        -123.636         -58.8324         76.7787         -58.8318         76.7788      -0.00685756         150.959
0.503                  -0.160678        -124.112         -58.6433         75.1994         -58.6423         75.1996      -0.00697376         150.893
0.504                  -0.167483        -124.589         -58.4528         73.6205         -58.4516         73.6207       -0.0070904         150.827
0.505                  -0.174592        -125.067          -58.261         72.0418         -58.2596         72.0421      -0.00720738         150.762
0.506                  -0.182005        -125.546         -58.0681         70.4631         -58.0664         70.4636      -0.00732464         150.696
0.507                   -0.18972        -126.026          -57.874         68.8842         -57.8721         68.8848      -0.00744209         150.629
0.508                  -0.197739        -126.506         -57.6789         67.3049         -57.6767         67.3055      -0.00755965         150.563
0.509                  -0.206058        -126.988         -57.4829         65.7248         -57.4805         65.7256      -0.00767725         150.497
0.51                   -0.214679         -127.47         -57.2859         64.1439         -57.2833         64.1448      -0.00779481         150.431
0.511                    -0.2236        -127.953         -57.0881         62.5619         -57.0853         62.5628      -0.00791226         150.365
0.512                   -0.23282        -128.437         -56.8895         60.9784         -56.8866         60.9794      -0.00802953         150.298
0.513                  -0.242338        -128.922         -56.6902         59.3932         -56.6872         59.3944      -0.00814656         150.232
0.514                  -0.252153        -129.408         -56.4904         57.8061         -56.4871         57.8074      -0.00826327         150.165
0.515                  -0.262265        -129.895         -56.2899         56.2169         -56.2866         56.2181       -0.0083796         150.099
0.516                  -0.272671        -130.383          -56.089         54.6251         -56.0855         54.6265      -0.00849549         150.032
0.517                  -0.283372        -130.871         -55.8876         53.0306         -55.8841          53.032      -0.00861089         149.966
0.518                  -0.294366        -131.361         -55.6859         51.4332         -55.6823         51.4346      -0.00872574         149.899
0.519                  -0.305651        -131.851         -55.4839         49.8324         -55.4802         49.8339      -0.00883998         149.832
0.52                   -0.317226        -132.342         -55.2817         48.2282          -55.278         48.2296      -0.00895357         149.765
0.521                  -0.329091        -132.834         -55.0794         46.6201         -55.0755         46.6215      -0.00906646         149.698
0.522                  -0.341243        -133.327         -54.8769          45.008         -54.8731         45.0095      -0.00917861         149.631
0.523                  -0.353682         -133.82         -54.6744         43.3917         -54.6706         43.3931      -0.00928997         149.564
0.524                  -0.366406        -134.315          -54.472         41.7708         -54.4681         41.7721       -0.0094005         149.497
0.525                  -0.379413        -134.811         -54.2697         40.1451         -54.2658         40.1465      -0.00951019          149.43
0.526                  -0.392703        -135.307         -54.0676         38.5145         -54.0637         38.5158      -0.00961898         149.362
0.527                  -0.406274        -135.804         -53.8657         36.8787         -53.8618         36.8799      -0.00972687         149.295
0.528                  -0.420123        -136.303         -53.6641         35.2376         -53.6602         35.2387      -0.00983382         149.228
0.529                  -0.434251        -136.802         -53.4628         33.5908          -53.459         33.5919      -0.00993981          149.16
0.53                   -0.448655        -137.302         -53.2621         31.9383         -53.2583         31.9393       -0.0100448         149.092
0.531                  -0.463333        -137.803         -53.0618         30.2799          -53.058         30.2808       -0.0101489         149.025
0.532                  -0.478285        -138.305          -52.862         28.6155         -52.8584         28.6163       -0.0102519         148.957
0.533                  -0.493509        -138.809          -52.663         26.9448         -52.6593         26.9455        -0.010354         148.889
0.534                  -0.509003        -139.313         -52.4646         25.2679          -52.461         25.2685        -0.010455         148.821
0.535                  -0.524765        -139.818         -52.2669         23.5845         -52.2634          23.585       -0.0105551         148.753
0.536                  -0.540795        -140.324         -52.0701         21.8947         -52.0667         21.8951       -0.0106542         148.685
0.537                   -0.55709        -140.831         -51.8742         20.1984         -51.8708         20.1987       -0.0107523         148.616
0.538                  -0.573649        -141.339         -51.6792         18.4954         -51.6759         18.4957       -0.0108494         148.548
0.539                  -0.590472        -141.849         -51.4852         16.7859          -51.482          16.786       -0.0109456         148.479
0.54                   -0.607555        -142.359         -51.2922         15.0698         -51.2892         15.0698       -0.0110408         148.411
0.541                  -0.624899        -142.871         -51.1004          13.347         -51.0975          13.347       -0.0111352         148.342
0.542                  -0.642501        -143.384         -50.9098         11.6178          -50.907         11.6177       -0.0112287         148.273
0.543                   -0.66036        -143.898         -50.7204         9.88204         -50.7177         9.88194       -0.0113213         148.204
0.544                  -0.678475        -144.413         -50.5322         8.13989         -50.5297         8.13976       -0.0114132         148.135
0.545                  -0.696845         -144.93         -50.3455         6.39145          -50.343         6.39129       -0.0115043         148.066
0.546                  -0.715468        -145.448         -50.1601         4.63683         -50.1578         4.63666       -0.0115947         147.997
0.547                  -0.734344        -145.967         -49.9761         2.87619         -49.9739         2.87601       -0.0116844         147.928
0.548                  -0.753472        -146.488         -49.7937         1.10967         -49.7916         1.10952       -0.0117735         147.858
0.549                   -0.77285         -147.01         -49.6128       -0.662522         -49.6108        -0.66265        -0.011862         147.789
0.55                   -0.792477        -147.533         -49.4334        -2.44019         -49.4316        -2.44028         -0.01195         147.719
0.551                  -0.812354        -148.058         -49.2557        -4.22312         -49.2539        -4.22315       -0.0120376         147.649
0.552                  -0.832479        -148.585         -49.0796        -6.01106          -49.078        -6.01102       -0.0121247          147.58
0.553                  -0.852852        -149.113         -48.9051        -7.80376         -48.9037        -7.80363       -0.0122116         147.509
0.554                  -0.873472        -149.643         -48.7324        -9.60094         -48.7311        -9.60071       -0.0122982         147.439
0.555                  -0.894339        -150.174         -48.5614        -11.4023         -48.5602         -11.402       -0.0123846         147.369
0.556                  -0.915454        -150.707         -48.3922        -13.2076         -48.3911        -13.2071       -0.0124709         147.299
0.557                  -0.936815        -151.242         -48.2248        -15.0165         -48.2238        -15.0158       -0.0125571         147.228
0.558                  -0.958424        -151.779         -48.0591        -16.8286         -48.0583        -16.8278       -0.0126434         147.157
0.559                   -0.98028        -152.318         -47.8953        -18.6436         -47.8945        -18.6426       -0.0127299         147.087
0.56                    -1.00238        -152.859         -47.7332        -20.4612         -47.7326        -20.4601       -0.0128165         147.016
0.561                   -1.02474        -153.401          -47.573        -22.2811         -47.5725        -22.2797       -0.0129035         146.945
0.562                   -1.04734        -153.946         -47.4146        -24.1028         -47.4141        -24.1013       -0.0129908         146.874
0.563                    -1.0702        -154.493          -47.258        -25.9261         -47.2576        -25.9243       -0.0130786         146.802
0.564                    -1.0933        -155.042         -47.1032        -27.7505         -47.1029        -27.7485       -0.0131669         146.731
0.565                   -1.11667        -155.594         -46.9502        -29.5758           -46.95        -29.5736       -0.0132559         146.659
0.566                   -1.14028        -156.148         -46.7989        -31.4015         -46.7989        -31.3991       -0.0133457         146.587
0.567                   -1.16416        -156.704         -46.6495        -33.2273         -46.6495        -33.2247       -0.0134363         146.515
0.568                    -1.1883        -157.263         -46.5017        -35.0529         -46.5018          -35.05       -0.0135278         146.443
0.569                    -1.2127        -157.825         -46.3557         -36.878         -46.3558        -36.8748       -0.0136204         146.371
0.57                    -1.23737        -158.389         -46.2113        -38.7022         -46.2115        -38.6988       -0.0137141         146.299
0.571                   -1.26231        -158.956         -46.0686        -40.5251         -46.0689        -40.5215        -0.013809         146.226
0.572                   -1.28753        -159.526         -45.9275        -42.3465         -45.9278        -42.3427       -0.0139052         146.154
0.573                   -1.31303        -160.098         -45.7879        -44.1662         -45.7883        -44.1621       -0.0140029         146.081
0.574                   -1.33881        -160.674         -45.6499        -45.9837         -45.6503        -45.9794       -0.0141022         146.008
0.575                   -1.36489        -161.254         -45.5133        -47.7989         -45.5138        -47.7944        -0.014203         145.935
0.576                   -1.39126        -161.836         -45.3782        -49.6115         -45.3787        -49.6068       -0.0143056         145.862
0.577                   -1.41794        -162.422         -45.2445        -51.4213          -45.245        -51.4164         -0.01441         145.788
0.578                   -1.44492        -163.011         -45.1121         -53.228         -45.1126        -53.2229       -0.0145164         145.715
0.579                   -1.47223        -163.604         -44.9809        -55.0315         -44.9815        -55.0263       -0.0146248         145.641
0.58                    -1.49986          -164.2          -44.851        -56.8315         -44.8516        -56.8262       -0.0147354         145.567
0.581                   -1.52783        -164.801         -44.7223         -58.628         -44.7229        -58.6225       -0.0148482         145.493
0.582                   -1.55614        -165.405         -44.5946        -60.4208         -44.5953        -60.4152       -0.0149634         145.419
0.583                   -1.58481        -166.014          -44.468        -62.2097         -44.4687         -62.204        -0.015081         145.344
0.584                   -1.61385        -166.626         -44.3424        -63.9947         -44.3431        -63.9889       -0.0152012          145.27
0.585                   -1.64327        -167.243         -44.2178        -65.7756         -44.2184        -65.7698        -0.015324         145.195
0.586                   -1.67309        -167.865          -44.094        -67.5525         -44.0946        -67.5466       -0.0154496          145.12
0.587                   -1.70331        -168.491          -43.971        -69.3253         -43.9716        -69.3193       -0.0155781         145.045
0.588                   -1.73396        -169.122         -43.8487        -71.0939         -43.8493        -71.0879       -0.0157095         144.969
0.589                   -1.76505        -169.758         -43.7272        -72.8583         -43.7277        -72.8524       -0.0158439         144.894
0.59                    -1.79659        -170.398         -43.6062        -74.6186         -43.6068        -74.6127       -0.0159815         144.818
0.591                   -1.82862        -171.044         -43.4859        -76.3748         -43.4864         -76.369       -0.0161224         144.742
0.592                   -1.86114        -171.696         -43.3661        -78.1269         -43.3666        -78.1212       -0.0162666         144.666
0.593                   -1.89418        -172.353         -43.2467        -79.8751         -43.2472        -79.8694       -0.0164143          144.59
0.594                   -1.92776        -173.015         -43.1278        -81.6193         -43.1282        -81.6137       -0.0165655         144.514
0.595                    -1.9619        -173.683         -43.0092        -83.3596         -43.0096        -83.3542       -0.0167203         144.437
0.596                   -1.99664        -174.357         -42.8909        -85.0963         -42.8913         -85.091       -0.0168788          144.36
0.597                     -2.032        -175.038         -42.7728        -86.8293         -42.7732        -86.8242       -0.0170412         144.283
0.598                     -2.068        -175.724         -42.6549        -88.5589         -42.6553         -88.554       -0.0172075         144.206
0.599                   -2.10469        -176.417         -42.5372        -90.2852         -42.5375        -90.2805       -0.0173778         144.129
0.6                     -2.14209        -177.117         -42.4196        -92.0084         -42.4199        -92.0039       -0.0175522         144.051
0.601                   -2.18024        -177.823         -42.3021        -93.7285         -42.3023        -93.7242       -0.0177307         143.973
0.602                   -2.21918        -178.536         -42.1846        -95.4459         -42.1848        -95.4418       -0.0179136         143.895
0.603                   -2.25894        -179.257          -42.067        -97.1606         -42.0672        -97.1569       -0.0181008         143.817
0.604                   -2.29956        -179.984         -41.9495         -98.873         -41.9496        -98.8695       -0.0182924         143.739
0.605                    -2.3411         179.281         -41.8318        -100.583         -41.8319         -100.58       -0.0184885          143.66
0.606                    -2.3836         178.539         -41.7139        -102.291          -41.714        -102.288       -0.0186893         143.581
0.607                    -2.4271         177.789          -41.596        -103.998          -41.596        -103.995       -0.0188947         143.502
0.608                   -2.47167         177.031         -41.4778        -105.703         -41.4778          -105.7       -0.0191049         143.423
0.609                   -2.51734         176.266         -41.3594        -107.406         -41.3594        -107.404         -0.01932         143.344
0.61                    -2.56419         175.492         -41.2408        -109.109         -41.2407        -109.107         -0.01954         143.264
0.611                   -2.61227          174.71         -41.1219         -110.81         -41.1218        -110.809        -0.019765         143.184
0.612                   -2.66164          173.92         -41.0027        -112.512         -41.0026        -112.511       -0.0199951         143.104
0.613                   -2.71238         173.122         -40.8832        -114.212          -40.883        -114.212       -0.0202304         143.024
0.614                   -2.76454         172.316         -40.7634        -115.913         -40.7632        -115.913       -0.0204709         142.943
0.615                   -2.81821         171.501         -40.6432        -117.614          -40.643        -117.614       -0.0207167         142.862
0.616                   -2.87346         170.678         -40.5227        -119.315         -40.5225        -119.316       -0.0209679         142.781
0.617                   -2.93036         169.846         -40.4019        -121.018         -40.4017        -121.018       -0.0212245           142.7
0.618                     -2.989         169.006         -40.2807         -122.72         -40.2804        -122.722       -0.0214867         142.618
0.619                   -3.04947         168.157         -40.1591        -124.425         -40.1588        -124.426       -0.0217545         142.536
0.62                    -3.11185           167.3         -40.0371         -126.13         -40.0369        -126.132        -0.022028         142.454
0.621                   -3.17623         166.435         -39.9148        -127.838         -39.9146         -127.84       -0.0223072         142.372
0.622                    -3.2427         165.562         -39.7921        -129.547         -39.7919        -129.549       -0.0225923          142.29
0.623                   -3.31137         164.681         -39.6691        -131.258         -39.6688        -131.261       -0.0228832         142.207
0.624                   -3.38233         163.792         -39.5457        -132.972         -39.5454        -132.975       -0.0231801         142.124
0.625                   -3.45568         162.895          -39.422        -134.688         -39.4217        -134.692        -0.023483         142.041
0.626                   -3.53153         161.992         -39.2979        -136.407         -39.2976        -136.411        -0.023792         141.957
0.627                   -3.60997         161.082         -39.1735         -138.13         -39.1733        -138.134       -0.0241072         141.873
0.628                   -3.69112         160.165         -39.0489        -139.855         -39.0486        -139.859       -0.0244286         141.789
0.629                   -3.77508         159.242         -38.9239        -141.584         -38.9236        -141.589       -0.0247563         141.705
