! TOUCHSTONE file generated by CST MICROWAVE STUDIO
! Date and time: Fri Oct  2 16:37:10 2020
! Project name: Scenario_1_Free_Space_out_of_line.cst
! Parameters = {Lambda=346.42; Step_1=17.321; dy1=-85.885; dx1=520; L_HA=400; MT=2.54; Rad_Dielectric=30; Rad_Lower=7.3; Rad_Upper=30; a_HA=580; a_WG=246; b_HA=500; b_WG=121; c_HA=0; c_WG=187; d_feed=85; h_feed=15; h_lower=18; h_upper=40}
! Header version: 2018
! Port assignment regex: !\s*Touchstone port\s*([0-9]+)\s*=\s*(CST MWS port|CST DS port)\s*([0-9]+|Zmin|Zmax)\s*\(\"(.*)\"\)(\s*mode\s*([0-9]+))?.*
! Touchstone port assignment:
! Touchstone port 1 = CST MWS port 1 ("")
! Touchstone port 2 = CST MWS port 2 ("")
# GHz S DB R 50
0.5                    -0.151452        -122.576         -61.0584        -18.4897         -61.0584        -18.4897      -0.00666917         151.087
0.501                  -0.155669        -123.035         -60.8387        -20.1494         -60.8387        -20.1485      -0.00671463         151.022
0.502                  -0.160126        -123.495         -60.6212         -21.811         -60.6211        -21.8093      -0.00676128         150.956
0.503                  -0.164825        -123.956         -60.4056        -23.4751         -60.4056        -23.4726      -0.00680914          150.89
0.504                  -0.169766         -124.42         -60.1921        -25.1421          -60.192        -25.1389       -0.0068582         150.825
0.505                  -0.174954        -124.884         -59.9805        -26.8125         -59.9804        -26.8086      -0.00690849         150.759
0.506                   -0.18039        -125.351         -59.7708        -28.4865         -59.7706         -28.482         -0.00696         150.693
0.507                  -0.186076        -125.819         -59.5628        -30.1646         -59.5627        -30.1595      -0.00701274         150.627
0.508                  -0.192014        -126.288         -59.3567         -31.847         -59.3565        -31.8414      -0.00706672         150.561
0.509                  -0.198208        -126.759         -59.1522        -33.5341          -59.152         -33.528      -0.00712195         150.495
0.51                   -0.204658        -127.232         -58.9494        -35.2262         -58.9492        -35.2197      -0.00717843         150.428
0.511                  -0.211368        -127.706         -58.7482        -36.9234         -58.7479        -36.9166      -0.00723617         150.362
0.512                   -0.21834        -128.182         -58.5486        -38.6262         -58.5483        -38.6189      -0.00729517         150.296
0.513                  -0.225575        -128.659         -58.3505        -40.3345         -58.3502         -40.327      -0.00735545         150.229
0.514                  -0.233078        -129.138         -58.1538        -42.0488         -58.1535         -42.041      -0.00741702         150.163
0.515                  -0.240849        -129.618         -57.9587        -43.7691         -57.9584        -43.7611      -0.00747987         150.096
0.516                  -0.248891          -130.1         -57.7649        -45.4956         -57.7646        -45.4874      -0.00754402          150.03
0.517                  -0.257207        -130.584         -57.5725        -47.2284         -57.5722        -47.2201      -0.00760948         149.963
0.518                  -0.265798        -131.069         -57.3815        -48.9678         -57.3811        -48.9593      -0.00767626         149.896
0.519                  -0.274668        -131.556         -57.1918        -50.7137         -57.1914        -50.7052      -0.00774436         149.829
0.52                   -0.283819        -132.045         -57.0033        -52.4664          -57.003        -52.4578      -0.00781379         149.762
0.521                  -0.293254        -132.535         -56.8162        -54.2258         -56.8158        -54.2172      -0.00788456         149.695
0.522                  -0.302974        -133.026         -56.6302        -55.9921         -56.6298        -55.9835      -0.00795668         149.628
0.523                  -0.312982        -133.519         -56.4454        -57.7653          -56.445        -57.7567      -0.00803015          149.56
0.524                  -0.323281        -134.014         -56.2619        -59.5454         -56.2615        -59.5369        -0.008105         149.493
0.525                  -0.333874         -134.51         -56.0795        -61.3326          -56.079        -61.3242      -0.00818122         149.425
0.526                  -0.344762        -135.008         -55.8982        -63.1267         -55.8977        -63.1184      -0.00825882         149.358
0.527                  -0.355949        -135.508          -55.718        -64.9279         -55.7176        -64.9198      -0.00833782          149.29
0.528                  -0.367437        -136.009         -55.5389        -66.7361         -55.5385        -66.7281      -0.00841823         149.222
0.529                  -0.379229        -136.512         -55.3609        -68.5513         -55.3604        -68.5435      -0.00850005         149.155
0.53                   -0.391328        -137.017         -55.1839        -70.3735         -55.1835        -70.3658      -0.00858329         149.087
0.531                  -0.403735        -137.523          -55.008        -72.2025         -55.0076        -72.1951      -0.00866797         149.019
0.532                  -0.416454         -138.03         -54.8331        -74.0385         -54.8327        -74.0313      -0.00875409          148.95
0.533                  -0.429488         -138.54         -54.6592        -75.8813         -54.6588        -75.8744      -0.00884166         148.882
0.534                  -0.442839        -139.051         -54.4863        -77.7308         -54.4858        -77.7242      -0.00893071         148.814
0.535                   -0.45651        -139.563         -54.3143        -79.5871         -54.3139        -79.5807      -0.00902123         148.745
0.536                  -0.470504        -140.078         -54.1433        -81.4499         -54.1429        -81.4438      -0.00911323         148.677
0.537                  -0.484824        -140.594         -53.9733        -83.3192         -53.9729        -83.3134      -0.00920673         148.608
0.538                  -0.499473        -141.111         -53.8042        -85.1948         -53.8038        -85.1894      -0.00930175          148.54
0.539                  -0.514453        -141.631          -53.636        -87.0768         -53.6356        -87.0717      -0.00939828         148.471
0.54                   -0.529768        -142.152         -53.4687        -88.9649         -53.4683        -88.9601      -0.00949635         148.402
0.541                   -0.54542        -142.674         -53.3023         -90.859          -53.302        -90.8546      -0.00959596         148.333
0.542                  -0.561413        -143.199         -53.1368         -92.759         -53.1365         -92.755      -0.00969713         148.264
0.543                   -0.57775        -143.725         -52.9722        -94.6648         -52.9719        -94.6611      -0.00979987         148.194
0.544                  -0.594434        -144.252         -52.8084        -96.5761         -52.8081        -96.5728      -0.00990419         148.125
0.545                  -0.611468        -144.782         -52.6455        -98.4929         -52.6452          -98.49       -0.0100101         148.056
0.546                  -0.628855        -145.313         -52.4834        -100.415         -52.4831        -100.412       -0.0101176         147.986
0.547                  -0.646598        -145.846         -52.3221        -102.342         -52.3219         -102.34       -0.0102268         147.916
0.548                  -0.664701         -146.38         -52.1617        -104.274         -52.1615        -104.273       -0.0103375         147.847
0.549                  -0.683168        -146.917         -52.0021        -106.211         -52.0019         -106.21         -0.01045         147.777
0.55                   -0.702001        -147.455         -51.8432        -108.153          -51.843        -108.152        -0.010564         147.707
0.551                  -0.721204        -147.995         -51.6852        -110.099          -51.685        -110.098       -0.0106798         147.637
0.552                  -0.740781        -148.536         -51.5279        -112.049         -51.5277        -112.049       -0.0107972         147.566
0.553                  -0.760735         -149.08         -51.3713        -114.003         -51.3712        -114.003       -0.0109164         147.496
0.554                   -0.78107        -149.625         -51.2156        -115.961         -51.2155        -115.962       -0.0110372         147.425
0.555                  -0.801789        -150.172         -51.0605        -117.923         -51.0605        -117.924       -0.0111598         147.355
0.556                  -0.822897        -150.721         -50.9062        -119.888         -50.9062        -119.889       -0.0112842         147.284
0.557                  -0.844397        -151.272         -50.7526        -121.857         -50.7527        -121.858       -0.0114103         147.213
0.558                  -0.866293        -151.824         -50.5998        -123.828         -50.5998         -123.83       -0.0115382         147.142
0.559                  -0.888589        -152.379         -50.4476        -125.803         -50.4476        -125.805       -0.0116679         147.071
0.56                    -0.91129        -152.935         -50.2961         -127.78         -50.2962        -127.783       -0.0117994             147
0.561                  -0.934399        -153.493         -50.1452         -129.76         -50.1454        -129.763       -0.0119327         146.929
0.562                   -0.95792        -154.053          -49.995        -131.742         -49.9952        -131.745       -0.0120679         146.857
0.563                  -0.981858        -154.615         -49.8455        -133.726         -49.8457         -133.73       -0.0122049         146.786
0.564                   -1.00622        -155.179         -49.6966        -135.712         -49.6968        -135.716       -0.0123438         146.714
0.565                     -1.031        -155.744         -49.5483          -137.7         -49.5486        -137.704       -0.0124846         146.642
0.566                   -1.05622        -156.312         -49.4007         -139.69          -49.401        -139.694       -0.0126273          146.57
0.567                   -1.08187        -156.882         -49.2536        -141.681         -49.2539        -141.686        -0.012772         146.498
0.568                   -1.10796        -157.453         -49.1071        -143.674         -49.1074        -143.678       -0.0129186         146.426
0.569                    -1.1345        -158.027         -48.9611        -145.667         -48.9615        -145.672       -0.0130672         146.353
0.57                    -1.16148        -158.603         -48.8158        -147.661         -48.8162        -147.667       -0.0132177         146.281
0.571                   -1.18892        -159.181         -48.6709        -149.657         -48.6714        -149.662       -0.0133703         146.208
0.572                   -1.21683         -159.76         -48.5266        -151.653         -48.5271        -151.658       -0.0135249         146.135
0.573                   -1.24519        -160.342         -48.3828        -153.649         -48.3834        -153.655       -0.0136816         146.062
0.574                   -1.27403        -160.926         -48.2395        -155.646         -48.2401        -155.652       -0.0138403         145.989
0.575                   -1.30335        -161.513         -48.0967        -157.643         -48.0973        -157.649       -0.0140011         145.916
0.576                   -1.33314        -162.101         -47.9544         -159.64          -47.955        -159.646        -0.014164         145.843
0.577                   -1.36343        -162.691         -47.8125        -161.637         -47.8132        -161.643       -0.0143291         145.769
0.578                   -1.39421        -163.284         -47.6711        -163.634         -47.6717         -163.64       -0.0144963         145.695
0.579                   -1.42549        -163.879         -47.5301         -165.63         -47.5308        -165.637       -0.0146657         145.622
0.58                    -1.45728        -164.476         -47.3895        -167.627         -47.3902        -167.633       -0.0148373         145.548
0.581                   -1.48959        -165.075         -47.2493        -169.623           -47.25        -169.629       -0.0150111         145.473
0.582                   -1.52241        -165.677         -47.1095        -171.618         -47.1103        -171.625       -0.0151872         145.399
0.583                   -1.55577        -166.281         -46.9701        -173.613         -46.9709        -173.619       -0.0153656         145.325
0.584                   -1.58965        -166.887          -46.831        -175.607         -46.8318        -175.614       -0.0155462          145.25
0.585                   -1.62408        -167.496         -46.6923          -177.6         -46.6932        -177.607       -0.0157292         145.175
0.586                   -1.65906        -168.107         -46.5539        -179.592         -46.5548        -179.599       -0.0159145           145.1
0.587                    -1.6946        -168.721         -46.4159         178.416         -46.4168         178.409       -0.0161022         145.025
0.588                   -1.73071        -169.337         -46.2782         176.425         -46.2791         176.418       -0.0162923          144.95
0.589                   -1.76738        -169.955         -46.1407         174.435         -46.1417         174.429       -0.0164848         144.875
0.59                    -1.80464        -170.576         -46.0036         172.447         -46.0045          172.44       -0.0166798         144.799
0.591                   -1.84249          -171.2         -45.8667         170.459         -45.8677         170.452       -0.0168773         144.723
0.592                   -1.88095        -171.826         -45.7302         168.472         -45.7311         168.466       -0.0170773         144.647
0.593                   -1.92001        -172.455         -45.5938         166.487         -45.5948          166.48       -0.0172798         144.571
0.594                   -1.95969        -173.086         -45.4577         164.502         -45.4587         164.495       -0.0174849         144.495
0.595                         -2        -173.721         -45.3219         162.518         -45.3229         162.512       -0.0176926         144.418
0.596                   -2.04094        -174.357         -45.1862         160.536         -45.1873         160.529       -0.0179029         144.342
0.597                   -2.08254        -174.997         -45.0508         158.554         -45.0519         158.548       -0.0181159         144.265
0.598                    -2.1248         -175.64         -44.9156         156.574         -44.9167         156.568       -0.0183316         144.188
0.599                   -2.16773        -176.285         -44.7807         154.594         -44.7817         154.588         -0.01855         144.111
0.6                     -2.21134        -176.933         -44.6459         152.615         -44.6469          152.61       -0.0187712         144.033
0.601                   -2.25565        -177.584         -44.5112         150.638         -44.5123         150.632       -0.0189952         143.956
0.602                   -2.30067        -178.238         -44.3768         148.661         -44.3778         148.656        -0.019222         143.878
0.603                    -2.3464        -178.895         -44.2426         146.685         -44.2436          146.68       -0.0194517           143.8
0.604                   -2.39287        -179.555         -44.1085          144.71         -44.1095         144.705       -0.0196842         143.722
0.605                   -2.44009         179.781         -43.9746         142.735         -43.9756          142.73       -0.0199198         143.643
0.606                   -2.48807         179.115         -43.8408         140.761         -43.8418         140.757       -0.0201582         143.565
0.607                   -2.53682         178.446         -43.7072         138.788         -43.7082         138.784       -0.0203997         143.486
0.608                   -2.58637         177.773         -43.5738         136.816         -43.5747         136.811       -0.0206443         143.407
0.609                   -2.63672         177.097         -43.4405         134.843         -43.4414         134.839       -0.0208919         143.328
0.61                    -2.68789         176.418         -43.3073         132.871         -43.3083         132.867       -0.0211427         143.248
0.611                   -2.73991         175.736         -43.1744           130.9         -43.1753         130.896       -0.0213967         143.168
0.612                   -2.79278          175.05         -43.0415         128.929         -43.0424         128.925       -0.0216538         143.089
0.613                   -2.84653          174.36         -42.9088         126.958         -42.9097         126.954       -0.0219143         143.008
0.614                   -2.90117         173.668         -42.7763         124.987         -42.7772         124.983        -0.022178         142.928
0.615                   -2.95672         172.971         -42.6439         123.016         -42.6448         123.012       -0.0224451         142.848
0.616                   -3.01321         172.272         -42.5117         121.044         -42.5125         121.041       -0.0227156         142.767
0.617                   -3.07066         171.568         -42.3796         119.073         -42.3804          119.07       -0.0229895         142.686
0.618                   -3.12908         170.861         -42.2477         117.101         -42.2485         117.099       -0.0232669         142.605
0.619                   -3.18849         170.151          -42.116         115.129         -42.1167         115.127       -0.0235479         142.523
0.62                    -3.24894         169.436         -41.9844         113.157         -41.9851         113.154       -0.0238324         142.441
0.621                   -3.31042         168.718          -41.853         111.184         -41.8537         111.182       -0.0241207         142.359
0.622                   -3.37299         167.996         -41.7218          109.21         -41.7224         109.208       -0.0244126         142.277
0.623                   -3.43664         167.271         -41.5907         107.236         -41.5914         107.234       -0.0247082         142.195
0.624                   -3.50143         166.541         -41.4599         105.261         -41.4605         105.259       -0.0250077         142.112
0.625                   -3.56737         165.807         -41.3293         103.284         -41.3298         103.283       -0.0253111         142.029
0.626                    -3.6345          165.07         -41.1988         101.307         -41.1994         101.306       -0.0256184         141.946
0.627                   -3.70284         164.329         -41.0686          99.329         -41.0691         99.3275       -0.0259298         141.862
0.628                   -3.77242         163.583         -40.9386         97.3495         -40.9391         97.3482       -0.0262451         141.778
0.629                   -3.84329         162.834         -40.8089         95.3688         -40.8094         95.3676       -0.0265647         141.694
