! TOUCHSTONE file generated by CST MICROWAVE STUDIO
! Date and time: Fri Oct  2 16:58:14 2020
! Project name: Scenario_1_Free_Space_out_of_line.cst
! Parameters = {Lambda=346.42; Step_1=17.321; dy1=-85.885; dx1=693; L_HA=400; MT=2.54; Rad_Dielectric=30; Rad_Lower=7.3; Rad_Upper=30; a_HA=580; a_WG=246; b_HA=500; b_WG=121; c_HA=0; c_WG=187; d_feed=85; h_feed=15; h_lower=18; h_upper=40}
! Header version: 2018
! Port assignment regex: !\s*Touchstone port\s*([0-9]+)\s*=\s*(CST MWS port|CST DS port)\s*([0-9]+|Zmin|Zmax)\s*\(\"(.*)\"\)(\s*mode\s*([0-9]+))?.*
! Touchstone port assignment:
! Touchstone port 1 = CST MWS port 1 ("")
! Touchstone port 2 = CST MWS port 2 ("")
# GHz S DB R 50
0.5                     -0.14608        -122.624         -62.4135        -116.764         -62.4135        -116.764      -0.00672211         151.101
0.501                  -0.152679        -123.068          -62.214        -118.534         -62.2139        -118.535      -0.00679956         151.036
0.502                  -0.159451        -123.512         -62.0138        -120.321         -62.0135        -120.321      -0.00687732         150.971
0.503                  -0.166396        -123.959          -61.813        -122.123         -61.8125        -122.123      -0.00695538         150.905
0.504                  -0.173516        -124.407         -61.6116        -123.941         -61.6109        -123.942      -0.00703374         150.839
0.505                  -0.180814        -124.858         -61.4096        -125.775         -61.4089        -125.776      -0.00711237         150.774
0.506                  -0.188292        -125.309         -61.2073        -127.624         -61.2064        -127.625      -0.00719127         150.708
0.507                  -0.195952        -125.763         -61.0046         -129.49         -61.0037        -129.491      -0.00727043         150.642
0.508                  -0.203796        -126.218         -60.8017        -131.371         -60.8007        -131.372      -0.00734985         150.576
0.509                  -0.211826        -126.676         -60.5987        -133.267         -60.5975        -133.269       -0.0074295          150.51
0.51                   -0.220044        -127.135         -60.3955        -135.179         -60.3943        -135.181      -0.00750939         150.444
0.511                  -0.228453        -127.595         -60.1924        -137.106         -60.1911        -137.108       -0.0075895         150.378
0.512                  -0.237055        -128.058         -59.9894        -139.049         -59.9881        -139.051      -0.00766983         150.312
0.513                  -0.245852        -128.523         -59.7866        -141.006         -59.7852        -141.009      -0.00775037         150.246
0.514                  -0.254846        -128.989         -59.5841        -142.979         -59.5827        -142.981      -0.00783111          150.18
0.515                   -0.26404        -129.457         -59.3819        -144.966         -59.3805        -144.969      -0.00791204         150.113
0.516                  -0.273437        -129.927         -59.1802        -146.967         -59.1788         -146.97      -0.00799316         150.047
0.517                  -0.283038        -130.399         -58.9791        -148.983         -58.9776        -148.986      -0.00807446          149.98
0.518                  -0.292847        -130.873         -58.7786        -151.013         -58.7771        -151.016      -0.00815594         149.913
0.519                  -0.302866        -131.349         -58.5788        -153.056         -58.5774        -153.059      -0.00823759         149.847
0.52                   -0.313097        -131.826         -58.3798        -155.112         -58.3784        -155.116      -0.00831941          149.78
0.521                  -0.323543        -132.306         -58.1818        -157.182         -58.1804        -157.185      -0.00840139         149.713
0.522                  -0.334208        -132.788         -57.9847        -159.264         -57.9833        -159.267      -0.00848353         149.646
0.523                  -0.345093        -133.271         -57.7887        -161.358         -57.7873        -161.361      -0.00856583         149.579
0.524                  -0.356201        -133.757         -57.5938        -163.464         -57.5925        -163.467       -0.0086483         149.511
0.525                  -0.367536        -134.244         -57.4001        -165.581         -57.3988        -165.584      -0.00873092         149.444
0.526                    -0.3791        -134.734         -57.2077        -167.709         -57.2065        -167.712      -0.00881371         149.377
0.527                  -0.390896        -135.225         -57.0166        -169.847         -57.0154         -169.85      -0.00889667         149.309
0.528                  -0.402927        -135.719         -56.8269        -171.995         -56.8258        -171.999      -0.00897979         149.242
0.529                  -0.415196        -136.215         -56.6387        -174.152         -56.6376        -174.156       -0.0090631         149.174
0.53                   -0.427706        -136.712          -56.452        -176.318         -56.4509        -176.322      -0.00914659         149.106
0.531                  -0.440461        -137.212         -56.2668        -178.492         -56.2658        -178.496      -0.00923027         149.038
0.532                  -0.453462        -137.714         -56.0832         179.326         -56.0823         179.322      -0.00931416         148.971
0.533                  -0.466715        -138.218         -55.9013         177.137         -55.9004         177.133      -0.00939826         148.902
0.534                  -0.480221        -138.724         -55.7211         174.941         -55.7202         174.938       -0.0094826         148.834
0.535                  -0.493985        -139.233         -55.5425          172.74         -55.5417         172.736      -0.00956718         148.766
0.536                  -0.508009        -139.743         -55.3656         170.533         -55.3649          170.53      -0.00965203         148.698
0.537                  -0.522296        -140.256         -55.1905         168.321         -55.1898         168.318      -0.00973717         148.629
0.538                  -0.536851        -140.771         -55.0171         166.106         -55.0165         166.103      -0.00982262         148.561
0.539                  -0.551677        -141.288         -54.8455         163.887         -54.8449         163.884      -0.00990841         148.492
0.54                   -0.566777        -141.807         -54.6756         161.664          -54.675         161.662      -0.00999455         148.423
0.541                  -0.582154        -142.329         -54.5074          159.44         -54.5069         159.437       -0.0100811         148.354
0.542                  -0.597813        -142.853          -54.341         157.213         -54.3405          157.21       -0.0101681         148.285
0.543                  -0.613756        -143.379         -54.1762         154.985         -54.1758         154.983       -0.0102555         148.216
0.544                  -0.629988        -143.908         -54.0132         152.756         -54.0128         152.754       -0.0103434         148.147
0.545                  -0.646512        -144.438         -53.8518         150.527         -53.8514         150.525       -0.0104319         148.078
0.546                  -0.663332        -144.972          -53.692         148.297         -53.6917         148.295        -0.010521         148.008
0.547                  -0.680451        -145.507         -53.5338         146.068         -53.5336         146.067       -0.0106107         147.939
0.548                  -0.697874        -146.045         -53.3772         143.841          -53.377         143.839       -0.0107011         147.869
0.549                  -0.715603        -146.585         -53.2221         141.614         -53.2219         141.613       -0.0107922         147.799
0.55                   -0.733644        -147.128         -53.0684         139.389         -53.0683         139.388       -0.0108841         147.729
0.551                  -0.751999        -147.673         -52.9162         137.167         -52.9161         137.166       -0.0109769         147.659
0.552                  -0.770673        -148.221         -52.7654         134.946         -52.7653         134.945       -0.0110706         147.589
0.553                   -0.78967        -148.771         -52.6159         132.729         -52.6158         132.728       -0.0111653         147.519
0.554                  -0.808994        -149.324         -52.4676         130.514         -52.4675         130.513        -0.011261         147.448
0.555                  -0.828649        -149.879         -52.3206         128.302         -52.3205         128.301       -0.0113579         147.378
0.556                  -0.848639        -150.437         -52.1747         126.094         -52.1746         126.093       -0.0114559         147.307
0.557                  -0.868969        -150.998         -52.0299         123.889         -52.0299         123.888       -0.0115552         147.236
0.558                  -0.889644        -151.561         -51.8862         121.687         -51.8861         121.687       -0.0116559         147.165
0.559                  -0.910668        -152.127         -51.7434          119.49         -51.7434          119.49       -0.0117581         147.094
0.56                   -0.932047        -152.696         -51.6016         117.296         -51.6016         117.296       -0.0118617         147.023
0.561                  -0.953786        -153.268         -51.4606         115.107         -51.4606         115.107        -0.011967         146.952
0.562                  -0.975891        -153.842         -51.3205         112.921         -51.3205         112.921        -0.012074          146.88
0.563                  -0.998367        -154.419         -51.1811         110.739         -51.1811         110.739       -0.0121827         146.809
0.564                   -1.02122            -155         -51.0425         108.561         -51.0425         108.561       -0.0122934         146.737
0.565                   -1.04446        -155.583         -50.9044         106.387         -50.9045         106.387        -0.012406         146.665
0.566                    -1.0681        -156.169          -50.767         104.217         -50.7671         104.217       -0.0125207         146.593
0.567                   -1.09214        -156.759         -50.6302         102.051         -50.6302         102.051       -0.0126376         146.521
0.568                   -1.11659        -157.352         -50.4939         99.8881         -50.4939         99.8884       -0.0127568         146.448
0.569                   -1.14146        -157.948          -50.358         97.7291          -50.358         97.7294       -0.0128783         146.376
0.57                    -1.16677        -158.547         -50.2226         95.5736         -50.2226         95.5739       -0.0130022         146.303
0.571                   -1.19253         -159.15         -50.0875         93.4214         -50.0875         93.4217       -0.0131288         146.231
0.572                   -1.21875        -159.756         -49.9528         91.2724         -49.9528         91.2727        -0.013258         146.158
0.573                   -1.24545        -160.366         -49.8184         89.1264         -49.8184         89.1267       -0.0133899         146.085
0.574                   -1.27264         -160.98         -49.6842         86.9833         -49.6842         86.9836       -0.0135246         146.011
0.575                   -1.30036        -161.597         -49.5503         84.8429         -49.5503         84.8432       -0.0136623         145.938
0.576                    -1.3286        -162.218         -49.4166          82.705         -49.4166         82.7052        -0.013803         145.864
0.577                   -1.35741        -162.843         -49.2831         80.5693         -49.2831         80.5696       -0.0139468         145.791
0.578                   -1.38681        -163.472         -49.1498         78.4358         -49.1498         78.4361       -0.0140937         145.717
0.579                   -1.41682        -164.105         -49.0165         76.3042         -49.0165         76.3045       -0.0142439         145.643
0.58                    -1.44746        -164.742         -48.8834         74.1744         -48.8835         74.1746       -0.0143975         145.569
0.581                   -1.47878        -165.382         -48.7505          72.046         -48.7505         72.0462       -0.0145544         145.494
0.582                   -1.51079        -166.027         -48.6176         69.9189         -48.6176          69.919       -0.0147148          145.42
0.583                   -1.54354        -166.676         -48.4847         67.7929         -48.4847          67.793       -0.0148787         145.345
0.584                   -1.57705        -167.329          -48.352         65.6677          -48.352         65.6678       -0.0150462         145.271
0.585                   -1.61137        -167.985         -48.2193         63.5433         -48.2193         63.5434       -0.0152173         145.196
0.586                   -1.64651        -168.646         -48.0866         61.4193         -48.0866         61.4193       -0.0153921          145.12
0.587                   -1.68252         -169.31          -47.954         59.2956          -47.954         59.2956       -0.0155706         145.045
0.588                   -1.71942        -169.979         -47.8214          57.172         -47.8214          57.172       -0.0157528          144.97
0.589                   -1.75725         -170.65         -47.6889         55.0482         -47.6889         55.0482       -0.0159389         144.894
0.59                    -1.79604        -171.325         -47.5564         52.9242         -47.5564         52.9242       -0.0161287         144.818
0.591                   -1.83582        -172.004          -47.424         50.7998          -47.424         50.7998       -0.0163224         144.742
0.592                    -1.8766        -172.685         -47.2917         48.6747         -47.2917         48.6747       -0.0165199         144.666
0.593                   -1.91842         -173.37         -47.1594         46.5489         -47.1594         46.5488       -0.0167212          144.59
0.594                   -1.96129        -174.057         -47.0271         44.4221         -47.0271          44.422       -0.0169265         144.513
0.595                   -2.00525        -174.747          -46.895         42.2943          -46.895         42.2942       -0.0171355         144.436
0.596                   -2.05029        -175.439         -46.7629         40.1652         -46.7629         40.1651       -0.0173485          144.36
0.597                   -2.09644        -176.134          -46.631         38.0348          -46.631         38.0347       -0.0175653         144.283
0.598                    -2.1437        -176.831         -46.4992          35.903         -46.4992         35.9029       -0.0177859         144.205
0.599                    -2.1921        -177.529         -46.3675         33.7697         -46.3675         33.7695       -0.0180104         144.128
0.6                     -2.24163        -178.229         -46.2359         31.6347         -46.2359         31.6345       -0.0182387          144.05
0.601                   -2.29231        -178.931         -46.1045          29.498         -46.1046         29.4978       -0.0184708         143.972
0.602                   -2.34414        -179.634         -45.9733         27.3595         -45.9733         27.3594       -0.0187067         143.894
0.603                   -2.39711         179.662         -45.8423         25.2192         -45.8423          25.219       -0.0189463         143.816
0.604                   -2.45125         178.957         -45.7115          23.077         -45.7115         23.0768       -0.0191897         143.738
0.605                   -2.50654         178.252          -45.581         20.9329          -45.581         20.9327       -0.0194367         143.659
0.606                   -2.56299         177.545         -45.4507         18.7867         -45.4507         18.7866       -0.0196875          143.58
0.607                    -2.6206         176.838         -45.3206         16.6387         -45.3206         16.6385       -0.0199419         143.501
0.608                   -2.67937         176.131         -45.1908         14.4886         -45.1908         14.4884          -0.0202         143.422
0.609                   -2.73929         175.424         -45.0613         12.3366         -45.0613         12.3364       -0.0204617         143.343
0.61                    -2.80036         174.717         -44.9322         10.1826         -44.9322         10.1824        -0.020727         143.263
0.611                   -2.86259         174.009         -44.8033         8.02664         -44.8033         8.02649       -0.0209959         143.183
0.612                   -2.92597         173.302         -44.6748          5.8688         -44.6748         5.86866       -0.0212684         143.103
0.613                   -2.99049         172.596         -44.5467         3.70909         -44.5467         3.70897       -0.0215444         143.023
0.614                   -3.05615          171.89         -44.4189         1.54757         -44.4189         1.54746        -0.021824         142.943
0.615                   -3.12295         171.184         -44.2915       -0.615697         -44.2915       -0.615805       -0.0221071         142.862
0.616                   -3.19087          170.48         -44.1646        -2.78066         -44.1646        -2.78075       -0.0223938         142.781
0.617                   -3.25992         169.776          -44.038        -4.94723          -44.038        -4.94732        -0.022684           142.7
0.618                   -3.33009         169.073         -43.9118        -7.11534         -43.9118        -7.11542       -0.0229778         142.619
0.619                   -3.40137         168.372         -43.7861        -9.28491         -43.7861        -9.28497       -0.0232751         142.537
0.62                    -3.47374         167.671         -43.6608        -11.4558         -43.6608        -11.4559       -0.0235761         142.455
0.621                    -3.5472         166.972         -43.5359         -13.628         -43.5359        -13.6281       -0.0238806         142.373
0.622                   -3.62175         166.275         -43.4115        -15.8014         -43.4115        -15.8014       -0.0241888         142.291
0.623                   -3.69736         165.579         -43.2875        -17.9758         -43.2875        -17.9759       -0.0245007         142.208
0.624                   -3.77403         164.884          -43.164        -20.1512          -43.164        -20.1513       -0.0248163         142.125
0.625                   -3.85174         164.192         -43.0409        -22.3275         -43.0409        -22.3275       -0.0251357         142.042
0.626                   -3.93048         163.501         -42.9183        -24.5046         -42.9183        -24.5046        -0.025459         141.959
0.627                   -4.01024         162.812         -42.7961        -26.6823         -42.7961        -26.6823       -0.0257862         141.875
0.628                   -4.09099         162.124         -42.6744        -28.8605         -42.6744        -28.8605       -0.0261173         141.791
0.629                   -4.17274         161.439         -42.5531        -31.0393         -42.5531        -31.0393       -0.0264525         141.707
