! TOUCHSTONE file generated by CST MICROWAVE STUDIO
! Date and time: Fri Oct  2 19:14:40 2020
! Project name: Scenario_1_Free_Space_out_of_line.cst
! Parameters = {Lambda=346.42; Step_1=17.321; dy1=-85.885; dx1=866; L_HA=400; MT=2.54; Rad_Dielectric=30; Rad_Lower=7.3; Rad_Upper=30; a_HA=580; a_WG=246; b_HA=500; b_WG=121; c_HA=0; c_WG=187; d_feed=85; h_feed=15; h_lower=18; h_upper=40}
! Header version: 2018
! Port assignment regex: !\s*Touchstone port\s*([0-9]+)\s*=\s*(CST MWS port|CST DS port)\s*([0-9]+|Zmin|Zmax)\s*\(\"(.*)\"\)(\s*mode\s*([0-9]+))?.*
! Touchstone port assignment:
! Touchstone port 1 = CST MWS port 1 ("")
! Touchstone port 2 = CST MWS port 2 ("")
# GHz S DB R 50
0.5                    -0.149053        -122.544         -63.1174         143.376         -63.1175         143.376      -0.00663719         151.117
0.501                  -0.155656        -123.012         -63.0299         141.402         -63.0469         141.324      -0.00672278         151.052
0.502                   -0.16252        -123.482         -62.9387         139.408         -62.9721          139.25      -0.00680907         150.986
0.503                  -0.169645        -123.952         -62.8437         137.396         -62.8929         137.154      -0.00689606         150.921
0.504                   -0.17703        -124.424         -62.7448         135.366         -62.8093         135.038      -0.00698374         150.855
0.505                  -0.184675        -124.896         -62.6421         133.319         -62.7212         132.903       -0.0070721         150.789
0.506                   -0.19258         -125.37         -62.5353         131.255         -62.6285         130.748      -0.00716114         150.724
0.507                  -0.200746        -125.845         -62.4247         129.174         -62.5312         128.575      -0.00725086         150.658
0.508                  -0.209171        -126.321           -62.31         127.078         -62.4292         126.386      -0.00734125         150.592
0.509                  -0.217856        -126.799         -62.1913         124.966         -62.3225          124.18      -0.00743229         150.526
0.51                   -0.226801        -127.277         -62.0686          122.84          -62.211         121.959      -0.00752399          150.46
0.511                  -0.236005        -127.757         -61.9419           120.7         -62.0948         119.724      -0.00761633         150.394
0.512                  -0.245468        -128.237         -61.8112         118.547         -61.9738         117.476      -0.00770931         150.328
0.513                   -0.25519        -128.719         -61.6766         116.381         -61.8481         115.216      -0.00780291         150.261
0.514                   -0.26517        -129.202          -61.538         114.203         -61.7177         112.944      -0.00789714         150.195
0.515                  -0.275409        -129.686         -61.3955         112.013         -61.5826         110.662      -0.00799198         150.128
0.516                  -0.285906        -130.172         -61.2492         109.813          -61.443         108.371      -0.00808742         150.062
0.517                   -0.29666        -130.658         -61.0991         107.602         -61.2988         106.071      -0.00818345         149.995
0.518                  -0.307671        -131.146         -60.9452         105.381         -61.1501         103.764      -0.00828006         149.929
0.519                  -0.318939        -131.635         -60.7877         103.151         -60.9971          101.45      -0.00837725         149.862
0.52                   -0.330464        -132.125         -60.6267         100.911         -60.8398         99.1294      -0.00847499         149.795
0.521                  -0.342244        -132.616         -60.4621         98.6637         -60.6784         96.8039      -0.00857328         149.728
0.522                  -0.354281        -133.108         -60.2942         96.4079          -60.513         94.4738      -0.00867211         149.661
0.523                  -0.366573        -133.602          -60.123         94.1444         -60.3436         92.1396      -0.00877146         149.594
0.524                   -0.37912        -134.097         -59.9487         91.8735         -60.1706          89.802      -0.00887133         149.527
0.525                  -0.391921        -134.593         -59.7713         89.5954         -59.9939         87.4614      -0.00897169          149.46
0.526                  -0.404977         -135.09          -59.591         87.3106         -59.8137         85.1184      -0.00907255         149.392
0.527                  -0.418287        -135.589         -59.4079          85.019         -59.6303         82.7732      -0.00917388         149.325
0.528                  -0.431851        -136.089         -59.2221         82.7211         -59.4438         80.4262      -0.00927567         149.257
0.529                  -0.445668         -136.59         -59.0338         80.4168         -59.2543         78.0776       -0.0093779          149.19
0.53                   -0.459738        -137.092         -58.8431         78.1064          -59.062         75.7277      -0.00948058         149.122
0.531                  -0.474061        -137.596         -58.6502         75.7898         -58.8672         73.3766      -0.00958367         149.054
0.532                  -0.488636        -138.101         -58.4552         73.4672         -58.6699         71.0244      -0.00968717         148.986
0.533                  -0.503465        -138.607         -58.2582         71.1386         -58.4703         68.6711      -0.00979107         148.918
0.534                  -0.518545        -139.115         -58.0595         68.8039         -58.2687         66.3168      -0.00989535          148.85
0.535                  -0.533878        -139.624         -57.8591         66.4632         -58.0652         63.9613      -0.00999999         148.782
0.536                  -0.549463        -140.135         -57.6572         64.1164           -57.86         61.6047        -0.010105         148.714
0.537                  -0.565301        -140.647         -57.4541         61.7635         -57.6532         59.2468       -0.0102103         148.645
0.538                   -0.58139        -141.161         -57.2497         59.4043         -57.4451         56.8874        -0.010316         148.577
0.539                  -0.597733        -141.676         -57.0444         57.0388         -57.2359         54.5263        -0.010422         148.508
0.54                   -0.614328        -142.192         -56.8382         54.6668         -57.0256         52.1634       -0.0105283         148.439
0.541                  -0.631176         -142.71         -56.6313         52.2884         -56.8145         49.7985       -0.0106349         148.371
0.542                  -0.648278         -143.23         -56.4239         49.9033         -56.6028         47.4313       -0.0107418         148.302
0.543                  -0.665633        -143.751         -56.2162         47.5115         -56.3906         45.0615       -0.0108489         148.233
0.544                  -0.683244        -144.273         -56.0082         45.1129         -56.1781          42.689       -0.0109564         148.164
0.545                  -0.701109        -144.798         -55.8002         42.7073         -55.9654         40.3135       -0.0110641         148.095
0.546                  -0.719231        -145.324         -55.5923         40.2948         -55.7528         37.9347        -0.011172         148.025
0.547                   -0.73761        -145.852         -55.3847         37.8753         -55.5403         35.5524       -0.0112802         147.956
0.548                  -0.756247        -146.381         -55.1776         35.4487         -55.3282         33.1665       -0.0113887         147.886
0.549                  -0.775143        -146.913          -54.971          33.015         -55.1166         30.7765       -0.0114974         147.817
0.55                     -0.7943        -147.446         -54.7651         30.5742         -54.9056         28.3825       -0.0116063         147.747
0.551                   -0.81372        -147.981         -54.5601         28.1264         -54.6954         25.9842       -0.0117155         147.677
0.552                  -0.833404        -148.518         -54.3561         25.6716         -54.4862         23.5814        -0.011825         147.607
0.553                  -0.853354        -149.056         -54.1533         23.2099          -54.278          21.174       -0.0119347         147.537
0.554                  -0.873572        -149.597         -53.9518         20.7414          -54.071          18.762       -0.0120447         147.467
0.555                   -0.89406         -150.14         -53.7517         18.2663         -53.8654         16.3452        -0.012155         147.396
0.556                  -0.914822        -150.685         -53.5531         15.7849         -53.6613         13.9237       -0.0122656         147.326
0.557                  -0.935859        -151.232         -53.3563         13.2972         -53.4587         11.4973       -0.0123765         147.255
0.558                  -0.957175        -151.781         -53.1612         10.8036         -53.2578         9.06626       -0.0124878         147.185
0.559                  -0.978774        -152.333          -52.968         8.30436         -53.0588         6.63049       -0.0125994         147.114
0.56                    -1.00066        -152.886         -52.7768         5.79984         -52.8617         4.19012       -0.0127115         147.043
0.561                   -1.02283        -153.442         -52.5877         3.29038         -52.6666         1.74529       -0.0128239         146.972
0.562                    -1.0453            -154         -52.4008        0.776384         -52.4736       -0.703838       -0.0129368         146.901
0.563                   -1.06807        -154.561         -52.2162        -1.74173         -52.2828        -3.15706       -0.0130503         146.829
0.564                   -1.09114        -155.124         -52.0338         -4.2635         -52.0943        -5.61414       -0.0131642         146.758
0.565                   -1.11451         -155.69         -51.8539        -6.78846         -51.9081        -8.07482       -0.0132788         146.686
0.566                   -1.13821        -156.259         -51.6765         -9.3161         -51.7244        -10.5388       -0.0133941         146.614
0.567                   -1.16222         -156.83         -51.5015        -11.8459         -51.5431        -13.0058         -0.01351         146.542
0.568                   -1.18656        -157.403         -51.3291        -14.3774         -51.3643        -15.4754       -0.0136267          146.47
0.569                   -1.21123         -157.98         -51.1592        -16.9099         -51.1881        -17.9473       -0.0137443         146.398
0.57                    -1.23625        -158.559          -50.992         -19.443         -51.0145        -20.4212       -0.0138627         146.326
0.571                   -1.26161        -159.141         -50.8273        -21.9761         -50.8435        -22.8965       -0.0139822         146.253
0.572                   -1.28733        -159.727         -50.6652        -24.5087         -50.6752        -25.3729       -0.0141027         146.181
0.573                   -1.31342        -160.315         -50.5057        -27.0401         -50.5095          -27.85       -0.0142243         146.108
0.574                   -1.33988        -160.906         -50.3488        -29.5698         -50.3465        -30.3273       -0.0143472         146.035
0.575                   -1.36673        -161.501         -50.1944        -32.0974          -50.186        -32.8044       -0.0144715         145.962
0.576                   -1.39397        -162.098         -50.0425        -34.6223         -50.0283        -35.2809       -0.0145971         145.889
0.577                   -1.42163          -162.7         -49.8931         -37.144         -49.8731        -37.7563       -0.0147243         145.815
0.578                    -1.4497        -163.304         -49.7461         -39.662         -49.7204        -40.2303       -0.0148532         145.742
0.579                   -1.47821        -163.912         -49.6015        -42.1759         -49.5704        -42.7024       -0.0149837         145.668
0.58                    -1.50716        -164.523         -49.4592        -44.6853         -49.4228        -45.1723       -0.0151162         145.594
0.581                   -1.53657        -165.138         -49.3191        -47.1897         -49.2776        -47.6395       -0.0152506          145.52
0.582                   -1.56646        -165.757         -49.1811        -49.6889         -49.1348        -50.1037       -0.0153871         145.446
0.583                   -1.59684        -166.379         -49.0453        -52.1825         -48.9944        -52.5645       -0.0155258         145.371
0.584                   -1.62773        -167.006         -48.9114        -54.6702         -48.8561        -55.0217       -0.0156668         145.297
0.585                   -1.65915        -167.636         -48.7795        -57.1518         -48.7201         -57.475       -0.0158103         145.222
0.586                    -1.6911         -168.27         -48.6493         -59.627         -48.5862        -59.9241       -0.0159563         145.147
0.587                   -1.72363        -168.908         -48.5209        -62.0958         -48.4542        -62.3687       -0.0161051         145.072
0.588                   -1.75673         -169.55         -48.3942        -64.5579         -48.3243        -64.8087       -0.0162567         144.997
0.589                   -1.79045        -170.196         -48.2689        -67.0133         -48.1961         -67.244       -0.0164112         144.921
0.59                    -1.82479        -170.846         -48.1451        -69.4619         -48.0698        -69.6742       -0.0165688         144.846
0.591                   -1.85978        -171.501         -48.0227        -71.9037          -47.945        -72.0995       -0.0167296          144.77
0.592                   -1.89545         -172.16         -47.9015        -74.3387         -47.8219        -74.5196       -0.0168937         144.694
0.593                   -1.93182        -172.823         -47.7815         -76.767         -47.7003        -76.9346       -0.0170612         144.618
0.594                   -1.96892        -173.491         -47.6626        -79.1886           -47.58        -79.3444       -0.0172323         144.541
0.595                   -2.00677        -174.163         -47.5446        -81.6038         -47.4611         -81.749        -0.017407         144.465
0.596                   -2.04541         -174.84         -47.4275        -84.0125         -47.3434        -84.1485       -0.0175855         144.388
0.597                   -2.08486        -175.521         -47.3112        -86.4151         -47.2267        -86.5429       -0.0177679         144.311
0.598                   -2.12516        -176.206         -47.1956        -88.8117         -47.1111        -88.9325       -0.0179542         144.234
0.599                   -2.16634        -176.896         -47.0806        -91.2026         -46.9965        -91.3172       -0.0181445         144.156
0.6                     -2.20843        -177.591         -46.9662        -93.5879         -46.8827        -93.6972       -0.0183391         144.079
0.601                   -2.25147         -178.29         -46.8523         -95.968         -46.7697        -96.0728       -0.0185378         144.001
0.602                   -2.29549        -178.994         -46.7387        -98.3432         -46.6573         -98.444       -0.0187409         143.923
0.603                   -2.34052        -179.702         -46.6256        -100.714         -46.5456        -100.811       -0.0189483         143.845
0.604                   -2.38662         179.585         -46.5126         -103.08         -46.4344        -103.175       -0.0191603         143.767
0.605                    -2.4338         178.868         -46.3999        -105.442         -46.3236        -105.534       -0.0193767         143.688
0.606                   -2.48212         178.146         -46.2874        -107.801         -46.2133        -107.891       -0.0195977         143.609
0.607                   -2.53162          177.42         -46.1749        -110.157         -46.1033        -110.244       -0.0198233          143.53
0.608                   -2.58233          176.69         -46.0626        -112.509         -45.9935        -112.595       -0.0200537         143.451
0.609                   -2.63429         175.956         -45.9502        -114.859         -45.8839        -114.943       -0.0202887         143.372
0.61                    -2.68756         175.217         -45.8378        -117.207         -45.7746        -117.289       -0.0205285         143.292
0.611                   -2.74217         174.475         -45.7254        -119.553         -45.6653        -119.633       -0.0207731         143.212
0.612                   -2.79816         173.729         -45.6129        -121.898          -45.556        -121.975       -0.0210225         143.132
0.613                   -2.85557         172.979         -45.5003        -124.242         -45.4468        -124.317       -0.0212767         143.052
0.614                   -2.91446         172.225         -45.3876        -126.585         -45.3376        -126.657       -0.0215358         142.972
0.615                   -2.97486         171.469         -45.2747        -128.928         -45.2283        -128.997       -0.0217998         142.891
0.616                   -3.03682         170.709         -45.1617         -131.27         -45.1189        -131.336       -0.0220686          142.81
0.617                   -3.10037         169.946         -45.0485        -133.613         -45.0094        -133.676       -0.0223423         142.729
0.618                   -3.16556         169.181         -44.9351        -135.957         -44.8998        -136.016       -0.0226209         142.648
0.619                   -3.23243         168.413         -44.8216        -138.302         -44.7901        -138.357       -0.0229044         142.566
0.62                    -3.30102         167.644          -44.708        -140.648         -44.6801        -140.698       -0.0231928         142.484
0.621                   -3.37136         166.872         -44.5942        -142.996         -44.5701        -143.041       -0.0234861         142.402
0.622                    -3.4435         166.099         -44.4802        -145.345         -44.4598        -145.385       -0.0237843          142.32
0.623                   -3.51745         165.325         -44.3662        -147.697         -44.3494        -147.731       -0.0240873         142.237
0.624                   -3.59327          164.55          -44.252        -150.051         -44.2388        -150.079       -0.0243953         142.154
0.625                   -3.67097         163.775         -44.1378        -152.408          -44.128        -152.429       -0.0247081         142.071
0.626                   -3.75059         162.999         -44.0235        -154.767         -44.0171        -154.781       -0.0250258         141.988
0.627                   -3.83214         162.224         -43.9091        -157.129          -43.906        -157.136       -0.0253484         141.904
0.628                   -3.91564          161.45         -43.7948        -159.494         -43.7948        -159.494       -0.0256758          141.82
0.629                   -4.00112         160.677         -43.6805        -161.862         -43.6835        -161.855       -0.0260082         141.736
