! TOUCHSTONE file generated by CST MICROWAVE STUDIO
! Date and time: Fri Oct  2 18:58:13 2020
! Project name: Scenario_1_Free_Space_out_of_line.cst
! Parameters = {Lambda=346.42; Step_1=17.321; dy1=-85.885; dx1=1039; L_HA=400; MT=2.54; Rad_Dielectric=30; Rad_Lower=7.3; Rad_Upper=30; a_HA=580; a_WG=246; b_HA=500; b_WG=121; c_HA=0; c_WG=187; d_feed=85; h_feed=15; h_lower=18; h_upper=40}
! Header version: 2018
! Port assignment regex: !\s*Touchstone port\s*([0-9]+)\s*=\s*(CST MWS port|CST DS port)\s*([0-9]+|Zmin|Zmax)\s*\(\"(.*)\"\)(\s*mode\s*([0-9]+))?.*
! Touchstone port assignment:
! Touchstone port 1 = CST MWS port 1 ("")
! Touchstone port 2 = CST MWS port 2 ("")
# GHz S DB R 50
0.5                    -0.147633        -122.561         -63.6206         46.5734         -63.6206         46.5734       -0.0067394         151.123
0.501                  -0.151805        -123.002         -63.5644         44.4864         -63.5637         44.4896      -0.00678767         151.058
0.502                  -0.156204        -123.445         -63.5035         42.3684         -63.5021         42.3749      -0.00683687         150.992
0.503                  -0.160832         -123.89         -63.4377         40.2199         -63.4357         40.2298      -0.00688703         150.927
0.504                  -0.165693        -124.338         -63.3668         38.0417         -63.3642         38.0549      -0.00693814         150.861
0.505                  -0.170791        -124.787         -63.2908         35.8343         -63.2876         35.8509      -0.00699022         150.796
0.506                  -0.176128        -125.239         -63.2095         33.5985         -63.2057         33.6186      -0.00704329          150.73
0.507                  -0.181708        -125.692         -63.1226         31.3352         -63.1184         31.3586      -0.00709735         150.664
0.508                  -0.187534        -126.148         -63.0303         29.0451         -63.0255         29.0719      -0.00715243         150.598
0.509                  -0.193611        -126.606         -62.9322         26.7294          -62.927         26.7595      -0.00720854         150.532
0.51                    -0.19994        -127.066         -62.8284         24.3889         -62.8228         24.4223      -0.00726568         150.466
0.511                  -0.206526        -127.528         -62.7187         22.0247         -62.7127         22.0614      -0.00732387           150.4
0.512                  -0.213372        -127.993         -62.6031          19.638         -62.5967         19.6778      -0.00738312         150.334
0.513                  -0.220481        -128.459         -62.4815         17.2298         -62.4749         17.2727      -0.00744346         150.268
0.514                  -0.227857        -128.927          -62.354         14.8013         -62.3471         14.8471      -0.00750488         150.202
0.515                  -0.235504        -129.398         -62.2206         12.3537         -62.2134         12.4023      -0.00756741         150.135
0.516                  -0.243425        -129.871         -62.0811         9.88805         -62.0737         9.93936      -0.00763106         150.069
0.517                  -0.251624        -130.346         -61.9358          7.4056         -61.9282         7.45941      -0.00769584         150.002
0.518                  -0.260103        -130.823         -61.7846         4.90743         -61.7768         4.96357      -0.00776176         149.935
0.519                  -0.268867        -131.302         -61.6276         2.39465         -61.6197         2.45294      -0.00782885         149.868
0.52                    -0.27792        -131.783         -61.4649       -0.131684          -61.457       -0.071459       -0.0078971         149.802
0.521                  -0.287264        -132.267         -61.2967        -2.67058         -61.2886        -2.60862      -0.00796654         149.735
0.522                  -0.296903        -132.752         -61.1229        -5.22108         -61.1149         -5.1576      -0.00803719         149.668
0.523                  -0.306842         -133.24          -60.944        -7.78231         -60.9359        -7.71753      -0.00810905           149.6
0.524                  -0.317083         -133.73         -60.7598        -10.3534         -60.7518        -10.2876      -0.00818213         149.533
0.525                  -0.327631        -134.222         -60.5707        -12.9338         -60.5627        -12.8671      -0.00825646         149.466
0.526                  -0.338488        -134.716         -60.3769        -15.5226         -60.3689        -15.4553      -0.00833205         149.398
0.527                  -0.349659        -135.212         -60.1785        -18.1194         -60.1706        -18.0518      -0.00840891         149.331
0.528                  -0.361148        -135.711         -59.9758        -20.7236          -59.968        -20.6559      -0.00848705         149.263
0.529                  -0.372957        -136.211          -59.769        -23.3349         -59.7613        -23.2673       -0.0085665         149.196
0.53                    -0.38509        -136.714         -59.5583        -25.9529         -59.5507        -25.8856      -0.00864726         149.128
0.531                  -0.397552        -137.219          -59.344        -28.5773         -59.3365        -28.5107      -0.00872935          149.06
0.532                  -0.410346        -137.726         -59.1263        -31.2081          -59.119        -31.1422      -0.00881279         148.992
0.533                  -0.423476        -138.235         -58.9055         -33.845         -58.8984        -33.7802      -0.00889758         148.924
0.534                  -0.436945        -138.747         -58.6819        -36.4881         -58.6749        -36.4246      -0.00898375         148.856
0.535                  -0.450756         -139.26         -58.4557        -39.1374         -58.4489        -39.0753      -0.00907131         148.787
0.536                  -0.464915        -139.776         -58.2272         -41.793         -58.2206        -41.7325      -0.00916028         148.719
0.537                  -0.479424        -140.294         -57.9967        -44.4549         -57.9903        -44.3962      -0.00925066          148.65
0.538                  -0.494287        -140.814         -57.7645        -47.1234         -57.7583        -47.0667      -0.00934248         148.582
0.539                  -0.509508        -141.336         -57.5308        -49.7986         -57.5247        -49.7441      -0.00943575         148.513
0.54                   -0.525091         -141.86         -57.2958        -52.4808           -57.29        -52.4286      -0.00953049         148.444
0.541                  -0.541039        -142.386           -57.06        -55.1702         -57.0544        -55.1204      -0.00962671         148.375
0.542                  -0.557356        -142.915         -56.8236        -57.8671         -56.8182        -57.8197      -0.00972443         148.306
0.543                  -0.574046        -143.445         -56.5867        -60.5716         -56.5816        -60.5269      -0.00982366         148.237
0.544                  -0.591112        -143.978         -56.3498        -63.2839          -56.345         -63.242      -0.00992442         148.168
0.545                  -0.608559        -144.513         -56.1131        -66.0044         -56.1085        -65.9652       -0.0100267         148.098
0.546                   -0.62639         -145.05         -55.8769        -68.7331         -55.8725        -68.6968       -0.0101306         148.029
0.547                  -0.644608         -145.59         -55.6414        -71.4702         -55.6372        -71.4368       -0.0102361         147.959
0.548                  -0.663218        -146.131         -55.4068        -74.2158          -55.403        -74.1854       -0.0103431          147.89
0.549                  -0.682223        -146.674         -55.1735        -76.9699         -55.1699        -76.9425       -0.0104518          147.82
0.55                   -0.701628         -147.22         -54.9417        -79.7326         -54.9384        -79.7081        -0.010562          147.75
0.551                  -0.721435        -147.768         -54.7116        -82.5036         -54.7086        -82.4821        -0.010674          147.68
0.552                  -0.741648        -148.318         -54.4835         -85.283         -54.4808        -85.2644       -0.0107876          147.61
0.553                  -0.762272         -148.87         -54.2576        -88.0706         -54.2552        -88.0549       -0.0109028         147.539
0.554                  -0.783311        -149.424         -54.0341        -90.8659          -54.032         -90.853       -0.0110198         147.469
0.555                  -0.804767         -149.98         -53.8132        -93.6688         -53.8114        -93.6587       -0.0111385         147.399
0.556                  -0.826645        -150.539         -53.5952        -96.4787         -53.5937        -96.4713       -0.0112589         147.328
0.557                  -0.848948          -151.1         -53.3801        -99.2952         -53.3789        -99.2904       -0.0113811         147.257
0.558                  -0.871681        -151.662         -53.1682        -102.118         -53.1674        -102.115        -0.011505         147.186
0.559                  -0.894847        -152.227         -52.9596        -104.946         -52.9591        -104.946       -0.0116307         147.115
0.56                   -0.918451        -152.794         -52.7545        -107.778         -52.7543        -107.781       -0.0117583         147.044
0.561                  -0.942495        -153.364          -52.553        -110.615         -52.5531         -110.62       -0.0118876         146.973
0.562                  -0.966985        -153.935         -52.3551        -113.455         -52.3556        -113.461       -0.0120188         146.901
0.563                  -0.991923        -154.508         -52.1611        -116.297         -52.1619        -116.305       -0.0121518          146.83
0.564                   -1.01731        -155.084         -51.9709        -119.141          -51.972        -119.151       -0.0122868         146.758
0.565                   -1.04316        -155.662         -51.7846        -121.985          -51.786        -121.997       -0.0124236         146.686
0.566                   -1.06947        -156.242         -51.6023        -124.829          -51.604        -124.842       -0.0125623         146.614
0.567                   -1.09625        -156.824          -51.424        -127.671          -51.426        -127.686        -0.012703         146.542
0.568                   -1.12349        -157.409         -51.2496        -130.512         -51.2519        -130.527       -0.0128456          146.47
0.569                    -1.1512        -157.995         -51.0792        -133.349         -51.0818        -133.365       -0.0129903         146.398
0.57                     -1.1794        -158.584         -50.9128        -136.182         -50.9156        -136.199       -0.0131369         146.325
0.571                   -1.20807        -159.175         -50.7502         -139.01         -50.7532        -139.027       -0.0132855         146.253
0.572                   -1.23724        -159.768         -50.5914        -141.832         -50.5947         -141.85       -0.0134361          146.18
0.573                   -1.26689        -160.364         -50.4364        -144.647         -50.4399        -144.666       -0.0135888         146.107
0.574                   -1.29704        -160.961          -50.285        -147.455         -50.2887        -147.474       -0.0137436         146.034
0.575                   -1.32768        -161.561         -50.1371        -150.255         -50.1411        -150.274       -0.0139005         145.961
0.576                   -1.35883        -162.163         -49.9927        -153.046         -49.9968        -153.065       -0.0140595         145.888
0.577                   -1.39049        -162.767         -49.8516        -155.828         -49.8558        -155.847       -0.0142207         145.814
0.578                   -1.42267        -163.374         -49.7137          -158.6          -49.718        -158.618        -0.014384          145.74
0.579                   -1.45536        -163.983         -49.5787        -161.361         -49.5832        -161.379       -0.0145495         145.667
0.58                    -1.48858        -164.594         -49.4467        -164.112         -49.4512        -164.129       -0.0147172         145.593
0.581                   -1.52233        -165.208         -49.3174        -166.851          -49.322        -166.868       -0.0148872         145.519
0.582                   -1.55661        -165.823         -49.1906        -169.579         -49.1953        -169.596       -0.0150594         145.444
0.583                   -1.59143        -166.441         -49.0662        -172.296         -49.0709        -172.312       -0.0152339          145.37
0.584                   -1.62679        -167.062         -48.9441        -175.001         -48.9488        -175.017       -0.0154106         145.295
0.585                   -1.66271        -167.685         -48.8241        -177.695         -48.8288        -177.709       -0.0155898         145.221
0.586                   -1.69919         -168.31         -48.7059         179.624         -48.7106          179.61       -0.0157712         145.146
0.587                   -1.73623        -168.938         -48.5896         176.953         -48.5942          176.94       -0.0159551         145.071
0.588                   -1.77384        -169.568         -48.4748         174.294         -48.4794         174.282       -0.0161413         144.995
0.589                   -1.81203        -170.201         -48.3615         171.646         -48.3661         171.635         -0.01633          144.92
0.59                     -1.8508        -170.836         -48.2495         169.009          -48.254         168.998       -0.0165211         144.844
0.591                   -1.89017        -171.474         -48.1387         166.383         -48.1431         166.372       -0.0167147         144.769
0.592                   -1.93013        -172.114         -48.0289         163.766         -48.0332         163.757       -0.0169108         144.693
0.593                    -1.9707        -172.757           -47.92          161.16         -47.9241         161.151       -0.0171094         144.617
0.594                   -2.01189        -173.402         -47.8118         158.562         -47.8158         158.554       -0.0173106          144.54
0.595                    -2.0537         -174.05         -47.7042         155.974         -47.7081         155.967       -0.0175144         144.464
0.596                   -2.09615        -174.701         -47.5972         153.394          -47.601         153.387       -0.0177207         144.387
0.597                   -2.13924        -175.355         -47.4906         150.821         -47.4942         150.815       -0.0179298          144.31
0.598                   -2.18298        -176.011         -47.3843         148.256         -47.3877         148.251       -0.0181415         144.233
0.599                   -2.22739         -176.67         -47.2782         145.698         -47.2815         145.693       -0.0183559         144.156
0.6                     -2.27247        -177.332         -47.1722         143.146         -47.1753         143.142        -0.018573         144.079
0.601                   -2.31824        -177.997         -47.0663         140.599         -47.0692         140.596       -0.0187929         144.001
0.602                   -2.36471        -178.664         -46.9603         138.058          -46.963         138.055       -0.0190156         143.923
0.603                   -2.41189        -179.335         -46.8542         135.521         -46.8567         135.518       -0.0192411         143.845
0.604                   -2.45979         179.991         -46.7479         132.987         -46.7502         132.985       -0.0194694         143.767
0.605                   -2.50844         179.315         -46.6414         130.457         -46.6436         130.455       -0.0197007         143.689
0.606                   -2.55784         178.635         -46.5346         127.929         -46.5366         127.928       -0.0199349          143.61
0.607                   -2.60801         177.952         -46.4275         125.404         -46.4293         125.403        -0.020172         143.532
0.608                   -2.65897         177.265           -46.32         122.879         -46.3216         122.879       -0.0204121         143.452
0.609                   -2.71074         176.576         -46.2122         120.356         -46.2136         120.355       -0.0206552         143.373
0.61                    -2.76333         175.883         -46.1039         117.833         -46.1051         117.832       -0.0209014         143.294
0.611                   -2.81676         175.187         -45.9952         115.309         -45.9962         115.309       -0.0211507         143.214
0.612                   -2.87106         174.487          -45.886         112.785         -45.8869         112.785       -0.0214032         143.134
0.613                   -2.92625         173.784         -45.7764          110.26         -45.7771          110.26       -0.0216588         143.054
0.614                   -2.98235         173.077         -45.6663         107.732         -45.6669         107.733       -0.0219177         142.974
0.615                   -3.03939         172.367         -45.5558         105.203         -45.5561         105.203       -0.0221798         142.893
0.616                   -3.09739         171.653         -45.4448         102.671          -45.445         102.671       -0.0224452         142.812
0.617                   -3.15639         170.935         -45.3334         100.135         -45.3334         100.135        -0.022714         142.731
0.618                   -3.21641         170.214         -45.2215         97.5959         -45.2214         97.5962       -0.0229862          142.65
0.619                   -3.27748         169.488         -45.1092         95.0528          -45.109          95.053       -0.0232619         142.569
0.62                    -3.33963         168.759         -44.9966         92.5054         -44.9962         92.5056        -0.023541         142.487
0.621                   -3.40291         168.026         -44.8836         89.9533         -44.8831         89.9534       -0.0238237         142.405
0.622                   -3.46735         167.289         -44.7703         87.3962         -44.7696         87.3962       -0.0241101         142.323
0.623                   -3.53299         166.548         -44.6567         84.8339         -44.6559         84.8337       -0.0244001          142.24
0.624                   -3.59987         165.803         -44.5428         82.2661         -44.5419         82.2658       -0.0246939         142.157
0.625                   -3.66803         165.054         -44.4288         79.6925         -44.4278          79.692       -0.0249916         142.074
0.626                   -3.73752         164.301         -44.3146          77.113         -44.3135         77.1124       -0.0252931         141.991
0.627                    -3.8084         163.544         -44.2002         74.5274         -44.1991         74.5267       -0.0255987         141.907
0.628                    -3.8807         162.783         -44.0858         71.9357         -44.0846         71.9347       -0.0259083         141.823
0.629                    -3.9545         162.018         -43.9714         69.3376         -43.9701         69.3365       -0.0262221         141.739
