! TOUCHSTONE file generated by CST MICROWAVE STUDIO
! Date and time: Fri Oct  2 18:37:32 2020
! Project name: Scenario_1_Free_Space_out_of_line.cst
! Parameters = {Lambda=346.42; Step_1=17.321; dy1=-103.226; dx1=173; L_HA=400; MT=2.54; Rad_Dielectric=30; Rad_Lower=7.3; Rad_Upper=30; a_HA=580; a_WG=246; b_HA=500; b_WG=121; c_HA=0; c_WG=187; d_feed=85; h_feed=15; h_lower=18; h_upper=40}
! Header version: 2018
! Port assignment regex: !\s*Touchstone port\s*([0-9]+)\s*=\s*(CST MWS port|CST DS port)\s*([0-9]+|Zmin|Zmax)\s*\(\"(.*)\"\)(\s*mode\s*([0-9]+))?.*
! Touchstone port assignment:
! Touchstone port 1 = CST MWS port 1 ("")
! Touchstone port 2 = CST MWS port 2 ("")
# GHz S DB R 50
0.5                    -0.159595        -122.706           -56.63         166.958         -56.6931          166.79       -0.0067378          151.08
0.501                  -0.165567         -123.14          -56.471         165.269         -56.5352         164.957       -0.0067334         151.015
0.502                  -0.171658        -123.576         -56.3102         163.596         -56.3746          163.15      -0.00673138         150.949
0.503                  -0.177872        -124.015          -56.148         161.939         -56.2116         161.369      -0.00673174         150.883
0.504                  -0.184209        -124.455         -55.9842         160.298         -56.0465         159.614      -0.00673448         150.818
0.505                  -0.190672        -124.897         -55.8192         158.673         -55.8794         157.883      -0.00673959         150.752
0.506                  -0.197264        -125.341         -55.6529         157.063         -55.7106         156.177      -0.00674709         150.686
0.507                  -0.203986        -125.787         -55.4855         155.467         -55.5404         154.494      -0.00675698          150.62
0.508                  -0.210841        -126.235         -55.3172         153.886         -55.3687         152.835      -0.00676924         150.554
0.509                  -0.217832        -126.685         -55.1479         152.319          -55.196         151.197       -0.0067839         150.488
0.51                   -0.224961        -127.137         -54.9779         150.765         -55.0222         149.581      -0.00680094         150.422
0.511                   -0.23223        -127.592         -54.8071         149.224         -54.8476         147.986      -0.00682037         150.355
0.512                  -0.239642        -128.048         -54.6357         147.696         -54.6722         146.411      -0.00684219         150.289
0.513                  -0.247201        -128.507         -54.4637          146.18         -54.4963         144.854      -0.00686641         150.222
0.514                  -0.254909        -128.968         -54.2912         144.675         -54.3198         143.316      -0.00689301         150.156
0.515                  -0.262769        -129.431         -54.1183         143.182          -54.143         141.796      -0.00692202         150.089
0.516                  -0.270784        -129.896          -53.945         141.699         -53.9659         140.292      -0.00695342         150.023
0.517                  -0.278958        -130.364         -53.7714         140.227         -53.7886         138.803      -0.00698722         149.956
0.518                  -0.287293        -130.833         -53.5975         138.764         -53.6112          137.33      -0.00702342         149.889
0.519                  -0.295794        -131.306         -53.4234          137.31         -53.4337         135.872      -0.00706202         149.822
0.52                   -0.304464         -131.78         -53.2491         135.866         -53.2562         134.426      -0.00710303         149.755
0.521                  -0.313307        -132.257         -53.0747          134.43         -53.0788         132.994      -0.00714644         149.688
0.522                  -0.322326        -132.736         -52.9002         133.001         -52.9015         131.573      -0.00719226          149.62
0.523                  -0.331526        -133.218         -52.7257         131.581         -52.7244         130.164      -0.00724049         149.553
0.524                   -0.34091        -133.702         -52.5511         130.167         -52.5474         128.765      -0.00729114         149.486
0.525                  -0.350484        -134.189         -52.3765          128.76         -52.3706         127.377      -0.00734419         149.418
0.526                  -0.360251        -134.678          -52.202         127.359         -52.1942         125.997      -0.00739966          149.35
0.527                  -0.370216         -135.17         -52.0275         125.963         -52.0179         124.627      -0.00745755         149.283
0.528                  -0.380384        -135.664         -51.8531         124.574          -51.842         123.264      -0.00751786         149.215
0.529                   -0.39076        -136.161         -51.6788         123.189         -51.6664         121.908      -0.00758059         149.147
0.53                   -0.401349        -136.661         -51.5046         121.808         -51.4912         120.559      -0.00764574         149.079
0.531                  -0.412156        -137.163         -51.3305         120.432         -51.3163         119.217      -0.00771332         149.011
0.532                  -0.423187        -137.668         -51.1566          119.06         -51.1417          117.88      -0.00778333         148.943
0.533                  -0.434448        -138.176         -50.9829         117.691         -50.9676         116.548      -0.00785577         148.874
0.534                  -0.445944        -138.687         -50.8093         116.325         -50.7937         115.221      -0.00793065         148.806
0.535                  -0.457682          -139.2         -50.6359         114.962         -50.6203         113.898      -0.00800796         148.737
0.536                  -0.469668        -139.716         -50.4627         113.601         -50.4473         112.578      -0.00808772         148.669
0.537                  -0.481908        -140.235         -50.2897         112.242         -50.2746         111.262      -0.00816991           148.6
0.538                   -0.49441        -140.758          -50.117         110.885         -50.1023         109.948      -0.00825455         148.531
0.539                  -0.507181        -141.283         -49.9444         109.529         -49.9304         108.636      -0.00834164         148.462
0.54                   -0.520227        -141.811         -49.7721         108.175         -49.7589         107.326      -0.00843118         148.393
0.541                  -0.533557        -142.342            -49.6         106.821         -49.5877         106.018      -0.00852317         148.324
0.542                  -0.547178        -142.876         -49.4282         105.468         -49.4169          104.71      -0.00861763         148.255
0.543                  -0.561098        -143.413         -49.2566         104.114         -49.2465         103.403      -0.00871454         148.186
0.544                  -0.575327        -143.954         -49.0853         102.761         -49.0765         102.096      -0.00881393         148.116
0.545                  -0.589872        -144.497         -48.9142         101.408         -48.9068         100.789      -0.00891578         148.047
0.546                  -0.604743        -145.044         -48.7434         100.053         -48.7375         99.4813       -0.0090201         147.977
0.547                  -0.619949        -145.594         -48.5729          98.698         -48.5686         98.1727       -0.0091269         147.907
0.548                  -0.635499        -146.147         -48.4026         97.3417         -48.3999         96.8629      -0.00923619         147.837
0.549                  -0.651405        -146.704         -48.2326         95.9839         -48.2317         95.5515      -0.00934796         147.767
0.55                   -0.667676        -147.264         -48.0629         94.6244         -48.0638         94.2383      -0.00946222         147.697
0.551                  -0.684323        -147.827         -47.8935         93.2631         -47.8962         92.9229      -0.00957897         147.627
0.552                  -0.701357        -148.394         -47.7244         91.8996         -47.7289          91.605      -0.00969823         147.557
0.553                  -0.718791        -148.964         -47.5556         90.5338          -47.562         90.2844      -0.00981999         147.486
0.554                  -0.736634        -149.538          -47.387         89.1654         -47.3954         88.9608      -0.00994427         147.416
0.555                  -0.754901        -150.115         -47.2188         87.7943         -47.2291         87.6339       -0.0100711         147.345
0.556                  -0.773604        -150.696         -47.0509         86.4202         -47.0631         86.3035       -0.0102004         147.274
0.557                  -0.792755         -151.28         -46.8833         85.0429         -46.8974         84.9692       -0.0103322         147.203
0.558                  -0.812369        -151.868          -46.716         83.6623         -46.7321          83.631       -0.0104666         147.132
0.559                   -0.83246        -152.459         -46.5491         82.2781         -46.5671         82.2885       -0.0106035         147.061
0.56                   -0.853043        -153.055         -46.3825         80.8901         -46.4023         80.9416        -0.010743          146.99
0.561                  -0.874131        -153.653         -46.2162         79.4983         -46.2379           79.59        -0.010885         146.918
0.562                  -0.895741        -154.256         -46.0503         78.1024         -46.0738         78.2335       -0.0110296         146.847
0.563                  -0.917889        -154.862         -45.8847         76.7022           -45.91         76.8719       -0.0111767         146.775
0.564                  -0.940592        -155.472         -45.7195         75.2977         -45.7465          75.505       -0.0113264         146.703
0.565                  -0.963865        -156.086         -45.5546         73.8886         -45.5834         74.1326       -0.0114788         146.631
0.566                  -0.987728        -156.704         -45.3902         72.4749         -45.4205         72.7547       -0.0116337         146.559
0.567                    -1.0122        -157.325         -45.2261         71.0563          -45.258         71.3709       -0.0117912         146.487
0.568                   -1.03729         -157.95         -45.0624         69.6327         -45.0958         69.9812       -0.0119513         146.415
0.569                   -1.06303        -158.579         -44.8991         68.2041          -44.934         68.5854        -0.012114         146.342
0.57                    -1.08943        -159.211         -44.7363         66.7703         -44.7724         67.1833       -0.0122794          146.27
0.571                   -1.11652        -159.848         -44.5738         65.3312         -44.6113         65.7748       -0.0124474         146.197
0.572                   -1.14432        -160.488         -44.4118         63.8866         -44.4504         64.3599       -0.0126181         146.124
0.573                   -1.17284        -161.132         -44.2503         62.4366           -44.29         62.9382       -0.0127914         146.051
0.574                    -1.2021         -161.78         -44.0892         60.9809         -44.1299         61.5099       -0.0129674         145.978
0.575                   -1.23214        -162.432         -43.9286         59.5196         -43.9702         60.0747       -0.0131461         145.904
0.576                   -1.26297        -163.087         -43.7684         58.0525         -43.8109         58.6325       -0.0133275         145.831
0.577                   -1.29462        -163.746         -43.6088         56.5795         -43.6519         57.1833       -0.0135116         145.757
0.578                   -1.32711        -164.409         -43.4497         55.1006         -43.4934         55.7271       -0.0136984         145.683
0.579                   -1.36047        -165.075         -43.2911         53.6158         -43.3354         54.2636        -0.013888         145.609
0.58                    -1.39471        -165.745         -43.1331         52.1249         -43.1778         52.7929       -0.0140803         145.535
0.581                   -1.42987        -166.418         -42.9756          50.628         -43.0206         51.3149       -0.0142754         145.461
0.582                   -1.46598        -167.095         -42.8187          49.125         -42.8639         49.8295       -0.0144733         145.387
0.583                   -1.50305        -167.776         -42.6624         47.6159         -42.7077         48.3368        -0.014674         145.312
0.584                   -1.54111        -168.459         -42.5067         46.1007          -42.552         46.8367       -0.0148775         145.237
0.585                   -1.58019        -169.146         -42.3516         44.5793         -42.3969         45.3291       -0.0150838         145.163
0.586                   -1.62033        -169.837         -42.1971         43.0517         -42.2423         43.8142        -0.015293         145.088
0.587                   -1.66153         -170.53         -42.0433          41.518         -42.0882         42.2918       -0.0155051         145.012
0.588                   -1.70385        -171.226         -41.8902         39.9782         -41.9347          40.762       -0.0157201         144.937
0.589                   -1.74729        -171.925         -41.7378         38.4323         -41.7819         39.2249        -0.015938         144.861
0.59                    -1.79189        -172.627         -41.5861         36.8802         -41.6296         37.6804       -0.0161588         144.786
0.591                   -1.83768        -173.332         -41.4351         35.3222          -41.478         36.1286       -0.0163826          144.71
0.592                   -1.88468        -174.038         -41.2849         33.7581         -41.3271         34.5695       -0.0166093         144.634
0.593                   -1.93292        -174.748         -41.1354         32.1881         -41.1768         33.0032       -0.0168391         144.558
0.594                   -1.98243        -175.459         -40.9867         30.6122         -41.0272         31.4299       -0.0170719         144.481
0.595                   -2.03324        -176.172         -40.8388         29.0305         -40.8784         29.8495       -0.0173078         144.405
0.596                   -2.08537        -176.887         -40.6917         27.4431         -40.7303         28.2622       -0.0175468         144.328
0.597                   -2.13885        -177.604         -40.5454         25.8501          -40.583          26.668       -0.0177889         144.251
0.598                    -2.1937        -178.321            -40.4         24.2515         -40.4365         25.0672       -0.0180341         144.174
0.599                   -2.24995         -179.04         -40.2554         22.6474         -40.2908         23.4597       -0.0182825         144.096
0.6                     -2.30762         -179.76         -40.1117         21.0381         -40.1459         21.8458       -0.0185341         144.019
0.601                   -2.36674          179.52         -39.9689         19.4235         -40.0018         20.2256        -0.018789         143.941
0.602                   -2.42731         178.799         -39.8271         17.8039         -39.8587         18.5992       -0.0190472         143.863
0.603                   -2.48938         178.078         -39.6861         16.1793         -39.7164         16.9669       -0.0193087         143.785
0.604                   -2.55294         177.358         -39.5461           14.55          -39.575         15.3287       -0.0195735         143.707
0.605                   -2.61802         176.638          -39.407          12.916         -39.4346         13.6849       -0.0198418         143.628
0.606                   -2.68463         175.919         -39.2689         11.2775         -39.2951         12.0357       -0.0201135          143.55
0.607                   -2.75279         175.202         -39.1318         9.63472         -39.1566         10.3812       -0.0203887         143.471
0.608                    -2.8225         174.485         -38.9956         7.98779          -39.019         8.72176       -0.0206674         143.392
0.609                   -2.89377         173.771         -38.8604          6.3369         -38.8824         7.05748       -0.0209497         143.312
0.61                    -2.96661          173.06         -38.7263         4.68222         -38.7469         5.38861       -0.0212357         143.233
0.611                   -3.04101         172.351         -38.5931         3.02395         -38.6123          3.7154       -0.0215253         143.153
0.612                   -3.11698         171.645          -38.461         1.36228         -38.4788         2.03807       -0.0218187         143.073
0.613                   -3.19451         170.942         -38.3299       -0.302587         -38.3463        0.356874       -0.0221158         142.993
0.614                    -3.2736         170.243         -38.1998        -1.97046         -38.2149        -1.32794       -0.0224169         142.912
0.615                   -3.35422         169.549         -38.0707        -3.64112         -38.0845        -3.01613       -0.0227219         142.831
0.616                   -3.43637          168.86         -37.9426        -5.31438         -37.9552        -4.70742       -0.0230308         142.751
0.617                   -3.52003         168.175         -37.8156           -6.99          -37.827        -6.40157       -0.0233438         142.669
0.618                   -3.60517         167.496         -37.6897        -8.66779         -37.6998         -8.0983        -0.023661         142.588
0.619                   -3.69176         166.823         -37.5647        -10.3475         -37.5736        -9.79735       -0.0239824         142.506
0.62                    -3.77978         166.157         -37.4408         -12.029         -37.4486        -11.4985        -0.024308         142.424
0.621                   -3.86918         165.497         -37.3178         -13.712         -37.3246        -13.2014        -0.024638         142.342
0.622                   -3.95992         164.844         -37.1959        -15.3963         -37.2017        -14.9058       -0.0249725          142.26
0.623                   -4.05197         164.199          -37.075        -17.0816         -37.0798        -16.6115       -0.0253116         142.177
0.624                   -4.14526         163.562         -36.9551        -18.7679          -36.959        -18.3181       -0.0256552         142.094
0.625                   -4.23974         162.934         -36.8362        -20.4548         -36.8392        -20.0255       -0.0260037         142.011
0.626                   -4.33536         162.314         -36.7183        -22.1421         -36.7204        -21.7334       -0.0263569         141.928
0.627                   -4.43205         161.703         -36.6013        -23.8297         -36.6027        -23.4415       -0.0267152         141.844
0.628                   -4.52973         161.101         -36.4853        -25.5173          -36.486        -25.1495       -0.0270785          141.76
0.629                   -4.62835         160.509         -36.3702        -27.2048         -36.3702        -26.8573        -0.027447         141.676
