! TOUCHSTONE file generated by CST MICROWAVE STUDIO
! Date and time: Fri Oct  2 16:22:54 2020
! Project name: Scenario_1_Free_Space_out_of_line.cst
! Parameters = {Lambda=346.42; Step_1=17.321; dy1=-103.226; dx1=346; L_HA=400; MT=2.54; Rad_Dielectric=30; Rad_Lower=7.3; Rad_Upper=30; a_HA=580; a_WG=246; b_HA=500; b_WG=121; c_HA=0; c_WG=187; d_feed=85; h_feed=15; h_lower=18; h_upper=40}
! Header version: 2018
! Port assignment regex: !\s*Touchstone port\s*([0-9]+)\s*=\s*(CST MWS port|CST DS port)\s*([0-9]+|Zmin|Zmax)\s*\(\"(.*)\"\)(\s*mode\s*([0-9]+))?.*
! Touchstone port assignment:
! Touchstone port 1 = CST MWS port 1 ("")
! Touchstone port 2 = CST MWS port 2 ("")
# GHz S DB R 50
0.5                    -0.142259        -122.682         -59.3722         78.9233         -59.3722         78.9233      -0.00663714         151.068
0.501                  -0.147916        -123.128          -59.114         76.5228         -59.1141         76.5234      -0.00674981         151.002
0.502                  -0.153833        -123.577         -58.8562         74.1925         -58.8564         74.1938      -0.00686186         150.937
0.503                  -0.160012        -124.027         -58.5993         71.9282         -58.5996           71.93      -0.00697331         150.871
0.504                  -0.166456        -124.479         -58.3437         69.7257         -58.3441         69.7279      -0.00708417         150.806
0.505                  -0.173166        -124.934         -58.0898         67.5809         -58.0903         67.5834      -0.00719444          150.74
0.506                  -0.180146         -125.39         -57.8379         65.4898         -57.8385         65.4926      -0.00730414         150.674
0.507                  -0.187397        -125.848         -57.5883         63.4488          -57.589         63.4518      -0.00741328         150.609
0.508                  -0.194921        -126.308         -57.3412         61.4541         -57.3419         61.4573      -0.00752185         150.543
0.509                   -0.20272         -126.77         -57.0967         59.5026         -57.0975         59.5059      -0.00762989         150.477
0.51                   -0.210797        -127.234         -56.8549         57.5909         -56.8558         57.5943      -0.00773739         150.411
0.511                  -0.219154          -127.7          -56.616         55.7161          -56.617         55.7196      -0.00784436         150.344
0.512                  -0.227792        -128.168         -56.3801         53.8753         -56.3811         53.8789      -0.00795082         150.278
0.513                  -0.236713        -128.638          -56.147          52.066         -56.1481         52.0695      -0.00805678         150.212
0.514                  -0.245919        -129.109          -55.917         50.2856         -55.9181         50.2892      -0.00816226         150.146
0.515                  -0.255412        -129.583           -55.69         48.5319         -55.6911         48.5354      -0.00826725         150.079
0.516                  -0.265194        -130.058         -55.4659         46.8026          -55.467          46.806      -0.00837179         150.013
0.517                  -0.275266        -130.535         -55.2448         45.0957          -55.246         45.0991      -0.00847587         149.946
0.518                  -0.285629        -131.015         -55.0266         43.4094         -55.0278         43.4127      -0.00857951         149.879
0.519                  -0.296286        -131.495         -54.8114         41.7419         -54.8126         41.7451      -0.00868273         149.812
0.52                   -0.307238        -131.978          -54.599         40.0914         -54.6002         40.0945      -0.00878554         149.746
0.521                  -0.318485        -132.463         -54.3894         38.4565         -54.3906         38.4595      -0.00888795         149.679
0.522                   -0.33003         -132.95         -54.1826         36.8357         -54.1838         36.8386      -0.00898998         149.612
0.523                  -0.341873        -133.438         -53.9785         35.2276         -53.9797         35.2304      -0.00909165         149.544
0.524                  -0.354016        -133.928         -53.7771          33.631         -53.7783         33.6337      -0.00919296         149.477
0.525                   -0.36646         -134.42         -53.5783         32.0446         -53.5794         32.0472      -0.00929394          149.41
0.526                  -0.379205        -134.914          -53.382         30.4674         -53.3831         30.4699       -0.0093946         149.342
0.527                  -0.392253        -135.409         -53.1882         28.8983         -53.1893         28.9007      -0.00949496         149.275
0.528                  -0.405604        -135.907         -52.9968         27.3364         -52.9979         27.3385      -0.00959503         149.207
0.529                   -0.41926        -136.406         -52.8078         25.7806         -52.8089         25.7826      -0.00969484          149.14
0.53                    -0.43322        -136.907         -52.6211         24.2301         -52.6222          24.232       -0.0097944         149.072
0.531                  -0.447486         -137.41         -52.4367         22.6841         -52.4377         22.6859      -0.00989372         149.004
0.532                  -0.462058        -137.914         -52.2544         21.1419         -52.2555         21.1435      -0.00999284         148.936
0.533                  -0.476937        -138.421         -52.0743         19.6027         -52.0753         19.6042       -0.0100918         148.868
0.534                  -0.492123        -138.929         -51.8963         18.0658         -51.8973         18.0672       -0.0101905           148.8
0.535                  -0.507615        -139.439         -51.7202         16.5305         -51.7212         16.5318       -0.0102891         148.732
0.536                  -0.523415         -139.95         -51.5462         14.9964         -51.5471         14.9975       -0.0103876         148.663
0.537                  -0.539523        -140.464          -51.374         13.4628         -51.3749         13.4638       -0.0104859         148.595
0.538                  -0.555939        -140.979         -51.2038         11.9291         -51.2046           11.93       -0.0105842         148.526
0.539                  -0.572662        -141.496         -51.0353          10.395         -51.0361         10.3957       -0.0106824         148.457
0.54                   -0.589692        -142.015         -50.8685         8.85978         -50.8693         8.86043       -0.0107806         148.389
0.541                  -0.607031        -142.535         -50.7035         7.32314         -50.7043         7.32368       -0.0108787          148.32
0.542                  -0.624676        -143.058         -50.5401         5.78463         -50.5408         5.78505       -0.0109769         148.251
0.543                  -0.642628        -143.582         -50.3783         4.24385          -50.379         4.24415        -0.011075         148.182
0.544                  -0.660887        -144.107         -50.2181         2.70041         -50.2188          2.7006       -0.0111733         148.112
0.545                  -0.679452        -144.635         -50.0594         1.15397           -50.06         1.15405       -0.0112716         148.043
0.546                  -0.698323        -145.164         -49.9021       -0.395805         -49.9027       -0.395828         -0.01137         147.974
0.547                  -0.717499        -145.696         -49.7462        -1.94922         -49.7468        -1.94935       -0.0114686         147.904
0.548                  -0.736979        -146.229         -49.5918        -3.50658         -49.5923        -3.50681       -0.0115673         147.834
0.549                  -0.756764        -146.763         -49.4386        -5.06814         -49.4391        -5.06847       -0.0116662         147.765
0.55                   -0.776852          -147.3         -49.2868        -6.63417         -49.2872        -6.63459       -0.0117653         147.695
0.551                  -0.797242        -147.838         -49.1362         -8.2049         -49.1366        -8.20542       -0.0118647         147.625
0.552                  -0.817933        -148.379         -48.9867        -9.78055         -48.9871        -9.78116       -0.0119643         147.555
0.553                  -0.838926        -148.921         -48.8385        -11.3613         -48.8389         -11.362       -0.0120643         147.484
0.554                  -0.860219        -149.465         -48.6914        -12.9474         -48.6917        -12.9482       -0.0121646         147.414
0.555                   -0.88181        -150.011         -48.5454         -14.539         -48.5457        -14.5399       -0.0122652         147.343
0.556                    -0.9037        -150.559         -48.4004        -16.1363         -48.4007        -16.1372       -0.0123663         147.273
0.557                  -0.925887        -151.109         -48.2564        -17.7393         -48.2567        -17.7404       -0.0124678         147.202
0.558                  -0.948371         -151.66         -48.1135        -19.3483         -48.1137        -19.3494       -0.0125698         147.131
0.559                   -0.97115        -152.214         -47.9714        -20.9634         -47.9716        -20.9645       -0.0126723          147.06
0.56                   -0.994223         -152.77         -47.8303        -22.5846         -47.8304        -22.5858       -0.0127753         146.989
0.561                   -1.01759        -153.328           -47.69         -24.212         -47.6902        -24.2133        -0.012879         146.918
0.562                   -1.04125        -153.887         -47.5506        -25.8458         -47.5507        -25.8471       -0.0129832         146.846
0.563                    -1.0652        -154.449          -47.412         -27.486         -47.4121        -27.4874       -0.0130881         146.775
0.564                   -1.08944        -155.013         -47.2742        -29.1326         -47.2743        -29.1341       -0.0131937         146.703
0.565                   -1.11398         -155.58         -47.1372        -30.7858         -47.1372        -30.7873       -0.0133001         146.631
0.566                    -1.1388        -156.148         -47.0008        -32.4454         -47.0008         -32.447       -0.0134072         146.559
0.567                   -1.16391        -156.719         -46.8652        -34.1117         -46.8652        -34.1133       -0.0135151         146.487
0.568                   -1.18931        -157.292         -46.7302        -35.7845         -46.7301        -35.7861        -0.013624         146.415
0.569                     -1.215        -157.867         -46.5958        -37.4639         -46.5958        -37.4655       -0.0137337         146.343
0.57                    -1.24097        -158.445         -46.4621        -39.1498          -46.462        -39.1515       -0.0138444          146.27
0.571                   -1.26724        -159.025         -46.3289        -40.8423         -46.3288         -40.844        -0.013956         146.198
0.572                   -1.29379        -159.607         -46.1963        -42.5412         -46.1961         -42.543       -0.0140687         146.125
0.573                   -1.32063        -160.193         -46.0642        -44.2467          -46.064        -44.2484       -0.0141826         146.052
0.574                   -1.34776         -160.78         -45.9326        -45.9585         -45.9324        -45.9603       -0.0142975         145.979
0.575                   -1.37517        -161.371         -45.8014        -47.6767         -45.8013        -47.6785       -0.0144137         145.906
0.576                   -1.40288        -161.964         -45.6708        -49.4012         -45.6706         -49.403       -0.0145311         145.832
0.577                   -1.43088         -162.56         -45.5405        -51.1319         -45.5403        -51.1337       -0.0146498         145.759
0.578                   -1.45917        -163.159         -45.4107        -52.8687         -45.4105        -52.8705       -0.0147698         145.685
0.579                   -1.48775        -163.761         -45.2813        -54.6115         -45.2811        -54.6133       -0.0148913         145.611
0.58                    -1.51664        -164.366         -45.1522        -56.3602          -45.152         -56.362       -0.0150142         145.537
0.581                   -1.54582        -164.974         -45.0235        -58.1147         -45.0232        -58.1166       -0.0151386         145.463
0.582                    -1.5753        -165.585         -44.8951        -59.8749         -44.8948        -59.8768       -0.0152646         145.388
0.583                   -1.60509          -166.2          -44.767        -61.6407         -44.7667        -61.6425       -0.0153923         145.314
0.584                   -1.63519        -166.818         -44.6392        -63.4119         -44.6389        -63.4137       -0.0155216         145.239
0.585                    -1.6656         -167.44         -44.5116        -65.1883         -44.5114        -65.1901       -0.0156527         145.164
0.586                   -1.69633        -168.065         -44.3844        -66.9699         -44.3841        -66.9716       -0.0157856         145.089
0.587                   -1.72739        -168.694         -44.2573        -68.7564         -44.2571        -68.7581       -0.0159205         145.014
0.588                   -1.75878        -169.327         -44.1305        -70.5478         -44.1303        -70.5495       -0.0160572         144.939
0.589                   -1.79051        -169.964         -44.0039        -72.3437         -44.0037        -72.3454        -0.016196         144.863
0.59                    -1.82259        -170.605         -43.8776        -74.1442         -43.8773        -74.1459       -0.0163369         144.787
0.591                   -1.85502         -171.25         -43.7513         -75.949         -43.7511        -75.9506       -0.0164799         144.711
0.592                   -1.88782        -171.899         -43.6253        -77.7578         -43.6251        -77.7594       -0.0166252         144.635
0.593                     -1.921        -172.554         -43.4994        -79.5706         -43.4992        -79.5722       -0.0167728         144.559
0.594                   -1.95456        -173.212         -43.3737        -81.3872         -43.3735        -81.3887       -0.0169227         144.482
0.595                   -1.98853        -173.876         -43.2481        -83.2073         -43.2479        -83.2088       -0.0170751         144.406
0.596                   -2.02292        -174.544         -43.1227        -85.0307         -43.1225        -85.0322       -0.0172301         144.329
0.597                   -2.05774        -175.218         -42.9973        -86.8574         -42.9972        -86.8588       -0.0173877         144.252
0.598                   -2.09301        -175.897         -42.8721        -88.6869          -42.872        -88.6883       -0.0175479         144.175
0.599                   -2.12876        -176.581          -42.747        -90.5193         -42.7469        -90.5206        -0.017711         144.097
0.6                     -2.16499        -177.271          -42.622        -92.3542         -42.6219        -92.3555       -0.0178769          144.02
0.601                   -2.20174        -177.967         -42.4971        -94.1915          -42.497        -94.1927       -0.0180458         143.942
0.602                   -2.23903        -178.669         -42.3723        -96.0309         -42.3722        -96.0321       -0.0182178         143.864
0.603                   -2.27689        -179.377         -42.2476        -97.8724         -42.2475        -97.8735       -0.0183928         143.785
0.604                   -2.31534         179.908         -42.1229        -99.7155         -42.1228        -99.7166       -0.0185712         143.707
0.605                   -2.35442         179.187         -41.9984         -101.56         -41.9983        -101.561       -0.0187528         143.628
0.606                   -2.39417         178.459         -41.8739        -103.406         -41.8738        -103.407       -0.0189379         143.549
0.607                   -2.43461         177.725         -41.7495        -105.254         -41.7494        -105.254       -0.0191265          143.47
0.608                   -2.47579         176.983         -41.6252        -107.102         -41.6251        -107.103       -0.0193187         143.391
0.609                   -2.51776         176.233         -41.5009        -108.951         -41.5009        -108.952       -0.0195146         143.311
0.61                    -2.56055         175.476         -41.3767          -110.8         -41.3767        -110.801       -0.0197144         143.232
0.611                   -2.60422         174.712         -41.2526         -112.65         -41.2526        -112.651       -0.0199182         143.152
0.612                   -2.64883         173.939         -41.1286        -114.501         -41.1286        -114.501        -0.020126         143.071
0.613                   -2.69443         173.158         -41.0046        -116.351         -41.0047        -116.351        -0.020338         142.991
0.614                   -2.74108         172.368         -40.8808        -118.201         -40.8808        -118.201       -0.0205543          142.91
0.615                   -2.78886          171.57          -40.757        -120.051          -40.757        -120.051        -0.020775         142.829
0.616                   -2.83782         170.764         -40.6333          -121.9         -40.6333        -121.901       -0.0210002         142.748
0.617                   -2.88806         169.948         -40.5096        -123.749         -40.5097        -123.749       -0.0212301         142.667
0.618                   -2.93964         169.123         -40.3861        -125.597         -40.3862        -125.597       -0.0214647         142.585
0.619                   -2.99266          168.29         -40.2627        -127.444         -40.2628        -127.444       -0.0217043         142.503
0.62                     -3.0472         167.446         -40.1393         -129.29         -40.1395         -129.29        -0.021949         142.421
0.621                   -3.10337         166.594         -40.0161        -131.134         -40.0162        -131.134       -0.0221988         142.338
0.622                   -3.16127         165.732         -39.8929        -132.977         -39.8931        -132.977       -0.0224539         142.256
0.623                     -3.221          164.86         -39.7699        -134.819         -39.7701        -134.819       -0.0227145         142.173
0.624                   -3.28269         163.979          -39.647        -136.659         -39.6472        -136.659       -0.0229807          142.09
0.625                   -3.34646         163.088         -39.5242        -138.498         -39.5244        -138.498       -0.0232527         142.006
0.626                   -3.41242         162.188         -39.4015        -140.334         -39.4018        -140.334       -0.0235306         141.922
0.627                   -3.48072         161.278          -39.279        -142.169         -39.2792        -142.169       -0.0238146         141.838
0.628                   -3.55149         160.359         -39.1566        -144.001         -39.1568        -144.001       -0.0241047         141.754
0.629                   -3.62488         159.432         -39.0343        -145.832         -39.0346        -145.831       -0.0244013          141.67
