! TOUCHSTONE file generated by CST MICROWAVE STUDIO
! Date and time: Fri Oct  2 16:36:43 2020
! Project name: Scenario_1_Free_Space_out_of_line.cst
! Parameters = {Lambda=346.42; Step_1=17.321; dy1=-103.226; dx1=520; L_HA=400; MT=2.54; Rad_Dielectric=30; Rad_Lower=7.3; Rad_Upper=30; a_HA=580; a_WG=246; b_HA=500; b_WG=121; c_HA=0; c_WG=187; d_feed=85; h_feed=15; h_lower=18; h_upper=40}
! Header version: 2018
! Port assignment regex: !\s*Touchstone port\s*([0-9]+)\s*=\s*(CST MWS port|CST DS port)\s*([0-9]+|Zmin|Zmax)\s*\(\"(.*)\"\)(\s*mode\s*([0-9]+))?.*
! Touchstone port assignment:
! Touchstone port 1 = CST MWS port 1 ("")
! Touchstone port 2 = CST MWS port 2 ("")
# GHz S DB R 50
0.5                    -0.150697        -122.453         -61.2208        -19.1293         -61.2208        -19.1293      -0.00659959         151.126
0.501                  -0.154685        -122.848         -61.0639        -20.8896         -61.0633        -20.8871      -0.00662731         151.061
0.502                  -0.158608        -123.247         -60.9053          -22.65         -60.9041        -22.6449      -0.00665679         150.995
0.503                  -0.162488        -123.651          -60.745        -24.4103         -60.7432        -24.4028      -0.00668805          150.93
0.504                  -0.166345        -124.059         -60.5831        -26.1706         -60.5808        -26.1608       -0.0067211         150.864
0.505                  -0.170199        -124.471         -60.4196         -27.931         -60.4168        -27.9189      -0.00675596         150.799
0.506                  -0.174072        -124.888         -60.2547        -29.6914         -60.2514        -29.6771      -0.00679265         150.733
0.507                  -0.177986         -125.31         -60.0882         -31.452         -60.0845        -31.4355      -0.00683119         150.667
0.508                   -0.18196        -125.735         -59.9204        -33.2126         -59.9163        -33.1942      -0.00687159         150.601
0.509                  -0.186017        -126.165         -59.7512        -34.9735         -59.7468        -34.9531      -0.00691386         150.536
0.51                   -0.190179          -126.6         -59.5807        -36.7347         -59.5759        -36.7125      -0.00695802          150.47
0.511                  -0.194465        -127.039          -59.409        -38.4963         -59.4039        -38.4724      -0.00700408         150.403
0.512                  -0.198898        -127.483         -59.2361        -40.2584         -59.2307        -40.2329      -0.00705206         150.337
0.513                  -0.203499        -127.931          -59.062        -42.0211         -59.0564         -41.994      -0.00710196         150.271
0.514                  -0.208289        -128.384         -58.8869        -43.7845         -58.8811         -43.756       -0.0071538         150.205
0.515                  -0.213288        -128.841         -58.7107        -45.5488         -58.7047         -45.519      -0.00720759         150.138
0.516                  -0.218517        -129.302         -58.5336         -47.314         -58.5274        -47.2831      -0.00726334         150.072
0.517                  -0.223998        -129.768         -58.3555        -49.0804         -58.3492        -49.0484      -0.00732105         150.005
0.518                  -0.229748        -130.238         -58.1766         -50.848         -58.1701        -50.8151      -0.00738074         149.939
0.519                   -0.23579        -130.712         -57.9968        -52.6171         -57.9902        -52.5833      -0.00744241         149.872
0.52                   -0.242141        -131.191         -57.8163        -54.3878         -57.8096        -54.3532      -0.00750608         149.805
0.521                   -0.24882        -131.674          -57.635        -56.1602         -57.6282         -56.125      -0.00757174         149.738
0.522                  -0.255847        -132.161         -57.4531        -57.9345         -57.4462        -57.8987       -0.0076394         149.671
0.523                  -0.263238        -132.652         -57.2705        -59.7109         -57.2636        -59.6747      -0.00770907         149.604
0.524                  -0.271013        -133.147         -57.0873        -61.4895         -57.0804         -61.453      -0.00778076         149.537
0.525                  -0.279186        -133.647         -56.9036        -63.2706         -56.8967        -63.2339      -0.00785446         149.469
0.526                  -0.287776         -134.15         -56.7195        -65.0542         -56.7125        -65.0174      -0.00793019         149.402
0.527                  -0.296797        -134.657         -56.5348        -66.8407         -56.5279        -66.8039      -0.00800793         149.334
0.528                  -0.306264        -135.167         -56.3498        -68.6301         -56.3429        -68.5933      -0.00808771         149.267
0.529                  -0.316192        -135.681         -56.1645        -70.4226         -56.1576         -70.386      -0.00816951         149.199
0.53                   -0.326594        -136.199         -55.9789        -72.2184          -55.972         -72.182      -0.00825334         149.131
0.531                  -0.337484        -136.721          -55.793        -74.0176         -55.7862        -73.9816       -0.0083392         149.064
0.532                  -0.348873        -137.245         -55.6069        -75.8205         -55.6002        -75.7849      -0.00842708         148.996
0.533                  -0.360774        -137.773         -55.4206        -77.6271          -55.414         -77.592        -0.008517         148.928
0.534                  -0.373196        -138.305         -55.2342        -79.4377         -55.2277        -79.4031      -0.00860894         148.859
0.535                   -0.38615        -138.839         -55.0478        -81.2524         -55.0414        -81.2184      -0.00870291         148.791
0.536                  -0.399645        -139.376         -54.8613        -83.0714          -54.855        -83.0381       -0.0087989         148.723
0.537                   -0.41369        -139.917         -54.6749        -84.8947         -54.6687        -84.8621      -0.00889692         148.654
0.538                  -0.428291         -140.46         -54.4885        -86.7226         -54.4825        -86.6908      -0.00899695         148.586
0.539                  -0.443455        -141.006         -54.3022        -88.5551         -54.2963        -88.5242      -0.00909899         148.517
0.54                   -0.459189        -141.554         -54.1161        -90.3924         -54.1104        -90.3624      -0.00920305         148.448
0.541                  -0.475499        -142.106         -53.9302        -92.2346         -53.9246        -92.2055      -0.00930911          148.38
0.542                  -0.492387        -142.659         -53.7445        -94.0818         -53.7391        -94.0537      -0.00941717         148.311
0.543                  -0.509858        -143.215         -53.5592        -95.9342         -53.5538         -95.907      -0.00952723         148.242
0.544                  -0.527916        -143.773         -53.3741        -97.7917          -53.369        -97.7656      -0.00963927         148.173
0.545                  -0.546561        -144.333         -53.1894        -99.6545         -53.1844        -99.6295      -0.00975329         148.103
0.546                  -0.565796        -144.896         -53.0051        -101.523         -53.0003        -101.499       -0.0098693         148.034
0.547                  -0.585622         -145.46         -52.8213        -103.396         -52.8167        -103.373      -0.00998727         147.965
0.548                  -0.606038        -146.026          -52.638        -105.275         -52.6335        -105.254       -0.0101072         147.895
0.549                  -0.627044        -146.594         -52.4552         -107.16         -52.4509        -107.139       -0.0102291         147.825
0.55                   -0.648638        -147.164          -52.273         -109.05         -52.2689        -109.031       -0.0103529         147.756
0.551                   -0.67082        -147.735         -52.0914        -110.946         -52.0875        -110.927       -0.0104787         147.686
0.552                  -0.693587        -148.308         -51.9105        -112.847         -51.9068         -112.83       -0.0106064         147.616
0.553                  -0.716936        -148.883         -51.7303        -114.754         -51.7268        -114.738        -0.010736         147.546
0.554                  -0.740863        -149.458         -51.5508        -116.666         -51.5475        -116.651       -0.0108675         147.475
0.555                  -0.765364        -150.035          -51.372        -118.584          -51.369         -118.57       -0.0110009         147.405
0.556                  -0.790437        -150.614         -51.1941        -120.507         -51.1913        -120.495       -0.0111362         147.335
0.557                  -0.816075        -151.194         -51.0171        -122.436         -51.0144        -122.425       -0.0112734         147.264
0.558                  -0.842273        -151.774         -50.8409        -124.371         -50.8384         -124.36       -0.0114125         147.193
0.559                  -0.869027        -152.356         -50.6657         -126.31         -50.6634        -126.301       -0.0115534         147.123
0.56                    -0.89633        -152.939         -50.4913        -128.255         -50.4893        -128.246       -0.0116962         147.052
0.561                  -0.924177        -153.523          -50.318        -130.205         -50.3161        -130.197       -0.0118408         146.981
0.562                  -0.952562        -154.108         -50.1457         -132.16          -50.144        -132.153       -0.0119872         146.909
0.563                  -0.981477        -154.694         -49.9744        -134.119         -49.9729        -134.114       -0.0121355         146.838
0.564                   -1.01092        -155.281         -49.8042        -136.084         -49.8029        -136.079       -0.0122855         146.767
0.565                   -1.04087        -155.869         -49.6351        -138.053          -49.634        -138.049       -0.0124374         146.695
0.566                   -1.07134        -156.457         -49.4671        -140.027         -49.4661        -140.024        -0.012591         146.624
0.567                   -1.10231        -157.047         -49.3002        -142.005         -49.2994        -142.003       -0.0127464         146.552
0.568                   -1.13378        -157.637         -49.1345        -143.987         -49.1339        -143.985       -0.0129036          146.48
0.569                   -1.16574        -158.228         -48.9699        -145.973         -48.9696        -145.972       -0.0130625         146.408
0.57                    -1.19819         -158.82         -48.8066        -147.963         -48.8064        -147.963       -0.0132232         146.336
0.571                    -1.2311        -159.412         -48.6444        -149.956         -48.6444        -149.957       -0.0133856         146.263
0.572                   -1.26449        -160.006         -48.4835        -151.953         -48.4837        -151.954       -0.0135498         146.191
0.573                   -1.29835          -160.6         -48.3238        -153.953         -48.3241        -153.955       -0.0137156         146.118
0.574                   -1.33266        -161.195         -48.1654        -155.956         -48.1658        -155.958       -0.0138832         146.046
0.575                   -1.36742        -161.791         -48.0082        -157.962         -48.0088        -157.964       -0.0140524         145.973
0.576                   -1.40263        -162.388         -47.8522         -159.97          -47.853        -159.973       -0.0142234           145.9
0.577                   -1.43828        -162.986         -47.6975        -161.981         -47.6984        -161.984        -0.014396         145.827
0.578                   -1.47436        -163.585         -47.5441        -163.994         -47.5451        -163.997       -0.0145703         145.754
0.579                   -1.51087        -164.184         -47.3919        -166.008         -47.3931        -166.012       -0.0147463          145.68
0.58                    -1.54781        -164.785          -47.241        -168.025         -47.2422        -168.029       -0.0149239         145.607
0.581                   -1.58517        -165.387         -47.0913        -170.042         -47.0927        -170.047       -0.0151032         145.533
0.582                   -1.62294        -165.989         -46.9428        -172.061         -46.9443        -172.066       -0.0152842         145.459
0.583                   -1.66113        -166.593         -46.7956        -174.081         -46.7972        -174.086       -0.0154668         145.385
0.584                   -1.69972        -167.198         -46.6496        -176.102         -46.6513        -176.107        -0.015651         145.311
0.585                   -1.73873        -167.805         -46.5047        -178.124         -46.5065        -178.128       -0.0158369         145.237
0.586                   -1.77814        -168.412         -46.3611         179.855          -46.363          179.85       -0.0160245         145.162
0.587                   -1.81795        -169.021         -46.2186         177.833         -46.2206         177.828       -0.0162136         145.088
0.588                   -1.85817        -169.632         -46.0773         175.811         -46.0793         175.806       -0.0164045         145.013
0.589                   -1.89879        -170.243         -45.9371         173.789         -45.9392         173.784        -0.016597         144.938
0.59                    -1.93981        -170.857          -45.798         171.768         -45.8001         171.763       -0.0167911         144.863
0.591                   -1.98124        -171.472           -45.66         169.747         -45.6621         169.743       -0.0169869         144.787
0.592                   -2.02307        -172.088          -45.523         167.727         -45.5252         167.723       -0.0171844         144.712
0.593                   -2.06531        -172.707         -45.3871         165.708         -45.3893         165.704       -0.0173836         144.636
0.594                   -2.10795        -173.327         -45.2522          163.69         -45.2544         163.686       -0.0175844         144.561
0.595                   -2.15101        -173.949         -45.1182         161.673         -45.1204         161.669        -0.017787         144.485
0.596                   -2.19449        -174.574         -44.9852         159.658         -44.9874         159.654       -0.0179913         144.409
0.597                   -2.23838          -175.2          -44.853         157.643         -44.8553          157.64       -0.0181973         144.332
0.598                    -2.2827        -175.828         -44.7218         155.631          -44.724         155.627       -0.0184051         144.256
0.599                   -2.32746        -176.459         -44.5914          153.62         -44.5936         153.617       -0.0186147         144.179
0.6                     -2.37265        -177.093         -44.4618          151.61          -44.464         151.607       -0.0188261         144.102
0.601                    -2.4183        -177.728          -44.333         149.603         -44.3352           149.6       -0.0190393         144.025
0.602                    -2.4644        -178.366          -44.205         147.597         -44.2071         147.595       -0.0192544         143.948
0.603                   -2.51096        -179.007         -44.0777         145.593         -44.0798         145.591       -0.0194714         143.871
0.604                     -2.558        -179.651          -43.951         143.591         -43.9531         143.589       -0.0196904         143.793
0.605                   -2.60553         179.702          -43.825         141.591          -43.827         141.589       -0.0199114         143.715
0.606                   -2.65356         179.053         -43.6996         139.593         -43.7016         139.592       -0.0201344         143.637
0.607                   -2.70211           178.4         -43.5748         137.597         -43.5767         137.596       -0.0203594         143.559
0.608                   -2.75118         177.745         -43.4505         135.603         -43.4524         135.602       -0.0205867          143.48
0.609                   -2.80079         177.086         -43.3268         133.611         -43.3286          133.61       -0.0208161         143.402
0.61                    -2.85097         176.423         -43.2035         131.621         -43.2053          131.62       -0.0210478         143.323
0.611                   -2.90172         175.757         -43.0807         129.633         -43.0824         129.632       -0.0212818         143.244
0.612                   -2.95307         175.088         -42.9584         127.647           -42.96         127.646       -0.0215182         143.165
0.613                   -3.00503         174.414         -42.8364         125.662         -42.8379         125.662       -0.0217571         143.085
0.614                   -3.05763         173.737         -42.7148         123.679         -42.7163         123.679       -0.0219985         143.005
0.615                   -3.11089         173.056         -42.5935         121.698         -42.5949         121.698       -0.0222426         142.925
0.616                   -3.16483         172.371         -42.4725         119.719         -42.4739         119.719       -0.0224895         142.845
0.617                   -3.21948         171.682         -42.3518         117.741         -42.3531         117.741       -0.0227392         142.765
0.618                   -3.27487         170.989         -42.2314         115.764         -42.2326         115.764       -0.0229918         142.684
0.619                   -3.33101         170.291         -42.1112         113.789         -42.1123         113.789       -0.0232476         142.603
0.62                    -3.38795         169.589         -41.9912         111.815         -41.9923         111.815       -0.0235065         142.522
0.621                    -3.4457         168.883         -41.8715         109.842         -41.8724         109.842       -0.0237688         142.441
0.622                   -3.50431         168.171         -41.7518          107.87         -41.7528         107.871       -0.0240345         142.359
0.623                   -3.56381         167.455         -41.6324         105.899         -41.6332           105.9       -0.0243038         142.277
0.624                   -3.62423         166.734         -41.5131         103.929         -41.5138         103.929       -0.0245769         142.195
0.625                    -3.6856         166.009         -41.3939         101.959         -41.3946          101.96       -0.0248538         142.113
0.626                   -3.74798         165.278         -41.2748         99.9899         -41.2754         99.9905       -0.0251349          142.03
0.627                    -3.8114         164.542         -41.1558          98.021         -41.1563         98.0216       -0.0254202         141.947
0.628                   -3.87589         163.801         -41.0369         96.0524         -41.0374          96.053       -0.0257099         141.864
0.629                   -3.94152         163.055          -40.918         94.0838         -40.9184         94.0843       -0.0260042          141.78
