! TOUCHSTONE file generated by CST MICROWAVE STUDIO
! Date and time: Fri Oct  2 16:58:25 2020
! Project name: Scenario_1_Free_Space_out_of_line.cst
! Parameters = {Lambda=346.42; Step_1=17.321; dy1=-103.226; dx1=693; L_HA=400; MT=2.54; Rad_Dielectric=30; Rad_Lower=7.3; Rad_Upper=30; a_HA=580; a_WG=246; b_HA=500; b_WG=121; c_HA=0; c_WG=187; d_feed=85; h_feed=15; h_lower=18; h_upper=40}
! Header version: 2018
! Port assignment regex: !\s*Touchstone port\s*([0-9]+)\s*=\s*(CST MWS port|CST DS port)\s*([0-9]+|Zmin|Zmax)\s*\(\"(.*)\"\)(\s*mode\s*([0-9]+))?.*
! Touchstone port assignment:
! Touchstone port 1 = CST MWS port 1 ("")
! Touchstone port 2 = CST MWS port 2 ("")
# GHz S DB R 50
0.5                    -0.146333        -122.602         -62.4906        -117.223         -62.4906        -117.223      -0.00670157         151.123
0.501                  -0.155578        -123.021         -62.3946        -119.196          -62.392        -119.189      -0.00676514         151.058
0.502                  -0.164816        -123.443         -62.2946        -121.183         -62.2896        -121.169      -0.00682906         150.993
0.503                  -0.174051        -123.868         -62.1906        -123.183         -62.1832        -123.161      -0.00689335         150.928
0.504                  -0.183288        -124.294         -62.0825        -125.196         -62.0729        -125.166      -0.00695801         150.862
0.505                  -0.192535        -124.723         -61.9702         -127.22         -61.9585        -127.182      -0.00702307         150.797
0.506                  -0.201796        -125.154         -61.8539        -129.255         -61.8401        -129.209      -0.00708855         150.731
0.507                  -0.211077        -125.588         -61.7335          -131.3         -61.7178        -131.245      -0.00715446         150.665
0.508                  -0.220384        -126.024          -61.609        -133.355         -61.5915        -133.291      -0.00722083           150.6
0.509                  -0.229724        -126.462         -61.4804        -135.418         -61.4612        -135.345      -0.00728766         150.534
0.51                   -0.239103        -126.903         -61.3478        -137.488          -61.327        -137.407      -0.00735498         150.468
0.511                  -0.248527        -127.346         -61.2111        -139.565         -61.1888        -139.476      -0.00742281         150.402
0.512                  -0.258002        -127.792         -61.0705        -141.649         -61.0469        -141.551      -0.00749117         150.336
0.513                  -0.267535        -128.241         -60.9261        -143.738         -60.9012        -143.631      -0.00756007          150.27
0.514                  -0.277133        -128.692         -60.7777        -145.831         -60.7517        -145.717      -0.00762953         150.203
0.515                  -0.286803        -129.146         -60.6257        -147.929         -60.5986        -147.806      -0.00769957         150.137
0.516                  -0.296551        -129.602         -60.4699         -150.03          -60.442          -149.9      -0.00777022          150.07
0.517                  -0.306385        -130.061         -60.3105        -152.134         -60.2818        -151.997      -0.00784149         150.004
0.518                  -0.316312        -130.523         -60.1477        -154.241         -60.1183        -154.096       -0.0079134         149.937
0.519                  -0.326338        -130.987         -59.9815        -156.349         -59.9515        -156.198      -0.00798597         149.871
0.52                   -0.336471        -131.454          -59.812        -158.459         -59.7815        -158.301      -0.00805923         149.804
0.521                   -0.34672        -131.924         -59.6393        -160.569         -59.6084        -160.406      -0.00813318         149.737
0.522                  -0.357091        -132.397         -59.4635         -162.68         -59.4324        -162.512      -0.00820786          149.67
0.523                  -0.367592        -132.873         -59.2849        -164.792         -59.2535        -164.619      -0.00828328         149.603
0.524                   -0.37823        -133.351         -59.1034        -166.903         -59.0719        -166.726      -0.00835947         149.536
0.525                  -0.389015        -133.832         -58.9193        -169.015         -58.8877        -168.833      -0.00843644         149.468
0.526                  -0.399954        -134.317         -58.7326        -171.126         -58.7011        -170.941      -0.00851422         149.401
0.527                  -0.411055        -134.804         -58.5434        -173.236         -58.5121        -173.049      -0.00859283         149.334
0.528                  -0.422327        -135.294          -58.352        -175.346         -58.3209        -175.157      -0.00867229         149.266
0.529                  -0.433777        -135.787         -58.1585        -177.455         -58.1276        -177.264      -0.00875263         149.198
0.53                   -0.445415        -136.283         -57.9629        -179.564         -57.9324        -179.372      -0.00883386         149.131
0.531                   -0.45725        -136.782         -57.7655         178.328         -57.7353         178.521      -0.00891601         149.063
0.532                  -0.469289        -137.283         -57.5663         176.221         -57.5366         176.413       -0.0089991         148.995
0.533                  -0.481542        -137.788         -57.3656         174.114         -57.3363         174.306      -0.00908315         148.927
0.534                  -0.494018        -138.296         -57.1633         172.008         -57.1346         172.198      -0.00916819         148.858
0.535                  -0.506725        -138.808         -56.9598         169.902         -56.9316         170.091      -0.00925424          148.79
0.536                  -0.519674        -139.322          -56.755         167.796         -56.7275         167.982      -0.00934133         148.722
0.537                  -0.532874        -139.839         -56.5492          165.69         -56.5223         165.873      -0.00942948         148.653
0.538                  -0.546333        -140.359         -56.3424         163.583         -56.3162         163.763      -0.00951871         148.585
0.539                  -0.560062        -140.883         -56.1349         161.476         -56.1094         161.653      -0.00960905         148.516
0.54                    -0.57407        -141.409         -55.9266         159.369          -55.902          159.54      -0.00970053         148.447
0.541                  -0.588366        -141.939         -55.7179          157.26          -55.694         157.427      -0.00979316         148.378
0.542                  -0.602962        -142.472         -55.5087          155.15         -55.4857         155.312      -0.00988697         148.309
0.543                  -0.617866        -143.008         -55.2992         153.038         -55.2771         153.194        -0.009982          148.24
0.544                  -0.633088        -143.547         -55.0896         150.924         -55.0683         151.075       -0.0100783         148.171
0.545                   -0.64864        -144.089         -54.8799         148.809         -54.8596         148.953       -0.0101758         148.102
0.546                   -0.66453        -144.634         -54.6703         146.691         -54.6509         146.829       -0.0102746         148.032
0.547                  -0.680769        -145.183         -54.4609         144.571         -54.4425         144.701       -0.0103747         147.963
0.548                  -0.697368        -145.735         -54.2518         142.448         -54.2344         142.571       -0.0104762         147.893
0.549                  -0.714337         -146.29         -54.0431         140.321         -54.0267         140.437        -0.010579         147.823
0.55                   -0.731686        -146.848         -53.8349         138.192         -53.8196           138.3       -0.0106833         147.753
0.551                  -0.749426        -147.409         -53.6275         136.059         -53.6132         136.159        -0.010789         147.683
0.552                  -0.767567        -147.973         -53.4207         133.922         -53.4076         134.014       -0.0108961         147.613
0.553                  -0.786121        -148.541         -53.2149         131.782         -53.2028         131.865       -0.0110047         147.543
0.554                  -0.805098        -149.111           -53.01         129.637          -52.999         129.713       -0.0111148         147.472
0.555                  -0.824509        -149.685         -52.8062         127.489         -52.7964         127.556       -0.0112265         147.402
0.556                  -0.844364        -150.262         -52.6035         125.336         -52.5949         125.394       -0.0113397         147.331
0.557                  -0.864674        -150.842         -52.4022         123.179         -52.3947         123.229       -0.0114545          147.26
0.558                  -0.885451        -151.425         -52.2022         121.017         -52.1958         121.059        -0.011571         147.189
0.559                  -0.906704        -152.011         -52.0036         118.852         -51.9985         118.884       -0.0116891         147.118
0.56                   -0.928446          -152.6         -51.8067         116.681         -51.8027         116.706        -0.011809         147.047
0.561                  -0.950686        -153.193         -51.6113         114.507         -51.6086         114.523       -0.0119305         146.976
0.562                  -0.973437        -153.788         -51.4177         112.328         -51.4162         112.335       -0.0120538         146.904
0.563                  -0.996708        -154.386         -51.2258         110.144         -51.2255         110.144        -0.012179         146.833
0.564                   -1.02051        -154.988         -51.0358         107.957         -51.0368         107.948       -0.0123059         146.761
0.565                   -1.04486        -155.592         -50.8478         105.765           -50.85         105.749       -0.0124347         146.689
0.566                   -1.06976        -156.199         -50.6618          103.57         -50.6652         103.546       -0.0125653         146.617
0.567                   -1.09522         -156.81         -50.4778         101.371         -50.4825          101.34       -0.0126979         146.545
0.568                   -1.12126        -157.423          -50.296          99.168         -50.3019         99.1298       -0.0128325         146.473
0.569                   -1.14788        -158.039         -50.1164         96.9621         -50.1235          96.917       -0.0129691           146.4
0.57                     -1.1751        -158.658         -49.9389         94.7531         -49.9473         94.7015       -0.0131076         146.328
0.571                   -1.20293        -159.279         -49.7638         92.5413         -49.7734         92.4836       -0.0132483         146.255
0.572                   -1.23138        -159.904          -49.591          90.327         -49.6017         90.2634        -0.013391         146.182
0.573                   -1.26045        -160.531         -49.4205         88.1106         -49.4324         88.0415       -0.0135359         146.109
0.574                   -1.29017        -161.161         -49.2524         85.8923         -49.2655          85.818       -0.0136829         146.036
0.575                   -1.32053        -161.793         -49.0867         83.6725         -49.1009         83.5934       -0.0138322         145.963
0.576                   -1.35155        -162.428         -48.9234         81.4515         -48.9387          81.368       -0.0139837         145.889
0.577                   -1.38325        -163.066         -48.7625         79.2298         -48.7789         79.1422       -0.0141375         145.816
0.578                   -1.41562        -163.707          -48.604         77.0076         -48.6214         76.9164       -0.0142936         145.742
0.579                   -1.44869        -164.349          -48.448         74.7853         -48.4664         74.6909       -0.0144521         145.668
0.58                    -1.48245        -164.995         -48.2944         72.5634         -48.3137          72.466        -0.014613         145.594
0.581                   -1.51692        -165.643         -48.1432         70.3421         -48.1634         70.2423       -0.0147763          145.52
0.582                   -1.55212        -166.293         -47.9943         68.1219         -48.0155           68.02       -0.0149421         145.445
0.583                   -1.58804        -166.945         -47.8478         65.9031         -47.8698         65.7995       -0.0151104         145.371
0.584                    -1.6247          -167.6         -47.7037         63.6861         -47.7264         63.5811       -0.0152813         145.296
0.585                   -1.66211        -168.257         -47.5618         61.4712         -47.5853         61.3653       -0.0154548         145.221
0.586                   -1.70028        -168.916         -47.4222         59.2588         -47.4463         59.1523        -0.015631         145.146
0.587                   -1.73921        -169.577         -47.2848         57.0493         -47.3095         56.9424       -0.0158098         145.071
0.588                   -1.77892        -170.241         -47.1496         54.8428         -47.1749         54.7361       -0.0159914         144.996
0.589                   -1.81941        -170.906         -47.0165         52.6398         -47.0422         52.5334       -0.0161757          144.92
0.59                    -1.86069        -171.574         -46.8854         50.4404         -46.9116         50.3348       -0.0163629         144.844
0.591                   -1.90278        -172.243         -46.7563          48.245         -46.7828         48.1405        -0.016553         144.768
0.592                   -1.94567        -172.914         -46.6292         46.0538          -46.656         45.9506        -0.016746         144.692
0.593                   -1.98938        -173.587         -46.5039         43.8671         -46.5309         43.7654       -0.0169419         144.616
0.594                   -2.03392        -174.262         -46.3804         41.6849         -46.4076          41.585       -0.0171409          144.54
0.595                   -2.07928        -174.939         -46.2586         39.5075         -46.2859         39.4097       -0.0173429         144.463
0.596                   -2.12549        -175.617         -46.1385         37.3351         -46.1658         37.2396        -0.017548         144.386
0.597                   -2.17255        -176.297           -46.02         35.1677         -46.0472         35.0747       -0.0177563         144.309
0.598                   -2.22046        -176.978          -45.903         33.0055         -45.9301         32.9151       -0.0179678         144.232
0.599                   -2.26923        -177.661         -45.7873         30.8486         -45.8143          30.761       -0.0181825         144.155
0.6                     -2.31888        -178.345          -45.673         28.6969         -45.6997         28.6123       -0.0184006         144.077
0.601                    -2.3694         -179.03           -45.56         26.5506         -45.5864         26.4691        -0.018622         143.999
0.602                    -2.4208        -179.717         -45.4482         24.4096         -45.4742         24.3313       -0.0188468         143.921
0.603                   -2.47309         179.595         -45.3375         22.2739          -45.363          22.199       -0.0190751         143.843
0.604                   -2.52628         178.905         -45.2277         20.1436         -45.2527          20.072       -0.0193069         143.765
0.605                   -2.58038         178.215          -45.119         18.0184         -45.1434         17.9503       -0.0195423         143.686
0.606                   -2.63538         177.523         -45.0111         15.8984         -45.0348         15.8338       -0.0197814         143.607
0.607                   -2.69129         176.831          -44.904         13.7834          -44.927         13.7224       -0.0200241         143.528
0.608                   -2.74813         176.137         -44.7976         11.6734         -44.8199          11.616       -0.0202706         143.449
0.609                   -2.80589         175.443         -44.6918         9.56816         -44.7133         9.51434       -0.0205208          143.37
0.61                    -2.86459         174.748         -44.5866         7.46754         -44.6072         7.41731        -0.020775          143.29
0.611                   -2.92423         174.052         -44.4819         5.37138         -44.5016         5.32473        -0.021033          143.21
0.612                   -2.98481         173.355         -44.3776         3.27949         -44.3963         3.23638       -0.0212951          143.13
0.613                   -3.04634         172.658         -44.2736         1.19166         -44.2914         1.15206       -0.0215612          143.05
0.614                   -3.10883         171.959           -44.17       -0.892323         -44.1866       -0.928462       -0.0218314         142.969
0.615                   -3.17228         171.261         -44.0665        -2.97269         -44.0821        -3.00543       -0.0221058         142.888
0.616                    -3.2367         170.562         -43.9632        -5.04969         -43.9777         -5.0791       -0.0223844         142.807
0.617                   -3.30209         169.862           -43.86        -7.12358         -43.8733        -7.14974       -0.0226673         142.726
0.618                   -3.36847         169.162         -43.7569        -9.19461         -43.7689        -9.21761       -0.0229546         142.645
0.619                   -3.43583         168.461         -43.6537        -11.2631         -43.6645         -11.283       -0.0232463         142.563
0.62                    -3.50418          167.76         -43.5505        -13.3292           -43.56        -13.3462       -0.0235425         142.481
0.621                   -3.57352         167.059         -43.4471        -15.3934         -43.4553        -15.4075       -0.0238433         142.399
0.622                   -3.64388         166.358         -43.3435        -17.4559         -43.3504        -17.4673       -0.0241487         142.316
0.623                   -3.71524         165.656         -43.2398         -19.517         -43.2453        -19.5257       -0.0244589         142.234
0.624                   -3.78762         164.955         -43.1357         -21.577         -43.1399        -21.5833       -0.0247738         142.151
0.625                   -3.86102         164.253         -43.0314        -23.6362         -43.0341        -23.6402       -0.0250936         142.067
0.626                   -3.93546         163.551         -42.9267         -25.695         -42.9281        -25.6967       -0.0254184         141.984
0.627                   -4.01093         162.849         -42.8216        -27.7537         -42.8216        -27.7534       -0.0257481           141.9
0.628                   -4.08745         162.147         -42.7161        -29.8126         -42.7147        -29.8103        -0.026083         141.816
0.629                   -4.16502         161.445         -42.6102         -31.872         -42.6073         -31.868        -0.026423         141.732
