! TOUCHSTONE file generated by CST MICROWAVE STUDIO
! Date and time: Fri Oct  2 19:14:52 2020
! Project name: Scenario_1_Free_Space_out_of_line.cst
! Parameters = {Lambda=346.42; Step_1=17.321; dy1=-103.226; dx1=866; L_HA=400; MT=2.54; Rad_Dielectric=30; Rad_Lower=7.3; Rad_Upper=30; a_HA=580; a_WG=246; b_HA=500; b_WG=121; c_HA=0; c_WG=187; d_feed=85; h_feed=15; h_lower=18; h_upper=40}
! Header version: 2018
! Port assignment regex: !\s*Touchstone port\s*([0-9]+)\s*=\s*(CST MWS port|CST DS port)\s*([0-9]+|Zmin|Zmax)\s*\(\"(.*)\"\)(\s*mode\s*([0-9]+))?.*
! Touchstone port assignment:
! Touchstone port 1 = CST MWS port 1 ("")
! Touchstone port 2 = CST MWS port 2 ("")
# GHz S DB R 50
0.5                    -0.149437        -122.654         -63.2224         143.168          -63.222         143.169      -0.00659791         151.103
0.501                  -0.154385        -123.093         -63.0535         141.141         -63.0496         141.114      -0.00664975         151.038
0.502                  -0.159515        -123.533         -62.8822         139.097         -62.8749         139.046      -0.00670276         150.972
0.503                  -0.164832        -123.977         -62.7084         137.037         -62.6979         136.963      -0.00675696         150.907
0.504                  -0.170341        -124.422         -62.5322         134.961         -62.5186         134.867      -0.00681237         150.841
0.505                  -0.176048         -124.87         -62.3536         132.868         -62.3371         132.758      -0.00686899         150.776
0.506                  -0.181958        -125.321         -62.1727          130.76         -62.1534         130.636      -0.00692685          150.71
0.507                  -0.188077        -125.774         -61.9894         128.636         -61.9677         128.501      -0.00698595         150.644
0.508                  -0.194411        -126.229         -61.8039         126.496           -61.78         126.353      -0.00704631         150.578
0.509                  -0.200964        -126.686         -61.6161         124.342         -61.5903         124.194      -0.00710794         150.512
0.51                   -0.207744        -127.146         -61.4261         122.173         -61.3988         122.022      -0.00717087         150.446
0.511                  -0.214755        -127.609          -61.234          119.99         -61.2054         119.839       -0.0072351          150.38
0.512                  -0.222004        -128.074         -61.0399         117.793         -61.0105         117.644      -0.00730064         150.314
0.513                  -0.229496        -128.541         -60.8437         115.582         -60.8139         115.438      -0.00736752         150.247
0.514                  -0.237238        -129.011         -60.6455         113.358         -60.6158         113.221      -0.00743575         150.181
0.515                  -0.245235        -129.483         -60.4456         111.121         -60.4163         110.994      -0.00750534         150.114
0.516                  -0.253493        -129.958         -60.2438         108.873         -60.2156         108.756      -0.00757631         150.048
0.517                   -0.26202        -130.435         -60.0403         106.612         -60.0137         106.508      -0.00764866         149.981
0.518                   -0.27082        -130.914         -59.8352         104.341         -59.8107          104.25      -0.00772242         149.914
0.519                  -0.279899        -131.396         -59.6287         102.059         -59.6067         101.982       -0.0077976         149.848
0.52                   -0.289265        -131.881         -59.4207         99.7666          -59.402         99.7057       -0.0078742         149.781
0.521                  -0.298923        -132.367         -59.2115          97.465         -59.1966           97.42      -0.00795226         149.714
0.522                  -0.308879        -132.856         -59.0011         95.1547         -58.9906         95.1256      -0.00803177         149.647
0.523                  -0.319139        -133.348         -58.7897         92.8363         -58.7841         92.8229      -0.00811275         149.579
0.524                   -0.32971        -133.842         -58.5774         90.5105         -58.5774          90.512      -0.00819522         149.512
0.525                  -0.340598        -134.338         -58.3644         88.1781         -58.3705         88.1933      -0.00827919         149.445
0.526                  -0.351807        -134.837         -58.1509         85.8398         -58.1636         85.8672      -0.00836467         149.377
0.527                  -0.363346        -135.337          -57.937         83.4964         -57.9569          83.534      -0.00845166          149.31
0.528                  -0.375218        -135.841         -57.7229         81.1487         -57.7504          81.194      -0.00854019         149.242
0.529                  -0.387431        -136.346         -57.5087         78.7975         -57.5443         78.8476      -0.00863027         149.174
0.53                   -0.399989        -136.854         -57.2948         76.4435         -57.3388          76.495      -0.00872189         149.106
0.531                  -0.412899        -137.364         -57.0814         74.0875          -57.134         74.1367      -0.00881508         149.039
0.532                  -0.426165        -137.877         -56.8686         71.7304         -56.9301          71.773      -0.00890984         148.971
0.533                  -0.439794        -138.391         -56.6567         69.3726         -56.7271         69.4043      -0.00900619         148.902
0.534                   -0.45379        -138.908         -56.4459          67.015         -56.5254         67.0308      -0.00910412         148.834
0.535                  -0.468159        -139.427         -56.2366          64.658         -56.3249          64.653      -0.00920364         148.766
0.536                  -0.482904        -139.948         -56.0291         62.3021         -56.1259         62.2712      -0.00930476         148.697
0.537                  -0.498031        -140.472         -55.8235         59.9476         -55.9285         59.8857      -0.00940749         148.629
0.538                  -0.513544        -140.997         -55.6201         57.5947         -55.7329         57.4969      -0.00951183          148.56
0.539                  -0.529447        -141.525         -55.4194         55.2434         -55.5391         55.1049      -0.00961777         148.492
0.54                   -0.545743        -142.054         -55.2214         52.8937         -55.3473         52.7102      -0.00972533         148.423
0.541                  -0.562437        -142.586         -55.0265         50.5452         -55.1577          50.313      -0.00983449         148.354
0.542                  -0.579532        -143.119          -54.835         48.1974         -54.9704         47.9135      -0.00994525         148.285
0.543                   -0.59703        -143.655          -54.647         45.8497         -54.7854         45.5119       -0.0100576         148.216
0.544                  -0.614934        -144.192         -54.4628         43.5013         -54.6029         43.1083       -0.0101716         148.147
0.545                  -0.633246        -144.732         -54.2824         41.1511         -54.4231          40.703       -0.0102871         148.077
0.546                  -0.651968        -145.273         -54.1061         38.7981         -54.2459         38.2959       -0.0104042         148.008
0.547                  -0.671101        -145.816         -53.9339         36.4412         -54.0714         35.8872       -0.0105229         147.938
0.548                  -0.690647        -146.361         -53.7658         34.0792         -53.8998         33.4768       -0.0106431         147.869
0.549                  -0.710605        -146.908         -53.6018         31.7109         -53.7311         31.0648       -0.0107649         147.799
0.55                   -0.730976        -147.456         -53.4419         29.3351         -53.5653          28.651       -0.0108881         147.729
0.551                  -0.751759        -148.006         -53.2859          26.951         -53.4024         26.2354       -0.0110128         147.659
0.552                  -0.772954        -148.558         -53.1337         24.5576         -53.2425         23.8177       -0.0111389         147.589
0.553                  -0.794558        -149.112         -52.9851         22.1542         -53.0855          21.398       -0.0112665         147.519
0.554                  -0.816571        -149.667         -52.8399         19.7403         -52.9315         18.9759       -0.0113954         147.449
0.555                   -0.83899        -150.223         -52.6979         17.3157         -52.7803         16.5514       -0.0115257         147.378
0.556                  -0.861812        -150.782         -52.5587         14.8804         -52.6319         14.1242       -0.0116573         147.308
0.557                  -0.885033        -151.341         -52.4222         12.4344         -52.4863         11.6942         -0.01179         147.237
0.558                  -0.908651        -151.903         -52.2881         9.97809         -52.3433         9.26115        -0.011924         147.166
0.559                   -0.93266        -152.466         -52.1562         7.51215         -52.2029         6.82501       -0.0120591         147.095
0.56                   -0.957055         -153.03         -52.0261         5.03723         -52.0649         4.38566       -0.0121953         147.024
0.561                  -0.981833        -153.596         -51.8977         2.55418         -51.9291         1.94306       -0.0123325         146.953
0.562                   -1.00699        -154.164         -51.7707       0.0639641         -51.7955       -0.502806       -0.0124706         146.882
0.563                   -1.03251        -154.733         -51.6449         -2.4324         -51.6639        -2.95188       -0.0126096         146.811
0.564                    -1.0584        -155.304         -51.5202        -4.93385         -51.5341        -5.40405       -0.0127494         146.739
0.565                   -1.08465        -155.876         -51.3964        -7.43931          -51.406        -7.85915       -0.0128899         146.668
0.566                   -1.11125         -156.45         -51.2733        -9.94768         -51.2793         -10.317        -0.013031         146.596
0.567                   -1.13819        -157.026         -51.1508        -12.4579         -51.1541        -12.7772       -0.0131727         146.524
0.568                   -1.16548        -157.603         -51.0288        -14.9691           -51.03        -15.2396        -0.013315         146.452
0.569                   -1.19309        -158.182         -50.9073        -17.4801         -50.9069        -17.7037       -0.0134576          146.38
0.57                    -1.22104        -158.763          -50.786        -19.9902         -50.7847        -20.1691       -0.0136007         146.308
0.571                    -1.2493        -159.346          -50.665        -22.4986         -50.6632        -22.6355        -0.013744         146.235
0.572                   -1.27788        -159.931         -50.5442        -25.0044         -50.5424        -25.1023       -0.0138877         146.163
0.573                   -1.30676        -160.517         -50.4235        -27.5071          -50.422        -27.5691       -0.0140315          146.09
0.574                   -1.33596        -161.106         -50.3029        -30.0061          -50.302        -30.0355       -0.0141755         146.017
0.575                   -1.36545        -161.697         -50.1824        -32.5009         -50.1823         -32.501       -0.0143198         145.944
0.576                   -1.39525        -162.291         -50.0619         -34.991         -50.0628        -34.9652       -0.0144642         145.871
0.577                   -1.42534        -162.887         -49.9413        -37.4762         -49.9433        -37.4276       -0.0146088         145.798
0.578                   -1.45573        -163.485         -49.8208        -39.9562         -49.8239        -39.8879       -0.0147537         145.724
0.579                   -1.48643        -164.087         -49.7002        -42.4307         -49.7045        -42.3457       -0.0148988         145.651
0.58                    -1.51742        -164.691         -49.5795        -44.8997         -49.5849        -44.8007       -0.0150444         145.577
0.581                   -1.54873        -165.298         -49.4587         -47.363         -49.4653        -47.2526       -0.0151905         145.503
0.582                   -1.58034        -165.908         -49.3379        -49.8206         -49.3454        -49.7012       -0.0153371         145.429
0.583                   -1.61229        -166.522         -49.2169        -52.2725         -49.2254        -52.1463       -0.0154846         145.355
0.584                   -1.64456        -167.139         -49.0958        -54.7188         -49.1051        -54.5877        -0.015633          145.28
0.585                   -1.67718         -167.76         -48.9746        -57.1595         -48.9846        -57.0253       -0.0157826         145.206
0.586                   -1.71017        -168.385         -48.8533        -59.5948         -48.8639        -59.4591       -0.0159335         145.131
0.587                   -1.74353        -169.013         -48.7318        -62.0248         -48.7429         -61.889        -0.016086         145.056
0.588                    -1.7773        -169.646         -48.6102        -64.4497         -48.6217         -64.315       -0.0162403         144.981
0.589                   -1.81149        -170.284         -48.4884        -66.8697         -48.5002        -66.7373       -0.0163966         144.906
0.59                    -1.84613        -170.926         -48.3666        -69.2851         -48.3784        -69.1557       -0.0165553          144.83
0.591                   -1.88125        -171.572         -48.2445         -71.696         -48.2564        -71.5705       -0.0167165         144.754
0.592                   -1.91689        -172.224         -48.1224        -74.1028         -48.1342        -73.9817       -0.0168805         144.679
0.593                   -1.95307         -172.88         -48.0001        -76.5057         -48.0117        -76.3896       -0.0170475         144.603
0.594                   -1.98983        -173.542         -47.8777        -78.9049          -47.889        -78.7942       -0.0172179         144.526
0.595                   -2.02721        -174.209         -47.7551        -81.3008         -47.7661        -81.1958       -0.0173917          144.45
0.596                   -2.06526        -174.881         -47.6324        -83.6936         -47.6431        -83.5946       -0.0175692         144.373
0.597                   -2.10402        -175.559         -47.5097        -86.0837         -47.5198        -85.9907       -0.0177506         144.296
0.598                   -2.14353        -176.242         -47.3868        -88.4712         -47.3965        -88.3845        -0.017936         144.219
0.599                   -2.18384        -176.931         -47.2639        -90.8565          -47.273         -90.776       -0.0181257         144.142
0.6                     -2.22501        -177.626         -47.1408        -93.2399         -47.1494        -93.1657       -0.0183197         144.065
0.601                   -2.26709        -178.326         -47.0177        -95.6216         -47.0257        -95.5536       -0.0185182         143.987
0.602                   -2.31013        -179.032         -46.8946         -98.002         -46.9019          -97.94       -0.0187212         143.909
0.603                   -2.35418        -179.743         -46.7715        -100.381         -46.7781        -100.325       -0.0189288         143.831
0.604                   -2.39929         179.539         -46.6483         -102.76         -46.6543        -102.709       -0.0191411         143.753
0.605                   -2.44554         178.816         -46.5251        -105.137         -46.5305        -105.093       -0.0193582         143.674
0.606                   -2.49296         178.088          -46.402        -107.515         -46.4068        -107.476         -0.01958         143.596
0.607                   -2.54163         177.355         -46.2789        -109.892         -46.2831        -109.858       -0.0198066         143.517
0.608                   -2.59158         176.616         -46.1559        -112.269         -46.1594         -112.24       -0.0200379         143.438
0.609                   -2.64289         175.872          -46.033        -114.647         -46.0359        -114.623       -0.0202741         143.359
0.61                    -2.69559         175.123         -45.9102        -117.025         -45.9126        -117.005        -0.020515         143.279
0.611                   -2.74976          174.37         -45.7875        -119.403         -45.7894        -119.388       -0.0207607         143.199
0.612                   -2.80543         173.612          -45.665        -121.783         -45.6664        -121.772       -0.0210111          143.12
0.613                   -2.86265          172.85         -45.5427        -124.163         -45.5436        -124.156       -0.0212662         143.039
0.614                   -2.92149         172.084         -45.4206        -126.545          -45.421        -126.541       -0.0215261         142.959
0.615                   -2.98197         171.315         -45.2988        -128.927         -45.2987        -128.927       -0.0217906         142.878
0.616                   -3.04415         170.543         -45.1772        -131.311         -45.1768        -131.314       -0.0220597         142.798
0.617                   -3.10807         169.767         -45.0559        -133.696         -45.0551        -133.702       -0.0223334         142.717
0.618                   -3.17376         168.989         -44.9349        -136.083         -44.9338        -136.092       -0.0226118         142.635
0.619                   -3.24126         168.209         -44.8142        -138.471         -44.8128        -138.482       -0.0228947         142.554
0.62                     -3.3106         167.427         -44.6939        -140.861         -44.6923        -140.874       -0.0231821         142.472
0.621                   -3.38181         166.644          -44.574        -143.252         -44.5721        -143.268       -0.0234741          142.39
0.622                   -3.45492         165.859         -44.4545        -145.645         -44.4525        -145.662       -0.0237707         142.308
0.623                   -3.52995         165.075         -44.3355         -148.04         -44.3332        -148.059       -0.0240717         142.225
0.624                   -3.60693         164.289         -44.2168        -150.436         -44.2145        -150.456       -0.0243773         142.143
0.625                   -3.68585         163.505         -44.0987        -152.834         -44.0962        -152.855       -0.0246875          142.06
0.626                   -3.76675         162.721         -43.9811        -155.233         -43.9785        -155.255       -0.0250021         141.976
0.627                   -3.84962         161.938         -43.8639        -157.633         -43.8613        -157.656       -0.0253213         141.893
0.628                   -3.93447         161.156         -43.7473        -160.035         -43.7447        -160.058       -0.0256451         141.809
0.629                   -4.02131         160.377         -43.6313        -162.438         -43.6286        -162.462       -0.0259735         141.725
