! TOUCHSTONE file generated by CST MICROWAVE STUDIO
! Date and time: Fri Oct  2 16:20:43 2020
! Project name: Scenario_1_Free_Space_out_of_line.cst
! Parameters = {Lambda=346.42; Step_1=17.321; dy1=-120.567; dx1=346; L_HA=400; MT=2.54; Rad_Dielectric=30; Rad_Lower=7.3; Rad_Upper=30; a_HA=580; a_WG=246; b_HA=500; b_WG=121; c_HA=0; c_WG=187; d_feed=85; h_feed=15; h_lower=18; h_upper=40}
! Header version: 2018
! Port assignment regex: !\s*Touchstone port\s*([0-9]+)\s*=\s*(CST MWS port|CST DS port)\s*([0-9]+|Zmin|Zmax)\s*\(\"(.*)\"\)(\s*mode\s*([0-9]+))?.*
! Touchstone port assignment:
! Touchstone port 1 = CST MWS port 1 ("")
! Touchstone port 2 = CST MWS port 2 ("")
# GHz S DB R 50
0.5                    -0.143676        -122.869         -59.4643         78.0466         -59.4643         78.0466      -0.00665125         151.089
0.501                  -0.151239        -123.325         -59.2442         76.6868         -59.2456         76.6824      -0.00673578         151.023
0.502                   -0.15901        -123.782         -59.0245         75.3141         -59.0271         75.3059      -0.00682106         150.958
0.503                  -0.166992        -124.241         -58.8051         73.9286          -58.809         73.9168      -0.00690709         150.892
0.504                  -0.175184        -124.701         -58.5862         72.5302         -58.5912         72.5151      -0.00699384         150.826
0.505                  -0.183588        -125.163         -58.3677         71.1188         -58.3738         71.1009      -0.00708132         150.761
0.506                  -0.192205        -125.626         -58.1496         69.6945         -58.1567         69.6741      -0.00716953         150.695
0.507                  -0.201036         -126.09         -57.9321         68.2572         -57.9401         68.2347      -0.00725844         150.629
0.508                  -0.210082        -126.556         -57.7151         66.8069          -57.724         66.7825      -0.00734807         150.563
0.509                  -0.219344        -127.023         -57.4986         65.3437         -57.5083         65.3178      -0.00743839         150.497
0.51                   -0.228823        -127.492         -57.2827         63.8675         -57.2932         63.8403      -0.00752941         150.431
0.511                   -0.23852        -127.963         -57.0674         62.3783         -57.0786         62.3501      -0.00762112         150.365
0.512                  -0.248436        -128.434         -56.8528         60.8763         -56.8645         60.8473       -0.0077135         150.299
0.513                  -0.258572        -128.907         -56.6388         59.3613         -56.6511         59.3319      -0.00780655         150.232
0.514                  -0.268929        -129.382         -56.4255         57.8336         -56.4384         57.8038      -0.00790027         150.166
0.515                  -0.279508        -129.858          -56.213          56.293         -56.2263         56.2632      -0.00799464           150.1
0.516                   -0.29031        -130.336         -56.0013         54.7397          -56.015           54.71      -0.00808966         150.033
0.517                  -0.301335        -130.815         -55.7903         53.1738         -55.8044         53.1444      -0.00818531         149.966
0.518                  -0.312586        -131.296         -55.5803         51.5953         -55.5947         51.5664      -0.00828159           149.9
0.519                  -0.324063        -131.778         -55.3711         50.0044         -55.3858         49.9761       -0.0083785         149.833
0.52                   -0.335766        -132.261         -55.1629         48.4012         -55.1777         48.3736      -0.00847601         149.766
0.521                  -0.347697        -132.747         -54.9556         46.7857         -54.9706         46.7591      -0.00857413         149.699
0.522                  -0.359856        -133.233         -54.7494         45.1582         -54.7645         45.1326      -0.00867284         149.632
0.523                  -0.372246        -133.721         -54.5443         43.5188         -54.5594         43.4943      -0.00877213         149.565
0.524                  -0.384866        -134.211         -54.3402         41.8676         -54.3554         41.8443      -0.00887199         149.498
0.525                  -0.397717        -134.702         -54.1373         40.2049         -54.1524         40.1829      -0.00897242          149.43
0.526                  -0.410801        -135.195         -53.9355         38.5309         -53.9506         38.5102       -0.0090734         149.363
0.527                  -0.424118         -135.69          -53.735         36.8458           -53.75         36.8264      -0.00917492         149.296
0.528                   -0.43767        -136.186         -53.5357         35.1497         -53.5506         35.1318      -0.00927697         149.228
0.529                  -0.451457        -136.683         -53.3378          33.443         -53.3525         33.4266      -0.00937954          149.16
0.53                    -0.46548        -137.183         -53.1412         31.7259         -53.1556          31.711      -0.00948263         149.093
0.531                   -0.47974        -137.684         -52.9459         29.9987         -52.9601         29.9852      -0.00958621         149.025
0.532                  -0.494239        -138.186         -52.7521         28.2617         -52.7661         28.2497      -0.00969028         148.957
0.533                  -0.508977         -138.69         -52.5597         26.5152         -52.5734         26.5046      -0.00979483         148.889
0.534                  -0.523955        -139.196         -52.3688         24.7595         -52.3822         24.7504      -0.00989984         148.821
0.535                  -0.539175        -139.704         -52.1794         22.9949         -52.1924         22.9872       -0.0100053         148.753
0.536                  -0.554637        -140.213         -51.9916         21.2218         -52.0042         21.2155       -0.0101112         148.684
0.537                  -0.570342        -140.724         -51.8053         19.4406         -51.8176         19.4356       -0.0102176         148.616
0.538                  -0.586292        -141.236         -51.6207         17.6516         -51.6325         17.6478       -0.0103243         148.547
0.539                  -0.602487        -141.751         -51.4376         15.8552          -51.449         15.8526       -0.0104315         148.479
0.54                    -0.61893        -142.267         -51.2562         14.0518         -51.2671         14.0503       -0.0105391          148.41
0.541                   -0.63562        -142.785         -51.0764         12.2418         -51.0869         12.2414        -0.010647         148.341
0.542                   -0.65256        -143.305         -50.8983         10.4256         -50.9084         10.4261       -0.0107553         148.273
0.543                   -0.66975        -143.826         -50.7219         8.60366         -50.7315         8.60503        -0.010864         148.204
0.544                  -0.687192         -144.35         -50.5472         6.77631         -50.5563         6.77846       -0.0109731         148.134
0.545                  -0.704887        -144.875         -50.3742         4.94401         -50.3828         4.94686       -0.0110824         148.065
0.546                  -0.722836        -145.402         -50.2029         3.10719         -50.2111         3.11065       -0.0111922         147.996
0.547                  -0.741042        -145.931         -50.0334         1.26628          -50.041         1.27026       -0.0113022         147.926
0.548                  -0.759505        -146.462         -49.8655       -0.578305         -49.8726       -0.573898       -0.0114126         147.857
0.549                  -0.778228        -146.995         -49.6993        -2.42613          -49.706        -2.42139       -0.0115232         147.787
0.55                   -0.797211         -147.53         -49.5348        -4.27678          -49.541         -4.2718       -0.0116342         147.718
0.551                  -0.816457        -148.067          -49.372        -6.12983         -49.3777        -6.12469       -0.0117454         147.648
0.552                  -0.835968        -148.606         -49.2109        -7.98487         -49.2161        -7.97967       -0.0118569         147.578
0.553                  -0.855745        -149.148         -49.0514         -9.8415         -49.0562        -9.83632       -0.0119687         147.508
0.554                   -0.87579        -149.691         -48.8936        -11.6993         -48.8979        -11.6942       -0.0120808         147.437
0.555                  -0.896106        -150.236         -48.7373        -13.5579         -48.7412         -13.553       -0.0121931         147.367
0.556                  -0.916695        -150.784         -48.5827         -15.417         -48.5861        -15.4123       -0.0123057         147.297
0.557                  -0.937559        -151.334         -48.4296        -17.2761         -48.4325        -17.2718       -0.0124186         147.226
0.558                  -0.958701        -151.886          -48.278        -19.1349         -48.2806         -19.131       -0.0125317         147.155
0.559                  -0.980123         -152.44         -48.1279         -20.993         -48.1301        -20.9896       -0.0126451         147.085
0.56                    -1.00183        -152.997         -47.9793        -22.8502         -47.9811        -22.8473       -0.0127588         147.014
0.561                   -1.02382        -153.556         -47.8321        -24.7061         -47.8335        -24.7038       -0.0128727         146.943
0.562                    -1.0461        -154.118         -47.6862        -26.5605         -47.6873        -26.5587       -0.0129869         146.871
0.563                   -1.06867        -154.682         -47.5418         -28.413         -47.5425        -28.4119       -0.0131014           146.8
0.564                   -1.09154        -155.248         -47.3986        -30.2634          -47.399         -30.263       -0.0132162         146.729
0.565                   -1.11471        -155.818         -47.2566        -32.1114         -47.2568        -32.1117       -0.0133313         146.657
0.566                   -1.13819        -156.389         -47.1159        -33.9568         -47.1158        -33.9579       -0.0134468         146.585
0.567                   -1.16197        -156.964         -46.9764        -35.7995          -46.976        -35.8013       -0.0135626         146.513
0.568                   -1.18606        -157.541         -46.8379        -37.6392         -46.8373        -37.6418       -0.0136787         146.441
0.569                   -1.21047        -158.121         -46.7006        -39.4757         -46.6997        -39.4791       -0.0137953         146.369
0.57                    -1.23521        -158.703         -46.5643        -41.3089         -46.5632        -41.3131       -0.0139123         146.297
0.571                   -1.26027        -159.289         -46.4289        -43.1387         -46.4276        -43.1436       -0.0140298         146.224
0.572                   -1.28566        -159.877         -46.2945        -44.9649          -46.293        -44.9706       -0.0141478         146.152
0.573                   -1.31139        -160.469         -46.1609        -46.7875         -46.1593         -46.794       -0.0142663         146.079
0.574                   -1.33747        -161.063         -46.0282        -48.6063         -46.0264        -48.6135       -0.0143855         146.006
0.575                    -1.3639        -161.661         -45.8963        -50.4213         -45.8944        -50.4293       -0.0145052         145.933
0.576                   -1.39069        -162.262         -45.7651        -52.2324         -45.7631        -52.2411       -0.0146257          145.86
0.577                   -1.41785        -162.866         -45.6346        -54.0397         -45.6325        -54.0491        -0.014747         145.786
0.578                   -1.44539        -163.473         -45.5048         -55.843         -45.5025        -55.8531       -0.0148691         145.713
0.579                    -1.4733        -164.084         -45.3755        -57.6425         -45.3732        -57.6531       -0.0149921         145.639
0.58                    -1.50161        -164.698         -45.2468         -59.438         -45.2445        -59.4493       -0.0151161         145.565
0.581                   -1.53032        -165.316         -45.1186        -61.2297         -45.1162        -61.2415       -0.0152411         145.491
0.582                   -1.55945        -165.937         -44.9909        -63.0176         -44.9885        -63.0299       -0.0153673         145.417
0.583                     -1.589        -166.562         -44.8636        -64.8017         -44.8612        -64.8145       -0.0154948         145.343
0.584                   -1.61898        -167.191         -44.7367        -66.5821         -44.7342        -66.5954       -0.0156237         145.268
0.585                   -1.64941        -167.824         -44.6101        -68.3589         -44.6077        -68.3726       -0.0157541         145.194
0.586                    -1.6803        -168.461         -44.4839        -70.1322         -44.4814        -70.1463        -0.015886         145.119
0.587                   -1.71166        -169.102         -44.3579        -71.9021         -44.3555        -71.9164       -0.0160197         145.044
0.588                   -1.74351        -169.746         -44.2322        -73.6687         -44.2298        -73.6833       -0.0161553         144.968
0.589                   -1.77587        -170.396         -44.1066        -75.4321         -44.1043        -75.4469       -0.0162928         144.893
0.59                    -1.80874        -171.049         -43.9813        -77.1924         -43.9789        -77.2074       -0.0164325         144.817
0.591                   -1.84216        -171.707         -43.8561        -78.9499         -43.8538         -78.965       -0.0165745         144.742
0.592                   -1.87612        -172.369          -43.731        -80.7046         -43.7287        -80.7198       -0.0167189         144.666
0.593                   -1.91067        -173.036         -43.6059        -82.4567         -43.6038        -82.4719        -0.016866          144.59
0.594                    -1.9458        -173.707          -43.481        -84.2063         -43.4789        -84.2216       -0.0170158         144.513
0.595                   -1.98155        -174.384         -43.3561        -85.9537          -43.354        -85.9689       -0.0171686         144.437
0.596                   -2.01794        -175.065         -43.2312         -87.699         -43.2292        -87.7141       -0.0173245          144.36
0.597                     -2.055        -175.751         -43.1063        -89.4424         -43.1044        -89.4574       -0.0174838         144.283
0.598                   -2.09274        -176.442         -42.9813         -91.184         -42.9795        -91.1988       -0.0176465         144.206
0.599                   -2.13119        -177.139         -42.8564        -92.9241         -42.8546        -92.9387        -0.017813         144.128
0.6                     -2.17039         -177.84         -42.7313        -94.6628         -42.7297        -94.6772       -0.0179833         144.051
0.601                   -2.21036        -178.547         -42.6062        -96.4004         -42.6047        -96.4145       -0.0181577         143.973
0.602                   -2.25114        -179.259         -42.4811         -98.137         -42.4796        -98.1508       -0.0183364         143.895
0.603                   -2.29275        -179.977         -42.3558        -99.8728         -42.3544        -99.8862       -0.0185195         143.817
0.604                   -2.33523         179.299         -42.2304        -101.608         -42.2291        -101.621       -0.0187073         143.738
0.605                   -2.37861          178.57          -42.105        -103.343         -42.1037        -103.356       -0.0188998          143.66
0.606                   -2.42294         177.835         -41.9794        -105.077         -41.9782         -105.09       -0.0190975         143.581
0.607                   -2.46826         177.094         -41.8537        -106.812         -41.8526        -106.824       -0.0193003         143.502
0.608                    -2.5146         176.348         -41.7279        -108.547         -41.7269        -108.558       -0.0195084         143.423
0.609                   -2.56202         175.595         -41.6019        -110.282          -41.601        -110.293       -0.0197221         143.343
0.61                    -2.61054         174.836         -41.4759        -112.018          -41.475        -112.029       -0.0199416         143.263
0.611                   -2.66024         174.072         -41.3497        -113.755         -41.3489        -113.765       -0.0201668         143.183
0.612                   -2.71114         173.301         -41.2235        -115.493         -41.2227        -115.502        -0.020398         143.103
0.613                   -2.76332         172.524         -41.0971        -117.231         -41.0964         -117.24       -0.0206354         143.023
0.614                   -2.81681         171.741         -40.9706        -118.972           -40.97         -118.98        -0.020879         142.942
0.615                   -2.87169         170.951         -40.8441        -120.713         -40.8435        -120.721        -0.021129         142.861
0.616                     -2.928         170.156         -40.7175        -122.457          -40.717        -122.464       -0.0213854          142.78
0.617                    -2.9858         169.354         -40.5908        -124.202         -40.5903        -124.209       -0.0216484         142.699
0.618                   -3.04518         168.546          -40.464         -125.95         -40.4636        -125.956        -0.021918         142.617
0.619                   -3.10617         167.732         -40.3372        -127.699         -40.3369        -127.705       -0.0221943         142.535
0.62                    -3.16887         166.912         -40.2104        -129.451         -40.2101        -129.456       -0.0224773         142.453
0.621                   -3.23334         166.086         -40.0836        -131.206         -40.0834         -131.21       -0.0227671         142.371
0.622                   -3.29964         165.255         -39.9569        -132.963         -39.9566        -132.967       -0.0230637         142.288
0.623                   -3.36786         164.417         -39.8301        -134.723         -39.8299        -134.726       -0.0233671         142.206
0.624                   -3.43807         163.574         -39.7034        -136.486         -39.7033        -136.489       -0.0236773         142.122
0.625                   -3.51035         162.726         -39.5768        -138.251         -39.5767        -138.254       -0.0239944         142.039
0.626                   -3.58479         161.873         -39.4503         -140.02         -39.4502        -140.023       -0.0243182         141.956
0.627                   -3.66146         161.015         -39.3239        -141.793         -39.3238        -141.794       -0.0246489         141.872
0.628                   -3.74044         160.152         -39.1977        -143.568         -39.1976        -143.569       -0.0249862         141.788
0.629                   -3.82184         159.285         -39.0717        -145.347         -39.0716        -145.348       -0.0253303         141.703
