! TOUCHSTONE file generated by CST MICROWAVE STUDIO
! Date and time: Fri Oct  2 16:36:35 2020
! Project name: Scenario_1_Free_Space_out_of_line.cst
! Parameters = {Lambda=346.42; Step_1=17.321; dy1=-120.567; dx1=520; L_HA=400; MT=2.54; Rad_Dielectric=30; Rad_Lower=7.3; Rad_Upper=30; a_HA=580; a_WG=246; b_HA=500; b_WG=121; c_HA=0; c_WG=187; d_feed=85; h_feed=15; h_lower=18; h_upper=40}
! Header version: 2018
! Port assignment regex: !\s*Touchstone port\s*([0-9]+)\s*=\s*(CST MWS port|CST DS port)\s*([0-9]+|Zmin|Zmax)\s*\(\"(.*)\"\)(\s*mode\s*([0-9]+))?.*
! Touchstone port assignment:
! Touchstone port 1 = CST MWS port 1 ("")
! Touchstone port 2 = CST MWS port 2 ("")
# GHz S DB R 50
0.5                    -0.151308        -122.617          -61.224        -19.8489          -61.224        -19.8489      -0.00670536         151.068
0.501                  -0.154782        -123.056         -61.0669        -21.6017         -61.0661        -21.5995      -0.00675277         151.003
0.502                  -0.158464        -123.497         -60.9082        -23.3552         -60.9065        -23.3508      -0.00680139         150.937
0.503                  -0.162357         -123.94         -60.7478        -25.1092         -60.7453        -25.1027      -0.00685124         150.871
0.504                  -0.166468        -124.386         -60.5859        -26.8639         -60.5826        -26.8553      -0.00690233         150.806
0.505                  -0.170801        -124.834         -60.4224        -28.6192         -60.4184        -28.6085      -0.00695467          150.74
0.506                  -0.175363        -125.285         -60.2574        -30.3752         -60.2528        -30.3625      -0.00700825         150.674
0.507                  -0.180158        -125.739          -60.091        -32.1319         -60.0857        -32.1172       -0.0070631         150.608
0.508                  -0.185193        -126.194         -59.9232        -33.8894         -59.9174        -33.8728      -0.00711921         150.542
0.509                  -0.190471        -126.653         -59.7541        -35.6477         -59.7477        -35.6293       -0.0071766         150.476
0.51                      -0.196        -127.114         -59.5836        -37.4069         -59.5768        -37.3867      -0.00723527         150.409
0.511                  -0.201784        -127.577          -59.412        -39.1671         -59.4047        -39.1453      -0.00729523         150.343
0.512                   -0.20783        -128.043         -59.2392        -40.9284         -59.2315         -40.905       -0.0073565         150.276
0.513                  -0.214142        -128.511         -59.0652        -42.6908         -59.0571        -42.6659      -0.00741907          150.21
0.514                  -0.220727        -128.982         -58.8902        -44.4546         -58.8818        -44.4283      -0.00748296         150.143
0.515                  -0.227591        -129.456         -58.7141        -46.2197         -58.7054        -46.1922      -0.00754818         150.077
0.516                  -0.234739        -129.932         -58.5371        -47.9864         -58.5281        -47.9577      -0.00761474          150.01
0.517                  -0.242177         -130.41         -58.3591        -49.7548         -58.3499        -49.7249      -0.00768264         149.943
0.518                  -0.249912        -130.891         -58.1803         -51.525         -58.1708        -51.4941      -0.00775189         149.876
0.519                  -0.257948        -131.375         -58.0006        -53.2971         -57.9909        -53.2654       -0.0078225         149.809
0.52                   -0.266292        -131.861         -57.8201        -55.0713         -57.8103        -55.0388      -0.00789449         149.742
0.521                   -0.27495        -132.349         -57.6389        -56.8477          -57.629        -56.8146      -0.00796785         149.675
0.522                  -0.283928         -132.84         -57.4571        -58.6266          -57.447        -58.5929      -0.00804261         149.608
0.523                  -0.293231        -133.334         -57.2745         -60.408         -57.2644        -60.3738      -0.00811877          149.54
0.524                  -0.302867         -133.83         -57.0914        -62.1921         -57.0812        -62.1575      -0.00819633         149.473
0.525                  -0.312839        -134.328         -56.9078         -63.979         -56.8975        -63.9442      -0.00827532         149.405
0.526                  -0.323156        -134.829         -56.7236         -65.769         -56.7134        -65.7341      -0.00835573         149.338
0.527                  -0.333822        -135.332          -56.539        -67.5622         -56.5288        -67.5272      -0.00843759          149.27
0.528                  -0.344843        -135.838          -56.354        -69.3588         -56.3438        -69.3238      -0.00852089         149.202
0.529                  -0.356226        -136.347         -56.1686        -71.1588         -56.1585        -71.1239      -0.00860565         149.134
0.53                   -0.367976        -136.857         -55.9829        -72.9625         -55.9729        -72.9278      -0.00869188         149.066
0.531                  -0.380099         -137.37          -55.797          -74.77          -55.787        -74.7357       -0.0087796         148.998
0.532                  -0.392601        -137.886         -55.6108        -76.5815          -55.601        -76.5475       -0.0088688          148.93
0.533                  -0.405487        -138.404         -55.4245        -78.3971         -55.4148        -78.3636       -0.0089595         148.862
0.534                  -0.418764        -138.924         -55.2381         -80.217         -55.2285         -80.184      -0.00905172         148.793
0.535                  -0.432436        -139.447         -55.0515        -82.0412         -55.0421        -82.0088      -0.00914545         148.725
0.536                  -0.446511        -139.972         -54.8649          -83.87         -54.8557        -83.8383      -0.00924072         148.656
0.537                  -0.460992        -140.499         -54.6784        -85.7035         -54.6693        -85.6725      -0.00933754         148.587
0.538                  -0.475886        -141.028         -54.4919        -87.5417          -54.483        -87.5115      -0.00943591         148.519
0.539                  -0.491197         -141.56         -54.3055        -89.3848         -54.2967        -89.3555      -0.00953585          148.45
0.54                   -0.506932        -142.094         -54.1192         -91.233         -54.1107        -91.2045      -0.00963737         148.381
0.541                  -0.523094        -142.631         -53.9331        -93.0863         -53.9248        -93.0587      -0.00974047         148.312
0.542                   -0.53969        -143.169         -53.7473        -94.9447         -53.7392        -94.9181      -0.00984518         148.242
0.543                  -0.556725         -143.71         -53.5617        -96.8085         -53.5539        -96.7829       -0.0099515         148.173
0.544                  -0.574202        -144.253         -53.3765        -98.6776         -53.3689        -98.6531       -0.0100594         148.104
0.545                  -0.592127        -144.798         -53.1916        -100.552         -53.1843        -100.529        -0.010169         148.034
0.546                  -0.610504        -145.345         -53.0072        -102.432         -53.0001         -102.41       -0.0102803         147.965
0.547                  -0.629338        -145.895         -52.8232        -104.318         -52.8164        -104.297       -0.0103932         147.895
0.548                  -0.648633        -146.446         -52.6396        -106.209         -52.6331        -106.189       -0.0105077         147.825
0.549                  -0.668393        -146.999         -52.4567        -108.106         -52.4504        -108.087        -0.010624         147.755
0.55                   -0.688623        -147.555         -52.2743        -110.008         -52.2683         -109.99       -0.0107419         147.685
0.551                  -0.709326        -148.112         -52.0925        -111.916         -52.0868        -111.899       -0.0108616         147.615
0.552                  -0.730505        -148.672         -51.9114         -113.83          -51.906        -113.814        -0.010983         147.544
0.553                  -0.752165        -149.233         -51.7309        -115.749         -51.7258        -115.734       -0.0111061         147.474
0.554                  -0.774308        -149.796         -51.5512        -117.674         -51.5465         -117.66        -0.011231         147.403
0.555                  -0.796938        -150.362         -51.3723        -119.604         -51.3678        -119.592       -0.0113576         147.333
0.556                  -0.820058        -150.929         -51.1942         -121.54           -51.19        -121.529        -0.011486         147.262
0.557                  -0.843671        -151.498          -51.017        -123.481         -51.0131        -123.471       -0.0116162         147.191
0.558                  -0.867778        -152.068         -50.8406        -125.428          -50.837        -125.418       -0.0117483          147.12
0.559                  -0.892384        -152.641         -50.6652        -127.379         -50.6619        -127.371       -0.0118821         147.049
0.56                   -0.917489        -153.215         -50.4907        -129.336         -50.4877        -129.329       -0.0120177         146.978
0.561                  -0.943097        -153.791         -50.3172        -131.298         -50.3145        -131.292       -0.0121552         146.906
0.562                  -0.969208        -154.369         -50.1447        -133.265         -50.1423         -133.26       -0.0122946         146.835
0.563                  -0.995825        -154.949         -49.9732        -135.237         -49.9711        -135.232       -0.0124358         146.763
0.564                   -1.02295         -155.53         -49.8029        -137.213          -49.801        -137.209       -0.0125789         146.691
0.565                   -1.05058        -156.113         -49.6336        -139.194          -49.632        -139.191       -0.0127239         146.619
0.566                   -1.07872        -156.697         -49.4654        -141.179         -49.4641        -141.176       -0.0128709         146.547
0.567                   -1.10738        -157.283         -49.2983        -143.168         -49.2973        -143.166       -0.0130197         146.475
0.568                   -1.13654         -157.87         -49.1325        -145.161         -49.1317         -145.16       -0.0131705         146.403
0.569                   -1.16622         -158.46         -48.9677        -147.158         -48.9673        -147.158       -0.0133233          146.33
0.57                     -1.1964         -159.05         -48.8042        -149.159          -48.804        -149.159        -0.013478         146.258
0.571                    -1.2271        -159.643         -48.6419        -151.163          -48.642        -151.163       -0.0136347         146.185
0.572                   -1.25832        -160.236         -48.4808         -153.17         -48.4811        -153.171       -0.0137934         146.112
0.573                   -1.29004        -160.831          -48.321         -155.18         -48.3215        -155.181       -0.0139541         146.039
0.574                   -1.32228        -161.428         -48.1623        -157.192         -48.1631        -157.194       -0.0141169         145.966
0.575                   -1.35503        -162.026          -48.005        -159.208         -48.0059         -159.21       -0.0142817         145.893
0.576                   -1.38829        -162.626         -47.8488        -161.225           -47.85        -161.227       -0.0144486         145.819
0.577                   -1.42206        -163.227         -47.6939        -163.245         -47.6953        -163.247       -0.0146175         145.746
0.578                   -1.45634         -163.83         -47.5403        -165.266         -47.5418        -165.269       -0.0147886         145.672
0.579                   -1.49113        -164.434         -47.3879         -167.29         -47.3896        -167.292       -0.0149617         145.598
0.58                    -1.52643         -165.04         -47.2367        -169.314         -47.2386        -169.317        -0.015137         145.524
0.581                   -1.56224        -165.647         -47.0867         -171.34         -47.0888        -171.343       -0.0153144          145.45
0.582                   -1.59856        -166.255          -46.938        -173.367         -46.9402        -173.369        -0.015494         145.376
0.583                   -1.63538        -166.865         -46.7905        -175.394         -46.7928        -175.397       -0.0156757         145.301
0.584                   -1.67271        -167.477         -46.6442        -177.422         -46.6466        -177.425       -0.0158596         145.226
0.585                   -1.71054         -168.09          -46.499         -179.45         -46.5016        -179.453       -0.0160458         145.152
0.586                   -1.74888        -168.704          -46.355         178.521         -46.3577         178.519       -0.0162341         145.077
0.587                   -1.78772         -169.32         -46.2122         176.493          -46.215         176.491       -0.0164247         145.001
0.588                   -1.82706        -169.938         -46.0705         174.465         -46.0734         174.463       -0.0166176         144.926
0.589                   -1.86691        -170.557         -45.9299         172.437         -45.9328         172.435       -0.0168127         144.851
0.59                    -1.90726        -171.178         -45.7903         170.411         -45.7934         170.409       -0.0170101         144.775
0.591                   -1.94811        -171.801         -45.6518         168.384         -45.6549         168.383       -0.0172098         144.699
0.592                   -1.98946        -172.425         -45.5144         166.359         -45.5175         166.358       -0.0174118         144.623
0.593                   -2.03132        -173.051         -45.3779         164.335         -45.3811         164.334       -0.0176162         144.547
0.594                   -2.07368        -173.679         -45.2424         162.312         -45.2456         162.311       -0.0178229         144.471
0.595                   -2.11655        -174.308         -45.1078         160.291         -45.1111          160.29        -0.018032         144.394
0.596                   -2.15992         -174.94         -44.9742         158.271         -44.9774          158.27       -0.0182435         144.317
0.597                    -2.2038        -175.573         -44.8414         156.252         -44.8446         156.252       -0.0184574          144.24
0.598                   -2.24819        -176.209         -44.7095         154.235         -44.7127         154.235       -0.0186738         144.163
0.599                    -2.2931        -176.847         -44.5783          152.22         -44.5816         152.221       -0.0188926         144.086
0.6                     -2.33852        -177.486          -44.448         150.207         -44.4512         150.208       -0.0191138         144.009
0.601                   -2.38447        -178.128         -44.3184         148.196         -44.3216         148.197       -0.0193376         143.931
0.602                   -2.43094        -178.773         -44.1895         146.186         -44.1927         146.187       -0.0195639         143.853
0.603                   -2.47794        -179.419         -44.0613         144.179         -44.0644          144.18       -0.0197927         143.775
0.604                   -2.52548         179.932         -43.9337         142.174         -43.9368         142.175       -0.0200241         143.697
0.605                   -2.57356          179.28         -43.8068          140.17         -43.8098         140.172       -0.0202581         143.618
0.606                   -2.62219         178.626         -43.6804         138.169         -43.6833         138.171       -0.0204948          143.54
0.607                   -2.67139         177.969         -43.5546          136.17         -43.5575         136.172        -0.020734         143.461
0.608                   -2.72115         177.309         -43.4293         134.172         -43.4321         134.175        -0.020976         143.382
0.609                    -2.7715         176.647         -43.3045         132.177         -43.3072         132.179       -0.0212206         143.302
0.61                    -2.82244         175.981         -43.1801         130.183         -43.1827         130.186        -0.021468         143.223
0.611                   -2.87398         175.312         -43.0561         128.192         -43.0587         128.195       -0.0217182         143.143
0.612                   -2.92614          174.64         -42.9325         126.202          -42.935         126.205       -0.0219712         143.063
0.613                   -2.97894         173.965         -42.8093         124.214         -42.8117         124.217       -0.0222271         142.983
0.614                   -3.03238         173.286         -42.6865         122.228         -42.6887         122.231       -0.0224858         142.903
0.615                    -3.0865         172.603         -42.5639         120.243         -42.5661         120.247       -0.0227475         142.822
0.616                    -3.1413         171.917         -42.4416          118.26         -42.4437         118.264       -0.0230123         142.741
0.617                   -3.19681         171.227         -42.3196         116.279         -42.3216         116.282       -0.0232801          142.66
0.618                   -3.25305         170.533         -42.1978         114.298         -42.1997         114.302        -0.023551         142.579
0.619                   -3.31004         169.835         -42.0762         112.319          -42.078         112.323       -0.0238251         142.497
0.62                    -3.36781         169.133         -41.9548         110.341         -41.9565         110.345       -0.0241025         142.415
0.621                    -3.4264         168.427         -41.8335         108.364         -41.8351         108.367       -0.0243832         142.333
0.622                   -3.48581         167.716         -41.7124         106.388          -41.714         106.391       -0.0246674         142.251
0.623                    -3.5461         167.001         -41.5915         104.413         -41.5929         104.416       -0.0249552         142.168
0.624                   -3.60729         166.281         -41.4706         102.438          -41.472         102.441       -0.0252465         142.085
0.625                   -3.66942         165.556         -41.3499         100.463         -41.3511         100.466       -0.0255417         142.002
0.626                   -3.73252         164.826         -41.2292         98.4889         -41.2304         98.4918       -0.0258407         141.919
0.627                   -3.79664         164.092         -41.1087         96.5149         -41.1097         96.5176       -0.0261438         141.835
0.628                   -3.86182         163.352         -40.9881         94.5408         -40.9891         94.5434        -0.026451         141.751
0.629                    -3.9281         162.607         -40.8677         92.5666         -40.8686         92.5691       -0.0267626         141.667
