! TOUCHSTONE file generated by CST MICROWAVE STUDIO
! Date and time: Fri Oct  2 16:58:43 2020
! Project name: Scenario_1_Free_Space_out_of_line.cst
! Parameters = {Lambda=346.42; Step_1=17.321; dy1=-120.567; dx1=693; L_HA=400; MT=2.54; Rad_Dielectric=30; Rad_Lower=7.3; Rad_Upper=30; a_HA=580; a_WG=246; b_HA=500; b_WG=121; c_HA=0; c_WG=187; d_feed=85; h_feed=15; h_lower=18; h_upper=40}
! Header version: 2018
! Port assignment regex: !\s*Touchstone port\s*([0-9]+)\s*=\s*(CST MWS port|CST DS port)\s*([0-9]+|Zmin|Zmax)\s*\(\"(.*)\"\)(\s*mode\s*([0-9]+))?.*
! Touchstone port assignment:
! Touchstone port 1 = CST MWS port 1 ("")
! Touchstone port 2 = CST MWS port 2 ("")
# GHz S DB R 50
0.5                    -0.145337        -122.377         -62.6723        -117.717         -62.6723        -117.717      -0.00663327         151.119
0.501                  -0.152548         -122.82         -62.2402        -120.056         -62.2402        -120.056      -0.00670057         151.053
0.502                  -0.159918        -123.264         -61.8354        -122.383         -61.8354        -122.384      -0.00676848         150.988
0.503                  -0.167449        -123.709         -61.4551        -124.699         -61.4552          -124.7        -0.006837         150.923
0.504                  -0.175141        -124.157         -61.0969        -127.002          -61.097        -127.004      -0.00690613         150.857
0.505                  -0.182996        -124.606         -60.7587        -129.293         -60.7588        -129.295      -0.00697587         150.792
0.506                  -0.191014        -125.056         -60.4387        -131.572         -60.4388        -131.574      -0.00704621         150.726
0.507                  -0.199198        -125.508         -60.1351        -133.838         -60.1353        -133.841      -0.00711715          150.66
0.508                  -0.207547        -125.962         -59.8466        -136.092         -59.8468        -136.095      -0.00718869         150.595
0.509                  -0.216064        -126.417         -59.5719        -138.334         -59.5721        -138.337      -0.00726082         150.529
0.51                    -0.22475        -126.874         -59.3098        -140.564           -59.31        -140.567      -0.00733355         150.463
0.511                  -0.233606        -127.332         -59.0592        -142.782         -59.0594        -142.785      -0.00740687         150.397
0.512                  -0.242633        -127.793         -58.8192        -144.989         -58.8194        -144.991      -0.00748077         150.331
0.513                  -0.251833        -128.254         -58.5889        -147.184         -58.5891        -147.187      -0.00755526         150.265
0.514                  -0.261208        -128.718         -58.3676         -149.37         -58.3679        -149.372      -0.00763032         150.199
0.515                  -0.270759        -129.184         -58.1546        -151.544         -58.1548        -151.547      -0.00770597         150.132
0.516                  -0.280488        -129.651         -57.9491        -153.709         -57.9494        -153.712      -0.00778219         150.066
0.517                  -0.290396         -130.12         -57.7507        -155.865         -57.7509        -155.867      -0.00785898             150
0.518                  -0.300485         -130.59         -57.5587        -158.011         -57.5589        -158.014      -0.00793633         149.933
0.519                  -0.310757        -131.063         -57.3726        -160.149         -57.3728        -160.152      -0.00801425         149.866
0.52                   -0.321213        -131.537          -57.192        -162.279         -57.1922        -162.282      -0.00809273           149.8
0.521                  -0.331857        -132.014         -57.0164        -164.401         -57.0167        -164.404      -0.00817177         149.733
0.522                  -0.342689        -132.492         -56.8455        -166.516         -56.8457        -166.518      -0.00825135         149.666
0.523                  -0.353712        -132.972         -56.6789        -168.624         -56.6791        -168.626      -0.00833149         149.599
0.524                  -0.364928        -133.454         -56.5162        -170.726         -56.5164        -170.728      -0.00841218         149.532
0.525                   -0.37634        -133.937         -56.3572        -172.822         -56.3574        -172.824       -0.0084934         149.465
0.526                   -0.38795        -134.423         -56.2014        -174.912         -56.2016        -174.914      -0.00857517         149.398
0.527                  -0.399759        -134.911         -56.0488        -176.997         -56.0489        -176.999      -0.00865747          149.33
0.528                  -0.411772        -135.401         -55.8989        -179.077         -55.8991        -179.079      -0.00874031         149.263
0.529                   -0.42399        -135.893         -55.7516         178.847         -55.7517         178.845      -0.00882368         149.195
0.53                   -0.436416        -136.387         -55.6066         176.775         -55.6067         176.774      -0.00890758         149.128
0.531                  -0.449054        -136.883         -55.4637         174.707         -55.4639         174.705        -0.008992          149.06
0.532                  -0.461906        -137.381         -55.3228         172.642          -55.323          172.64      -0.00907695         148.992
0.533                  -0.474976        -137.882         -55.1837          170.58         -55.1839         170.578      -0.00916243         148.924
0.534                  -0.488266        -138.384         -55.0462          168.52         -55.0463         168.519      -0.00924843         148.856
0.535                  -0.501781        -138.889         -54.9101         166.463         -54.9102         166.462      -0.00933496         148.788
0.536                  -0.515524        -139.396         -54.7753         164.408         -54.7754         164.407      -0.00942201          148.72
0.537                  -0.529499        -139.905         -54.6416         162.354         -54.6417         162.353       -0.0095096         148.652
0.538                   -0.54371        -140.417          -54.509         160.302         -54.5091         160.301      -0.00959771         148.584
0.539                   -0.55816         -140.93         -54.3773         158.251         -54.3774          158.25      -0.00968636         148.515
0.54                   -0.572855        -141.447         -54.2464         156.201         -54.2465           156.2      -0.00977555         148.447
0.541                  -0.587799        -141.965         -54.1162         154.152         -54.1163         154.151      -0.00986529         148.378
0.542                  -0.602996        -142.486         -53.9866         152.103         -53.9867         152.102      -0.00995558         148.309
0.543                  -0.618451         -143.01         -53.8576         150.054         -53.8577         150.053       -0.0100464          148.24
0.544                   -0.63417        -143.536         -53.7289         148.005          -53.729         148.005       -0.0101379         148.171
0.545                  -0.650158        -144.064         -53.6007         145.956         -53.6007         145.956       -0.0102299         148.102
0.546                   -0.66642        -144.596         -53.4727         143.907         -53.4727         143.906       -0.0103225         148.033
0.547                  -0.682963        -145.129         -53.3449         141.857          -53.345         141.856       -0.0104158         147.964
0.548                  -0.699792        -145.666         -53.2173         139.806         -53.2173         139.806       -0.0105097         147.894
0.549                  -0.716914        -146.205         -53.0898         137.754         -53.0898         137.754       -0.0106043         147.825
0.55                   -0.734335        -146.746         -52.9623         135.702         -52.9624         135.701       -0.0106995         147.755
0.551                  -0.752063        -147.291         -52.8349         133.648         -52.8349         133.647       -0.0107955         147.685
0.552                  -0.770104        -147.838         -52.7074         131.592         -52.7074         131.592       -0.0108923         147.615
0.553                  -0.788466        -148.388         -52.5798         129.535         -52.5799         129.535       -0.0109898         147.545
0.554                  -0.807157        -148.941         -52.4522         127.477         -52.4522         127.477       -0.0110882         147.475
0.555                  -0.826185        -149.496         -52.3244         125.417         -52.3244         125.417       -0.0111875         147.405
0.556                  -0.845559        -150.055         -52.1964         123.355         -52.1964         123.355       -0.0112877         147.334
0.557                  -0.865288        -150.616         -52.0682         121.291         -52.0683         121.291       -0.0113889         147.264
0.558                   -0.88538        -151.181         -51.9399         119.225         -51.9399         119.225       -0.0114911         147.193
0.559                  -0.905846        -151.749         -51.8113         117.157         -51.8113         117.157       -0.0115944         147.122
0.56                   -0.926695        -152.319         -51.6824         115.087         -51.6824         115.087       -0.0116989         147.052
0.561                  -0.947938        -152.893         -51.5533         113.015         -51.5533         113.015       -0.0118047          146.98
0.562                  -0.969586         -153.47         -51.4239          110.94         -51.4239          110.94       -0.0119117         146.909
0.563                   -0.99165         -154.05         -51.2942         108.863         -51.2942         108.863       -0.0120202         146.838
0.564                   -1.01414        -154.633         -51.1643         106.783         -51.1643         106.783       -0.0121302         146.767
0.565                   -1.03707        -155.219         -51.0341         104.701         -51.0341         104.701       -0.0122418         146.695
0.566                   -1.06046        -155.809         -50.9035         102.617         -50.9035         102.616       -0.0123551         146.623
0.567                    -1.0843        -156.402         -50.7727         100.529         -50.7727         100.529       -0.0124701         146.551
0.568                   -1.10863        -156.998         -50.6416         98.4394         -50.6417         98.4393       -0.0125871         146.479
0.569                   -1.13345        -157.598         -50.5103         96.3468         -50.5103         96.3468        -0.012706         146.407
0.57                    -1.15878          -158.2         -50.3786         94.2515         -50.3786         94.2515       -0.0128271         146.335
0.571                   -1.18463        -158.807         -50.2467         92.1535         -50.2468         92.1535       -0.0129504         146.263
0.572                   -1.21102        -159.416         -50.1146         90.0528         -50.1146         90.0528        -0.013076          146.19
0.573                   -1.23796        -160.029         -49.9822         87.9492         -49.9822         87.9492       -0.0132041         146.117
0.574                   -1.26547        -160.646         -49.8496         85.8429         -49.8496         85.8429       -0.0133348         146.044
0.575                   -1.29357        -161.266         -49.7168         83.7337         -49.7168         83.7338       -0.0134682         145.971
0.576                   -1.32227        -161.889         -49.5837         81.6218         -49.5837         81.6218       -0.0136044         145.898
0.577                   -1.35159        -162.515         -49.4505          79.507         -49.4505         79.5071       -0.0137435         145.825
0.578                   -1.38155        -163.146         -49.3171         77.3895         -49.3171         77.3895       -0.0138857         145.751
0.579                   -1.41218        -163.779         -49.1836         75.2691         -49.1836         75.2691        -0.014031         145.678
0.58                    -1.44347        -164.416         -49.0499         73.1459         -49.0499         73.1459       -0.0141796         145.604
0.581                   -1.47547        -165.057         -48.9162           71.02         -48.9161           71.02       -0.0143314          145.53
0.582                   -1.50818          -165.7         -48.7823         68.8912         -48.7823         68.8913       -0.0144868         145.456
0.583                   -1.54163        -166.347         -48.6484         66.7598         -48.6484         66.7598       -0.0146456         145.382
0.584                   -1.57584        -166.998         -48.5144         64.6256         -48.5144         64.6256        -0.014808         145.307
0.585                   -1.61083        -167.652         -48.3804         62.4887         -48.3804         62.4887        -0.014974         145.233
0.586                   -1.64661        -168.308         -48.2464         60.3491         -48.2464         60.3491       -0.0151437         145.158
0.587                   -1.68321        -168.969         -48.1124         58.2069         -48.1124          58.207       -0.0153172         145.083
0.588                   -1.72066        -169.632         -47.9784         56.0622         -47.9784         56.0622       -0.0154944         145.008
0.589                   -1.75897        -170.298         -47.8445         53.9148         -47.8445         53.9149       -0.0156754         144.933
0.59                    -1.79816        -170.968         -47.7107          51.765         -47.7107          51.765       -0.0158602         144.857
0.591                   -1.83825         -171.64         -47.5771         49.6128          -47.577         49.6128       -0.0160489         144.782
0.592                   -1.87928        -172.315         -47.4435         47.4581         -47.4435         47.4581       -0.0162413         144.706
0.593                   -1.92124        -172.993         -47.3101         45.3011         -47.3101         45.3011       -0.0164375          144.63
0.594                   -1.96418        -173.674         -47.1768         43.1418         -47.1768         43.1419       -0.0166375         144.554
0.595                    -2.0081        -174.357         -47.0438         40.9804         -47.0438         40.9804       -0.0168412         144.478
0.596                   -2.05302        -175.042          -46.911         38.8167          -46.911         38.8168       -0.0170486         144.401
0.597                   -2.09897         -175.73         -46.7784         36.6511         -46.7784         36.6511       -0.0172598         144.325
0.598                   -2.14597         -176.42          -46.646         34.4834          -46.646         34.4834       -0.0174745         144.248
0.599                   -2.19402        -177.112          -46.514         32.3137          -46.514         32.3138       -0.0176928         144.171
0.6                     -2.24315        -177.806         -46.3822         30.1423         -46.3822         30.1423       -0.0179146         144.094
0.601                   -2.29337        -178.502         -46.2507         27.9691         -46.2507         27.9691       -0.0181399         144.016
0.602                    -2.3447        -179.199         -46.1196         25.7942         -46.1196         25.7942       -0.0183687         143.939
0.603                   -2.39714        -179.898         -45.9888         23.6177         -45.9888         23.6177       -0.0186008         143.861
0.604                   -2.45072         179.402         -45.8583         21.4397         -45.8583         21.4397       -0.0188362         143.783
0.605                   -2.50543         178.701         -45.7283         19.2602         -45.7283         19.2602        -0.019075         143.705
0.606                   -2.56129         177.999         -45.5986         17.0795         -45.5986         17.0795       -0.0193169         143.627
0.607                   -2.61831         177.296         -45.4693         14.8975         -45.4693         14.8975       -0.0195621         143.549
0.608                   -2.67649         176.593         -45.3404         12.7143         -45.3404         12.7144       -0.0198104          143.47
0.609                   -2.73583         175.889          -45.212         10.5301          -45.212         10.5302       -0.0200618         143.391
0.61                    -2.79633         175.185         -45.0839         8.34498         -45.0839         8.34499       -0.0203164         143.312
0.611                     -2.858         174.482         -44.9563         6.15895         -44.9563         6.15895        -0.020574         143.233
0.612                   -2.92083         173.778         -44.8292         3.97213         -44.8292         3.97213       -0.0208347         143.153
0.613                   -2.98482         173.075         -44.7025         1.78462         -44.7025         1.78462       -0.0210985         143.074
0.614                   -3.04996         172.372         -44.5763       -0.403491         -44.5763       -0.403491       -0.0213653         142.994
0.615                   -3.11624          171.67         -44.4505        -2.59212         -44.4505        -2.59212       -0.0216352         142.913
0.616                   -3.18365         170.969         -44.3251        -4.78117         -44.3251        -4.78118       -0.0219082         142.833
0.617                   -3.25219         170.269         -44.2003        -6.97057         -44.2003        -6.97058       -0.0221842         142.753
0.618                   -3.32184         169.571         -44.0759        -9.16024         -44.0759        -9.16024       -0.0224634         142.672
0.619                   -3.39258         168.873         -43.9519        -11.3501         -43.9519        -11.3501       -0.0227458         142.591
0.62                     -3.4644         168.177         -43.8284          -13.54         -43.8284          -13.54       -0.0230313          142.51
0.621                   -3.53727         167.483         -43.7054          -15.73         -43.7054          -15.73       -0.0233201         142.428
0.622                   -3.61119          166.79         -43.5829          -17.92         -43.5829          -17.92       -0.0236122         142.346
0.623                   -3.68614         166.099         -43.4607        -20.1098         -43.4607        -20.1098       -0.0239077         142.264
0.624                   -3.76208         165.409         -43.3391        -22.2995         -43.3391        -22.2995       -0.0242066         142.182
0.625                   -3.83901         164.722         -43.2178         -24.489         -43.2178         -24.489        -0.024509           142.1
0.626                    -3.9169         164.036          -43.097        -26.6782          -43.097        -26.6782        -0.024815         142.017
0.627                   -3.99573         163.352         -42.9766        -28.8671         -42.9766        -28.8671       -0.0251247         141.934
0.628                   -4.07548          162.67         -42.8567        -31.0557         -42.8567        -31.0557       -0.0254382         141.851
0.629                   -4.15614          161.99         -42.7371        -33.2438         -42.7371        -33.2438       -0.0257556         141.767
