! TOUCHSTONE file generated by CST MICROWAVE STUDIO
! Date and time: Fri Oct  2 19:15:00 2020
! Project name: Scenario_1_Free_Space_out_of_line.cst
! Parameters = {Lambda=346.42; Step_1=17.321; dy1=-120.567; dx1=866; L_HA=400; MT=2.54; Rad_Dielectric=30; Rad_Lower=7.3; Rad_Upper=30; a_HA=580; a_WG=246; b_HA=500; b_WG=121; c_HA=0; c_WG=187; d_feed=85; h_feed=15; h_lower=18; h_upper=40}
! Header version: 2018
! Port assignment regex: !\s*Touchstone port\s*([0-9]+)\s*=\s*(CST MWS port|CST DS port)\s*([0-9]+|Zmin|Zmax)\s*\(\"(.*)\"\)(\s*mode\s*([0-9]+))?.*
! Touchstone port assignment:
! Touchstone port 1 = CST MWS port 1 ("")
! Touchstone port 2 = CST MWS port 2 ("")
# GHz S DB R 50
0.5                    -0.149124        -122.597         -63.2959         142.817         -63.2959         142.817      -0.00661922         151.128
0.501                  -0.155559        -123.051         -62.8501         141.187         -62.7474         141.098      -0.00668933         151.062
0.502                  -0.162207        -123.506         -62.4233         139.484          -62.232         139.287      -0.00676023         150.997
0.503                  -0.169068        -123.963          -62.014         137.715         -61.7465         137.397      -0.00683193         150.931
0.504                  -0.176145        -124.422         -61.6214         135.885         -61.2885         135.438      -0.00690442         150.866
0.505                   -0.18344        -124.882         -61.2445         133.999         -60.8559          133.42       -0.0069777           150.8
0.506                  -0.190954        -125.344         -60.8824         132.062         -60.4466         131.348      -0.00705179         150.734
0.507                   -0.19869        -125.808         -60.5345         130.078          -60.059          129.23      -0.00712667         150.668
0.508                  -0.206648        -126.273         -60.1999         128.051         -59.6916         127.071      -0.00720236         150.602
0.509                  -0.214832         -126.74         -59.8781         125.983         -59.3431         124.876      -0.00727886         150.536
0.51                   -0.223242        -127.208         -59.5685         123.877         -59.0121         122.649      -0.00735617          150.47
0.511                   -0.23188        -127.678         -59.2705         121.737         -58.6978         120.394      -0.00743428         150.404
0.512                  -0.240748         -128.15         -58.9837         119.565         -58.3989         118.114      -0.00751322         150.338
0.513                  -0.249849        -128.624         -58.7075         117.364         -58.1147         115.812      -0.00759297         150.271
0.514                  -0.259183        -129.099         -58.4416         115.135         -57.8442         113.491      -0.00767355         150.205
0.515                  -0.268753        -129.575         -58.1854         112.881         -57.5867         111.154      -0.00775494         150.138
0.516                  -0.278561        -130.054         -57.9387         110.603         -57.3414         108.802      -0.00783717         150.072
0.517                  -0.288608        -130.534          -57.701         108.304         -57.1076         106.437      -0.00792023         150.005
0.518                  -0.298896        -131.016          -57.472         105.986         -56.8847         104.062      -0.00800413         149.938
0.519                  -0.309428        -131.499         -57.2513          103.65          -56.672         101.677      -0.00808886         149.872
0.52                   -0.320204        -131.984         -57.0386         101.297          -56.469         99.2857      -0.00817444         149.805
0.521                  -0.331227        -132.471         -56.8335         98.9297         -56.2751         96.8877      -0.00826086         149.738
0.522                  -0.342499         -132.96         -56.6357         96.5489         -56.0897         94.4847      -0.00834814          149.67
0.523                  -0.354022         -133.45         -56.4449          94.156         -55.9125         92.0778      -0.00843627         149.603
0.524                  -0.365797        -133.942         -56.2608         91.7524         -55.7428          89.668      -0.00852527         149.536
0.525                  -0.377827        -134.436          -56.083         89.3392         -55.5802          87.256      -0.00861512         149.469
0.526                  -0.390113        -134.931         -55.9113         86.9175         -55.4242         84.8426      -0.00870585         149.401
0.527                  -0.402657        -135.429         -55.7454         84.4884         -55.2745         82.4285      -0.00879746         149.334
0.528                  -0.415463        -135.928          -55.585         82.0529         -55.1307         80.0142      -0.00888994         149.266
0.529                   -0.42853        -136.428         -55.4298         79.6118         -54.9922         77.6002      -0.00898332         149.198
0.53                   -0.441862        -136.931         -55.2795         77.1661         -54.8589         75.1868      -0.00907758         149.131
0.531                  -0.455461        -137.435         -55.1338         74.7165         -54.7302         72.7744      -0.00917274         149.063
0.532                  -0.469328        -137.941         -54.9925         72.2636         -54.6058         70.3633      -0.00926881         148.995
0.533                  -0.483465        -138.449         -54.8554         69.8082         -54.4855         67.9537      -0.00936578         148.927
0.534                  -0.497876        -138.959         -54.7221         67.3509         -54.3689         65.5457      -0.00946367         148.858
0.535                  -0.512561        -139.471         -54.5924         64.8922         -54.2557         63.1394      -0.00956249          148.79
0.536                  -0.527523        -139.984          -54.466         62.4325         -54.1456          60.735      -0.00966223         148.722
0.537                  -0.542764        -140.499         -54.3428         59.9723         -54.0383         58.3324      -0.00976291         148.653
0.538                  -0.558287        -141.016         -54.2225         57.5121         -53.9336         55.9316      -0.00986454         148.585
0.539                  -0.574093        -141.535         -54.1048         55.0521         -53.8312         53.5326      -0.00996711         148.516
0.54                   -0.590186        -142.056         -53.9896         52.5926         -53.7308         51.1354       -0.0100707         148.447
0.541                  -0.606566        -142.579         -53.8766          50.134         -53.6323         48.7399       -0.0101752         148.378
0.542                  -0.623237        -143.104         -53.7656         47.6763         -53.5354          46.346       -0.0102806         148.309
0.543                  -0.640201        -143.631         -53.6565           45.22         -53.4399         43.9537       -0.0103871          148.24
0.544                  -0.657461        -144.159         -53.5489          42.765         -53.3456         41.5627       -0.0104946         148.171
0.545                  -0.675018         -144.69         -53.4429         40.3115         -53.2523          39.173        -0.010603         148.101
0.546                  -0.692876        -145.222         -53.3381         37.8597         -53.1598         36.7844       -0.0107125         148.032
0.547                  -0.711037        -145.757         -53.2343         35.4096          -53.068         34.3969        -0.010823         147.962
0.548                  -0.729504        -146.293         -53.1316         32.9614         -52.9767         32.0103       -0.0109345         147.893
0.549                  -0.748279        -146.832         -53.0296         30.5149         -52.8857         29.6245       -0.0110471         147.823
0.55                   -0.767365        -147.373         -52.9282         28.0704          -52.795         27.2393       -0.0111607         147.753
0.551                  -0.786766        -147.915         -52.8274         25.6278         -52.7043         24.8546       -0.0112754         147.683
0.552                  -0.806483         -148.46         -52.7269          23.187         -52.6135         22.4704       -0.0113912         147.613
0.553                  -0.826521        -149.007         -52.6266         20.7482         -52.5225         20.0864       -0.0115081         147.543
0.554                  -0.846881        -149.556         -52.5265         18.3113         -52.4313         17.7027        -0.011626         147.472
0.555                  -0.867568        -150.107         -52.4264         15.8762         -52.3396          15.319       -0.0117451         147.402
0.556                  -0.888584         -150.66         -52.3261          13.443         -52.2475         12.9353       -0.0118653         147.331
0.557                  -0.909934        -151.216         -52.2257         11.0116         -52.1547         10.5515       -0.0119867         147.261
0.558                  -0.931619        -151.774          -52.125         8.58194         -52.0613         8.16747       -0.0121092          147.19
0.559                  -0.953645        -152.334         -52.0239         6.15398         -51.9671         5.78319       -0.0122329         147.119
0.56                   -0.976015        -152.896         -51.9224         3.72768         -51.8721         3.39856       -0.0123577         147.048
0.561                  -0.998732        -153.461         -51.8203         1.30298         -51.7762         1.01352       -0.0124838         146.977
0.562                    -1.0218        -154.028         -51.7176        -1.12017         -51.6794        -1.37199       -0.0126111         146.905
0.563                   -1.04523        -154.597         -51.6143        -3.54184         -51.5816        -3.75803       -0.0127396         146.834
0.564                   -1.06901        -155.169         -51.5103        -5.96209         -51.4827        -6.14464       -0.0128694         146.762
0.565                   -1.09316        -155.743         -51.4055        -8.38098         -51.3828        -8.53187       -0.0130005          146.69
0.566                   -1.11768        -156.319         -51.2999        -10.7986         -51.2817        -10.9198       -0.0131328         146.618
0.567                   -1.14257        -156.898         -51.1935         -13.215         -51.1795        -13.3084       -0.0132665         146.546
0.568                   -1.16784         -157.48         -51.0862        -15.6302         -51.0761        -15.6977       -0.0134014         146.474
0.569                    -1.1935        -158.064          -50.978        -18.0443         -50.9716        -18.0877       -0.0135378         146.402
0.57                    -1.21954        -158.651         -50.8689        -20.4575         -50.8658        -20.4786       -0.0136755          146.33
0.571                   -1.24599         -159.24         -50.7589        -22.8697         -50.7588        -22.8702       -0.0138146         146.257
0.572                   -1.27283        -159.832         -50.6479         -25.281         -50.6507        -25.2627       -0.0139551         146.184
0.573                   -1.30008        -160.427         -50.5359        -27.6916         -50.5413        -27.6561       -0.0140971         146.111
0.574                   -1.32774        -161.025          -50.423        -30.1015         -50.4306        -30.0503       -0.0142406         146.038
0.575                   -1.35583        -161.625         -50.3091        -32.5107         -50.3188        -32.4454       -0.0143856         145.965
0.576                   -1.38435        -162.228         -50.1942        -34.9194         -50.2058        -34.8415        -0.014532         145.892
0.577                    -1.4133        -162.834         -50.0784        -37.3277         -50.0917        -37.2384       -0.0146801         145.818
0.578                   -1.44269        -163.443         -49.9616        -39.7355         -49.9763        -39.6364       -0.0148297         145.745
0.579                   -1.47254        -164.055         -49.8439        -42.1431         -49.8598        -42.0353        -0.014981         145.671
0.58                    -1.50285        -164.671         -49.7252        -44.5504         -49.7423        -44.4352       -0.0151339         145.597
0.581                   -1.53363        -165.289         -49.6057        -46.9576         -49.6236        -46.8361       -0.0152885         145.523
0.582                   -1.56489         -165.91         -49.4852        -49.3648         -49.5039        -49.2381       -0.0154449         145.449
0.583                   -1.59664        -166.535         -49.3639         -51.772         -49.3832        -51.6412        -0.015603         145.374
0.584                   -1.62889        -167.162         -49.2418        -54.1793         -49.2615        -54.0454       -0.0157629           145.3
0.585                   -1.66166        -167.793         -49.1189        -56.5868         -49.1388        -56.4506       -0.0159247         145.225
0.586                   -1.69494        -168.428         -48.9952        -58.9947         -49.0153        -58.8571       -0.0160884          145.15
0.587                   -1.72877        -169.066         -48.8708        -61.4029         -48.8909        -61.2647        -0.016254         145.075
0.588                   -1.76315        -169.707         -48.7457        -63.8115         -48.7657        -63.6736       -0.0164216             145
0.589                   -1.79809        -170.352         -48.6199        -66.2207         -48.6397        -66.0837       -0.0165912         144.924
0.59                    -1.83361        -171.001         -48.4936        -68.6306         -48.5131         -68.495        -0.016763         144.849
0.591                   -1.86972        -171.653         -48.3666        -71.0411         -48.3857        -70.9077       -0.0169369         144.773
0.592                   -1.90645        -172.309         -48.2391        -73.4524         -48.2577        -73.3217       -0.0171131         144.697
0.593                   -1.94381        -172.968         -48.1111        -75.8645         -48.1292         -75.737       -0.0172915         144.621
0.594                   -1.98181        -173.632         -47.9827        -78.2776         -48.0002        -78.1537       -0.0174723         144.544
0.595                   -2.02048          -174.3         -47.8538        -80.6916         -47.8707        -80.5718       -0.0176556         144.468
0.596                   -2.05984        -174.971         -47.7246        -83.1066         -47.7408        -82.9913       -0.0178413         144.391
0.597                   -2.09991        -175.647         -47.5951        -85.5228         -47.6105        -85.4122       -0.0180297         144.314
0.598                   -2.14071        -176.327         -47.4654        -87.9401         -47.4799        -87.8345       -0.0182207         144.237
0.599                   -2.18226        -177.011         -47.3354        -90.3585         -47.3491        -90.2583       -0.0184145          144.16
0.6                      -2.2246        -177.699         -47.2053        -92.7782         -47.2181        -92.6835       -0.0186112         144.082
0.601                   -2.26775        -178.391          -47.075        -95.1992          -47.087        -95.1101       -0.0188109         144.005
0.602                   -2.31174        -179.088         -46.9447        -97.6214         -46.9558        -97.5382       -0.0190136         143.927
0.603                   -2.35659        -179.789         -46.8143        -100.045         -46.8246        -99.9677       -0.0192196         143.849
0.604                   -2.40235         179.505          -46.684         -102.47         -46.6934        -102.399       -0.0194288          143.77
0.605                   -2.44904         178.795         -46.5538        -104.896         -46.5622        -104.831       -0.0196416         143.692
0.606                   -2.49669          178.08         -46.4237        -107.323         -46.4312        -107.265       -0.0198579         143.613
0.607                   -2.54535          177.36         -46.2937        -109.752         -46.3004        -109.699        -0.020078         143.534
0.608                   -2.59506         176.636         -46.1639        -112.182         -46.1698        -112.136        -0.020302         143.455
0.609                   -2.64585         175.908         -46.0344        -114.613         -46.0394        -114.573       -0.0205301         143.375
0.61                    -2.69777         175.174         -45.9052        -117.046         -45.9094        -117.012       -0.0207623         143.296
0.611                   -2.75087         174.437         -45.7764        -119.479         -45.7797        -119.451        -0.020999         143.216
0.612                   -2.80518         173.694         -45.6479        -121.914         -45.6505        -121.892       -0.0212403         143.136
0.613                   -2.86076         172.947         -45.5198         -124.35         -45.5217        -124.333       -0.0214863         143.055
0.614                   -2.91766         172.196         -45.3922        -126.787         -45.3934        -126.776       -0.0217373         142.975
0.615                   -2.97593          171.44          -45.265        -129.224         -45.2656        -129.219       -0.0219935         142.894
0.616                   -3.03563         170.679         -45.1384        -131.663         -45.1383        -131.663        -0.022255         142.813
0.617                   -3.09681         169.914         -45.0124        -134.102         -45.0117        -134.107        -0.022522         142.732
0.618                   -3.15954         169.146         -44.8869        -136.542         -44.8856        -136.552       -0.0227948          142.65
0.619                   -3.22386         168.373          -44.762        -138.982         -44.7602        -138.997       -0.0230735         142.568
0.62                    -3.28985         167.596         -44.6378        -141.423         -44.6355        -141.442       -0.0233583         142.486
0.621                   -3.35757         166.816         -44.5143        -143.864         -44.5115        -143.888       -0.0236493         142.404
0.622                   -3.42707         166.032         -44.3914        -146.305         -44.3882        -146.333       -0.0239468         142.322
0.623                   -3.49842         165.246         -44.2692        -148.747         -44.2657        -148.778       -0.0242508         142.239
0.624                   -3.57169         164.456         -44.1477        -151.188         -44.1439        -151.223       -0.0245614         142.156
0.625                   -3.64694         163.664          -44.027        -153.629         -44.0229        -153.667       -0.0248787         142.072
0.626                   -3.72422         162.871          -43.907        -156.069         -43.9026        -156.111       -0.0252027         141.989
0.627                   -3.80361         162.075         -43.7878         -158.51         -43.7832        -158.554       -0.0255334         141.905
0.628                   -3.88516         161.279         -43.6693        -160.949         -43.6645        -160.996       -0.0258708         141.821
0.629                   -3.96893         160.482         -43.5516        -163.388         -43.5467        -163.437       -0.0262147         141.737
