! TOUCHSTONE file generated by CST MICROWAVE STUDIO
! Date and time: Fri Oct  2 18:58:32 2020
! Project name: Scenario_1_Free_Space_out_of_line.cst
! Parameters = {Lambda=346.42; Step_1=17.321; dy1=-120.567; dx1=1039; L_HA=400; MT=2.54; Rad_Dielectric=30; Rad_Lower=7.3; Rad_Upper=30; a_HA=580; a_WG=246; b_HA=500; b_WG=121; c_HA=0; c_WG=187; d_feed=85; h_feed=15; h_lower=18; h_upper=40}
! Header version: 2018
! Port assignment regex: !\s*Touchstone port\s*([0-9]+)\s*=\s*(CST MWS port|CST DS port)\s*([0-9]+|Zmin|Zmax)\s*\(\"(.*)\"\)(\s*mode\s*([0-9]+))?.*
! Touchstone port assignment:
! Touchstone port 1 = CST MWS port 1 ("")
! Touchstone port 2 = CST MWS port 2 ("")
# GHz S DB R 50
0.5                    -0.148076        -122.622         -63.7915         46.1877         -63.7915         46.1877      -0.00674341          151.11
0.501                  -0.154533        -123.061         -63.5758         44.0387         -63.5788         44.0129      -0.00681129         151.045
0.502                  -0.161133        -123.503         -63.3597         41.8633         -63.3656         41.8139      -0.00687928          150.98
0.503                  -0.167877        -123.946         -63.1434         39.6617         -63.1521         39.5906      -0.00694739         150.914
0.504                  -0.174767        -124.391         -62.9269         37.4339         -62.9384         37.3433      -0.00701562         150.849
0.505                  -0.181806        -124.837         -62.7104         35.1802         -62.7247         35.0722      -0.00708397         150.783
0.506                  -0.188997        -125.286         -62.4941         32.9008          -62.511         32.7775      -0.00715246         150.717
0.507                  -0.196341        -125.737         -62.2781         30.5962         -62.2976         30.4595      -0.00722109         150.652
0.508                  -0.203841        -126.189         -62.0626         28.2666         -62.0845         28.1185      -0.00728988         150.586
0.509                  -0.211499        -126.643         -61.8476         25.9125         -61.8719         25.7549      -0.00735882          150.52
0.51                   -0.219319          -127.1         -61.6333         23.5344         -61.6598         23.3693      -0.00742793         150.454
0.511                  -0.227302        -127.558         -61.4199         21.1329         -61.4485          20.962      -0.00749723         150.388
0.512                  -0.235453        -128.018         -61.2075         18.7087         -61.2381         18.5337      -0.00756671         150.321
0.513                  -0.243773         -128.48         -60.9962         16.2623         -61.0286         16.0849      -0.00763641         150.255
0.514                  -0.252266        -128.945         -60.7862         13.7946         -60.8203         13.6163      -0.00770633         150.189
0.515                  -0.260935        -129.411         -60.5776         11.3063         -60.6131         11.1286      -0.00777648         150.122
0.516                  -0.269784        -129.879         -60.3704         8.79833         -60.4072         8.62254       -0.0078469         150.056
0.517                  -0.278817         -130.35         -60.1649         6.27155         -60.2028         6.09894      -0.00791758         149.989
0.518                  -0.288035        -130.823          -59.961         3.72692         -59.9999         3.55864      -0.00798856         149.923
0.519                  -0.297445        -131.298          -59.759         1.16543         -59.7986         1.00249      -0.00805985         149.856
0.52                   -0.307049        -131.775         -59.5588        -1.41189          -59.599        -1.56859      -0.00813148         149.789
0.521                  -0.316851        -132.254         -59.3605        -4.00399         -59.4012        -4.15367      -0.00820348         149.722
0.522                  -0.326856        -132.735         -59.1643        -6.60979         -59.2052        -6.75178      -0.00827586         149.655
0.523                  -0.337069        -133.219         -58.9701         -9.2282          -59.011        -9.36196      -0.00834866         149.588
0.524                  -0.347493        -133.705         -58.7781        -11.8581         -58.8188        -11.9832      -0.00842191         149.521
0.525                  -0.358134        -134.193         -58.5881        -14.4984         -58.6286        -14.6146      -0.00849564         149.453
0.526                  -0.368996        -134.684         -58.4003         -17.148         -58.4403         -17.255      -0.00856989         149.386
0.527                  -0.380085        -135.177         -58.2146        -19.8059          -58.254        -19.9036      -0.00864468         149.318
0.528                  -0.391406        -135.672         -58.0311        -22.4708         -58.0697        -22.5593      -0.00872007         149.251
0.529                  -0.402964         -136.17         -57.8497        -25.1419         -57.8873        -25.2212      -0.00879609         149.183
0.53                   -0.414766         -136.67         -57.6704        -27.8181          -57.707        -27.8884      -0.00887279         149.115
0.531                  -0.426817        -137.173         -57.4931        -30.4984         -57.5286          -30.56       -0.0089502         149.047
0.532                  -0.439123        -137.678         -57.3179        -33.1819         -57.3521        -33.2352      -0.00902839         148.979
0.533                   -0.45169        -138.186         -57.1446        -35.8677         -57.1774        -35.9131       -0.0091074         148.911
0.534                  -0.464526        -138.696         -56.9732        -38.5551         -57.0046        -38.5929      -0.00918729         148.843
0.535                  -0.477636        -139.209         -56.8036        -41.2433         -56.8335        -41.2741      -0.00926811         148.775
0.536                  -0.491029        -139.724         -56.6358        -43.9315         -56.6642        -43.9558      -0.00934993         148.706
0.537                  -0.504711        -140.242         -56.4696        -46.6192         -56.4964        -46.6375       -0.0094328         148.638
0.538                   -0.51869        -140.763          -56.305        -49.3058         -56.3302        -49.3187      -0.00951679         148.569
0.539                  -0.532973        -141.286         -56.1419        -51.9908         -56.1655        -51.9988      -0.00960197           148.5
0.54                    -0.54757        -141.811         -55.9802        -54.6738         -56.0022        -54.6775      -0.00968842         148.431
0.541                  -0.562487         -142.34         -55.8198        -57.3543         -55.8402        -57.3543      -0.00977619         148.362
0.542                  -0.577733        -142.871         -55.6606        -60.0322         -55.6794         -60.029      -0.00986537         148.293
0.543                  -0.593317        -143.405         -55.5025        -62.7072         -55.5198        -62.7013      -0.00995604         148.224
0.544                  -0.609249        -143.941         -55.3455         -65.379         -55.3613         -65.371       -0.0100483         148.155
0.545                  -0.625537        -144.481         -55.1894        -68.0476         -55.2037         -68.038       -0.0101421         148.085
0.546                  -0.642191        -145.023         -55.0342         -70.713         -55.0471        -70.7021       -0.0102378         148.016
0.547                   -0.65922        -145.568         -54.8798        -73.3751         -54.8913        -73.3635       -0.0103352         147.946
0.548                  -0.676635        -146.115         -54.7261         -76.034         -54.7363         -76.022       -0.0104345         147.876
0.549                  -0.694446        -146.665          -54.573        -78.6898          -54.582        -78.6777       -0.0105358         147.807
0.55                   -0.712662        -147.218         -54.4204        -81.3426         -54.4283        -81.3308       -0.0106392         147.736
0.551                  -0.731295        -147.774         -54.2684        -83.9926         -54.2751        -83.9813       -0.0107447         147.666
0.552                  -0.750355        -148.333         -54.1168        -86.6399         -54.1225        -86.6294       -0.0108525         147.596
0.553                  -0.769853        -148.894         -53.9656        -89.2849         -53.9703        -89.2753       -0.0109626         147.526
0.554                  -0.789801        -149.458         -53.8147        -91.9277         -53.8186        -91.9193        -0.011075         147.455
0.555                  -0.810208        -150.025         -53.6641        -94.5687         -53.6672        -94.5616         -0.01119         147.385
0.556                  -0.831087        -150.595         -53.5138        -97.2082         -53.5162        -97.2025       -0.0113075         147.314
0.557                  -0.852448        -151.167         -53.3637        -99.8465         -53.3655        -99.8422       -0.0114276         147.243
0.558                  -0.874303        -151.742         -53.2139        -102.484         -53.2151        -102.481       -0.0115504         147.172
0.559                  -0.896664        -152.319         -53.0642        -105.121         -53.0649        -105.119       -0.0116759         147.101
0.56                    -0.91954        -152.899         -52.9148        -107.757          -52.915        -107.757       -0.0118042         147.029
0.561                  -0.942944        -153.482         -52.7655        -110.394         -52.7653        -110.395       -0.0119354         146.958
0.562                  -0.966885        -154.068         -52.6164        -113.031         -52.6159        -113.034       -0.0120693         146.887
0.563                  -0.991376        -154.655         -52.4675        -115.668         -52.4667        -115.672       -0.0122062         146.815
0.564                   -1.01643        -155.246         -52.3187        -118.307         -52.3177        -118.312       -0.0123459         146.743
0.565                   -1.04204        -155.839         -52.1702        -120.947         -52.1691        -120.953       -0.0124885         146.671
0.566                   -1.06824        -156.434          -52.022        -123.588         -52.0207        -123.596        -0.012634         146.599
0.567                   -1.09503        -157.031          -51.874        -126.232         -51.8726         -126.24       -0.0127824         146.527
0.568                   -1.12241        -157.631         -51.7263        -128.877         -51.7248        -128.886       -0.0129336         146.455
0.569                    -1.1504        -158.233         -51.5788        -131.525         -51.5773        -131.534       -0.0130876         146.382
0.57                      -1.179        -158.837         -51.4318        -134.175         -51.4303        -134.185       -0.0132443          146.31
0.571                   -1.20822        -159.443         -51.2851        -136.828         -51.2836        -136.838       -0.0134037         146.237
0.572                   -1.23806        -160.051         -51.1389        -139.483         -51.1374        -139.493       -0.0135658         146.164
0.573                   -1.26853        -160.661         -50.9931        -142.141         -50.9917        -142.152       -0.0137304         146.091
0.574                   -1.29963        -161.273         -50.8478        -144.802         -50.8465        -144.813       -0.0138974         146.018
0.575                   -1.33137        -161.886         -50.7031        -147.466         -50.7019        -147.477       -0.0140668         145.945
0.576                   -1.36375        -162.501          -50.559        -150.133         -50.5578        -150.143       -0.0142384         145.871
0.577                   -1.39676        -163.118         -50.4155        -152.803         -50.4144        -152.813       -0.0144122         145.798
0.578                   -1.43041        -163.736         -50.2726        -155.476         -50.2717        -155.485        -0.014588         145.724
0.579                   -1.46469        -164.356         -50.1305        -158.151         -50.1296         -158.16       -0.0147658          145.65
0.58                    -1.49961        -164.977         -49.9891         -160.83         -49.9883        -160.838       -0.0149454         145.576
0.581                   -1.53515          -165.6         -49.8486         -163.51         -49.8479        -163.518       -0.0151268         145.502
0.582                    -1.5713        -166.223         -49.7088        -166.194         -49.7082        -166.201       -0.0153097         145.428
0.583                   -1.60807        -166.848         -49.5699        -168.879         -49.5693        -168.886       -0.0154942         145.354
0.584                   -1.64545        -167.474         -49.4319        -171.567         -49.4314        -171.572       -0.0156802         145.279
0.585                   -1.68341        -168.101         -49.2947        -174.256         -49.2943        -174.261       -0.0158675         145.204
0.586                   -1.72196        -168.729         -49.1586        -176.947         -49.1582        -176.951       -0.0160561          145.13
0.587                   -1.76108        -169.358         -49.0233         -179.64          -49.023        -179.643       -0.0162459         145.055
0.588                   -1.80075        -169.988          -48.889         177.667         -48.8888         177.664       -0.0164369         144.979
0.589                   -1.84097        -170.619         -48.7557         174.972         -48.7555          174.97        -0.016629         144.904
0.59                    -1.88172        -171.251         -48.6234         172.277         -48.6233         172.276       -0.0168223         144.828
0.591                   -1.92298        -171.885         -48.4921         169.582          -48.492         169.581       -0.0170166         144.753
0.592                   -1.96474        -172.519         -48.3618         166.887         -48.3616         166.887       -0.0172121         144.677
0.593                   -2.00698        -173.155         -48.2324         164.192         -48.2323         164.192       -0.0174086         144.601
0.594                    -2.0497        -173.791          -48.104         161.497         -48.1039         161.498       -0.0176063         144.525
0.595                   -2.09287         -174.43         -47.9765         158.804         -47.9764         158.805       -0.0178052         144.448
0.596                   -2.13649         -175.07           -47.85         156.111         -47.8499         156.113       -0.0180054         144.371
0.597                   -2.18054        -175.711         -47.7245          153.42         -47.7243         153.422       -0.0182068         144.295
0.598                   -2.22503        -176.354         -47.5998          150.73         -47.5996         150.732       -0.0184097         144.218
0.599                   -2.26993        -176.999         -47.4759         148.042         -47.4758         148.044       -0.0186141         144.141
0.6                     -2.31524        -177.647         -47.3529         145.357         -47.3528         145.359       -0.0188201         144.063
0.601                   -2.36097        -178.297         -47.2307         142.673         -47.2306         142.675       -0.0190278         143.986
0.602                   -2.40711        -178.949         -47.1093         139.992         -47.1091         139.994       -0.0192374         143.908
0.603                   -2.45367        -179.604         -46.9886         137.313         -46.9884         137.315       -0.0194489          143.83
0.604                   -2.50066         179.737         -46.8685         134.636         -46.8684         134.638       -0.0196627         143.752
0.605                   -2.54808         179.076         -46.7492         131.963          -46.749         131.964       -0.0198788         143.673
0.606                   -2.59597         178.411         -46.6304         129.292         -46.6302         129.293       -0.0200974         143.595
0.607                   -2.64432         177.742         -46.5122         126.624          -46.512         126.625       -0.0203187         143.516
0.608                   -2.69317         177.068         -46.3945         123.958         -46.3943         123.959       -0.0205428         143.437
0.609                   -2.74256         176.391         -46.2772         121.296         -46.2771         121.297         -0.02077         143.357
0.61                     -2.7925         175.709         -46.1604         118.636         -46.1604         118.637       -0.0210004         143.278
0.611                   -2.84304         175.022          -46.044         115.979          -46.044          115.98       -0.0212343         143.198
0.612                   -2.89421          174.33          -45.928         113.325          -45.928         113.325       -0.0214718         143.118
0.613                   -2.94608         173.632         -45.8123         110.673         -45.8123         110.673       -0.0217132         143.038
0.614                   -2.99868         172.929         -45.6968         108.024         -45.6968         108.023       -0.0219586         142.957
0.615                   -3.05207          172.22         -45.5816         105.377         -45.5817         105.376       -0.0222084         142.877
0.616                   -3.10631         171.506         -45.4666         102.733         -45.4667         102.731       -0.0224626         142.796
0.617                   -3.16147         170.785         -45.3518          100.09         -45.3519         100.088       -0.0227215         142.714
0.618                    -3.2176         170.058         -45.2371         97.4491         -45.2373         97.4472       -0.0229852         142.633
0.619                   -3.27477         169.325         -45.1225         94.8098         -45.1227         94.8078       -0.0232541         142.551
0.62                    -3.33307         168.585         -45.0081          92.172         -45.0083         92.1697       -0.0235283         142.469
0.621                   -3.39257         167.839         -44.8937         89.5353          -44.894         89.5329        -0.023808         142.387
0.622                   -3.45333         167.086         -44.7794         86.8996         -44.7797         86.8971       -0.0240933         142.305
0.623                   -3.51545         166.327         -44.6652         84.2647         -44.6655          84.262       -0.0243845         142.222
0.624                   -3.57901         165.561          -44.551         81.6302         -44.5514         81.6274       -0.0246818         142.139
0.625                   -3.64408         164.789         -44.4369          78.996         -44.4373         78.9932       -0.0249852         142.056
0.626                   -3.71076         164.011         -44.3227         76.3619         -44.3232          76.359       -0.0252951         141.972
0.627                   -3.77913         163.227         -44.2087         73.7275         -44.2091         73.7245       -0.0256114         141.888
0.628                   -3.84929         162.437         -44.0946         71.0926         -44.0951         71.0897       -0.0259344         141.804
0.629                    -3.9213         161.641         -43.9807         68.4571         -43.9812         68.4542       -0.0262642          141.72
