! TOUCHSTONE file generated by CST MICROWAVE STUDIO
! Date and time: Fri Oct  2 18:36:50 2020
! Project name: Scenario_1_Free_Space_out_of_line.cst
! Parameters = {Lambda=346.42; Step_1=17.321; dy1=-137.908; dx1=173; L_HA=400; MT=2.54; Rad_Dielectric=30; Rad_Lower=7.3; Rad_Upper=30; a_HA=580; a_WG=246; b_HA=500; b_WG=121; c_HA=0; c_WG=187; d_feed=85; h_feed=15; h_lower=18; h_upper=40}
! Header version: 2018
! Port assignment regex: !\s*Touchstone port\s*([0-9]+)\s*=\s*(CST MWS port|CST DS port)\s*([0-9]+|Zmin|Zmax)\s*\(\"(.*)\"\)(\s*mode\s*([0-9]+))?.*
! Touchstone port assignment:
! Touchstone port 1 = CST MWS port 1 ("")
! Touchstone port 2 = CST MWS port 2 ("")
# GHz S DB R 50
0.5                    -0.156843        -122.722         -57.3133         163.294         -57.2854         163.486      -0.00661809         151.095
0.501                  -0.163247        -123.159         -57.0942         161.388         -57.1159          161.75      -0.00665111          151.03
0.502                  -0.169764        -123.598         -56.8776         159.528         -56.9454         160.034       -0.0066849         150.964
0.503                  -0.176395        -124.039         -56.6636         157.712          -56.774         158.338      -0.00671948         150.899
0.504                  -0.183143        -124.482         -56.4521         155.935         -56.6018         156.661      -0.00675487         150.833
0.505                  -0.190009        -124.927         -56.2433         154.195          -56.429         155.002      -0.00679108         150.767
0.506                  -0.196996        -125.373         -56.0371         152.489         -56.2556         153.361      -0.00682813         150.701
0.507                  -0.204106        -125.822         -55.8334         150.814         -56.0818         151.737      -0.00686603         150.636
0.508                  -0.211341        -126.272         -55.6322         149.168         -55.9076          150.13       -0.0069048          150.57
0.509                  -0.218704        -126.725         -55.4335          147.55         -55.7331         148.538      -0.00694446         150.504
0.51                   -0.226198        -127.179         -55.2371         145.955         -55.5585         146.961      -0.00698501         150.437
0.511                  -0.233824        -127.635         -55.0431         144.384         -55.3837         145.399      -0.00702649         150.371
0.512                  -0.241586        -128.094         -54.8514         142.833         -55.2089          143.85       -0.0070689         150.305
0.513                  -0.249486        -128.554         -54.6619         141.302         -55.0341         142.315      -0.00711227         150.239
0.514                  -0.257528        -129.017         -54.4744         139.789         -54.8593         140.792      -0.00715661         150.172
0.515                  -0.265715        -129.482         -54.2891         138.292         -54.6847          139.28      -0.00720194         150.106
0.516                  -0.274051        -129.949         -54.1057          136.81         -54.5102          137.78      -0.00724829         150.039
0.517                  -0.282537        -130.418         -53.9241         135.342         -54.3359          136.29      -0.00729568         149.972
0.518                  -0.291179        -130.889         -53.7444         133.886         -54.1618         134.811      -0.00734411         149.905
0.519                   -0.29998        -131.363         -53.5665         132.442         -53.9879         133.341      -0.00739363         149.838
0.52                   -0.308944        -131.839         -53.3902         131.009         -53.8144         131.879      -0.00744424         149.771
0.521                  -0.318074        -132.317         -53.2155         129.586         -53.6411         130.426      -0.00749598         149.704
0.522                  -0.327375        -132.798         -53.0423         128.171         -53.4682         128.981      -0.00754886         149.637
0.523                  -0.336852        -133.281         -52.8706         126.764         -53.2956         127.543      -0.00760291          149.57
0.524                  -0.346508        -133.766         -52.7003         125.365         -53.1233         126.112      -0.00765816         149.502
0.525                  -0.356349        -134.254         -52.5313         123.972         -52.9515         124.687      -0.00771462         149.435
0.526                   -0.36638        -134.745         -52.3635         122.585           -52.78         123.269      -0.00777233         149.367
0.527                  -0.376605        -135.238          -52.197         121.203         -52.6089         121.855      -0.00783132           149.3
0.528                  -0.387029        -135.733         -52.0316         119.826         -52.4383         120.447       -0.0078916         149.232
0.529                  -0.397659        -136.231         -51.8673         118.454          -52.268         119.043      -0.00795322         149.164
0.53                     -0.4085        -136.732         -51.7041         117.084         -52.0981         117.643      -0.00801619         149.096
0.531                  -0.419558        -137.235         -51.5418         115.718         -51.9287         116.247      -0.00808055         149.028
0.532                  -0.430839        -137.741         -51.3804         114.355         -51.7597         114.855      -0.00814632          148.96
0.533                  -0.442349         -138.25         -51.2199         112.993         -51.5911         113.465      -0.00821355         148.892
0.534                  -0.454094        -138.762         -51.0603         111.634          -51.423         112.078      -0.00828226         148.823
0.535                  -0.466082        -139.276         -50.9014         110.276         -51.2553         110.694      -0.00835248         148.755
0.536                   -0.47832        -139.793         -50.7433         108.919          -51.088         109.311      -0.00842425         148.686
0.537                  -0.490815        -140.313         -50.5859         107.563         -50.9211          107.93      -0.00849761         148.617
0.538                  -0.503574        -140.836         -50.4291         106.207         -50.7547          106.55      -0.00857258         148.548
0.539                  -0.516605        -141.362          -50.273         104.851         -50.5887         105.172      -0.00864921          148.48
0.54                   -0.529917        -141.891         -50.1174         103.495         -50.4231         103.794      -0.00872754         148.411
0.541                  -0.543517        -142.423         -49.9624         102.139         -50.2579         102.416      -0.00880759         148.341
0.542                  -0.557414        -142.957          -49.808         100.781         -50.0932         101.039      -0.00888941         148.272
0.543                  -0.571617        -143.495          -49.654         99.4233         -49.9288          99.662      -0.00897304         148.203
0.544                  -0.586136        -144.036         -49.5005          98.064         -49.7649         98.2844      -0.00905852         148.133
0.545                  -0.600979         -144.58         -49.3474         96.7032         -49.6015         96.9063       -0.0091459         148.064
0.546                  -0.616156        -145.128         -49.1947         95.3407         -49.4384         95.5273       -0.0092352         147.994
0.547                  -0.631679        -145.678         -49.0424         93.9764         -49.2757         94.1474      -0.00932649         147.924
0.548                  -0.647556        -146.232         -48.8905           92.61         -49.1135         92.7662      -0.00941979         147.854
0.549                  -0.663798        -146.789         -48.7389         91.2414         -48.9516         91.3836      -0.00951516         147.784
0.55                   -0.680418        -147.349         -48.5876         89.8703         -48.7902         89.9993      -0.00961264         147.714
0.551                  -0.697425        -147.912         -48.4366         88.4967         -48.6291         88.6132      -0.00971228         147.644
0.552                  -0.714833        -148.479         -48.2859         87.1204         -48.4685         87.2251      -0.00981412         147.573
0.553                  -0.732652        -149.049         -48.1355         85.7412         -48.3082         85.8347      -0.00991821         147.503
0.554                  -0.750896        -149.623         -47.9853          84.359         -48.1484          84.442       -0.0100246         147.432
0.555                  -0.769576          -150.2         -47.8354         82.9737          -47.989         83.0468       -0.0101333         147.361
0.556                  -0.788707         -150.78         -47.6856          81.585         -47.8299         81.6488       -0.0102445          147.29
0.557                  -0.808301        -151.364         -47.5361          80.193         -47.6713          80.248       -0.0103581         147.219
0.558                  -0.828373        -151.951         -47.3868         78.7975          -47.513         78.8442       -0.0104741         147.148
0.559                  -0.848936        -152.541         -47.2377         77.3983         -47.3552         77.4373       -0.0105928         147.077
0.56                   -0.870005        -153.135         -47.0888         75.9954         -47.1978         76.0272        -0.010714         147.005
0.561                  -0.891595        -153.733           -46.94         74.5888         -47.0407         74.6136       -0.0108378         146.934
0.562                  -0.913721        -154.334         -46.7915         73.1782         -46.8841         73.1966       -0.0109644         146.862
0.563                    -0.9364        -154.939         -46.6431         71.7636         -46.7279          71.776       -0.0110937          146.79
0.564                  -0.959646        -155.547         -46.4948         70.3449         -46.5721         70.3516       -0.0112258         146.718
0.565                  -0.983476        -156.158         -46.3468         68.9221         -46.4167         68.9235       -0.0113608         146.646
0.566                   -1.00791        -156.773         -46.1989         67.4951         -46.2617         67.4914       -0.0114986         146.574
0.567                   -1.03296        -157.392         -46.0512         66.0638         -46.1072         66.0554       -0.0116394         146.501
0.568                   -1.05864        -158.014         -45.9036         64.6282          -45.953         64.6153       -0.0117832         146.429
0.569                   -1.08498         -158.64         -45.7562         63.1882         -45.7993         63.1711         -0.01193         146.356
0.57                    -1.11198        -159.269          -45.609         61.7437          -45.646         61.7227       -0.0120799         146.283
0.571                   -1.13968        -159.901          -45.462         60.2948         -45.4932           60.27        -0.012233          146.21
0.572                   -1.16809        -160.537         -45.3151         58.8413         -45.3408          58.813       -0.0123892         146.137
0.573                   -1.19722        -161.176         -45.1684         57.3833         -45.1889         57.3517       -0.0125486         146.064
0.574                   -1.22709        -161.819          -45.022         55.9207         -45.0374         55.8859       -0.0127113         145.991
0.575                   -1.25774        -162.465         -44.8757         54.4535         -44.8864         54.4157       -0.0128772         145.917
0.576                   -1.28916        -163.114         -44.7296         52.9816         -44.7359          52.941       -0.0130465         145.843
0.577                    -1.3214        -163.767         -44.5838         51.5051         -44.5858         51.4618       -0.0132191          145.77
0.578                   -1.35445        -164.422         -44.4381         50.0239         -44.4362         49.9781       -0.0133952         145.696
0.579                   -1.38836        -165.081         -44.2928          48.538         -44.2871         48.4899       -0.0135746         145.621
0.58                    -1.42312        -165.743         -44.1476         47.0475         -44.1386         46.9972       -0.0137575         145.547
0.581                   -1.45878        -166.408         -44.0028         45.5523         -43.9905         45.4999       -0.0139438         145.473
0.582                   -1.49534        -167.076         -43.8582         44.0525         -43.8429         43.9981       -0.0141336         145.398
0.583                   -1.53283        -167.747         -43.7138          42.548         -43.6959         42.4918       -0.0143269         145.323
0.584                   -1.57126         -168.42         -43.5698         41.0389         -43.5494          40.981       -0.0145237         145.248
0.585                   -1.61066        -169.097         -43.4261         39.5251         -43.4034         39.4657       -0.0147241         145.173
0.586                   -1.65106        -169.776         -43.2827         38.0068          -43.258         37.9459       -0.0149279         145.098
0.587                   -1.69246        -170.457         -43.1397          36.484         -43.1132         36.4218       -0.0151353         145.023
0.588                   -1.73489        -171.141          -42.997         34.9566         -42.9689         34.8933       -0.0153461         144.947
0.589                   -1.77837        -171.827         -42.8547         33.4248         -42.8252         33.3605       -0.0155605         144.871
0.59                    -1.82292        -172.515         -42.7128         31.8886         -42.6821         31.8233       -0.0157784         144.796
0.591                   -1.86855        -173.206         -42.5712          30.348         -42.5396          30.282       -0.0159997          144.72
0.592                    -1.9153        -173.898         -42.4301         28.8032         -42.3977         28.7366       -0.0162245         144.643
0.593                   -1.96317        -174.592         -42.2894         27.2541         -42.2563          27.187       -0.0164527         144.567
0.594                   -2.01218        -175.287         -42.1492         25.7008         -42.1157         25.6334       -0.0166844          144.49
0.595                   -2.06236        -175.984         -42.0094         24.1434         -41.9756          24.076       -0.0169194         144.414
0.596                   -2.11371        -176.683           -41.87         22.5821         -41.8362         22.5146       -0.0171577         144.337
0.597                   -2.16626        -177.382         -41.7312         21.0168         -41.6974         20.9495       -0.0173994          144.26
0.598                   -2.22002        -178.082         -41.5929         19.4476         -41.5593         19.3807       -0.0176443         144.182
0.599                     -2.275        -178.783         -41.4551         17.8748         -41.4218         17.8084       -0.0178925         144.105
0.6                     -2.33122        -179.485         -41.3178         16.2982          -41.285         16.2325       -0.0181438         144.027
0.601                   -2.38869         179.813         -41.1811         14.7182         -41.1489         14.6534       -0.0183983         143.949
0.602                   -2.44742         179.111         -41.0449         13.1347         -41.0134         13.0709       -0.0186559         143.871
0.603                   -2.50743         178.409         -40.9094         11.5478         -40.8786         11.4853       -0.0189165         143.793
0.604                   -2.56871         177.707         -40.7744         9.95776         -40.7445         9.89666       -0.0191802         143.715
0.605                   -2.63129         177.006           -40.64         8.36461         -40.6111         8.30512       -0.0194467         143.636
0.606                   -2.69516         176.305         -40.5062         6.76849         -40.4784         6.71078       -0.0197163         143.557
0.607                   -2.76033         175.605          -40.373         5.16953         -40.3464         5.11377       -0.0199886         143.478
0.608                    -2.8268         174.907         -40.2405         3.56785         -40.2151         3.51422       -0.0202638         143.399
0.609                   -2.89458          174.21         -40.1086         1.96358         -40.0845         1.91227       -0.0205418         143.319
0.61                    -2.96367         173.515         -39.9774        0.356864         -39.9546        0.308029       -0.0208226          143.24
0.611                   -3.03406         172.821         -39.8468        -1.25217         -39.8254        -1.29836       -0.0211061          143.16
0.612                   -3.10575          172.13         -39.7169        -2.86337         -39.6969        -2.90676       -0.0213922          143.08
0.613                   -3.17874         171.441         -39.5877         -4.4766          -39.569        -4.51704       -0.0216811             143
0.614                   -3.25301         170.755         -39.4591        -6.09172         -39.4419        -6.12906       -0.0219726         142.919
0.615                   -3.32857         170.072         -39.3313        -7.70859         -39.3155        -7.74269       -0.0222668         142.838
0.616                   -3.40539         169.392         -39.2041        -9.32706         -39.1898        -9.35779       -0.0225637         142.757
0.617                   -3.48346         168.716         -39.0776         -10.947         -39.0648        -10.9742       -0.0228632         142.676
0.618                   -3.56278         168.043         -38.9518        -12.5682         -38.9405        -12.5919       -0.0231654         142.595
0.619                   -3.64331         167.375         -38.8267        -14.1906         -38.8169        -14.2106       -0.0234702         142.513
0.62                    -3.72505          166.71         -38.7023         -15.814         -38.6939        -15.8302       -0.0237778         142.431
0.621                   -3.80796          166.05         -38.5786        -17.4383         -38.5716        -17.4506       -0.0240882         142.349
0.622                   -3.89203         165.395         -38.4556        -19.0632           -38.45        -19.0717       -0.0244014         142.267
0.623                   -3.97722         164.745         -38.3333        -20.6888          -38.329        -20.6934       -0.0247174         142.184
0.624                   -4.06351           164.1         -38.2117        -22.3148         -38.2087        -22.3154       -0.0250364         142.101
0.625                   -4.15087          163.46         -38.0907        -23.9412          -38.089        -23.9378       -0.0253584         142.018
0.626                   -4.23927         162.826         -37.9704        -25.5677           -37.97        -25.5603       -0.0256835         141.934
0.627                   -4.32866         162.198         -37.8508        -27.1942         -37.8516        -27.1828       -0.0260118         141.851
0.628                   -4.41902         161.575         -37.7319        -28.8206         -37.7338        -28.8053       -0.0263434         141.767
0.629                   -4.51029         160.959         -37.6136        -30.4468         -37.6165        -30.4276       -0.0266785         141.682
