! TOUCHSTONE file generated by CST MICROWAVE STUDIO
! Date and time: Fri Oct  2 16:20:34 2020
! Project name: Scenario_1_Free_Space_out_of_line.cst
! Parameters = {Lambda=346.42; Step_1=17.321; dy1=-137.908; dx1=346; L_HA=400; MT=2.54; Rad_Dielectric=30; Rad_Lower=7.3; Rad_Upper=30; a_HA=580; a_WG=246; b_HA=500; b_WG=121; c_HA=0; c_WG=187; d_feed=85; h_feed=15; h_lower=18; h_upper=40}
! Header version: 2018
! Port assignment regex: !\s*Touchstone port\s*([0-9]+)\s*=\s*(CST MWS port|CST DS port)\s*([0-9]+|Zmin|Zmax)\s*\(\"(.*)\"\)(\s*mode\s*([0-9]+))?.*
! Touchstone port assignment:
! Touchstone port 1 = CST MWS port 1 ("")
! Touchstone port 2 = CST MWS port 2 ("")
# GHz S DB R 50
0.5                    -0.143033        -122.688         -59.6994         76.9347         -59.6994         76.9347      -0.00664639         151.088
0.501                  -0.148662        -123.161         -59.4872         75.5286         -59.4872         75.5286      -0.00674108         151.022
0.502                  -0.154655        -123.635         -59.2749         74.1128          -59.275         74.1129      -0.00683601         150.957
0.503                  -0.161007         -124.11         -59.0627         72.6874         -59.0628         72.6875       -0.0069312         150.891
0.504                  -0.167714        -124.585         -58.8506          71.252         -58.8506         71.2523      -0.00702663         150.825
0.505                  -0.174773        -125.062         -58.6385         69.8067         -58.6386          69.807      -0.00712231          150.76
0.506                  -0.182179        -125.539         -58.4265         68.3513         -58.4266         68.3517      -0.00721823         150.694
0.507                  -0.189928        -126.017         -58.2147         66.8857         -58.2148         66.8861      -0.00731439         150.628
0.508                  -0.198016        -126.496         -58.0031         65.4098         -58.0032         65.4102      -0.00741078         150.562
0.509                   -0.20644        -126.975         -57.7916         63.9235         -57.7917         63.9239      -0.00750742         150.496
0.51                   -0.215194        -127.455         -57.5805         62.4266         -57.5806         62.4271       -0.0076043          150.43
0.511                  -0.224276        -127.936         -57.3696         60.9192         -57.3697         60.9197      -0.00770141         150.364
0.512                   -0.23368        -128.418          -57.159         59.4011         -57.1591         59.4016      -0.00779876         150.298
0.513                  -0.243403        -128.901         -56.9488         57.8723         -56.9489         57.8728      -0.00789634         150.231
0.514                   -0.25344        -129.384          -56.739         56.3326         -56.7391         56.3333      -0.00799415         150.165
0.515                  -0.263788        -129.868         -56.5296         54.7822         -56.5297         54.7828       -0.0080922         150.099
0.516                  -0.274442        -130.353         -56.3207         53.2209         -56.3208         53.2216      -0.00819048         150.032
0.517                  -0.285398        -130.839         -56.1123         51.6487         -56.1125         51.6494      -0.00828899         149.965
0.518                  -0.296652        -131.325         -55.9046         50.0656         -55.9047         50.0663      -0.00838773         149.899
0.519                  -0.308201        -131.812         -55.6974         48.4717         -55.6975         48.4724      -0.00848671         149.832
0.52                   -0.320039          -132.3         -55.4909         46.8668          -55.491         46.8676      -0.00858592         149.765
0.521                  -0.332164        -132.789         -55.2851         45.2512         -55.2852         45.2519      -0.00868535         149.698
0.522                  -0.344571        -133.279           -55.08         43.6247         -55.0801         43.6255      -0.00878502         149.631
0.523                  -0.357257         -133.77         -54.8757         41.9875         -54.8759         41.9883      -0.00888493         149.564
0.524                  -0.370217        -134.261         -54.6723         40.3396         -54.6724         40.3404      -0.00898506         149.497
0.525                  -0.383449        -134.754         -54.4698         38.6812         -54.4699          38.682      -0.00908543         149.429
0.526                  -0.396948        -135.247         -54.2682         37.0123         -54.2683         37.0131      -0.00918603         149.362
0.527                   -0.41071        -135.741         -54.0676         35.3331         -54.0677         35.3339      -0.00928688         149.294
0.528                  -0.424733        -136.236          -53.868         33.6437         -53.8681         33.6445      -0.00938795         149.227
0.529                  -0.439013        -136.733         -53.6695         31.9442         -53.6696          31.945      -0.00948927         149.159
0.53                   -0.453547         -137.23         -53.4721         30.2349         -53.4722         30.2357      -0.00959083         149.092
0.531                  -0.468331        -137.728         -53.2759         28.5159          -53.276         28.5167      -0.00969264         149.024
0.532                  -0.483363        -138.227         -53.0809         26.7874          -53.081         26.7882      -0.00979469         148.956
0.533                  -0.498639        -138.728         -52.8871         25.0496         -52.8872         25.0504      -0.00989699         148.888
0.534                  -0.514157        -139.229         -52.6947         23.3029         -52.6948         23.3036      -0.00999954          148.82
0.535                  -0.529913        -139.732         -52.5035         21.5473         -52.5036         21.5481       -0.0101023         148.751
0.536                  -0.545906        -140.236         -52.3138         19.7833         -52.3139         19.7841       -0.0102054         148.683
0.537                  -0.562133        -140.741         -52.1254         18.0112         -52.1255         18.0119       -0.0103088         148.615
0.538                  -0.578592        -141.247         -51.9385         16.2311         -51.9386         16.2318       -0.0104124         148.546
0.539                   -0.59528        -141.754         -51.7531         14.4434         -51.7532         14.4441       -0.0105162         148.477
0.54                   -0.612195        -142.263         -51.5692         12.6484         -51.5693         12.6491       -0.0106204         148.409
0.541                  -0.629336        -142.774         -51.3868         10.8466         -51.3869         10.8473       -0.0107248          148.34
0.542                  -0.646701        -143.285          -51.206         9.03818         -51.2061         9.03883       -0.0108296         148.271
0.543                  -0.664289        -143.798         -51.0268         7.22357         -51.0268         7.22419       -0.0109346         148.202
0.544                  -0.682098        -144.313         -50.8491         5.40313         -50.8492         5.40373       -0.0110399         148.133
0.545                  -0.700127        -144.829         -50.6731         3.57725         -50.6732         3.57782       -0.0111456         148.063
0.546                  -0.718376        -145.347         -50.4988          1.7463         -50.4988         1.74684       -0.0112516         147.994
0.547                  -0.736843        -145.866          -50.326      -0.0893192         -50.3261      -0.0888006       -0.0113579         147.925
0.548                  -0.755529        -146.387          -50.155        -1.92921          -50.155        -1.92872       -0.0114646         147.855
0.549                  -0.774433         -146.91         -49.9856        -3.77297         -49.9856        -3.77251       -0.0115716         147.785
0.55                   -0.793556        -147.435         -49.8178         -5.6202         -49.8179        -5.61977       -0.0116789         147.716
0.551                  -0.812896        -147.961         -49.6517        -7.47051         -49.6518         -7.4701       -0.0117867         147.646
0.552                  -0.832456        -148.489         -49.4873        -9.32348         -49.4873         -9.3231       -0.0118949         147.576
0.553                  -0.852236         -149.02         -49.3245        -11.1787         -49.3245        -11.1784       -0.0120034         147.505
0.554                  -0.872237        -149.552         -49.1634        -13.0359         -49.1634        -13.0355       -0.0121124         147.435
0.555                   -0.89246        -150.086         -49.0039        -14.8945         -49.0039        -14.8942       -0.0122218         147.365
0.556                  -0.912908        -150.623         -48.8459        -16.7542          -48.846        -16.7539       -0.0123317         147.294
0.557                  -0.933582        -151.161         -48.6896        -18.6147         -48.6896        -18.6144       -0.0124421         147.223
0.558                  -0.954484        -151.702         -48.5349        -20.4755         -48.5349        -20.4753       -0.0125529         147.153
0.559                  -0.975617        -152.245         -48.3816        -22.3364         -48.3816        -22.3362       -0.0126643         147.082
0.56                   -0.996984        -152.791         -48.2299         -24.197         -48.2299        -24.1968       -0.0127762         147.011
0.561                   -1.01859        -153.339         -48.0797        -26.0569         -48.0797        -26.0567       -0.0128887          146.94
0.562                   -1.04044         -153.89         -47.9309        -27.9158         -47.9309        -27.9157       -0.0130017         146.868
0.563                   -1.06253        -154.443         -47.7835        -29.7735         -47.7835        -29.7734       -0.0131154         146.797
0.564                   -1.08487        -154.999         -47.6375        -31.6297         -47.6375        -31.6296       -0.0132297         146.725
0.565                   -1.10746        -155.557         -47.4928         -33.484         -47.4928         -33.484       -0.0133447         146.654
0.566                   -1.13032        -156.118         -47.3494        -35.3363         -47.3494        -35.3363       -0.0134604         146.582
0.567                   -1.15344        -156.683         -47.2073        -37.1863         -47.2073        -37.1863       -0.0135768          146.51
0.568                   -1.17684         -157.25         -47.0664        -39.0338         -47.0664        -39.0338       -0.0136941         146.438
0.569                   -1.20051         -157.82         -46.9266        -40.8786         -46.9266        -40.8786       -0.0138121         146.365
0.57                    -1.22447        -158.393          -46.788        -42.7205          -46.788        -42.7205        -0.013931         146.293
0.571                   -1.24872         -158.97         -46.6504        -44.5593         -46.6504        -44.5594       -0.0140508          146.22
0.572                   -1.27328        -159.549         -46.5138         -46.395         -46.5138         -46.395       -0.0141715         146.148
0.573                   -1.29814        -160.132         -46.3782        -48.2273         -46.3782        -48.2274       -0.0142933         146.075
0.574                   -1.32333        -160.719         -46.2436        -50.0562         -46.2436        -50.0563        -0.014416         146.002
0.575                   -1.34884        -161.309         -46.1098        -51.8816         -46.1098        -51.8817       -0.0145399         145.929
0.576                    -1.3747        -161.902         -45.9769        -53.7034         -45.9769        -53.7035       -0.0146649         145.855
0.577                    -1.4009        -162.499         -45.8447        -55.5215         -45.8447        -55.5217       -0.0147912         145.782
0.578                   -1.42748          -163.1         -45.7133         -57.336         -45.7133        -57.3361       -0.0149187         145.708
0.579                   -1.45442        -163.705         -45.5826        -59.1468         -45.5826        -59.1469       -0.0150476         145.635
0.58                    -1.48176        -164.314         -45.4525        -60.9538         -45.4525         -60.954       -0.0151778         145.561
0.581                   -1.50949        -164.926          -45.323        -62.7572          -45.323        -62.7574       -0.0153096         145.487
0.582                   -1.53765        -165.543         -45.1941        -64.5569         -45.1941        -64.5571       -0.0154429         145.412
0.583                   -1.56623        -166.164         -45.0657         -66.353         -45.0657        -66.3532       -0.0155779         145.338
0.584                   -1.59527        -166.789         -44.9378        -68.1455         -44.9378        -68.1457       -0.0157146         145.263
0.585                   -1.62477        -167.419         -44.8103        -69.9345         -44.8103        -69.9347       -0.0158531         145.188
0.586                   -1.65475        -168.053         -44.6831        -71.7201         -44.6831        -71.7203       -0.0159935         145.113
0.587                   -1.68524        -168.691         -44.5564        -73.5024         -44.5564        -73.5026       -0.0161359         145.038
0.588                   -1.71625        -169.334         -44.4299        -75.2815         -44.4299        -75.2816       -0.0162804         144.963
0.589                    -1.7478        -169.982         -44.3037        -77.0574         -44.3037        -77.0576       -0.0164271         144.888
0.59                    -1.77991        -170.634         -44.1778        -78.8304         -44.1778        -78.8305       -0.0165761         144.812
0.591                    -1.8126        -171.292         -44.0521        -80.6005         -44.0521        -80.6006       -0.0167275         144.736
0.592                   -1.84591        -171.954         -43.9266        -82.3679         -43.9266        -82.3681       -0.0168815          144.66
0.593                   -1.87984        -172.621         -43.8012        -84.1328         -43.8012        -84.1329       -0.0170381         144.584
0.594                   -1.91444        -173.294         -43.6759        -85.8952         -43.6759        -85.8954       -0.0171976         144.507
0.595                   -1.94972        -173.971         -43.5508        -87.6555         -43.5508        -87.6556       -0.0173599         144.431
0.596                   -1.98571        -174.654         -43.4257        -89.4137         -43.4257        -89.4138       -0.0175253         144.354
0.597                   -2.02245        -175.342         -43.3007          -91.17         -43.3007        -91.1701       -0.0176939         144.277
0.598                   -2.05995        -176.035         -43.1757        -92.9246         -43.1757        -92.9247       -0.0178658           144.2
0.599                   -2.09826        -176.734         -43.0508        -94.6777         -43.0508        -94.6778       -0.0180411         144.122
0.6                      -2.1374        -177.438         -42.9258        -96.4295         -42.9258        -96.4296       -0.0182201         144.045
0.601                   -2.17741        -178.147         -42.8008        -98.1801         -42.8008        -98.1802       -0.0184029         143.967
0.602                   -2.21832        -178.863         -42.6758        -99.9299         -42.6758        -99.9299       -0.0185895         143.889
0.603                   -2.26017        -179.584         -42.5508        -101.679         -42.5508        -101.679       -0.0187803         143.811
0.604                     -2.303          179.69         -42.4257        -103.427         -42.4257        -103.427       -0.0189752         143.732
0.605                   -2.34685         178.958         -42.3005        -105.175         -42.3005        -105.175       -0.0191746         143.653
0.606                   -2.39175          178.22         -42.1753        -106.923         -42.1753        -106.923       -0.0193784         143.575
0.607                   -2.43774         177.476         -42.0501        -108.671         -42.0501        -108.672        -0.019587         143.495
0.608                   -2.48488         176.727         -41.9247         -110.42         -41.9247         -110.42       -0.0198004         143.416
0.609                   -2.53321         175.971         -41.7993        -112.169         -41.7993        -112.169       -0.0200188         143.337
0.61                    -2.58277          175.21         -41.6739        -113.918         -41.6739        -113.918       -0.0202424         143.257
0.611                    -2.6336         174.444         -41.5483        -115.668         -41.5483        -115.668       -0.0204713         143.177
0.612                   -2.68577         173.671         -41.4227        -117.419         -41.4227        -117.419       -0.0207056         143.097
0.613                   -2.73931         172.893         -41.2971        -119.172         -41.2971        -119.172       -0.0209456         143.016
0.614                   -2.79428          172.11         -41.1714        -120.926         -41.1714        -120.926       -0.0211912         142.936
0.615                   -2.85074         171.321         -41.0457        -122.681         -41.0457        -122.681       -0.0214427         142.855
0.616                   -2.90873         170.526           -40.92        -124.439           -40.92        -124.439       -0.0217002         142.773
0.617                   -2.96832         169.726         -40.7942        -126.198         -40.7942        -126.198       -0.0219638         142.692
0.618                   -3.02956          168.92         -40.6685        -127.959         -40.6685        -127.959       -0.0222337          142.61
0.619                   -3.09252          168.11         -40.5428        -129.722         -40.5428        -129.722       -0.0225098         142.529
0.62                    -3.15724         167.294         -40.4171        -131.488         -40.4171        -131.488       -0.0227923         142.447
0.621                   -3.22379         166.474         -40.2914        -133.257         -40.2914        -133.257       -0.0230813         142.364
0.622                   -3.29224         165.649         -40.1659        -135.028         -40.1659        -135.028       -0.0233768         142.282
0.623                   -3.36264         164.819         -40.0404        -136.801         -40.0404        -136.801       -0.0236789         142.199
0.624                   -3.43507         163.985         -39.9151        -138.578         -39.9151        -138.578       -0.0239877         142.116
0.625                   -3.50959         163.147         -39.7899        -140.358         -39.7899        -140.358       -0.0243031         142.032
0.626                   -3.58625         162.305         -39.6648         -142.14         -39.6648         -142.14       -0.0246252         141.949
0.627                   -3.66514          161.46           -39.54        -143.926           -39.54        -143.926        -0.024954         141.865
0.628                   -3.74632         160.611         -39.4153        -145.715         -39.4153        -145.715       -0.0252894         141.781
0.629                   -3.82985          159.76         -39.2909        -147.508         -39.2909        -147.508       -0.0256316         141.696
