! TOUCHSTONE file generated by CST MICROWAVE STUDIO
! Date and time: Fri Oct  2 16:58:55 2020
! Project name: Scenario_1_Free_Space_out_of_line.cst
! Parameters = {Lambda=346.42; Step_1=17.321; dy1=-137.908; dx1=693; L_HA=400; MT=2.54; Rad_Dielectric=30; Rad_Lower=7.3; Rad_Upper=30; a_HA=580; a_WG=246; b_HA=500; b_WG=121; c_HA=0; c_WG=187; d_feed=85; h_feed=15; h_lower=18; h_upper=40}
! Header version: 2018
! Port assignment regex: !\s*Touchstone port\s*([0-9]+)\s*=\s*(CST MWS port|CST DS port)\s*([0-9]+|Zmin|Zmax)\s*\(\"(.*)\"\)(\s*mode\s*([0-9]+))?.*
! Touchstone port assignment:
! Touchstone port 1 = CST MWS port 1 ("")
! Touchstone port 2 = CST MWS port 2 ("")
# GHz S DB R 50
0.5                     -0.14645        -122.607         -62.6911        -118.265         -62.6911        -118.265      -0.00669328         151.119
0.501                  -0.151093        -123.041         -62.6326        -120.288         -62.6331         -120.29      -0.00675365         151.054
0.502                  -0.155936        -123.478         -62.5693         -122.33         -62.5702        -122.335      -0.00681469         150.989
0.503                  -0.160981        -123.917         -62.5011        -124.391         -62.5023        -124.398      -0.00687638         150.923
0.504                  -0.166233        -124.359         -62.4277        -126.469         -62.4293        -126.479      -0.00693876         150.858
0.505                  -0.171695        -124.802         -62.3492        -128.564         -62.3511        -128.576      -0.00700181         150.792
0.506                  -0.177369        -125.248         -62.2654        -130.674         -62.2677        -130.689      -0.00706556         150.726
0.507                  -0.183261        -125.695         -62.1763        -132.797         -62.1788        -132.815         -0.00713         150.661
0.508                  -0.189374        -126.145         -62.0818        -134.933         -62.0846        -134.953      -0.00719515         150.595
0.509                  -0.195711        -126.597         -61.9818         -137.08         -61.9849        -137.103      -0.00726101         150.529
0.51                   -0.202277        -127.052         -61.8764        -139.237         -61.8797        -139.262       -0.0073276         150.463
0.511                  -0.209075        -127.508         -61.7656        -141.402          -61.769         -141.43      -0.00739492         150.397
0.512                  -0.216109        -127.967         -61.6494        -143.575         -61.6529        -143.605      -0.00746297         150.331
0.513                  -0.223383        -128.428         -61.5277        -145.754         -61.5314        -145.786      -0.00753178         150.265
0.514                  -0.230901        -128.891         -61.4006        -147.937         -61.4044        -147.972      -0.00760135         150.198
0.515                  -0.238667        -129.357         -61.2683        -150.124         -61.2722        -150.161      -0.00767168         150.132
0.516                  -0.246686        -129.825         -61.1307        -152.313         -61.1346        -152.352      -0.00774279         150.065
0.517                   -0.25496        -130.295         -60.9879        -154.503         -60.9919        -154.545      -0.00781469         149.999
0.518                  -0.263495        -130.767         -60.8401        -156.694         -60.8441        -156.737      -0.00788738         149.932
0.519                  -0.272295        -131.241         -60.6874        -158.883         -60.6914        -158.928      -0.00796088         149.865
0.52                   -0.281363        -131.718         -60.5298         -161.07         -60.5338        -161.116       -0.0080352         149.799
0.521                  -0.290705        -132.197         -60.3676        -163.255         -60.3715        -163.302      -0.00811035         149.732
0.522                  -0.300324        -132.679         -60.2008        -165.435         -60.2046        -165.484      -0.00818633         149.665
0.523                  -0.310225        -133.162         -60.0296        -167.612         -60.0334        -167.662      -0.00826317         149.598
0.524                  -0.320412        -133.648         -59.8542        -169.783         -59.8579        -169.834      -0.00834086          149.53
0.525                  -0.330889        -134.136         -59.6747        -171.949         -59.6783        -172.001      -0.00841943         149.463
0.526                  -0.341662        -134.627         -59.4912        -174.109         -59.4947        -174.162      -0.00849888         149.396
0.527                  -0.352734         -135.12         -59.3041        -176.263         -59.3075        -176.316      -0.00857923         149.328
0.528                  -0.364111        -135.615         -59.1133         -178.41         -59.1166        -178.463      -0.00866049         149.261
0.529                  -0.375796        -136.112         -58.9192          179.45         -58.9224         179.396      -0.00874266         149.193
0.53                   -0.387795        -136.612         -58.7219         177.317         -58.7249         177.263      -0.00882577         149.125
0.531                  -0.400112        -137.114         -58.5214         175.191         -58.5243         175.137      -0.00890982         149.058
0.532                  -0.412752        -137.618         -58.3182         173.071         -58.3209         173.018      -0.00899483          148.99
0.533                  -0.425719        -138.125         -58.1122         170.959         -58.1148         170.906      -0.00908082         148.922
0.534                  -0.439019        -138.634         -57.9036         168.854         -57.9061         168.801      -0.00916779         148.854
0.535                  -0.452656        -139.145         -57.6927         166.755         -57.6951         166.703      -0.00925575         148.785
0.536                  -0.466635        -139.659         -57.4796         164.663         -57.4818         164.611      -0.00934474         148.717
0.537                  -0.480961        -140.175         -57.2644         162.576         -57.2665         162.526      -0.00943475         148.649
0.538                  -0.495639        -140.693         -57.0473         160.495         -57.0493         160.446       -0.0095258          148.58
0.539                  -0.510674        -141.214         -56.8285          158.42         -56.8304         158.371      -0.00961791         148.511
0.54                   -0.526071        -141.737         -56.6081         156.349         -56.6099         156.302      -0.00971109         148.443
0.541                  -0.541835        -142.262         -56.3862         154.283         -56.3879         154.237      -0.00980536         148.374
0.542                  -0.557971         -142.79          -56.163         152.221         -56.1646         152.176      -0.00990074         148.305
0.543                  -0.574485         -143.32         -55.9387         150.162         -55.9402         150.118      -0.00999724         148.236
0.544                   -0.59138        -143.852         -55.7133         148.105         -55.7147         148.064       -0.0100949         148.167
0.545                  -0.608663        -144.386          -55.487         146.051         -55.4884         146.011       -0.0101937         148.097
0.546                  -0.626339        -144.923           -55.26         143.999         -55.2612         143.961       -0.0102936         148.028
0.547                  -0.644413        -145.462         -55.0323         141.948         -55.0334         141.911       -0.0103948         147.958
0.548                   -0.66289        -146.004         -54.8041         139.897         -54.8051         139.862       -0.0104971         147.889
0.549                  -0.681776        -146.548         -54.5755         137.846         -54.5764         137.813       -0.0106007         147.819
0.55                   -0.701075        -147.094         -54.3465         135.794         -54.3474         135.763       -0.0107056         147.749
0.551                  -0.720794        -147.642         -54.1174         133.741         -54.1183         133.712       -0.0108117         147.679
0.552                  -0.740938        -148.193         -53.8883         131.686         -53.8891         131.659        -0.010919         147.609
0.553                  -0.761511        -148.746         -53.6592         129.629         -53.6599         129.604       -0.0110277         147.539
0.554                   -0.78252        -149.302         -53.4303         127.568         -53.4309         127.545       -0.0111377         147.469
0.555                   -0.80397        -149.859         -53.2016         125.503         -53.2022         125.483       -0.0112491         147.398
0.556                  -0.825867        -150.419         -52.9734         123.435         -52.9739         123.417       -0.0113618         147.328
0.557                  -0.848216        -150.982         -52.7456         121.361          -52.746         121.345       -0.0114759         147.257
0.558                  -0.871022        -151.546         -52.5184         119.283         -52.5188         119.269       -0.0115914         147.186
0.559                  -0.894292        -152.113         -52.2919         117.198         -52.2922         117.187       -0.0117084         147.115
0.56                   -0.918031        -152.682         -52.0662         115.107         -52.0665         115.098       -0.0118268         147.044
0.561                  -0.942244        -153.253         -51.8415         113.009         -51.8417         113.003       -0.0119467         146.973
0.562                  -0.966937        -153.827         -51.6177         110.905         -51.6179           110.9       -0.0120681         146.902
0.563                  -0.992117        -154.403         -51.3951         108.792         -51.3952          108.79        -0.012191          146.83
0.564                   -1.01779        -154.981         -51.1737         106.672         -51.1737         106.672       -0.0123155         146.758
0.565                   -1.04396        -155.561         -50.9537         104.543         -50.9536         104.545       -0.0124416         146.687
0.566                   -1.07063        -156.144         -50.7351         102.406         -50.7349          102.41       -0.0125692         146.615
0.567                   -1.09781        -156.729          -50.518         100.259         -50.5178         100.266       -0.0126985         146.543
0.568                    -1.1255        -157.316         -50.3026         98.1042         -50.3023         98.1132       -0.0128295         146.471
0.569                   -1.15372        -157.905         -50.0889         95.9396         -50.0885         95.9509       -0.0129622         146.398
0.57                    -1.18246        -158.496         -49.8771         93.7657         -49.8766         93.7791       -0.0130965         146.326
0.571                   -1.21174         -159.09         -49.6672         91.5822         -49.6666         91.5977       -0.0132327         146.253
0.572                   -1.24156        -159.686         -49.4593         89.3891         -49.4587         89.4068       -0.0133706         146.181
0.573                   -1.27191        -160.284         -49.2537         87.1865         -49.2529         87.2062       -0.0135103         146.108
0.574                   -1.30282        -160.884         -49.0502         84.9743         -49.0494         84.9961       -0.0136518         146.035
0.575                   -1.33429        -161.486         -48.8491         82.7527         -48.8481         82.7764       -0.0137952         145.962
0.576                   -1.36632        -162.091         -48.6504         80.5217         -48.6493         80.5473       -0.0139406         145.888
0.577                   -1.39892        -162.697         -48.4543         78.2816         -48.4531         78.3091       -0.0140878         145.815
0.578                    -1.4321        -163.306         -48.2607         76.0325         -48.2594         76.0618       -0.0142371         145.741
0.579                   -1.46585        -163.917         -48.0698         73.7748         -48.0684         73.8058       -0.0143883         145.668
0.58                     -1.5002         -164.53         -47.8817         71.5087         -47.8801         71.5413       -0.0145416         145.594
0.581                   -1.53513        -165.145         -47.6964         69.2346         -47.6946         69.2688       -0.0146969          145.52
0.582                   -1.57067        -165.762         -47.5139         66.9529         -47.5121         66.9886       -0.0148544         145.445
0.583                   -1.60682        -166.382         -47.3345          64.664         -47.3325         64.7011       -0.0150141         145.371
0.584                   -1.64358        -167.003          -47.158         62.3684         -47.1559         62.4068       -0.0151759         145.296
0.585                   -1.68096        -167.627         -46.9846         60.0666         -46.9823         60.1063       -0.0153399         145.222
0.586                   -1.71896        -168.252         -46.8142         57.7592         -46.8118            57.8       -0.0155063         145.147
0.587                    -1.7576         -168.88          -46.647         55.4467         -46.6445         55.4886       -0.0156749         145.072
0.588                   -1.79688        -169.509          -46.483         53.1297         -46.4802         53.1725        -0.015846         144.996
0.589                   -1.83681        -170.141         -46.3221         50.8088         -46.3192         50.8525       -0.0160194         144.921
0.59                    -1.87739        -170.774         -46.1643         48.4847         -46.1613         48.5292       -0.0161952         144.846
0.591                   -1.91863         -171.41         -46.0098          46.158         -46.0067         46.2032       -0.0163736          144.77
0.592                   -1.96054        -172.048         -45.8584         43.8294         -45.8551         43.8751       -0.0165545         144.694
0.593                   -2.00312        -172.687         -45.7102         41.4994         -45.7068         41.5456        -0.016738         144.618
0.594                   -2.04639        -173.329         -45.5652         39.1689         -45.5616         39.2155       -0.0169242         144.541
0.595                   -2.09034        -173.973         -45.4232         36.8384         -45.4195         36.8853        -0.017113         144.465
0.596                     -2.135        -174.618         -45.2843         34.5086         -45.2804         34.5557       -0.0173046         144.388
0.597                   -2.18036        -175.266         -45.1484         32.1801         -45.1444         32.2273       -0.0174989         144.311
0.598                   -2.22643        -175.915         -45.0155         29.8535         -45.0114         29.9008       -0.0176962         144.234
0.599                   -2.27322        -176.566         -44.8855         27.5296         -44.8813         27.5768       -0.0178963         144.157
0.6                     -2.32074         -177.22         -44.7584         25.2088          -44.754         25.2558       -0.0180994          144.08
0.601                   -2.36899        -177.875          -44.634         22.8916         -44.6296         22.9385       -0.0183056         144.002
0.602                   -2.41799        -178.532         -44.5123         20.5788         -44.5078         20.6253       -0.0185148         143.924
0.603                   -2.46774        -179.191         -44.3932         18.2706         -44.3886         18.3169       -0.0187271         143.846
0.604                   -2.51826        -179.852         -44.2766         15.9677          -44.272         16.0135       -0.0189427         143.768
0.605                   -2.56954         179.485         -44.1625         13.6704         -44.1578         13.7157       -0.0191616         143.689
0.606                   -2.62161         178.821         -44.0507         11.3792         -44.0459         11.4239       -0.0193838         143.611
0.607                   -2.67446         178.154         -43.9412         9.09438         -43.9363         9.13851       -0.0196094         143.532
0.608                   -2.72811         177.486         -43.8337         6.81629         -43.8288         6.85976       -0.0198385         143.453
0.609                   -2.78257         176.815         -43.7283         4.54522         -43.7233         4.58798       -0.0200711         143.374
0.61                    -2.83785         176.143         -43.6248         2.28143         -43.6198         2.32342       -0.0203074         143.294
0.611                   -2.89395         175.469         -43.5231        0.025111         -43.5181       0.0663129       -0.0205474         143.214
0.612                   -2.95089         174.794         -43.4231        -2.22355         -43.4181        -2.18318       -0.0207911         143.134
0.613                   -3.00869         174.116         -43.3247        -4.46441         -43.3197        -4.42491       -0.0210387         143.054
0.614                   -3.06734         173.437         -43.2278        -6.69739         -43.2228        -6.65878       -0.0212903         142.974
0.615                   -3.12686         172.755         -43.1323         -8.9224         -43.1272        -8.88471       -0.0215459         142.893
0.616                   -3.18726         172.072          -43.038        -11.1394          -43.033        -11.1027       -0.0218056         142.812
0.617                   -3.24857         171.388         -42.9449        -13.3485         -42.9399        -13.3127       -0.0220695         142.731
0.618                   -3.31077         170.701         -42.8528        -15.5496         -42.8479        -15.5147       -0.0223378          142.65
0.619                    -3.3739         170.013         -42.7617        -17.7428         -42.7568        -17.7089       -0.0226103         142.568
0.62                    -3.43796         169.323         -42.6715        -19.9282         -42.6666        -19.8953       -0.0228874         142.486
0.621                   -3.50297         168.631          -42.582        -22.1059         -42.5772         -22.074       -0.0231691         142.404
0.622                   -3.56894         167.937         -42.4932        -24.2761         -42.4884        -24.2452       -0.0234554         142.322
0.623                   -3.63588         167.242         -42.4049        -26.4389         -42.4002         -26.409       -0.0237465         142.239
0.624                   -3.70382         166.544         -42.3171        -28.5945         -42.3124        -28.5657       -0.0240426         142.156
0.625                   -3.77276         165.845         -42.2297        -30.7432         -42.2251        -30.7154       -0.0243436         142.073
0.626                   -3.84272         165.145         -42.1426        -32.8851         -42.1381        -32.8583       -0.0246497          141.99
0.627                   -3.91373         164.442         -42.0557        -35.0205         -42.0513        -34.9947       -0.0249611         141.906
0.628                   -3.98579         163.738         -41.9689        -37.1497         -41.9646        -37.1249       -0.0252778         141.822
0.629                   -4.05892         163.033         -41.8823         -39.273          -41.878        -39.2491          -0.0256         141.738
