! TOUCHSTONE file generated by CST MICROWAVE STUDIO
! Date and time: Fri Oct  2 19:15:10 2020
! Project name: Scenario_1_Free_Space_out_of_line.cst
! Parameters = {Lambda=346.42; Step_1=17.321; dy1=-137.908; dx1=866; L_HA=400; MT=2.54; Rad_Dielectric=30; Rad_Lower=7.3; Rad_Upper=30; a_HA=580; a_WG=246; b_HA=500; b_WG=121; c_HA=0; c_WG=187; d_feed=85; h_feed=15; h_lower=18; h_upper=40}
! Header version: 2018
! Port assignment regex: !\s*Touchstone port\s*([0-9]+)\s*=\s*(CST MWS port|CST DS port)\s*([0-9]+|Zmin|Zmax)\s*\(\"(.*)\"\)(\s*mode\s*([0-9]+))?.*
! Touchstone port assignment:
! Touchstone port 1 = CST MWS port 1 ("")
! Touchstone port 2 = CST MWS port 2 ("")
# GHz S DB R 50
0.5                    -0.148984        -122.565         -63.4112         142.509         -63.4112         142.509      -0.00661525         151.119
0.501                  -0.165524        -123.101         -63.3308         139.196         -63.3324         139.208      -0.00671103         151.054
0.502                  -0.181891        -123.632         -63.2365         135.906         -63.2397         135.929      -0.00680615         150.989
0.503                  -0.198085        -124.159         -63.1289         132.646         -63.1337         132.677      -0.00690064         150.923
0.504                  -0.214112        -124.682         -63.0087          129.42         -63.0152          129.46      -0.00699453         150.858
0.505                  -0.229972        -125.201         -62.8768         126.235         -62.8848         126.281      -0.00708787         150.792
0.506                  -0.245671        -125.717         -62.7339         123.095         -62.7436         123.145       -0.0071807         150.726
0.507                  -0.261213        -126.229          -62.581         120.001         -62.5922         120.056      -0.00727304          150.66
0.508                    -0.2766        -126.738          -62.419         116.959         -62.4316         117.016      -0.00736494         150.594
0.509                  -0.291839        -127.245         -62.2488         113.968         -62.2628         114.027      -0.00745643         150.529
0.51                   -0.306932        -127.749         -62.0713         111.031         -62.0865         111.091      -0.00754756         150.462
0.511                  -0.321886         -128.25         -61.8873         108.148         -61.9036         108.208      -0.00763835         150.396
0.512                  -0.336706         -128.75         -61.6977         105.318         -61.7151         105.378      -0.00772885          150.33
0.513                  -0.351396        -129.247         -61.5032         102.542         -61.5215         102.601      -0.00781909         150.264
0.514                  -0.365962        -129.742         -61.3045         99.8189         -61.3237         99.8764       -0.0079091         150.197
0.515                  -0.380409        -130.236         -61.1024         97.1465         -61.1223         97.2023      -0.00799892         150.131
0.516                  -0.394744        -130.728         -60.8975         94.5239         -60.9179         94.5775      -0.00808859         150.064
0.517                  -0.408973        -131.219         -60.6902         91.9491         -60.7112         92.0004      -0.00817814         149.998
0.518                  -0.423101        -131.709         -60.4812         89.4204         -60.5026         89.4691      -0.00826761         149.931
0.519                  -0.437134        -132.198         -60.2709         86.9355         -60.2926         86.9815      -0.00835702         149.864
0.52                    -0.45108        -132.686         -60.0596         84.4924         -60.0816         84.5357      -0.00844642         149.797
0.521                  -0.464944        -133.174         -59.8479         82.0888           -59.87         82.1294      -0.00853584         149.731
0.522                  -0.478734        -133.661          -59.636         79.7226         -59.6581         79.7604      -0.00862531         149.663
0.523                  -0.492455        -134.148         -59.4241         77.3914         -59.4463         77.4265      -0.00871486         149.596
0.524                  -0.506116        -134.634         -59.2126         75.0932         -59.2347         75.1256      -0.00880454         149.529
0.525                  -0.519722         -135.12         -59.0017         72.8257         -59.0237         72.8555      -0.00889437         149.462
0.526                  -0.533282        -135.607         -58.7915         70.5868         -58.8133          70.614      -0.00898438         149.394
0.527                  -0.546802        -136.093         -58.5823         68.3745         -58.6038         68.3992      -0.00907461         149.327
0.528                   -0.56029         -136.58         -58.3741         66.1866         -58.3954         66.2091      -0.00916509         149.259
0.529                  -0.573754        -137.068         -58.1671         64.0214         -58.1881         64.0416      -0.00925586         149.192
0.53                   -0.587202        -137.555         -57.9614         61.8769         -57.9821          61.895      -0.00934695         149.124
0.531                   -0.60064        -138.044         -57.7571         59.7512         -57.7774         59.7674      -0.00943839         149.056
0.532                  -0.614079        -138.533         -57.5543         57.6428         -57.5741          57.657      -0.00953021         148.988
0.533                  -0.627524        -139.023         -57.3529         55.5499         -57.3723         55.5624      -0.00962245          148.92
0.534                  -0.640986        -139.514         -57.1531         53.4709          -57.172         53.4818      -0.00971513         148.852
0.535                  -0.654472        -140.007         -56.9549         51.4043         -56.9733         51.4137       -0.0098083         148.783
0.536                  -0.667992          -140.5         -56.7583         49.3487         -56.7762         49.3567      -0.00990198         148.715
0.537                  -0.681553        -140.995         -56.5634         47.3027         -56.5807         47.3094       -0.0099962         148.646
0.538                  -0.695166        -141.491         -56.3701         45.2649         -56.3869         45.2705        -0.010091         148.578
0.539                  -0.708839        -141.988         -56.1784         43.2342         -56.1947         43.2386       -0.0101864         148.509
0.54                   -0.722582        -142.488         -55.9884         41.2092         -56.0041         41.2127       -0.0102825          148.44
0.541                  -0.736404        -142.988            -55.8         39.1889         -55.8152         39.1915       -0.0103792         148.371
0.542                  -0.750315        -143.491         -55.6133         37.1722         -55.6279          37.174       -0.0104766         148.302
0.543                  -0.764325        -143.996         -55.4283         35.1579         -55.4423          35.159       -0.0105748         148.233
0.544                  -0.778444        -144.502         -55.2448         33.1452         -55.2582         33.1457       -0.0106738         148.164
0.545                  -0.792683        -145.011          -55.063         31.1331         -55.0758         31.1331       -0.0107735         148.095
0.546                  -0.807052        -145.521         -54.8827         29.1206         -54.8949         29.1201       -0.0108741         148.025
0.547                  -0.821562        -146.034          -54.704          27.107         -54.7157         27.1061       -0.0109755         147.956
0.548                  -0.836223        -146.549         -54.5269         25.0914          -54.538         25.0902       -0.0110779         147.886
0.549                  -0.851048        -147.067         -54.3513          23.073         -54.3618         23.0715       -0.0111812         147.816
0.55                   -0.866048        -147.587         -54.1772         21.0512         -54.1871         21.0494       -0.0112855         147.746
0.551                  -0.881234        -148.109         -54.0047         19.0251          -54.014         19.0232       -0.0113907         147.676
0.552                  -0.896618        -148.634         -53.8335         16.9941         -53.8423         16.9921        -0.011497         147.606
0.553                  -0.912213        -149.162         -53.6639         14.9577         -53.6721         14.9556       -0.0116044         147.536
0.554                   -0.92803        -149.692         -53.4956         12.9152         -53.5033          12.913       -0.0117128         147.466
0.555                  -0.944083        -150.226         -53.3288          10.866         -53.3359         10.8638       -0.0118224         147.395
0.556                  -0.960385        -150.762         -53.1633          8.8096         -53.1699         8.80746       -0.0119332         147.325
0.557                  -0.976948        -151.301         -52.9992         6.74553         -53.0053         6.74343       -0.0120452         147.254
0.558                  -0.993787        -151.843         -52.8365         4.67328          -52.842         4.67126       -0.0121584         147.183
0.559                   -1.01091        -152.388         -52.6751         2.59242         -52.6801          2.5905       -0.0122728         147.112
0.56                    -1.02834        -152.936         -52.5149        0.502529         -52.5194        0.500722       -0.0123886         147.041
0.561                   -1.04609        -153.487         -52.3561        -1.59678         -52.3601        -1.59845       -0.0125057          146.97
0.562                   -1.06417        -154.042         -52.1985        -3.70586          -52.202        -3.70739       -0.0126242         146.898
0.563                    -1.0826          -154.6         -52.0421        -5.82506         -52.0452        -5.82643       -0.0127441         146.827
0.564                   -1.10139        -155.161          -51.887        -7.95467         -51.8897        -7.95588       -0.0128655         146.755
0.565                   -1.12055        -155.725         -51.7331         -10.095         -51.7353         -10.096       -0.0129883         146.683
0.566                   -1.14011        -156.293         -51.5804        -12.2462         -51.5822        -12.2471       -0.0131126         146.612
0.567                   -1.16008        -156.865         -51.4288        -14.4087         -51.4303        -14.4094       -0.0132385          146.54
0.568                   -1.18047         -157.44         -51.2785        -16.5825         -51.2795         -16.583        -0.013366         146.467
0.569                    -1.2013        -158.018         -51.1292        -18.7678         -51.1299        -18.7682       -0.0134951         146.395
0.57                    -1.22259          -158.6         -50.9811        -20.9649         -50.9814         -20.965       -0.0136259         146.323
0.571                   -1.24436        -159.186         -50.8341        -23.1737         -50.8341        -23.1737       -0.0137584          146.25
0.572                   -1.26662        -159.775         -50.6882        -25.3945         -50.6879        -25.3943       -0.0138926         146.177
0.573                   -1.28939        -160.368         -50.5434        -27.6272         -50.5428        -27.6269       -0.0140286         146.104
0.574                   -1.31269        -160.965         -50.3997         -29.872         -50.3988        -29.8716       -0.0141664         146.031
0.575                   -1.33654        -161.565          -50.257        -32.1288         -50.2559        -32.1282       -0.0143061         145.958
0.576                   -1.36095        -162.169         -50.1154        -34.3977          -50.114         -34.397       -0.0144477         145.885
0.577                   -1.38595        -162.777         -49.9749        -36.6786         -49.9733        -36.6777       -0.0145912         145.811
0.578                   -1.41155        -163.389         -49.8353        -38.9714         -49.8335        -38.9705       -0.0147367         145.738
0.579                   -1.43777        -164.004         -49.6968        -41.2761         -49.6948         -41.275       -0.0148842         145.664
0.58                    -1.46464        -164.624         -49.5593        -43.5925         -49.5571        -43.5914       -0.0150337          145.59
0.581                   -1.49217        -165.247         -49.4228        -45.9206         -49.4205        -45.9194       -0.0151854         145.516
0.582                   -1.52038        -165.874         -49.2873        -48.2602         -49.2848        -48.2589       -0.0153392         145.442
0.583                   -1.54929        -166.504         -49.1528         -50.611         -49.1502        -50.6097       -0.0154952         145.367
0.584                   -1.57892        -167.139         -49.0192        -52.9729         -49.0165        -52.9716       -0.0156534         145.293
0.585                    -1.6093        -167.777         -48.8866        -55.3458         -48.8838        -55.3444       -0.0158139         145.218
0.586                   -1.64044        -168.419         -48.7549        -57.7292          -48.752        -57.7278       -0.0159767         145.143
0.587                   -1.67237        -169.065         -48.6241         -60.123         -48.6212        -60.1217       -0.0161419         145.068
0.588                   -1.70511        -169.714         -48.4943        -62.5269         -48.4914        -62.5255       -0.0163095         144.993
0.589                   -1.73867        -170.368         -48.3654        -64.9406         -48.3624        -64.9392       -0.0164796         144.917
0.59                    -1.77308        -171.024         -48.2374        -67.3637         -48.2344        -67.3623       -0.0166521         144.842
0.591                   -1.80836        -171.685         -48.1102        -69.7959         -48.1073        -69.7946       -0.0168272         144.766
0.592                   -1.84454        -172.349         -47.9839        -72.2368          -47.981        -72.2356       -0.0170049          144.69
0.593                   -1.88163        -173.017         -47.8585        -74.6861         -47.8556        -74.6849       -0.0171853         144.614
0.594                   -1.91965        -173.688         -47.7339        -77.1434         -47.7311        -77.1423       -0.0173684         144.538
0.595                   -1.95863        -174.363         -47.6102        -79.6083         -47.6074        -79.6072       -0.0175542         144.461
0.596                    -1.9986        -175.041         -47.4872        -82.0803         -47.4845        -82.0793       -0.0177428         144.385
0.597                   -2.03956        -175.722          -47.365        -84.5591         -47.3625        -84.5581       -0.0179342         144.308
0.598                   -2.08155        -176.407         -47.2437        -87.0441         -47.2412        -87.0432       -0.0181286         144.231
0.599                   -2.12459        -177.095          -47.123        -89.5351         -47.1207        -89.5342       -0.0183259         144.153
0.6                     -2.16869        -177.786         -47.0031        -92.0314         -47.0009        -92.0306       -0.0185263         144.076
0.601                   -2.21388         -178.48          -46.884        -94.5327         -46.8819         -94.532       -0.0187297         143.998
0.602                   -2.26018        -179.177         -46.7655        -97.0385         -46.7635        -97.0379       -0.0189363         143.921
0.603                   -2.30761        -179.877         -46.6477        -99.5483         -46.6459        -99.5477        -0.019146         143.843
0.604                    -2.3562          179.42         -46.5306        -102.062         -46.5289        -102.061        -0.019359         143.764
0.605                   -2.40596         178.715         -46.4141        -104.578         -46.4126        -104.578       -0.0195752         143.686
0.606                   -2.45691         178.007         -46.2982        -107.097         -46.2969        -107.097       -0.0197949         143.607
0.607                   -2.50909         177.296          -46.183        -109.619         -46.1818        -109.618       -0.0200179         143.528
0.608                   -2.56249         176.584         -46.0683        -112.142         -46.0672        -112.142       -0.0202445         143.449
0.609                   -2.61716         175.869         -45.9541        -114.666         -45.9533        -114.666       -0.0204746          143.37
0.61                    -2.67309         175.151         -45.8405        -117.191         -45.8398        -117.191       -0.0207083         143.291
0.611                   -2.73033         174.432         -45.7274        -119.717         -45.7268        -119.717       -0.0209457         143.211
0.612                   -2.78888         173.711         -45.6147        -122.243         -45.6144        -122.243       -0.0211868         143.131
0.613                   -2.84876         172.988         -45.5025        -124.768         -45.5023        -124.768       -0.0214318         143.051
0.614                   -2.90999         172.264         -45.3907        -127.293         -45.3907        -127.293       -0.0216807          142.97
0.615                   -2.97259         171.538         -45.2794        -129.816         -45.2795        -129.816       -0.0219335          142.89
0.616                   -3.03658         170.811         -45.1684        -132.338         -45.1687        -132.338       -0.0221903         142.809
0.617                   -3.10197         170.083         -45.0577        -134.858         -45.0582        -134.858       -0.0224512         142.728
0.618                   -3.16878         169.353         -44.9474        -137.376         -44.9481        -137.376       -0.0227164         142.647
0.619                   -3.23703         168.623         -44.8374        -139.891         -44.8382        -139.891       -0.0229857         142.565
0.62                    -3.30673         167.892         -44.7277        -142.404         -44.7287        -142.404       -0.0232595         142.483
0.621                   -3.37789         167.161         -44.6182        -144.913         -44.6193        -144.913       -0.0235376         142.401
0.622                   -3.45053          166.43          -44.509        -147.419         -44.5102        -147.419       -0.0238202         142.319
0.623                   -3.52467         165.698            -44.4        -149.921         -44.4013        -149.921       -0.0241074         142.236
0.624                   -3.60032         164.966         -44.2911        -152.419         -44.2926        -152.419       -0.0243993         142.153
0.625                   -3.67749         164.235         -44.1824        -154.914          -44.184        -154.914       -0.0246959          142.07
0.626                   -3.75619         163.503         -44.0738        -157.404         -44.0756        -157.403       -0.0249974         141.987
0.627                   -3.83643         162.773         -43.9654        -159.889         -43.9672        -159.889       -0.0253038         141.903
0.628                   -3.91823         162.043          -43.857         -162.37          -43.859         -162.37       -0.0256152          141.82
0.629                   -4.00159         161.314         -43.7488        -164.846         -43.7508        -164.846       -0.0259317         141.735
