! TOUCHSTONE file generated by CST MICROWAVE STUDIO
! Date and time: Fri Oct  2 18:58:42 2020
! Project name: Scenario_1_Free_Space_out_of_line.cst
! Parameters = {Lambda=346.42; Step_1=17.321; dy1=-137.908; dx1=1039; L_HA=400; MT=2.54; Rad_Dielectric=30; Rad_Lower=7.3; Rad_Upper=30; a_HA=580; a_WG=246; b_HA=500; b_WG=121; c_HA=0; c_WG=187; d_feed=85; h_feed=15; h_lower=18; h_upper=40}
! Header version: 2018
! Port assignment regex: !\s*Touchstone port\s*([0-9]+)\s*=\s*(CST MWS port|CST DS port)\s*([0-9]+|Zmin|Zmax)\s*\(\"(.*)\"\)(\s*mode\s*([0-9]+))?.*
! Touchstone port assignment:
! Touchstone port 1 = CST MWS port 1 ("")
! Touchstone port 2 = CST MWS port 2 ("")
# GHz S DB R 50
0.5                    -0.147614        -122.505         -63.9428         45.7871         -63.9428         45.7871      -0.00673756         151.119
0.501                  -0.152036        -122.946           -63.82         43.5023         -63.8189         43.5079      -0.00678695         151.054
0.502                  -0.156669        -123.388         -63.6938         41.2018         -63.6916         41.2128      -0.00683731         150.988
0.503                  -0.161518        -123.832          -63.564         38.8859         -63.5608         38.9023      -0.00688865         150.923
0.504                  -0.166585        -124.279         -63.4307         36.5552         -63.4266         36.5769      -0.00694099         150.857
0.505                  -0.171874        -124.728         -63.2939         34.2103         -63.2889         34.2371      -0.00699432         150.792
0.506                  -0.177389        -125.178         -63.1536         31.8516         -63.1479         31.8834      -0.00704867         150.726
0.507                  -0.183133        -125.631         -63.0099         29.4796         -63.0034         29.5162      -0.00710404          150.66
0.508                  -0.189109        -126.086         -62.8628         27.0949         -62.8556         27.1362      -0.00716044         150.594
0.509                  -0.195321        -126.543         -62.7124          24.698         -62.7045         24.7437      -0.00721788         150.528
0.51                   -0.201773        -127.002         -62.5586         22.2893         -62.5502         22.3392      -0.00727638         150.462
0.511                  -0.208468        -127.463         -62.4015         19.8693         -62.3926         19.9232      -0.00733594         150.396
0.512                   -0.21541        -127.927         -62.2413         17.4384         -62.2319          17.496      -0.00739658          150.33
0.513                  -0.222603        -128.392          -62.078         14.9971         -62.0682         15.0582       -0.0074583         150.264
0.514                   -0.23005         -128.86         -61.9116         12.5457         -61.9014         12.6101      -0.00752111         150.197
0.515                  -0.237755         -129.33         -61.7423         10.0847         -61.7318         10.1521      -0.00758504         150.131
0.516                  -0.245722        -129.802         -61.5701         7.61446         -61.5593         7.68451      -0.00765008         150.064
0.517                  -0.253954        -130.276         -61.3952         5.13523         -61.3842         5.20769      -0.00771626         149.998
0.518                  -0.262456        -130.752         -61.2176         2.64737         -61.2064         2.72194      -0.00778357         149.931
0.519                  -0.271231        -131.231         -61.0374        0.151152         -61.0261        0.227535      -0.00785204         149.864
0.52                   -0.280283        -131.711         -60.8548        -2.35317         -60.8434        -2.27526      -0.00792168         149.797
0.521                  -0.289617        -132.194         -60.6699        -4.86536         -60.6584        -4.78623      -0.00799249          149.73
0.522                  -0.299235        -132.679         -60.4828        -7.38521         -60.4713        -7.30514      -0.00806449         149.663
0.523                  -0.309143        -133.166         -60.2936        -9.91254         -60.2821        -9.83183       -0.0081377         149.596
0.524                  -0.319343        -133.655         -60.1024        -12.4472          -60.091        -12.3661      -0.00821212         149.529
0.525                   -0.32984        -134.147         -59.9095         -14.989         -59.8981        -14.9079      -0.00828776         149.461
0.526                  -0.340639         -134.64         -59.7148        -17.5379         -59.7035         -17.457      -0.00836465         149.394
0.527                  -0.351742        -135.136         -59.5186        -20.0938         -59.5074        -20.0133      -0.00844279         149.326
0.528                  -0.363155        -135.634         -59.3209        -22.6566         -59.3099        -22.5768      -0.00852219         149.259
0.529                  -0.374881        -136.134          -59.122        -25.2262         -59.1111        -25.1474      -0.00860288         149.191
0.53                   -0.386924        -136.637         -58.9219        -27.8026         -58.9112         -27.725      -0.00868485         149.123
0.531                  -0.399289        -137.141         -58.7208        -30.3857         -58.7103        -30.3096      -0.00876813         149.055
0.532                  -0.411979        -137.648         -58.5189        -32.9755         -58.5086        -32.9011      -0.00885273         148.987
0.533                     -0.425        -138.157         -58.3162         -35.572         -58.3062        -35.4994      -0.00893866         148.919
0.534                  -0.438354        -138.668         -58.1129        -38.1752         -58.1032        -38.1047      -0.00902594         148.851
0.535                  -0.452047        -139.181         -57.9092        -40.7851         -57.8997        -40.7167      -0.00911458         148.782
0.536                  -0.466082        -139.697         -57.7052        -43.4015          -57.696        -43.3356      -0.00920459         148.714
0.537                  -0.480464        -140.215          -57.501        -46.0246         -57.4921        -45.9612        -0.009296         148.645
0.538                  -0.495198        -140.735         -57.2968        -48.6543         -57.2882        -48.5935      -0.00938881         148.577
0.539                  -0.510287        -141.257         -57.0927        -51.2905         -57.0844        -51.2325      -0.00948304         148.508
0.54                   -0.525735        -141.781         -56.8888        -53.9332         -56.8809        -53.8781       -0.0095787         148.439
0.541                  -0.541548        -142.308         -56.6853        -56.5824         -56.6777        -56.5302      -0.00967581          148.37
0.542                  -0.557728        -142.836         -56.4822        -59.2379          -56.475        -59.1888      -0.00977438         148.301
0.543                  -0.574282        -143.367         -56.2798        -61.8998          -56.273        -61.8537      -0.00987444         148.232
0.544                  -0.591213          -143.9         -56.0782        -64.5678         -56.0717        -64.5249      -0.00997599         148.163
0.545                  -0.608525        -144.436         -55.8774        -67.2419         -55.8713        -67.2022       -0.0100791         148.093
0.546                  -0.626223        -144.973         -55.6776         -69.922         -55.6719        -69.8854       -0.0101836         148.024
0.547                  -0.644311        -145.513         -55.4788        -72.6079         -55.4735        -72.5744       -0.0102898         147.954
0.548                  -0.662794        -146.055         -55.2813        -75.2993         -55.2764        -75.2689       -0.0103975         147.885
0.549                  -0.681676        -146.599         -55.0851        -77.9962         -55.0806        -77.9689       -0.0105067         147.815
0.55                   -0.700961        -147.145         -54.8903        -80.6982         -54.8862         -80.674       -0.0106176         147.745
0.551                  -0.720654        -147.694          -54.697        -83.4052         -54.6933        -83.3839       -0.0107301         147.675
0.552                   -0.74076        -148.245         -54.5053        -86.1168         -54.5019        -86.0985       -0.0108442         147.605
0.553                  -0.761282        -148.797         -54.3152        -88.8328         -54.3123        -88.8173       -0.0109599         147.534
0.554                  -0.782226        -149.352         -54.1269        -91.5529         -54.1244        -91.5402       -0.0110773         147.464
0.555                  -0.803595         -149.91         -53.9404        -94.2768         -53.9383        -94.2667       -0.0111964         147.393
0.556                  -0.825395        -150.469         -53.7558        -97.0041         -53.7541        -96.9965       -0.0113172         147.323
0.557                  -0.847629        -151.031         -53.5731        -99.7345         -53.5718        -99.7293       -0.0114397         147.252
0.558                  -0.870302        -151.595         -53.3924        -102.468         -53.3915        -102.465        -0.011564         147.181
0.559                  -0.893419        -152.161         -53.2138        -105.203         -53.2132        -105.202         -0.01169          147.11
0.56                   -0.916984        -152.729         -53.0372         -107.94          -53.037        -107.941       -0.0118177         147.039
0.561                  -0.941002        -153.299         -52.8628        -110.679         -52.8629        -110.682       -0.0119473         146.967
0.562                  -0.965477        -153.872         -52.6905        -113.419          -52.691        -113.424       -0.0120787         146.896
0.563                  -0.990414        -154.447         -52.5203         -116.16         -52.5211        -116.166       -0.0122119         146.824
0.564                   -1.01582        -155.023         -52.3523          -118.9         -52.3534        -118.909       -0.0123469         146.753
0.565                   -1.04169        -155.603         -52.1864        -121.641         -52.1879        -121.651       -0.0124838         146.681
0.566                   -1.06804        -156.184         -52.0227        -124.382         -52.0245        -124.392       -0.0126226         146.609
0.567                   -1.09487        -156.767         -51.8612        -127.121         -51.8632        -127.133       -0.0127633         146.537
0.568                   -1.12218        -157.353         -51.7018        -129.859         -51.7041        -129.872        -0.012906         146.465
0.569                   -1.14999        -157.941         -51.5445        -132.596          -51.547        -132.609       -0.0130506         146.392
0.57                    -1.17828        -158.531         -51.3893         -135.33          -51.392        -135.344       -0.0131971          146.32
0.571                   -1.20708        -159.123         -51.2361        -138.062         -51.2391        -138.076       -0.0133457         146.247
0.572                   -1.23638        -159.718          -51.085        -140.791         -51.0882        -140.806       -0.0134963         146.174
0.573                   -1.26618        -160.314         -50.9359        -143.517         -50.9392        -143.533       -0.0136489         146.101
0.574                    -1.2965        -160.913         -50.7886         -146.24         -50.7921        -146.256       -0.0138036         146.028
0.575                   -1.32734        -161.514         -50.6433         -148.96         -50.6469        -148.975       -0.0139603         145.955
0.576                    -1.3587        -162.117         -50.4998        -151.675         -50.5036        -151.691       -0.0141191         145.882
0.577                   -1.39058        -162.723         -50.3581        -154.387         -50.3619        -154.402       -0.0142801         145.808
0.578                     -1.423        -163.331          -50.218        -157.094          -50.222        -157.109       -0.0144432         145.735
0.579                   -1.45596         -163.94         -50.0796        -159.797         -50.0836        -159.812       -0.0146085         145.661
0.58                    -1.48945        -164.553         -49.9428        -162.495         -49.9468        -162.509        -0.014776         145.587
0.581                    -1.5235        -165.167         -49.8075        -165.188         -49.8116        -165.203       -0.0149457         145.513
0.582                   -1.55809        -165.784         -49.6736        -167.877         -49.6777        -167.891       -0.0151176         145.438
0.583                   -1.59325        -166.403         -49.5411        -170.561         -49.5452        -170.574       -0.0152918         145.364
0.584                   -1.62897        -167.024           -49.41         -173.24          -49.414        -173.253       -0.0154683         145.289
0.585                   -1.66525        -167.647           -49.28        -175.914          -49.284        -175.926       -0.0156471         145.214
0.586                   -1.70211        -168.273         -49.1512        -178.584         -49.1551        -178.595       -0.0158282          145.14
0.587                   -1.73955        -168.901         -49.0235         178.752         -49.0274         178.741       -0.0160117         145.064
0.588                   -1.77758        -169.532         -48.8968         176.093         -48.9006         176.082       -0.0161975         144.989
0.589                    -1.8162        -170.165         -48.7711         173.438         -48.7748         173.428       -0.0163858         144.914
0.59                    -1.85542          -170.8         -48.6463         170.787         -48.6498         170.778       -0.0165765         144.838
0.591                   -1.89524        -171.438         -48.5222         168.142         -48.5257         168.133       -0.0167696         144.762
0.592                   -1.93567        -172.078          -48.399           165.5         -48.4023         165.493       -0.0169652         144.686
0.593                   -1.97672         -172.72         -48.2764         162.863         -48.2796         162.856       -0.0171634          144.61
0.594                   -2.01839        -173.365         -48.1545          160.23         -48.1575         160.224        -0.017364         144.534
0.595                    -2.0607        -174.013         -48.0331         157.601          -48.036         157.595       -0.0175672         144.457
0.596                   -2.10364        -174.663         -47.9123         154.975          -47.915          154.97        -0.017773         144.381
0.597                   -2.14724        -175.315         -47.7919         152.353         -47.7944         152.348       -0.0179814         144.304
0.598                   -2.19149        -175.971         -47.6719         149.734         -47.6743          149.73       -0.0181924         144.227
0.599                    -2.2364        -176.628         -47.5523         147.118         -47.5545         147.114       -0.0184061          144.15
0.6                     -2.28199        -177.289          -47.433         144.505         -47.4351         144.502       -0.0186224         144.072
0.601                   -2.32826        -177.952          -47.314         141.895         -47.3159         141.891       -0.0188414         143.994
0.602                   -2.37523        -178.618         -47.1953         139.286          -47.197         139.283       -0.0190632         143.917
0.603                   -2.42289        -179.287         -47.0767          136.68         -47.0782         136.677       -0.0192877         143.839
0.604                   -2.47128        -179.959         -46.9583         134.075         -46.9596         134.073       -0.0195149          143.76
0.605                   -2.52039         179.366           -46.84         131.472         -46.8412          131.47        -0.019745         143.682
0.606                   -2.57024         178.689         -46.7219         128.869         -46.7229         128.868       -0.0199779         143.603
0.607                   -2.62084         178.008         -46.6038         126.268         -46.6046         126.267       -0.0202136         143.524
0.608                   -2.67221         177.324         -46.4858         123.667         -46.4864         123.666       -0.0204522         143.445
0.609                   -2.72436         176.637         -46.3678         121.067         -46.3683         121.066       -0.0206936         143.366
0.61                    -2.77731         175.947         -46.2499         118.467         -46.2502         118.466        -0.020938         143.287
0.611                   -2.83108         175.253          -46.132         115.866         -46.1321         115.866       -0.0211853         143.207
0.612                   -2.88568         174.556          -46.014         113.266         -46.0141         113.265       -0.0214356         143.127
0.613                   -2.94113         173.856         -45.8961         110.664          -45.896         110.663       -0.0216889         143.047
0.614                   -2.99745         173.152         -45.7782         108.062         -45.7779         108.061       -0.0219451         142.966
0.615                   -3.05467         172.445         -45.6602         105.458         -45.6598         105.457       -0.0222045         142.886
0.616                   -3.11281         171.733         -45.5422         102.853         -45.5417         102.852       -0.0224668         142.805
0.617                   -3.17189         171.018         -45.4243         100.246         -45.4237         100.246       -0.0227324         142.724
0.618                   -3.23195         170.299         -45.3063         97.6379         -45.3056         97.6371        -0.023001         142.642
0.619                   -3.29301         169.576         -45.1883         95.0275         -45.1875         95.0265       -0.0232729         142.561
0.62                     -3.3551         168.849         -45.0704         92.4148         -45.0695         92.4137        -0.023548         142.479
0.621                   -3.41826         168.118         -44.9525         89.7997         -44.9515         89.7985       -0.0238264         142.397
0.622                   -3.48253         167.383         -44.8346          87.182         -44.8336         87.1807       -0.0241082         142.314
0.623                   -3.54794         166.643         -44.7168         84.5617         -44.7157         84.5602       -0.0243934         142.232
0.624                   -3.61453         165.899         -44.5991         81.9385         -44.5979         81.9369       -0.0246823         142.149
0.625                   -3.68235         165.151         -44.4814         79.3123         -44.4803         79.3105       -0.0249748         142.066
0.626                   -3.75146         164.398         -44.3639          76.683         -44.3627         76.6811       -0.0252713         141.982
0.627                   -3.82189          163.64         -44.2466         74.0506         -44.2453         74.0486       -0.0255718         141.899
0.628                   -3.89372         162.877         -44.1294          71.415         -44.1281         71.4128       -0.0258766         141.815
0.629                   -3.96698          162.11         -44.0124          68.776         -44.0112         68.7737        -0.026186          141.73
