! TOUCHSTONE file generated by CST MICROWAVE STUDIO
! Date and time: Fri Oct  2 17:13:29 2020
! Project name: Scenario_1_Free_Space_out_of_line.cst
! Parameters = {Lambda=346.42; Step_1=17.321; dy1=330.299; dx1=173; L_HA=400; MT=2.54; Rad_Dielectric=30; Rad_Lower=7.3; Rad_Upper=30; a_HA=580; a_WG=246; b_HA=500; b_WG=121; c_HA=0; c_WG=187; d_feed=85; h_feed=15; h_lower=18; h_upper=40}
! Header version: 2018
! Port assignment regex: !\s*Touchstone port\s*([0-9]+)\s*=\s*(CST MWS port|CST DS port)\s*([0-9]+|Zmin|Zmax)\s*\(\"(.*)\"\)(\s*mode\s*([0-9]+))?.*
! Touchstone port assignment:
! Touchstone port 1 = CST MWS port 1 ("")
! Touchstone port 2 = CST MWS port 2 ("")
# GHz S DB R 50
0.5                    -0.147617        -122.725         -64.1839         113.918         -64.1839         113.918      -0.00628608         151.081
0.501                  -0.154256        -123.172         -64.0722          112.18         -64.0722          112.18      -0.00634889         151.015
0.502                  -0.161079        -123.622         -63.9574         110.443         -63.9574         110.442      -0.00641206          150.95
0.503                  -0.168087        -124.073         -63.8395         108.705         -63.8396         108.705       -0.0064756         150.884
0.504                  -0.175283        -124.525         -63.7187         106.969         -63.7188         106.969      -0.00653954         150.819
0.505                  -0.182668        -124.979          -63.595         105.234         -63.5951         105.233      -0.00660388         150.753
0.506                  -0.190245        -125.435         -63.4684           103.5         -63.4686           103.5      -0.00666867         150.687
0.507                  -0.198014        -125.893         -63.3391         101.769         -63.3393         101.768      -0.00673391         150.621
0.508                  -0.205979        -126.353         -63.2072          100.04         -63.2074          100.04      -0.00679963         150.555
0.509                  -0.214141        -126.814         -63.0727         98.3137         -63.0729         98.3134      -0.00686585         150.489
0.51                   -0.222502        -127.277         -62.9357         96.5907          -62.936         96.5903       -0.0069326         150.423
0.511                  -0.231064        -127.741         -62.7963         94.8709         -62.7966         94.8705      -0.00699989         150.357
0.512                   -0.23983        -128.208         -62.6546         93.1547         -62.6549         93.1542      -0.00706775         150.291
0.513                  -0.248802        -128.676         -62.5107         91.4422          -62.511         91.4417       -0.0071362         150.224
0.514                  -0.257981        -129.146         -62.3647         89.7336          -62.365          89.733      -0.00720527         150.158
0.515                  -0.267371        -129.618         -62.2166         88.0289          -62.217         88.0282      -0.00727497         150.091
0.516                  -0.276973        -130.091         -62.0667         86.3282         -62.0671         86.3275      -0.00734533         150.025
0.517                   -0.28679        -130.566         -61.9149         84.6317         -61.9153         84.6309      -0.00741637         149.958
0.518                  -0.296824        -131.044         -61.7613         82.9392         -61.7618         82.9384      -0.00748812         149.891
0.519                  -0.307078        -131.523         -61.6062         81.2509         -61.6066           81.25       -0.0075606         149.824
0.52                   -0.317554        -132.004         -61.4494         79.5666         -61.4499         79.5657      -0.00763383         149.757
0.521                  -0.328255        -132.487         -61.2912         77.8864         -61.2917         77.8854      -0.00770784          149.69
0.522                  -0.339183        -132.971         -61.1317           76.21         -61.1321          76.209      -0.00778265         149.623
0.523                  -0.350342        -133.458         -60.9709         74.5375         -60.9713         74.5364      -0.00785828         149.556
0.524                  -0.361733        -133.947         -60.8088         72.8686         -60.8093         72.8675      -0.00793476         149.488
0.525                  -0.373359        -134.437         -60.6457         71.2033         -60.6462         71.2022      -0.00801211         149.421
0.526                  -0.385224        -134.929         -60.4816         69.5413          -60.482         69.5402      -0.00809036         149.353
0.527                   -0.39733        -135.424         -60.3165         67.8825         -60.3169         67.8813      -0.00816953         149.286
0.528                  -0.409681         -135.92         -60.1506         66.2266          -60.151         66.2255      -0.00824964         149.218
0.529                  -0.422278        -136.419         -59.9839         64.5736         -59.9843         64.5724      -0.00833073          149.15
0.53                   -0.435126        -136.919         -59.8165          62.923         -59.8169         62.9218      -0.00841281         149.082
0.531                  -0.448227        -137.421         -59.6485         61.2748          -59.649         61.2736      -0.00849591         149.014
0.532                  -0.461585        -137.926           -59.48         59.6286         -59.4804         59.6274      -0.00858006         148.946
0.533                  -0.475203        -138.432          -59.311         57.9842         -59.3114          57.983      -0.00866528         148.878
0.534                  -0.489084        -138.941         -59.1416         56.3414         -59.1421         56.3402       -0.0087516         148.809
0.535                  -0.503231        -139.451         -58.9719         54.6999         -58.9724         54.6987      -0.00883903         148.741
0.536                  -0.517649        -139.964          -58.802         53.0593         -58.8024         53.0581      -0.00892762         148.672
0.537                  -0.532341        -140.479         -58.6319         51.4195         -58.6323         51.4184      -0.00901738         148.604
0.538                  -0.547311        -140.996         -58.4617         49.7802         -58.4621          49.779      -0.00910834         148.535
0.539                  -0.562561        -141.515         -58.2914         48.1411         -58.2918         48.1399      -0.00920052         148.466
0.54                   -0.578097        -142.036         -58.1212         46.5019         -58.1216         46.5007      -0.00929396         148.397
0.541                  -0.593922         -142.56          -57.951         44.8623         -57.9514         44.8612      -0.00938867         148.328
0.542                   -0.61004        -143.085          -57.781         43.2221         -57.7814          43.221      -0.00948469         148.259
0.543                  -0.626455        -143.613         -57.6112          41.581         -57.6116         41.5799      -0.00958205          148.19
0.544                  -0.643172        -144.143         -57.4417         39.9388         -57.4421         39.9377      -0.00968076          148.12
0.545                  -0.660195        -144.676         -57.2725         38.2951         -57.2729         38.2941      -0.00978086         148.051
0.546                  -0.677528         -145.21         -57.1037         36.6498          -57.104         36.6489      -0.00988237         147.981
0.547                  -0.695175        -145.747         -56.9353         35.0026         -56.9357         35.0017      -0.00998532         147.911
0.548                  -0.713142        -146.286         -56.7675         33.3533         -56.7678         33.3524       -0.0100897         147.842
0.549                  -0.731434        -146.828         -56.6002         31.7016         -56.6005         31.7007       -0.0101956         147.772
0.55                   -0.750054        -147.372         -56.4334         30.0473         -56.4337         30.0465       -0.0103031         147.702
0.551                  -0.769009        -147.918         -56.2674         28.3902         -56.2677         28.3894       -0.0104121         147.631
0.552                  -0.788303        -148.467         -56.1021         26.7301         -56.1023         26.7294       -0.0105226         147.561
0.553                  -0.807941        -149.018         -55.9375         25.0669         -55.9377         25.0662       -0.0106348         147.491
0.554                  -0.827929        -149.571         -55.7737         23.4002          -55.774         23.3996       -0.0107486          147.42
0.555                  -0.848273        -150.127         -55.6109         21.7301         -55.6111         21.7294       -0.0108641         147.349
0.556                  -0.868977        -150.685         -55.4489         20.0562         -55.4491         20.0556       -0.0109812         147.279
0.557                  -0.890048        -151.246         -55.2879         18.3785         -55.2881          18.378       -0.0111001         147.208
0.558                  -0.911493        -151.809         -55.1279         16.6969         -55.1281         16.6964       -0.0112208         147.137
0.559                  -0.933316        -152.375         -54.9689         15.0112         -54.9691         15.0107       -0.0113432         147.065
0.56                   -0.955524        -152.943         -54.8111         13.3213         -54.8113         13.3209       -0.0114674         146.994
0.561                  -0.978123        -153.514         -54.6544         11.6272         -54.6545         11.6268       -0.0115934         146.923
0.562                   -1.00112        -154.087         -54.4989         9.92871          -54.499         9.92836       -0.0117214         146.851
0.563                   -1.02452        -154.663         -54.3446         8.22586         -54.3447         8.22555       -0.0118512          146.78
0.564                   -1.04834        -155.242         -54.1916         6.51857         -54.1917          6.5183       -0.0119829         146.708
0.565                   -1.07257        -155.823           -54.04         4.80682           -54.04         4.80658       -0.0121166         146.636
0.566                   -1.09723        -156.407         -53.8896         3.09059         -53.8897          3.0904       -0.0122523         146.564
0.567                   -1.12232        -156.993         -53.7407         1.36989         -53.7407         1.36973         -0.01239         146.491
0.568                   -1.14785        -157.583         -53.5932       -0.355265         -53.5932       -0.355389       -0.0125297         146.419
0.569                   -1.17384        -158.174         -53.4471        -2.08485         -53.4471        -2.08494       -0.0126715         146.347
0.57                    -1.20028        -158.769         -53.3025        -3.81881         -53.3026        -3.81887       -0.0128155         146.274
0.571                   -1.22718        -159.366         -53.1595         -5.5571         -53.1595        -5.55713       -0.0129615         146.201
0.572                   -1.25456        -159.966          -53.018        -7.29963          -53.018        -7.29963       -0.0131097         146.128
0.573                   -1.28242        -160.569         -52.8781        -9.04633         -52.8781         -9.0463       -0.0132602         146.055
0.574                   -1.31077        -161.175         -52.7398        -10.7971         -52.7398         -10.797       -0.0134128         145.982
0.575                   -1.33962        -161.783         -52.6031        -12.5518         -52.6031        -12.5517       -0.0135677         145.909
0.576                   -1.36898        -162.395         -52.4681        -14.3103          -52.468        -14.3102       -0.0137249         145.835
0.577                   -1.39886        -163.009         -52.3347        -16.0725         -52.3347        -16.0724       -0.0138845         145.762
0.578                   -1.42927        -163.626          -52.203        -17.8383          -52.203        -17.8381       -0.0140464         145.688
0.579                   -1.46022        -164.245         -52.0731        -19.6074          -52.073        -19.6072       -0.0142106         145.614
0.58                    -1.49172        -164.868         -51.9448        -21.3797         -51.9447        -21.3795       -0.0143773          145.54
0.581                   -1.52378        -165.494         -51.8183         -23.155         -51.8182        -23.1549       -0.0145465         145.465
0.582                    -1.5564        -166.122         -51.6935        -24.9332         -51.6934         -24.933       -0.0147181         145.391
0.583                   -1.58961        -166.754         -51.5704        -26.7141         -51.5703        -26.7139       -0.0148923         145.316
0.584                   -1.62342        -167.388         -51.4491        -28.4973          -51.449        -28.4971        -0.015069         145.242
0.585                   -1.65783        -168.026         -51.3295        -30.2828         -51.3294        -30.2826       -0.0152483         145.167
0.586                   -1.69285        -168.666         -51.2116        -32.0704         -51.2115        -32.0702       -0.0154302         145.092
0.587                   -1.72851        -169.309         -51.0955        -33.8597         -51.0954        -33.8595       -0.0156147         145.016
0.588                    -1.7648        -169.955         -50.9811        -35.6507          -50.981        -35.6505       -0.0158019         144.941
0.589                   -1.80176        -170.605         -50.8684         -37.443         -50.8683        -37.4428       -0.0159919         144.866
0.59                    -1.83938        -171.257         -50.7574        -39.2365         -50.7573        -39.2363       -0.0161846          144.79
0.591                   -1.87768        -171.912         -50.6481        -41.0309          -50.648        -41.0307       -0.0163801         144.714
0.592                   -1.91668        -172.571         -50.5405         -42.826         -50.5403        -42.8258       -0.0165784         144.638
0.593                   -1.95638        -173.232         -50.4345        -44.6216         -50.4343        -44.6214       -0.0167796         144.562
0.594                   -1.99681        -173.896         -50.3301        -46.4175         -50.3299        -46.4173       -0.0169836         144.485
0.595                   -2.03798        -174.564         -50.2273        -48.2135         -50.2272        -48.2133       -0.0171906         144.408
0.596                   -2.07991        -175.234         -50.1261        -50.0093         -50.1259        -50.0091       -0.0174005         144.332
0.597                    -2.1226        -175.908         -50.0264        -51.8048         -50.0263        -51.8046       -0.0176134         144.255
0.598                   -2.16609        -176.584         -49.9283        -53.5997         -49.9281        -53.5995       -0.0178294         144.178
0.599                   -2.21037        -177.264         -49.8316        -55.3939         -49.8314        -55.3937       -0.0180484           144.1
0.6                     -2.25547        -177.946         -49.7363        -57.1871         -49.7362         -57.187       -0.0182706         144.023
0.601                   -2.30141        -178.632         -49.6425        -58.9793         -49.6423        -58.9792       -0.0184959         143.945
0.602                   -2.34821         -179.32           -49.55        -60.7702         -49.5499        -60.7701       -0.0187243         143.867
0.603                   -2.39588         179.988         -49.4589        -62.5597         -49.4587        -62.5596        -0.018956         143.789
0.604                   -2.44443         179.294          -49.369        -64.3476         -49.3688        -64.3475       -0.0191909         143.711
0.605                    -2.4939         178.596         -49.2803        -66.1338         -49.2802        -66.1337       -0.0194291         143.632
0.606                   -2.54429         177.896         -49.1929        -67.9181         -49.1928         -67.918       -0.0196707         143.553
0.607                   -2.59564         177.193         -49.1066        -69.7004         -49.1065        -69.7004       -0.0199156         143.474
0.608                   -2.64795         176.486         -49.0214        -71.4807         -49.0213        -71.4806       -0.0201639         143.395
0.609                   -2.70125         175.777         -48.9373        -73.2588         -48.9372        -73.2587       -0.0204157         143.316
0.61                    -2.75555         175.065         -48.8542        -75.0345         -48.8541        -75.0345        -0.020671         143.236
0.611                   -2.81089         174.351          -48.772        -76.8079         -48.7719        -76.8079       -0.0209298         143.157
0.612                   -2.86729         173.633         -48.6908        -78.5789         -48.6907        -78.5789       -0.0211921         143.077
0.613                   -2.92475         172.913         -48.6104        -80.3474         -48.6103        -80.3474       -0.0214581         142.996
0.614                   -2.98331          172.19         -48.5308        -82.1133         -48.5307        -82.1133       -0.0217278         142.916
0.615                     -3.043         171.465          -48.452        -83.8767         -48.4519        -83.8767       -0.0220011         142.835
0.616                   -3.10383         170.737         -48.3739        -85.6374         -48.3739        -85.6374       -0.0222782         142.754
0.617                   -3.16582         170.006         -48.2965        -87.3955         -48.2964        -87.3955       -0.0225591         142.673
0.618                   -3.22901         169.273         -48.2197        -89.1509         -48.2197        -89.1509       -0.0228438         142.592
0.619                   -3.29341         168.538         -48.1435        -90.9037         -48.1434        -90.9037       -0.0231324          142.51
0.62                    -3.35906           167.8         -48.0677        -92.6538         -48.0677        -92.6538       -0.0234249         142.428
0.621                   -3.42597          167.06         -47.9925        -94.4013         -47.9925        -94.4013       -0.0237215         142.346
0.622                   -3.49418         166.318         -47.9177        -96.1462         -47.9177        -96.1462        -0.024022         142.264
0.623                    -3.5637         165.574         -47.8433        -97.8885         -47.8433        -97.8885       -0.0243266         142.181
0.624                   -3.63458         164.828         -47.7692        -99.6282         -47.7692        -99.6282       -0.0246353         142.099
0.625                   -3.70682          164.08         -47.6953        -101.365         -47.6954        -101.365       -0.0249482         142.016
0.626                   -3.78047          163.33         -47.6218          -103.1         -47.6218          -103.1       -0.0252654         141.932
0.627                   -3.85555         162.578         -47.5484        -104.833         -47.5485        -104.833       -0.0255868         141.849
0.628                   -3.93209         161.825         -47.4752        -106.563         -47.4753        -106.563       -0.0259125         141.765
0.629                   -4.01012         161.071         -47.4021        -108.291         -47.4022        -108.291       -0.0262427         141.681
