! TOUCHSTONE file generated by CST MICROWAVE STUDIO
! Date and time: Fri Oct  2 16:33:08 2020
! Project name: Scenario_1_Free_Space_out_of_line.cst
! Parameters = {Lambda=346.42; Step_1=17.321; dy1=330.299; dx1=346; L_HA=400; MT=2.54; Rad_Dielectric=30; Rad_Lower=7.3; Rad_Upper=30; a_HA=580; a_WG=246; b_HA=500; b_WG=121; c_HA=0; c_WG=187; d_feed=85; h_feed=15; h_lower=18; h_upper=40}
! Header version: 2018
! Port assignment regex: !\s*Touchstone port\s*([0-9]+)\s*=\s*(CST MWS port|CST DS port)\s*([0-9]+|Zmin|Zmax)\s*\(\"(.*)\"\)(\s*mode\s*([0-9]+))?.*
! Touchstone port assignment:
! Touchstone port 1 = CST MWS port 1 ("")
! Touchstone port 2 = CST MWS port 2 ("")
# GHz S DB R 50
0.5                    -0.151142        -122.635         -63.3078         34.6603         -63.3078         34.6603      -0.00687946         151.098
0.501                  -0.156258        -123.078         -63.1607         32.4828         -63.1607         32.4829      -0.00696778         151.033
0.502                   -0.16157        -123.522         -63.0105          30.322         -63.0105         30.3222       -0.0070566         150.967
0.503                  -0.167081        -123.968         -62.8574         28.1782         -62.8574         28.1785       -0.0071459         150.902
0.504                  -0.172793        -124.417         -62.7017         26.0513         -62.7017         26.0517      -0.00723569         150.836
0.505                  -0.178709        -124.867         -62.5435         23.9415         -62.5435          23.942      -0.00732598         150.771
0.506                  -0.184832        -125.319         -62.3831         21.8485         -62.3831         21.8491      -0.00741677         150.705
0.507                  -0.191165        -125.774         -62.2206         19.7723         -62.2206          19.773      -0.00750805         150.639
0.508                  -0.197711         -126.23         -62.0562         17.7126         -62.0562         17.7133      -0.00759983         150.573
0.509                  -0.204472        -126.688         -61.8901         15.6692         -61.8901         15.6699      -0.00769212         150.507
0.51                   -0.211452        -127.149         -61.7224         13.6416         -61.7224         13.6425      -0.00778492         150.441
0.511                  -0.218654        -127.611         -61.5534         11.6296         -61.5534         11.6305      -0.00787823         150.375
0.512                  -0.226081        -128.075         -61.3832         9.63277         -61.3832         9.63372      -0.00797206         150.309
0.513                  -0.233736        -128.542         -61.2118         7.65059         -61.2118         7.65159      -0.00806641         150.242
0.514                  -0.241622         -129.01         -61.0396         5.68262         -61.0396         5.68366      -0.00816128         150.176
0.515                  -0.249742        -129.481         -60.8665         3.72836         -60.8665         3.72943      -0.00825669          150.11
0.516                    -0.2581        -129.954         -60.6927          1.7873         -60.6927         1.78841      -0.00835263         150.043
0.517                  -0.266699        -130.429         -60.5183       -0.141091         -60.5184       -0.139955      -0.00844912         149.976
0.518                  -0.275542        -130.906         -60.3435        -2.05736         -60.3435        -2.05619      -0.00854616          149.91
0.519                  -0.284632        -131.385         -60.1683        -3.96204         -60.1683        -3.96086      -0.00864376         149.843
0.52                   -0.293974        -131.866         -59.9928         -5.8557         -59.9929        -5.85451      -0.00874192         149.776
0.521                   -0.30357        -132.349         -59.8172         -7.7389         -59.8172        -7.73769      -0.00884065         149.709
0.522                  -0.313424        -132.834         -59.6414        -9.61219         -59.6415        -9.61096      -0.00893997         149.642
0.523                   -0.32354        -133.322         -59.4656        -11.4761         -59.4657        -11.4749      -0.00903988         149.575
0.524                   -0.33392        -133.811         -59.2899        -13.3312         -59.2899          -13.33       -0.0091404         149.508
0.525                   -0.34457        -134.303         -59.1143        -15.1781         -59.1143        -15.1769      -0.00924152         149.441
0.526                  -0.355492        -134.797         -58.9388        -17.0172         -58.9389         -17.016      -0.00934327         149.373
0.527                   -0.36669        -135.293         -58.7636        -18.8492         -58.7636        -18.8479      -0.00944566         149.306
0.528                  -0.378169        -135.792         -58.5887        -20.6744         -58.5887        -20.6732       -0.0095487         149.238
0.529                  -0.389931        -136.292         -58.4141        -22.4935         -58.4141        -22.4923      -0.00965241          149.17
0.53                   -0.401981        -136.795         -58.2399        -24.3069         -58.2399        -24.3057       -0.0097568         149.103
0.531                  -0.414323          -137.3         -58.0661        -26.1151         -58.0661        -26.1139      -0.00986189         149.035
0.532                  -0.426961        -137.807         -57.8928        -27.9186         -57.8928        -27.9174       -0.0099677         148.967
0.533                  -0.439899        -138.316           -57.72        -29.7178           -57.72        -29.7166       -0.0100742         148.899
0.534                   -0.45314        -138.828         -57.5477        -31.5132         -57.5477        -31.5121       -0.0101816         148.831
0.535                   -0.46669        -139.342          -57.376        -33.3052          -57.376        -33.3041       -0.0102896         148.763
0.536                  -0.480553        -139.858         -57.2049        -35.0943          -57.205        -35.0932       -0.0103986         148.694
0.537                  -0.494732        -140.376         -57.0345        -36.8808         -57.0345        -36.8797       -0.0105083         148.626
0.538                  -0.509233        -140.897         -56.8647        -38.6651         -56.8647        -38.6641       -0.0106189         148.557
0.539                  -0.524059         -141.42         -56.6956        -40.4477         -56.6956        -40.4466       -0.0107304         148.489
0.54                   -0.539215        -141.945         -56.5272        -42.2288         -56.5272        -42.2278       -0.0108429          148.42
0.541                  -0.554706        -142.473         -56.3595        -44.0088         -56.3595        -44.0078       -0.0109563         148.351
0.542                  -0.570537        -143.003         -56.1925        -45.7881         -56.1925        -45.7871       -0.0110708         148.282
0.543                  -0.586711        -143.535         -56.0264        -47.5669         -56.0264         -47.566       -0.0111864         148.213
0.544                  -0.603235        -144.069          -55.861        -49.3457          -55.861        -49.3447       -0.0113031         148.144
0.545                  -0.620112        -144.606         -55.6964        -51.1246         -55.6964        -51.1237        -0.011421         148.075
0.546                  -0.637348        -145.145         -55.5326        -52.9039         -55.5326         -52.903       -0.0115402         148.006
0.547                  -0.654947        -145.686         -55.3697        -54.6839         -55.3697        -54.6831       -0.0116607         147.936
0.548                  -0.672915         -146.23         -55.2076         -56.465         -55.2076        -56.4642       -0.0117827         147.867
0.549                  -0.691258        -146.776         -55.0463        -58.2472         -55.0463        -58.2464       -0.0119062         147.797
0.55                   -0.709979        -147.325         -54.8859        -60.0308         -54.8859        -60.0301       -0.0120314         147.728
0.551                  -0.729085        -147.876         -54.7264        -61.8161         -54.7264        -61.8154       -0.0121583         147.658
0.552                  -0.748581        -148.429         -54.5678        -63.6032         -54.5678        -63.6025       -0.0122871         147.588
0.553                  -0.768472        -148.985         -54.4101        -65.3924         -54.4101        -65.3917       -0.0124179         147.518
0.554                  -0.788764        -149.543         -54.2533        -67.1837         -54.2533        -67.1831       -0.0125509         147.448
0.555                  -0.809463        -150.104         -54.0974        -68.9774         -54.0974        -68.9768        -0.012686         147.377
0.556                  -0.830574        -150.666         -53.9424        -70.7736         -53.9424        -70.7731       -0.0128232         147.307
0.557                  -0.852104        -151.232         -53.7883        -72.5725         -53.7883         -72.572       -0.0129623         147.237
0.558                  -0.874058          -151.8         -53.6352        -74.3741         -53.6352        -74.3737       -0.0131025         147.166
0.559                  -0.896443         -152.37         -53.4831        -76.1787         -53.4831        -76.1783       -0.0132421         147.096
0.56                   -0.919264        -152.942         -53.3319        -77.9862         -53.3319        -77.9858       -0.0133777         147.026
0.561                  -0.942528        -153.518         -53.1816        -79.7969         -53.1816        -79.7965       -0.0135017         146.955
0.562                  -0.966241        -154.095         -53.0323        -81.6107         -53.0323        -81.6103       -0.0135985         146.885
0.563                   -0.99041        -154.675          -52.884        -83.4277          -52.884        -83.4274       -0.0136377         146.815
0.564                   -1.01504        -155.258         -52.7367        -85.2481         -52.7367        -85.2478       -0.0135667         146.745
0.565                   -1.04014        -155.843         -52.5903        -87.0718         -52.5903        -87.0716       -0.0133309         146.674
0.566                   -1.06572         -156.43         -52.4449        -88.8989         -52.4449        -88.8987       -0.0129754         146.602
0.567                   -1.09178         -157.02         -52.3005        -90.7294         -52.3005        -90.7292        -0.012721         146.528
0.568                   -1.11832        -157.612         -52.1571        -92.5634         -52.1571        -92.5632       -0.0127281         146.453
0.569                   -1.14537        -158.207         -52.0146        -94.4008         -52.0146        -94.4007       -0.0129269         146.379
0.57                    -1.17292        -158.805         -51.8732        -96.2418         -51.8732        -96.2417       -0.0131943         146.305
0.571                   -1.20098        -159.405         -51.7327        -98.0862         -51.7327        -98.0862       -0.0134657         146.232
0.572                   -1.22956        -160.007         -51.5932        -99.9342         -51.5932        -99.9341       -0.0137205         146.159
0.573                   -1.25867        -160.612         -51.4547        -101.786         -51.4547        -101.786       -0.0139559         146.086
0.574                   -1.28832         -161.22         -51.3172         -103.64         -51.3172         -103.64       -0.0141746         146.013
0.575                   -1.31851         -161.83         -51.1806        -105.498         -51.1806        -105.499         -0.01438         145.939
0.576                   -1.34924        -162.442         -51.0451         -107.36         -51.0451         -107.36       -0.0145752         145.866
0.577                   -1.38054        -163.057         -50.9105        -109.225         -50.9105        -109.225       -0.0147628         145.793
0.578                   -1.41241        -163.675         -50.7769        -111.093         -50.7769        -111.093       -0.0149446         145.719
0.579                   -1.44485        -164.295         -50.6442        -112.964         -50.6442        -112.964       -0.0151221         145.645
0.58                    -1.47788        -164.918         -50.5125        -114.839         -50.5126        -114.839       -0.0152966         145.572
0.581                   -1.51151        -165.543         -50.3818        -116.716         -50.3818        -116.716       -0.0154688         145.498
0.582                   -1.54573        -166.171         -50.2521        -118.597         -50.2521        -118.597       -0.0156395         145.423
0.583                   -1.58058        -166.801         -50.1232         -120.48         -50.1232         -120.48       -0.0158093         145.349
0.584                   -1.61604        -167.434         -49.9954        -122.366         -49.9954        -122.367       -0.0159786         145.275
0.585                   -1.65214         -168.07         -49.8684        -124.255         -49.8684        -124.256       -0.0161477           145.2
0.586                   -1.68887        -168.708         -49.7424        -126.147         -49.7424        -126.147       -0.0163171         145.125
0.587                   -1.72627        -169.348         -49.6173        -128.041         -49.6173        -128.041       -0.0164869          145.05
0.588                   -1.76432        -169.991          -49.493        -129.938         -49.4931        -129.938       -0.0166574         144.975
0.589                   -1.80305        -170.637         -49.3697        -131.837         -49.3697        -131.837       -0.0168288           144.9
0.59                    -1.84246        -171.285         -49.2473        -133.738         -49.2473        -133.739       -0.0170013         144.824
0.591                   -1.88256        -171.936         -49.1257        -135.642         -49.1257        -135.642        -0.017175         144.748
0.592                   -1.92338        -172.589          -49.005        -137.547          -49.005        -137.548       -0.0173501         144.673
0.593                    -1.9649        -173.245         -48.8851        -139.455         -48.8852        -139.455       -0.0175266         144.597
0.594                   -2.00716        -173.903         -48.7661        -141.365         -48.7661        -141.365       -0.0177049          144.52
0.595                   -2.05016        -174.564         -48.6479        -143.276         -48.6479        -143.276       -0.0178848         144.444
0.596                   -2.09391        -175.227         -48.5305        -145.189         -48.5305        -145.189       -0.0180666         144.367
0.597                   -2.13843        -175.893         -48.4139        -147.103         -48.4139        -147.104       -0.0182504          144.29
0.598                   -2.18373        -176.561          -48.298        -149.019         -48.2981         -149.02       -0.0184362         144.213
0.599                   -2.22981        -177.231          -48.183        -150.937          -48.183        -150.937       -0.0186242         144.136
0.6                      -2.2767        -177.905         -48.0686        -152.856         -48.0687        -152.856       -0.0188144         144.059
0.601                   -2.32441         -178.58          -47.955        -154.775         -47.9551        -154.776        -0.019007         143.981
0.602                   -2.37294        -179.258         -47.8421        -156.696         -47.8422        -156.697       -0.0192021         143.904
0.603                   -2.42232        -179.938         -47.7299        -158.618           -47.73        -158.619       -0.0193997         143.826
0.604                   -2.47256         179.379         -47.6184        -160.541         -47.6185        -160.542       -0.0195999         143.747
0.605                   -2.52368         178.694         -47.5076        -162.465         -47.5076        -162.465       -0.0198029         143.669
0.606                   -2.57568         178.006         -47.3974         -164.39         -47.3974         -164.39       -0.0200088          143.59
0.607                   -2.62858         177.316         -47.2878        -166.315         -47.2878        -166.315       -0.0202175         143.511
0.608                    -2.6824         176.624         -47.1789         -168.24         -47.1789        -168.241       -0.0204293         143.432
0.609                   -2.73716          175.93         -47.0705        -170.167         -47.0705        -170.167       -0.0206443         143.353
0.61                    -2.79287         175.233         -46.9627        -172.093         -46.9627        -172.094       -0.0208624         143.274
0.611                   -2.84954         174.534         -46.8555         -174.02         -46.8555        -174.021       -0.0210839         143.194
0.612                    -2.9072         173.833         -46.7488        -175.947         -46.7488        -175.948       -0.0213089         143.114
0.613                   -2.96586          173.13         -46.6426        -177.875         -46.6427        -177.875       -0.0215373         143.034
0.614                   -3.02553         172.424          -46.537        -179.803          -46.537        -179.803       -0.0217695         142.953
0.615                   -3.08624         171.717         -46.4318          178.27         -46.4319         178.269       -0.0220054         142.873
0.616                     -3.148         171.007         -46.3272         176.342         -46.3272         176.341       -0.0222452         142.792
0.617                   -3.21084         170.296          -46.223         174.414          -46.223         174.414        -0.022489         142.711
0.618                   -3.27477         169.582         -46.1192         172.486         -46.1192         172.486       -0.0227369         142.629
0.619                    -3.3398         168.867         -46.0158         170.558         -46.0159         170.558       -0.0229891         142.548
0.62                    -3.40597          168.15         -45.9129          168.63         -45.9129          168.63       -0.0232456         142.466
0.621                   -3.47328         167.431         -45.8104         166.703         -45.8104         166.703       -0.0235066         142.384
0.622                   -3.54177          166.71         -45.7082         164.776         -45.7083         164.775       -0.0237723         142.301
0.623                   -3.61144         165.988         -45.6064         162.848         -45.6065         162.848       -0.0240427         142.218
0.624                   -3.68233         165.264          -45.505         160.921          -45.505         160.921       -0.0243179         142.136
0.625                   -3.75445         164.538         -45.4039         158.995         -45.4039         158.994       -0.0245982         142.052
0.626                   -3.82783         163.811         -45.3032         157.068         -45.3032         157.068       -0.0248837         141.969
0.627                   -3.90248         163.082         -45.2027         155.142         -45.2027         155.142       -0.0251745         141.885
0.628                   -3.97844         162.353         -45.1026         153.216         -45.1026         153.216       -0.0254707         141.801
0.629                   -4.05572         161.622         -45.0027          151.29         -45.0028          151.29       -0.0257726         141.717
