! TOUCHSTONE file generated by CST MICROWAVE STUDIO
! Date and time: Fri Oct  2 16:40:50 2020
! Project name: Scenario_1_Free_Space_out_of_line.cst
! Parameters = {Lambda=346.42; Step_1=17.321; dy1=330.299; dx1=520; L_HA=400; MT=2.54; Rad_Dielectric=30; Rad_Lower=7.3; Rad_Upper=30; a_HA=580; a_WG=246; b_HA=500; b_WG=121; c_HA=0; c_WG=187; d_feed=85; h_feed=15; h_lower=18; h_upper=40}
! Header version: 2018
! Port assignment regex: !\s*Touchstone port\s*([0-9]+)\s*=\s*(CST MWS port|CST DS port)\s*([0-9]+|Zmin|Zmax)\s*\(\"(.*)\"\)(\s*mode\s*([0-9]+))?.*
! Touchstone port assignment:
! Touchstone port 1 = CST MWS port 1 ("")
! Touchstone port 2 = CST MWS port 2 ("")
# GHz S DB R 50
0.5                    -0.147203        -122.612         -64.2018        -55.0278          -64.199        -55.0262      -0.00647553         151.162
0.501                  -0.154939         -123.07         -64.0871        -57.7423         -64.0844        -57.7404      -0.00652982         151.097
0.502                   -0.16286        -123.529         -63.9635        -60.4323         -63.9608          -60.43      -0.00658516         151.032
0.503                  -0.170966        -123.989         -63.8316        -63.0947         -63.8289        -63.0921      -0.00664157         150.966
0.504                  -0.179257         -124.45         -63.6918        -65.7272         -63.6891        -65.7243      -0.00669905         150.901
0.505                  -0.187733        -124.913         -63.5446        -68.3276          -63.542        -68.3244       -0.0067576         150.835
0.506                  -0.196395        -125.377         -63.3907        -70.8943          -63.388        -70.8908      -0.00681724         150.769
0.507                  -0.205244        -125.842         -63.2305         -73.426         -63.2279        -73.4223      -0.00687796         150.703
0.508                  -0.214279        -126.308         -63.0646        -75.9217          -63.062        -75.9178      -0.00693979         150.638
0.509                  -0.223502        -126.776         -62.8935         -78.381         -62.8909        -78.3768      -0.00700272         150.572
0.51                   -0.232913        -127.245         -62.7177        -80.8034         -62.7152         -80.799      -0.00706677         150.506
0.511                  -0.242512        -127.715         -62.5377         -83.189         -62.5352        -83.1844      -0.00713193          150.44
0.512                    -0.2523        -128.187         -62.3541        -85.5381         -62.3516        -85.5334      -0.00719823         150.373
0.513                  -0.262278         -128.66         -62.1671        -87.8512         -62.1647        -87.8463      -0.00726567         150.307
0.514                  -0.272446        -129.134         -61.9774        -90.1289          -61.975        -90.1238      -0.00733425         150.241
0.515                  -0.282806         -129.61         -61.7852         -92.372         -61.7828        -92.3669      -0.00740399         150.174
0.516                  -0.293358        -130.087         -61.5909        -94.5816         -61.5886        -94.5764      -0.00747489         150.108
0.517                  -0.304103        -130.565         -61.3949        -96.7587         -61.3926        -96.7534      -0.00754697         150.041
0.518                  -0.315042        -131.045         -61.1975        -98.9045         -61.1952        -98.8991      -0.00762023         149.975
0.519                  -0.326176        -131.527         -60.9989         -101.02         -60.9967        -101.015      -0.00769468         149.908
0.52                   -0.337507         -132.01         -60.7994        -103.107         -60.7973        -103.102      -0.00777033         149.841
0.521                  -0.349035        -132.494         -60.5994        -105.167         -60.5972        -105.161      -0.00784719         149.774
0.522                  -0.360761         -132.98         -60.3989          -107.2         -60.3968        -107.195      -0.00792527         149.707
0.523                  -0.372688        -133.468         -60.1982        -109.209         -60.1961        -109.203      -0.00800458          149.64
0.524                  -0.384816        -133.957         -59.9975        -111.194         -59.9954        -111.189      -0.00808513         149.573
0.525                  -0.397146        -134.447         -59.7969        -113.158         -59.7949        -113.152      -0.00816693         149.505
0.526                  -0.409682         -134.94         -59.5965          -115.1         -59.5946        -115.095         -0.00825         149.438
0.527                  -0.422423        -135.434         -59.3966        -117.024         -59.3946        -117.018      -0.00833433          149.37
0.528                  -0.435372        -135.929         -59.1971        -118.929         -59.1952        -118.924      -0.00841995         149.303
0.529                  -0.448531        -136.426         -58.9983        -120.818         -58.9964        -120.812      -0.00850686         149.235
0.53                   -0.461901        -136.925         -58.8001        -122.691         -58.7983        -122.686      -0.00859508         149.167
0.531                  -0.475485        -137.426         -58.6028         -124.55         -58.6009        -124.544      -0.00868461         149.099
0.532                  -0.489285        -137.928         -58.4062        -126.395         -58.4044         -126.39      -0.00877548         149.031
0.533                  -0.503303        -138.433         -58.2106        -128.229         -58.2088        -128.224      -0.00886768         148.963
0.534                  -0.517542        -138.939         -58.0159        -130.052         -58.0141        -130.047      -0.00896123         148.895
0.535                  -0.532003        -139.446         -57.8221        -131.865         -57.8204         -131.86      -0.00905615         148.827
0.536                   -0.54669        -139.956         -57.6295        -133.669         -57.6278        -133.664      -0.00915245         148.758
0.537                  -0.561606        -140.468         -57.4378        -135.465         -57.4362         -135.46      -0.00925014          148.69
0.538                  -0.576752        -140.981         -57.2473        -137.254         -57.2457         -137.25      -0.00934923         148.621
0.539                  -0.592133        -141.497         -57.0578        -139.038         -57.0563        -139.033      -0.00944974         148.553
0.54                   -0.607751        -142.014         -56.8695        -140.816          -56.868        -140.812      -0.00955167         148.484
0.541                   -0.62361        -142.533         -56.6823         -142.59         -56.6808        -142.586      -0.00965505         148.415
0.542                  -0.639712        -143.055         -56.4963        -144.361         -56.4948        -144.357      -0.00975989         148.346
0.543                  -0.656063        -143.579         -56.3114        -146.129           -56.31        -146.125      -0.00986621         148.277
0.544                  -0.672665        -144.104         -56.1277        -147.895         -56.1263        -147.891      -0.00997401         148.207
0.545                  -0.689522        -144.632         -55.9452         -149.66         -55.9438        -149.656       -0.0100833         148.138
0.546                  -0.706638        -145.162         -55.7638        -151.425         -55.7624        -151.421       -0.0101941         148.069
0.547                  -0.724019        -145.694         -55.5836         -153.19         -55.5822        -153.186       -0.0103065         147.999
0.548                  -0.741667        -146.228         -55.4045        -154.955         -55.4032        -154.952       -0.0104204         147.929
0.549                  -0.759588        -146.765         -55.2266        -156.723         -55.2253        -156.719       -0.0105358          147.86
0.55                   -0.777787        -147.304         -55.0499        -158.492         -55.0486        -158.489       -0.0106529          147.79
0.551                  -0.796269        -147.845         -54.8743        -160.264         -54.8731        -160.261       -0.0107715          147.72
0.552                  -0.815038        -148.389         -54.6999        -162.039         -54.6987        -162.036       -0.0108918          147.65
0.553                    -0.8341        -148.935         -54.5266        -163.818         -54.5254        -163.815       -0.0110137         147.579
0.554                  -0.853461        -149.483         -54.3545        -165.601         -54.3533        -165.598       -0.0111372         147.509
0.555                  -0.873127        -150.034         -54.1835        -167.389         -54.1823        -167.386       -0.0112624         147.438
0.556                  -0.893104        -150.587         -54.0136        -169.181         -54.0125        -169.179       -0.0113893         147.368
0.557                  -0.913398        -151.143         -53.8449         -170.98         -53.8438        -170.977       -0.0115179         147.297
0.558                  -0.934016        -151.702         -53.6773        -172.784         -53.6761        -172.782       -0.0116482         147.226
0.559                  -0.954964        -152.263         -53.5108        -174.595         -53.5097        -174.593       -0.0117802         147.155
0.56                    -0.97625        -152.826         -53.3453        -176.412         -53.3443         -176.41        -0.011914         147.084
0.561                  -0.997881        -153.393          -53.181        -178.237           -53.18        -178.235       -0.0120496         147.013
0.562                   -1.01986        -153.962         -53.0178         179.931         -53.0168         179.933        -0.012187         146.941
0.563                   -1.04221        -154.534         -52.8557         178.092         -52.8547         178.093       -0.0123262          146.87
0.564                   -1.06492        -155.108         -52.6947         176.244         -52.6937         176.246       -0.0124672         146.798
0.565                   -1.08801        -155.686         -52.5347         174.388         -52.5337          174.39       -0.0126102         146.726
0.566                   -1.11148        -156.266         -52.3758         172.524         -52.3749         172.525        -0.012755         146.655
0.567                   -1.13535        -156.849         -52.2181         170.651         -52.2171         170.652       -0.0129017         146.583
0.568                   -1.15963        -157.436         -52.0613         168.769         -52.0604          168.77       -0.0130503          146.51
0.569                   -1.18431        -158.025         -51.9057         166.878         -51.9048         166.879       -0.0132009         146.438
0.57                    -1.20943        -158.617         -51.7511         164.977         -51.7502         164.978       -0.0133535         146.366
0.571                   -1.23497        -159.212         -51.5976         163.068         -51.5967         163.068        -0.013508         146.293
0.572                   -1.26096         -159.81         -51.4451         161.148         -51.4443         161.149       -0.0136646          146.22
0.573                   -1.28741        -160.411         -51.2938         159.219          -51.293         159.219       -0.0138232         146.147
0.574                   -1.31432        -161.016         -51.1434         157.279         -51.1427          157.28        -0.013984         146.074
0.575                   -1.34171        -161.623         -50.9942          155.33         -50.9934         155.331       -0.0141468         146.001
0.576                   -1.36959        -162.234          -50.846         153.371         -50.8453         153.372       -0.0143117         145.928
0.577                   -1.39798        -162.848         -50.6989         151.402         -50.6981         151.402       -0.0144788         145.854
0.578                   -1.42688        -163.465         -50.5528         149.423         -50.5521         149.423       -0.0146481         145.781
0.579                   -1.45631        -164.085         -50.4078         147.434         -50.4071         147.434       -0.0148196         145.707
0.58                    -1.48628        -164.709         -50.2639         145.434         -50.2632         145.434       -0.0149933         145.633
0.581                   -1.51681        -165.336          -50.121         143.425         -50.1204         143.425       -0.0151693         145.559
0.582                   -1.54792        -165.967         -49.9792         141.406         -49.9786         141.405       -0.0153476         145.485
0.583                    -1.5796          -166.6         -49.8385         139.376         -49.8379         139.376       -0.0155282          145.41
0.584                   -1.61189        -167.238         -49.6988         137.337         -49.6982         137.337       -0.0157112         145.336
0.585                    -1.6448        -167.878         -49.5602         135.288         -49.5597         135.288       -0.0158965         145.261
0.586                   -1.67834        -168.522         -49.4227          133.23         -49.4222         133.229       -0.0160843         145.186
0.587                   -1.71253         -169.17         -49.2862         131.161         -49.2857         131.161       -0.0162745         145.111
0.588                   -1.74738        -169.821         -49.1509         129.084         -49.1503         129.083       -0.0164672         145.036
0.589                   -1.78292        -170.475         -49.0165         126.997          -49.016         126.997       -0.0166624          144.96
0.59                    -1.81916        -171.133         -48.8833         124.902         -48.8828         124.901       -0.0168602         144.885
0.591                   -1.85612        -171.794         -48.7511         122.797         -48.7506         122.796       -0.0170605         144.809
0.592                   -1.89382        -172.459           -48.62         120.684         -48.6195         120.683       -0.0172635         144.733
0.593                   -1.93227        -173.128         -48.4899         118.562         -48.4895         118.561       -0.0174691         144.657
0.594                    -1.9715          -173.8         -48.3609         116.433         -48.3605         116.432       -0.0176775         144.581
0.595                   -2.01153        -174.475         -48.2329         114.295         -48.2325         114.294       -0.0178885         144.504
0.596                   -2.05238        -175.154          -48.106          112.15         -48.1056         112.149       -0.0181023         144.428
0.597                   -2.09406        -175.836         -47.9802         109.997         -47.9798         109.996        -0.018319         144.351
0.598                   -2.13661        -176.522         -47.8553         107.837          -47.855         107.836       -0.0185385         144.274
0.599                   -2.18003        -177.211         -47.7315         105.671         -47.7312          105.67       -0.0187608         144.197
0.6                     -2.22436        -177.904         -47.6088         103.498         -47.6084         103.497       -0.0189861         144.119
0.601                   -2.26961          -178.6          -47.487         101.319         -47.4867         101.318       -0.0192144         144.042
0.602                   -2.31581          -179.3         -47.3663         99.1341          -47.366         99.1329       -0.0194457         143.964
0.603                   -2.36298         179.997         -47.2465         96.9436         -47.2462         96.9425       -0.0196801         143.886
0.604                   -2.41115         179.291         -47.1277          94.748         -47.1274         94.7469       -0.0199175         143.808
0.605                   -2.46034         178.582         -47.0099         92.5476         -47.0097         92.5464       -0.0201581         143.729
0.606                   -2.51057         177.869         -46.8931         90.3427         -46.8928         90.3416       -0.0204019         143.651
0.607                   -2.56186         177.153         -46.7772         88.1337         -46.7769         88.1325        -0.020649         143.572
0.608                   -2.61426         176.434         -46.6622         85.9209          -46.662         85.9197       -0.0208993         143.493
0.609                   -2.66776         175.712         -46.5482         83.7047         -46.5479         83.7035        -0.021153         143.414
0.61                    -2.72242         174.987          -46.435         81.4853         -46.4348         81.4842       -0.0214101         143.334
0.611                   -2.77824          174.26         -46.3227         79.2633         -46.3225         79.2622       -0.0216706         143.255
0.612                   -2.83526         173.529         -46.2113         77.0389         -46.2111         77.0378       -0.0219346         143.175
0.613                    -2.8935         172.795         -46.1007         74.8125         -46.1005         74.8114       -0.0222021         143.095
0.614                   -2.95299         172.059          -45.991         72.5844         -45.9908         72.5833       -0.0224733         143.015
0.615                   -3.01375         171.321          -45.882         70.3549         -45.8818         70.3539       -0.0227481         142.934
0.616                   -3.07582         170.579         -45.7739         68.1245         -45.7737         68.1235       -0.0230267         142.853
0.617                   -3.13921         169.836         -45.6665         65.8934         -45.6663         65.8924        -0.023309         142.772
0.618                   -3.20396          169.09         -45.5598         63.6619         -45.5596          63.661       -0.0235952         142.691
0.619                    -3.2701         168.342         -45.4539         61.4304         -45.4537         61.4295       -0.0238852          142.61
0.62                    -3.33764         167.593         -45.3486         59.1992         -45.3484         59.1983       -0.0241792         142.528
0.621                   -3.40662         166.841          -45.244         56.9685         -45.2438         56.9677       -0.0244772         142.446
0.622                   -3.47706         166.088         -45.1401         54.7387         -45.1399         54.7379       -0.0247794         142.364
0.623                     -3.549         165.333         -45.0368           52.51         -45.0366         52.5092       -0.0250856         142.281
0.624                   -3.62245         164.577         -44.9341         50.2827         -44.9339          50.282       -0.0253961         142.198
0.625                   -3.69744          163.82         -44.8319         48.0571         -44.8318         48.0564       -0.0257109         142.116
0.626                   -3.77401         163.061         -44.7304         45.8334         -44.7302         45.8328       -0.0260301         142.032
0.627                   -3.85217         162.302         -44.6293         43.6118         -44.6291         43.6113       -0.0263536         141.949
0.628                   -3.93195         161.542         -44.5288         41.3927         -44.5286         41.3921       -0.0266817         141.865
0.629                   -4.01338         160.782         -44.4287          39.176         -44.4285         39.1756       -0.0270144         141.781
