! TOUCHSTONE file generated by CST MICROWAVE STUDIO
! Date and time: Fri Oct  2 19:07:57 2020
! Project name: Scenario_1_Free_Space_out_of_line.cst
! Parameters = {Lambda=346.42; Step_1=17.321; dy1=330.299; dx1=866; L_HA=400; MT=2.54; Rad_Dielectric=30; Rad_Lower=7.3; Rad_Upper=30; a_HA=580; a_WG=246; b_HA=500; b_WG=121; c_HA=0; c_WG=187; d_feed=85; h_feed=15; h_lower=18; h_upper=40}
! Header version: 2018
! Port assignment regex: !\s*Touchstone port\s*([0-9]+)\s*=\s*(CST MWS port|CST DS port)\s*([0-9]+|Zmin|Zmax)\s*\(\"(.*)\"\)(\s*mode\s*([0-9]+))?.*
! Touchstone port assignment:
! Touchstone port 1 = CST MWS port 1 ("")
! Touchstone port 2 = CST MWS port 2 ("")
# GHz S DB R 50
0.5                    -0.146112        -122.294         -65.4589         118.528         -65.4589         118.528      -0.00647341         151.163
0.501                  -0.158639        -122.732         -65.4204         115.534         -65.4204         115.543      -0.00653371         151.097
0.502                   -0.17105        -123.171         -65.3694         112.535         -65.3696         112.553      -0.00659484         151.032
0.503                  -0.183347         -123.61          -65.306         109.536         -65.3064         109.562      -0.00665682         150.967
0.504                  -0.195533        -124.051         -65.2304         106.542          -65.231         106.575      -0.00671964         150.901
0.505                  -0.207612        -124.493         -65.1428         103.558         -65.1438         103.599      -0.00678333         150.836
0.506                  -0.219588        -124.935         -65.0437          100.59         -65.0451         100.637      -0.00684788          150.77
0.507                  -0.231464        -125.379         -64.9335         97.6419         -64.9354         97.6947       -0.0069133         150.705
0.508                  -0.243245        -125.825         -64.8127         94.7177          -64.815         94.7756      -0.00697961         150.639
0.509                  -0.254937        -126.271         -64.6818         91.8211         -64.6847         91.8835      -0.00704681         150.573
0.51                   -0.266545         -126.72         -64.5414         88.9551         -64.5448         89.0214      -0.00711492         150.507
0.511                  -0.278075        -127.169         -64.3922         86.1224         -64.3962         86.1919      -0.00718393         150.441
0.512                  -0.289532        -127.621         -64.2348          83.325         -64.2393         83.3971      -0.00725387         150.375
0.513                  -0.300924        -128.074         -64.0698         80.5645         -64.0748         80.6386      -0.00732474         150.309
0.514                  -0.312257        -128.529         -63.8979         77.8421         -63.9034         77.9177      -0.00739654         150.243
0.515                  -0.323539        -128.985         -63.7197         75.1583         -63.7257         75.2351       -0.0074693         150.177
0.516                  -0.334778        -129.444         -63.5358         72.5137         -63.5422          72.591      -0.00754301          150.11
0.517                   -0.34598        -129.905         -63.3468         69.9081         -63.3536         69.9856      -0.00761769         150.044
0.518                  -0.357155        -130.368         -63.1532          67.341         -63.1604         67.4184      -0.00769335         149.977
0.519                  -0.368312        -130.833         -62.9555          64.812         -62.9631         64.8888         -0.00777         149.911
0.52                   -0.379458          -131.3         -62.7544         62.3201         -62.7622         62.3962      -0.00784764         149.844
0.521                  -0.390604        -131.769         -62.5501         59.8643         -62.5582         59.9393      -0.00792629         149.777
0.522                  -0.401759        -132.241         -62.3431         57.4432         -62.3515         57.5169      -0.00800596          149.71
0.523                  -0.412932        -132.715         -62.1339         55.0556         -62.1424         55.1278      -0.00808666         149.643
0.524                  -0.424134        -133.192         -61.9228         52.6999         -61.9314         52.7705       -0.0081684         149.576
0.525                  -0.435376        -133.672         -61.7101         50.3745         -61.7188         50.4434      -0.00825119         149.509
0.526                  -0.446667        -134.153         -61.4961         48.0779         -61.5049         48.1449      -0.00833504         149.442
0.527                  -0.458019        -134.638         -61.2811         45.8084         -61.2899         45.8734      -0.00841995         149.375
0.528                  -0.469444        -135.125         -61.0653         43.5643         -61.0742         43.6273      -0.00850595         149.307
0.529                  -0.480951        -135.615          -60.849          41.344         -60.8578         41.4049      -0.00859305          149.24
0.53                   -0.492554        -136.108         -60.6323         39.1456          -60.641         39.2044      -0.00868124         149.172
0.531                  -0.504263        -136.604         -60.4154         36.9677         -60.4241         37.0243      -0.00877056         149.104
0.532                  -0.516091        -137.102         -60.1985         34.8084          -60.207         34.8629      -0.00886099         149.037
0.533                  -0.528051        -137.604         -59.9817         32.6663         -59.9901         32.7186      -0.00895257         148.969
0.534                  -0.540154        -138.108         -59.7652         30.5396         -59.7734         30.5898       -0.0090453         148.901
0.535                  -0.552413        -138.616          -59.549          28.427          -59.557          28.475      -0.00913919         148.833
0.536                  -0.564842        -139.127         -59.3332         26.3268          -59.341         26.3727      -0.00923425         148.765
0.537                  -0.577452         -139.64         -59.1179         24.2376         -59.1255         24.2814      -0.00933049         148.696
0.538                  -0.590258        -140.157         -58.9032          22.158         -58.9105         22.1997      -0.00942794         148.628
0.539                  -0.603272        -140.677         -58.6892         20.0866         -58.6963         20.1263       -0.0095266          148.56
0.54                   -0.616508          -141.2         -58.4759         18.0221         -58.4827         18.0598      -0.00962647         148.491
0.541                  -0.629979        -141.727         -58.2634         15.9632         -58.2699         15.9989      -0.00972759         148.422
0.542                    -0.6437        -142.256         -58.0516         13.9086         -58.0578         13.9423      -0.00982995         148.354
0.543                  -0.657683        -142.789         -57.8407         11.8571         -57.8466          11.889      -0.00993357         148.285
0.544                  -0.671943        -143.325         -57.6307         9.80765         -57.6363         9.83768       -0.0100385         148.216
0.545                  -0.686493        -143.864         -57.4216         7.75907         -57.4269         7.78728       -0.0101447         148.147
0.546                  -0.701347        -144.407         -57.2134          5.7103         -57.2184         5.73673       -0.0102521         148.077
0.547                   -0.71652        -144.953         -57.0062          3.6603         -57.0108         3.68499       -0.0103609         148.008
0.548                  -0.732025        -145.502         -56.7999         1.60809         -56.8042         1.63108       -0.0104711         147.939
0.549                  -0.747876        -146.055         -56.5946        -0.44729         -56.5986       -0.425966       -0.0105825         147.869
0.55                   -0.764088         -146.61         -56.3904        -2.50675          -56.394        -2.48705       -0.0106954         147.799
0.551                  -0.780675         -147.17         -56.1872        -4.57117         -56.1905        -4.55306       -0.0108096          147.73
0.552                   -0.79765        -147.732          -55.985        -6.64138          -55.988        -6.62482       -0.0109251          147.66
0.553                  -0.815028        -148.298         -55.7839         -8.7182         -55.7865        -8.70315       -0.0110421          147.59
0.554                  -0.832823        -148.867         -55.5839        -10.8024         -55.5862        -10.7888       -0.0111605          147.52
0.555                  -0.851049        -149.439          -55.385        -12.8947         -55.3869        -12.8825       -0.0112803          147.45
0.556                  -0.869719        -150.015         -55.1871        -14.9958         -55.1888         -14.985       -0.0114016         147.379
0.557                  -0.888847        -150.593         -54.9905        -17.1063         -54.9918         -17.097       -0.0115243         147.309
0.558                  -0.908448        -151.175         -54.7949        -19.2269         -54.7959         -19.219       -0.0116486         147.238
0.559                  -0.928534        -151.761         -54.6006        -21.3583         -54.6013        -21.3516       -0.0117743         147.168
0.56                    -0.94912        -152.349         -54.4074        -23.5008         -54.4078        -23.4955       -0.0119015         147.097
0.561                  -0.970219        -152.941         -54.2155        -25.6552         -54.2155        -25.6511       -0.0120302         147.026
0.562                  -0.991844        -153.535         -54.0248        -27.8218         -54.0246        -27.8189       -0.0121605         146.955
0.563                   -1.01401        -154.133         -53.8354        -30.0011         -53.8348        -29.9994       -0.0122923         146.884
0.564                   -1.03673        -154.734         -53.6472        -32.1936         -53.6464        -32.1931       -0.0124257         146.812
0.565                   -1.06001        -155.338         -53.4604        -34.3996         -53.4593        -34.4002       -0.0125607         146.741
0.566                   -1.08387        -155.945         -53.2749        -36.6195         -53.2736        -36.6212       -0.0126973         146.669
0.567                   -1.10832        -156.555         -53.0909        -38.8536         -53.0892        -38.8564       -0.0128356         146.598
0.568                   -1.13337        -157.168         -52.9082        -41.1021         -52.9063         -41.106       -0.0129755         146.526
0.569                   -1.15904        -157.784          -52.727        -43.3653         -52.7249        -43.3703        -0.013117         146.454
0.57                    -1.18533        -158.402         -52.5472        -45.6435         -52.5449        -45.6494       -0.0132603         146.382
0.571                   -1.21227        -159.023          -52.369        -47.9367         -52.3664        -47.9436       -0.0134052          146.31
0.572                   -1.23985        -159.648         -52.1923        -50.2451         -52.1896         -50.253       -0.0135519         146.237
0.573                   -1.26809        -160.274         -52.0172        -52.5687         -52.0143        -52.5775       -0.0137003         146.165
0.574                   -1.29701        -160.904         -51.8437        -54.9077         -51.8406        -54.9174       -0.0138504         146.092
0.575                   -1.32661        -161.536         -51.6719        -57.2619         -51.6686        -57.2725       -0.0140024         146.019
0.576                    -1.3569        -162.171         -51.5018        -59.6315         -51.4984        -59.6429       -0.0141561         145.946
0.577                    -1.3879        -162.808         -51.3334        -62.0162         -51.3298        -62.0284       -0.0143117         145.873
0.578                   -1.41961        -163.447         -51.1668         -64.416         -51.1631         -64.429       -0.0144691           145.8
0.579                   -1.45204        -164.089          -51.002        -66.8307         -50.9982        -66.8444       -0.0146284         145.727
0.58                     -1.4852        -164.734         -50.8391        -69.2601         -50.8351        -69.2745       -0.0147895         145.653
0.581                   -1.51911         -165.38          -50.678         -71.704         -50.6739        -71.7191       -0.0149526         145.579
0.582                   -1.55377        -166.029         -50.5188         -74.162         -50.5146        -74.1778       -0.0151176         145.506
0.583                   -1.58918         -166.68         -50.3615        -76.6339         -50.3573        -76.6503       -0.0152846         145.432
0.584                   -1.62537        -167.333         -50.2062        -79.1194         -50.2019        -79.1363       -0.0154535         145.357
0.585                   -1.66233        -167.989         -50.0529        -81.6179         -50.0486        -81.6354       -0.0156245         145.283
0.586                   -1.70007        -168.646         -49.9016        -84.1292         -49.8972        -84.1471       -0.0157975         145.209
0.587                   -1.73861        -169.305         -49.7523        -86.6527         -49.7479         -86.671       -0.0159725         145.134
0.588                   -1.77794        -169.966          -49.605        -89.1879         -49.6006        -89.2067       -0.0161496         145.059
0.589                   -1.81808        -170.628         -49.4598        -91.7344         -49.4554        -91.7535       -0.0163289         144.984
0.59                    -1.85903        -171.293         -49.3166        -94.2915         -49.3122         -94.311       -0.0165102         144.909
0.591                    -1.9008        -171.959         -49.1755        -96.8588         -49.1711        -96.8785       -0.0166937         144.834
0.592                    -1.9434        -172.627         -49.0364        -99.4356         -49.0321        -99.4555       -0.0168794         144.758
0.593                   -1.98682        -173.297         -48.8994        -102.021         -48.8951        -102.041       -0.0170674         144.683
0.594                   -2.03109        -173.967         -48.7644        -104.615         -48.7601        -104.636       -0.0172575         144.607
0.595                    -2.0762         -174.64         -48.6315        -107.217         -48.6272        -107.237         -0.01745         144.531
0.596                   -2.12215        -175.314         -48.5005        -109.826         -48.4963        -109.846       -0.0176447         144.455
0.597                   -2.16896        -175.989         -48.3715        -112.441         -48.3674        -112.461       -0.0178418         144.379
0.598                   -2.21663        -176.665         -48.2444        -115.062         -48.2404        -115.082       -0.0180413         144.302
0.599                   -2.26516        -177.343         -48.1193        -117.688         -48.1153        -117.708       -0.0182432         144.225
0.6                     -2.31456        -178.022          -47.996        -120.318         -47.9921        -120.338       -0.0184475         144.149
0.601                   -2.36483        -178.702         -47.8745        -122.952         -47.8708        -122.972       -0.0186543         144.071
0.602                   -2.41598        -179.383         -47.7549        -125.589         -47.7512        -125.609       -0.0188636         143.994
0.603                   -2.46801         179.934         -47.6369        -128.229         -47.6333        -128.249       -0.0190754         143.917
0.604                   -2.52093         179.251         -47.5206        -130.871         -47.5172         -130.89       -0.0192899         143.839
0.605                   -2.57475         178.567         -47.4059        -133.514         -47.4026        -133.532        -0.019507         143.761
0.606                   -2.62945         177.882         -47.2928        -136.157         -47.2896        -136.176       -0.0197267         143.683
0.607                   -2.68506         177.196         -47.1812        -138.801         -47.1781        -138.819       -0.0199492         143.605
0.608                   -2.74158         176.509         -47.0709        -141.445         -47.0679        -141.462       -0.0201744         143.527
0.609                     -2.799         175.821         -46.9621        -144.087         -46.9592        -144.104       -0.0204024         143.448
0.61                    -2.85734         175.133         -46.8544        -146.729         -46.8517        -146.745       -0.0206332         143.369
0.611                   -2.91659         174.444          -46.748        -149.368         -46.7454        -149.384        -0.020867          143.29
0.612                   -2.97677         173.754         -46.6427        -152.005         -46.6402        -152.021       -0.0211037         143.211
0.613                   -3.03788         173.064         -46.5385         -154.64         -46.5361        -154.655       -0.0213434         143.131
0.614                   -3.09992         172.373         -46.4352        -157.272         -46.4329        -157.286       -0.0215862         143.051
0.615                    -3.1629         171.681         -46.3329          -159.9         -46.3307        -159.914        -0.021832         142.971
0.616                   -3.22682         170.989         -46.2313        -162.525         -46.2293        -162.538       -0.0220811         142.891
0.617                   -3.29169         170.296         -46.1305        -165.146         -46.1286        -165.159       -0.0223334         142.811
0.618                   -3.35753         169.602         -46.0304        -167.763         -46.0285        -167.775       -0.0225889          142.73
0.619                   -3.42432         168.908         -45.9308        -170.375         -45.9291        -170.387       -0.0228479         142.649
0.62                    -3.49209         168.214         -45.8318        -172.983         -45.8302        -172.994       -0.0231102         142.568
0.621                   -3.56083         167.519         -45.7333        -175.586         -45.7317        -175.597       -0.0233761         142.487
0.622                   -3.63056         166.824         -45.6351        -178.185         -45.6337        -178.195       -0.0236455         142.405
0.623                   -3.70128         166.128         -45.5372         179.221         -45.5359         179.212       -0.0239187         142.323
0.624                   -3.77301         165.432         -45.4396         176.633         -45.4384         176.624       -0.0241955         142.241
0.625                   -3.84575         164.735         -45.3422         174.049         -45.3411         174.041       -0.0244762         142.159
0.626                   -3.91951         164.038         -45.2449          171.47         -45.2439         171.462       -0.0247608         142.076
0.627                    -3.9943          163.34         -45.1477         168.896         -45.1467         168.889       -0.0250493         141.993
0.628                   -4.07014         162.642         -45.0505         166.327         -45.0496         166.321        -0.025342          141.91
0.629                   -4.14704         161.944         -44.9533         163.763         -44.9525         163.757        -0.025639         141.827
