! TOUCHSTONE file generated by CST MICROWAVE STUDIO
! Date and time: Fri Oct  2 18:54:43 2020
! Project name: Scenario_1_Free_Space_out_of_line.cst
! Parameters = {Lambda=346.42; Step_1=17.321; dy1=330.299; dx1=1039; L_HA=400; MT=2.54; Rad_Dielectric=30; Rad_Lower=7.3; Rad_Upper=30; a_HA=580; a_WG=246; b_HA=500; b_WG=121; c_HA=0; c_WG=187; d_feed=85; h_feed=15; h_lower=18; h_upper=40}
! Header version: 2018
! Port assignment regex: !\s*Touchstone port\s*([0-9]+)\s*=\s*(CST MWS port|CST DS port)\s*([0-9]+|Zmin|Zmax)\s*\(\"(.*)\"\)(\s*mode\s*([0-9]+))?.*
! Touchstone port assignment:
! Touchstone port 1 = CST MWS port 1 ("")
! Touchstone port 2 = CST MWS port 2 ("")
# GHz S DB R 50
0.5                    -0.149424        -122.519         -65.7889         24.2323         -65.7889         24.2323      -0.00666437         151.165
0.501                    -0.1541        -122.962         -65.6619          21.843         -65.6618         21.8425      -0.00672402         151.099
0.502                  -0.158987        -123.407         -65.5308         19.4424         -65.5306         19.4413       -0.0067844         151.034
0.503                  -0.164089        -123.854         -65.3957         17.0309         -65.3955         17.0294      -0.00684552         150.969
0.504                   -0.16941        -124.303         -65.2568         14.6094         -65.2565         14.6074      -0.00690737         150.903
0.505                  -0.174952        -124.754          -65.114         12.1784         -65.1137          12.176      -0.00696998         150.838
0.506                   -0.18072        -125.207         -64.9675         9.73839          -64.967         9.73564      -0.00703334         150.772
0.507                  -0.186717        -125.662         -64.8173         7.29006         -64.8167         7.28699      -0.00709747         150.706
0.508                  -0.192946         -126.12         -64.6634         4.83389         -64.6628         4.83054      -0.00716238          150.64
0.509                  -0.199412        -126.579         -64.5061         2.37036         -64.5055         2.36677      -0.00722806         150.575
0.51                   -0.206118        -127.041         -64.3454       -0.100073         -64.3447       -0.103865      -0.00729454         150.509
0.511                  -0.213067        -127.504         -64.1814          -2.577         -64.1806        -2.58096      -0.00736182         150.443
0.512                  -0.220264         -127.97         -64.0142        -5.06004         -64.0133        -5.06414      -0.00742991         150.376
0.513                  -0.227712        -128.438         -63.8439        -7.54886          -63.843        -7.55307      -0.00749881          150.31
0.514                  -0.235415        -128.908         -63.6707        -10.0432         -63.6698        -10.0475      -0.00756855         150.244
0.515                  -0.243376         -129.38         -63.4947        -12.5427         -63.4938         -12.547      -0.00763912         150.178
0.516                    -0.2516        -129.855         -63.3161        -15.0473         -63.3151        -15.0516      -0.00771054         150.111
0.517                   -0.26009        -130.331         -63.1349        -17.5566         -63.1338         -17.561      -0.00778281         150.045
0.518                  -0.268851         -130.81         -62.9513        -20.0707         -62.9502        -20.0751      -0.00785595         149.978
0.519                  -0.277885        -131.291         -62.7654        -22.5894         -62.7643        -22.5937      -0.00792998         149.911
0.52                   -0.287197        -131.774         -62.5774        -25.1125         -62.5762        -25.1168      -0.00800488         149.845
0.521                  -0.296791        -132.259         -62.3874        -27.6402         -62.3862        -27.6443      -0.00808069         149.778
0.522                  -0.306671        -132.746         -62.1956        -30.1722         -62.1944        -30.1763      -0.00815741         149.711
0.523                   -0.31684        -133.235          -62.002        -32.7087         -62.0008        -32.7127      -0.00823505         149.644
0.524                  -0.327302        -133.727         -61.8069        -35.2497         -61.8057        -35.2536      -0.00831362         149.576
0.525                  -0.338062        -134.221         -61.6104        -37.7952         -61.6092         -37.799      -0.00839314         149.509
0.526                  -0.349124        -134.716         -61.4127        -40.3454         -61.4114        -40.3489      -0.00847362         149.442
0.527                   -0.36049        -135.214         -61.2138        -42.9002         -61.2125        -42.9036      -0.00855506         149.374
0.528                  -0.372166        -135.715         -61.0139        -45.4598         -61.0126        -45.4631      -0.00863749         149.307
0.529                  -0.384155        -136.217         -60.8132        -48.0243         -60.8119        -48.0274      -0.00872091         149.239
0.53                   -0.396461        -136.721         -60.6117        -50.5938         -60.6105        -50.5967      -0.00880535         149.172
0.531                  -0.409088        -137.228         -60.4097        -53.1684         -60.4085        -53.1712       -0.0088908         149.104
0.532                  -0.422041        -137.736         -60.2073        -55.7482         -60.2061        -55.7509      -0.00897729         149.036
0.533                  -0.435322        -138.247         -60.0045        -58.3334         -60.0034        -58.3359      -0.00906482         148.968
0.534                  -0.448936         -138.76         -59.8016        -60.9241         -59.8005        -60.9264      -0.00915343           148.9
0.535                  -0.462887        -139.275         -59.5987        -63.5203         -59.5975        -63.5224       -0.0092431         148.832
0.536                  -0.477179        -139.793         -59.3958        -66.1222         -59.3947        -66.1241      -0.00933388         148.763
0.537                  -0.491816        -140.312         -59.1932        -68.7298         -59.1921        -68.7316      -0.00942576         148.695
0.538                  -0.506802        -140.834         -58.9908        -71.3432         -58.9898        -71.3448      -0.00951876         148.626
0.539                   -0.52214        -141.357          -58.789        -73.9624         -58.7879        -73.9639       -0.0096129         148.558
0.54                   -0.537834        -141.883         -58.5877        -76.5876         -58.5867        -76.5889       -0.0097082         148.489
0.541                  -0.553889        -142.411          -58.387        -79.2186         -58.3861        -79.2198      -0.00980467          148.42
0.542                  -0.570309        -142.941         -58.1872        -81.8555         -58.1863        -81.8565      -0.00990232         148.351
0.543                  -0.587096        -143.473         -57.9882        -84.4983         -57.9873        -84.4992       -0.0100012         148.282
0.544                  -0.604255        -144.008         -57.7902        -87.1469         -57.7894        -87.1476       -0.0101013         148.213
0.545                  -0.621791        -144.544         -57.5933        -89.8012         -57.5925        -89.8018       -0.0102026         148.144
0.546                  -0.639705        -145.083         -57.3976        -92.4612         -57.3968        -92.4616       -0.0103052         148.075
0.547                  -0.658003        -145.623         -57.2031        -95.1266         -57.2024        -95.1269        -0.010409         148.005
0.548                  -0.676688        -146.166           -57.01        -97.7975         -57.0093        -97.7976       -0.0105142         147.935
0.549                  -0.695764        -146.711         -56.8183        -100.474         -56.8176        -100.474       -0.0106207         147.866
0.55                   -0.715235        -147.258         -56.6281        -103.155         -56.6274        -103.154       -0.0107285         147.796
0.551                  -0.735103        -147.807         -56.4394         -105.84         -56.4388         -105.84       -0.0108376         147.726
0.552                  -0.755374        -148.358         -56.2523        -108.531         -56.2518        -108.531       -0.0109482         147.656
0.553                  -0.776049        -148.911         -56.0669        -111.226         -56.0664        -111.225       -0.0110601         147.586
0.554                  -0.797134        -149.467         -55.8832        -113.924         -55.8827        -113.924       -0.0111735         147.516
0.555                  -0.818631        -150.024         -55.7013        -116.627         -55.7008        -116.626       -0.0112882         147.445
0.556                  -0.840544        -150.584         -55.5211        -119.333         -55.5207        -119.332       -0.0114045         147.375
0.557                  -0.862877        -151.145         -55.3428        -122.042         -55.3424        -122.041       -0.0115222         147.304
0.558                  -0.885632        -151.709         -55.1663        -124.754         -55.1659        -124.753       -0.0116415         147.233
0.559                  -0.908814        -152.275         -54.9916        -127.468         -54.9913        -127.467       -0.0117622         147.162
0.56                   -0.932426        -152.843         -54.8188        -130.185         -54.8186        -130.184       -0.0118846         147.091
0.561                  -0.956471        -153.413         -54.6479        -132.903         -54.6477        -132.902       -0.0120085          147.02
0.562                  -0.980952        -153.985         -54.4789        -135.623         -54.4787        -135.622        -0.012134         146.949
0.563                   -1.00587        -154.559         -54.3117        -138.344         -54.3116        -138.343       -0.0122611         146.877
0.564                   -1.03124        -155.135         -54.1464        -141.066         -54.1463        -141.065       -0.0123899         146.806
0.565                   -1.05705        -155.714         -53.9829        -143.788         -53.9828        -143.787       -0.0125204         146.734
0.566                   -1.08331        -156.294         -53.8212         -146.51         -53.8211        -146.509       -0.0126525         146.662
0.567                   -1.11002        -156.876         -53.6613        -149.232         -53.6612        -149.231       -0.0127865          146.59
0.568                   -1.13719        -157.461         -53.5031        -151.954         -53.5031        -151.953       -0.0129221         146.518
0.569                   -1.16481        -158.048         -53.3467        -154.675         -53.3467        -154.673       -0.0130596         146.446
0.57                     -1.1929        -158.637         -53.1919        -157.394         -53.1919        -157.393       -0.0131989         146.374
0.571                   -1.22146        -159.228         -53.0387        -160.113         -53.0387        -160.112       -0.0133401         146.301
0.572                   -1.25048        -159.821         -52.8871         -162.83         -52.8871        -162.829       -0.0134831         146.228
0.573                   -1.27997        -160.416          -52.737        -165.545          -52.737        -165.544       -0.0136281         146.156
0.574                   -1.30994        -161.013         -52.5884        -168.258         -52.5884        -168.257        -0.013775         146.083
0.575                   -1.34039        -161.613         -52.4411        -170.969         -52.4412        -170.968       -0.0139239          146.01
0.576                   -1.37132        -162.215         -52.2952        -173.678         -52.2953        -173.677       -0.0140748         145.936
0.577                   -1.40273        -162.819         -52.1506        -176.385         -52.1507        -176.384       -0.0142278         145.863
0.578                   -1.43463        -163.425         -52.0072        -179.089         -52.0072        -179.088       -0.0143828         145.789
0.579                   -1.46702        -164.033         -51.8649          178.21          -51.865         178.211         -0.01454         145.716
0.58                    -1.49991        -164.644         -51.7237         175.511         -51.7238         175.512       -0.0146993         145.642
0.581                    -1.5333        -165.257         -51.5835         172.815         -51.5836         172.815       -0.0148608         145.568
0.582                   -1.56719        -165.872         -51.4443         170.121         -51.4444         170.122       -0.0150245         145.494
0.583                   -1.60158         -166.49          -51.306         167.431         -51.3061         167.431       -0.0151906         145.419
0.584                   -1.63648         -167.11         -51.1685         164.742         -51.1686         164.742       -0.0153589         145.345
0.585                    -1.6719        -167.732         -51.0317         162.056         -51.0318         162.057       -0.0155296          145.27
0.586                   -1.70784        -168.357         -50.8956         159.373         -50.8957         159.373       -0.0157027         145.195
0.587                    -1.7443        -168.984         -50.7602         156.692         -50.7603         156.692       -0.0158782          145.12
0.588                   -1.78129        -169.614         -50.6254         154.013         -50.6255         154.013       -0.0160562         145.045
0.589                   -1.81882        -170.246         -50.4911         151.337         -50.4912         151.336       -0.0162368          144.97
0.59                    -1.85689        -170.881         -50.3572         148.662         -50.3573         148.662       -0.0164199         144.894
0.591                    -1.8955        -171.519         -50.2238         145.989         -50.2239         145.988       -0.0166057         144.819
0.592                   -1.93466        -172.159         -50.0907         143.318         -50.0908         143.317       -0.0167941         144.743
0.593                   -1.97439        -172.803          -49.958         140.647         -49.9581         140.647       -0.0169852         144.667
0.594                   -2.01468        -173.449         -49.8255         137.979         -49.8256         137.978       -0.0171791         144.591
0.595                   -2.05555        -174.098         -49.6933         135.311         -49.6934          135.31       -0.0173759         144.514
0.596                   -2.09701         -174.75         -49.5613         132.643         -49.5614         132.642       -0.0175755         144.438
0.597                   -2.13906        -175.405         -49.4295         129.977         -49.4295         129.975       -0.0177781         144.361
0.598                   -2.18172        -176.063         -49.2977          127.31         -49.2978         127.309       -0.0179837         144.284
0.599                     -2.225        -176.725         -49.1662         124.643         -49.1662         124.642       -0.0181923         144.207
0.6                     -2.26891         -177.39         -49.0346         121.976         -49.0347         121.975        -0.018404         144.129
0.601                   -2.31347        -178.058         -48.9032         119.309         -48.9032         119.307       -0.0186189         144.052
0.602                   -2.35869         -178.73         -48.7718         116.641         -48.7718         116.639       -0.0188371         143.974
0.603                   -2.40459        -179.405         -48.6405         113.972         -48.6405          113.97       -0.0190586         143.896
0.604                   -2.45119         179.916         -48.5092         111.301         -48.5091         111.299       -0.0192834         143.818
0.605                   -2.49851         179.233         -48.3779         108.629         -48.3778         108.627       -0.0195117          143.74
0.606                   -2.54656         178.546         -48.2466         105.955         -48.2466         105.953       -0.0197435         143.661
0.607                   -2.59539         177.855         -48.1153         103.279         -48.1153         103.277       -0.0199789         143.582
0.608                     -2.645          177.16         -47.9841         100.601         -47.9841         100.599        -0.020218         143.503
0.609                   -2.69544          176.46         -47.8529           97.92         -47.8529         97.9179       -0.0204608         143.424
0.61                    -2.74673         175.757         -47.7218         95.2366         -47.7217         95.2344       -0.0207075         143.345
0.611                    -2.7989         175.048         -47.5907         92.5503         -47.5907         92.5481       -0.0209581         143.265
0.612                   -2.85201         174.335         -47.4597         89.8609         -47.4596         89.8586       -0.0212127         143.185
0.613                   -2.90607         173.618         -47.3288         87.1682         -47.3287         87.1659       -0.0214714         143.105
0.614                   -2.96115         172.895          -47.198         84.4721         -47.1979         84.4697       -0.0217343         143.025
0.615                   -3.01728         172.168         -47.0673         81.7724         -47.0673           81.77       -0.0220015         142.944
0.616                   -3.07453         171.435         -46.9368         79.0689         -46.9368         79.0665       -0.0222731         142.863
0.617                   -3.13293         170.698         -46.8065         76.3617         -46.8065         76.3592       -0.0225492         142.782
0.618                   -3.19255         169.955         -46.6764         73.6505         -46.6764          73.648       -0.0228299         142.701
0.619                   -3.25346         169.207         -46.5466         70.9353         -46.5466         70.9328       -0.0231153          142.62
0.62                    -3.31572         168.455         -46.4171          68.216          -46.417         68.2135       -0.0234056         142.538
0.621                    -3.3794         167.696         -46.2879         65.4926         -46.2878         65.4902       -0.0237009         142.456
0.622                   -3.44457         166.933         -46.1591         62.7651          -46.159         62.7627       -0.0240012         142.374
0.623                   -3.51132         166.165         -46.0307         60.0335         -46.0306         60.0311       -0.0243068         142.291
0.624                   -3.57971         165.392         -45.9027         57.2978         -45.9026         57.2954       -0.0246178         142.208
0.625                   -3.64984         164.614         -45.7751         54.5581         -45.7751         54.5557       -0.0249342         142.125
0.626                    -3.7218         163.832         -45.6481         51.8143         -45.6481          51.812       -0.0252563         142.042
0.627                   -3.79566         163.046         -45.5217         49.0667         -45.5216         49.0644       -0.0255842         141.959
0.628                   -3.87152         162.256         -45.3958         46.3153         -45.3957          46.313        -0.025918         141.875
0.629                   -3.94947         161.462         -45.2706         43.5602         -45.2705          43.558       -0.0262579         141.791
