! TOUCHSTONE file generated by CST MICROWAVE STUDIO
! Date and time: Fri Oct  2 18:36:37 2020
! Project name: Scenario_1_Free_Space_out_of_line.cst
! Parameters = {Lambda=346.42; Step_1=17.321; dy1=-155.249; dx1=173; L_HA=400; MT=2.54; Rad_Dielectric=30; Rad_Lower=7.3; Rad_Upper=30; a_HA=580; a_WG=246; b_HA=500; b_WG=121; c_HA=0; c_WG=187; d_feed=85; h_feed=15; h_lower=18; h_upper=40}
! Header version: 2018
! Port assignment regex: !\s*Touchstone port\s*([0-9]+)\s*=\s*(CST MWS port|CST DS port)\s*([0-9]+|Zmin|Zmax)\s*\(\"(.*)\"\)(\s*mode\s*([0-9]+))?.*
! Touchstone port assignment:
! Touchstone port 1 = CST MWS port 1 ("")
! Touchstone port 2 = CST MWS port 2 ("")
# GHz S DB R 50
0.5                    -0.155958        -122.771         -57.6342         161.635         -57.6342         161.635      -0.00659071         151.084
0.501                  -0.161944        -123.207          -57.443         160.248          -57.443         160.248      -0.00662099         151.019
0.502                   -0.16805        -123.646         -57.2527         158.859         -57.2527         158.859      -0.00665178         150.953
0.503                   -0.17428        -124.086         -57.0632         157.468         -57.0632         157.468      -0.00668311         150.888
0.504                  -0.180635        -124.529         -56.8745         156.074         -56.8745         156.074      -0.00671504         150.822
0.505                  -0.187119        -124.973         -56.6867         154.679         -56.6867         154.679      -0.00674759         150.757
0.506                  -0.193735         -125.42         -56.4997         153.281         -56.4997         153.281       -0.0067808         150.691
0.507                  -0.200484        -125.868         -56.3136         151.881         -56.3136         151.881      -0.00681472         150.625
0.508                  -0.207371        -126.319         -56.1283         150.479         -56.1283         150.479      -0.00684938         150.559
0.509                  -0.214399        -126.772         -55.9438         149.074         -55.9438         149.074      -0.00688482         150.493
0.51                    -0.22157        -127.226         -55.7601         147.668         -55.7601         147.668      -0.00692109         150.427
0.511                  -0.228888        -127.683         -55.5773         146.259         -55.5773         146.259      -0.00695821         150.361
0.512                  -0.236357        -128.142         -55.3953         144.848         -55.3953         144.848      -0.00699623         150.295
0.513                  -0.243979        -128.604         -55.2141         143.435         -55.2141         143.435      -0.00703519         150.228
0.514                   -0.25176        -129.067         -55.0337         142.019         -55.0337         142.019      -0.00707513         150.162
0.515                  -0.259702        -129.533         -54.8541         140.602         -54.8541         140.602      -0.00711608         150.095
0.516                  -0.267809        -130.001         -54.6753         139.182         -54.6753         139.182       -0.0071581         150.029
0.517                  -0.276085        -130.471         -54.4974          137.76         -54.4974          137.76      -0.00720121         149.962
0.518                  -0.284536        -130.944         -54.3202         136.336         -54.3202         136.336      -0.00724546         149.895
0.519                  -0.293164        -131.419         -54.1438         134.909         -54.1438         134.909      -0.00729088         149.828
0.52                   -0.301974        -131.897         -53.9682         133.481         -53.9682         133.481      -0.00733753         149.761
0.521                  -0.310971        -132.376         -53.7934          132.05         -53.7934          132.05      -0.00738543         149.694
0.522                  -0.320159        -132.859         -53.6193         130.618         -53.6193         130.618      -0.00743463         149.627
0.523                  -0.329544        -133.343          -53.446         129.183          -53.446         129.183      -0.00748517          149.56
0.524                   -0.33913         -133.83         -53.2735         127.746         -53.2735         127.746      -0.00753709         149.492
0.525                  -0.348922         -134.32         -53.1017         126.308         -53.1017         126.308      -0.00759042         149.425
0.526                  -0.358926        -134.812         -52.9307         124.867         -52.9307         124.867      -0.00764521         149.357
0.527                  -0.369148        -135.307         -52.7604         123.424         -52.7604         123.424      -0.00770151         149.289
0.528                  -0.379592        -135.804         -52.5908          121.98         -52.5908          121.98      -0.00775934         149.222
0.529                  -0.390264        -136.304          -52.422         120.534          -52.422         120.534      -0.00781874         149.154
0.53                   -0.401171        -136.807         -52.2539         119.085         -52.2539         119.085      -0.00787977         149.086
0.531                  -0.412319        -137.312         -52.0865         117.635         -52.0865         117.635      -0.00794245         149.018
0.532                  -0.423713         -137.82         -51.9198         116.183         -51.9198         116.183      -0.00800683         148.949
0.533                  -0.435361        -138.331         -51.7538          114.73         -51.7538          114.73      -0.00807294         148.881
0.534                  -0.447269        -138.844         -51.5885         113.275         -51.5885         113.275      -0.00814083         148.813
0.535                  -0.459444        -139.361         -51.4238         111.817         -51.4238         111.817      -0.00821053         148.744
0.536                  -0.471893         -139.88         -51.2599         110.359         -51.2599         110.359      -0.00828209         148.675
0.537                  -0.484623        -140.401         -51.0966         108.898         -51.0966         108.898      -0.00835553         148.607
0.538                  -0.497642        -140.926         -50.9339         107.436         -50.9339         107.436       -0.0084309         148.538
0.539                  -0.510957        -141.454         -50.7719         105.973         -50.7719         105.973      -0.00850823         148.469
0.54                   -0.524577        -141.984         -50.6105         104.508         -50.6105         104.508      -0.00858757           148.4
0.541                  -0.538509        -142.518         -50.4498         103.041         -50.4498         103.041      -0.00866895          148.33
0.542                  -0.552762        -143.054         -50.2897         101.573         -50.2897         101.573       -0.0087524         148.261
0.543                  -0.567345        -143.593         -50.1301         100.103         -50.1301         100.103      -0.00883796         148.192
0.544                  -0.582266        -144.136         -49.9712          98.632         -49.9712          98.632      -0.00892567         148.122
0.545                  -0.597534        -144.681         -49.8129         97.1593         -49.8129         97.1593      -0.00901556         148.052
0.546                  -0.613159        -145.229         -49.6551         95.6851         -49.6551         95.6851      -0.00910766         147.983
0.547                   -0.62915        -145.781         -49.4979         94.2095         -49.4979         94.2095      -0.00920202         147.913
0.548                  -0.645517        -146.335         -49.3413         92.7325         -49.3413         92.7325      -0.00929866         147.843
0.549                  -0.662269        -146.893         -49.1852          91.254         -49.1852          91.254      -0.00939761         147.773
0.55                   -0.679418        -147.454         -49.0297         89.7741         -49.0297         89.7741      -0.00949891         147.702
0.551                  -0.696974        -148.018         -48.8747         88.2928         -48.8747         88.2928      -0.00960259         147.632
0.552                  -0.714948        -148.585         -48.7202         86.8101         -48.7202         86.8101      -0.00970868         147.561
0.553                   -0.73335        -149.155         -48.5663         85.3259         -48.5663         85.3259       -0.0098172         147.491
0.554                  -0.752192        -149.729         -48.4128         83.8404         -48.4128         83.8404       -0.0099282          147.42
0.555                  -0.771486        -150.305         -48.2599         82.3534         -48.2599         82.3534       -0.0100417         147.349
0.556                  -0.791244        -150.885         -48.1074          80.865         -48.1074          80.865       -0.0101577         147.278
0.557                  -0.811477        -151.468         -47.9554         79.3752         -47.9554         79.3752       -0.0102763         147.207
0.558                  -0.832198        -152.055         -47.8039          77.884         -47.8039          77.884       -0.0103974         147.136
0.559                   -0.85342        -152.644         -47.6529         76.3913         -47.6529         76.3913       -0.0105211         147.064
0.56                   -0.875157        -153.237         -47.5023         74.8971         -47.5023         74.8971       -0.0106475         146.993
0.561                   -0.89742        -153.833         -47.3522         73.4015         -47.3522         73.4015       -0.0107765         146.921
0.562                  -0.920224        -154.432         -47.2025         71.9044         -47.2025         71.9044       -0.0109082          146.85
0.563                  -0.943582        -155.035         -47.0533         70.4058         -47.0533         70.4058       -0.0110425         146.778
0.564                  -0.967509        -155.641         -46.9045         68.9057         -46.9045         68.9057       -0.0111796         146.706
0.565                  -0.992019         -156.25         -46.7561          67.404         -46.7561          67.404       -0.0113194         146.634
0.566                   -1.01713        -156.862         -46.6082         65.9008         -46.6082         65.9008       -0.0114619         146.561
0.567                   -1.04285        -157.478         -46.4606          64.396         -46.4606          64.396       -0.0116072         146.489
0.568                   -1.06919        -158.096         -46.3135         62.8896         -46.3135         62.8896       -0.0117552         146.416
0.569                   -1.09618        -158.718         -46.1668         61.3816         -46.1668         61.3816       -0.0119061         146.344
0.57                    -1.12383        -159.344         -46.0205         59.8719         -46.0205         59.8719       -0.0120597         146.271
0.571                   -1.15216        -159.972         -45.8746         58.3605         -45.8746         58.3605       -0.0122162         146.198
0.572                   -1.18117        -160.603         -45.7291         56.8475         -45.7291         56.8475       -0.0123755         146.125
0.573                   -1.21089        -161.238          -45.584         55.3328          -45.584         55.3328       -0.0125376         146.051
0.574                   -1.24133        -161.875         -45.4393         53.8163         -45.4393         53.8163       -0.0127025         145.978
0.575                   -1.27252        -162.516          -45.295          52.298          -45.295          52.298       -0.0128703         145.904
0.576                   -1.30446         -163.16          -45.151         50.7779          -45.151         50.7779        -0.013041         145.831
0.577                   -1.33717        -163.807         -45.0075          49.256         -45.0075          49.256       -0.0132145         145.757
0.578                   -1.37068        -164.456         -44.8643         47.7323         -44.8643         47.7323       -0.0133909         145.683
0.579                   -1.40499        -165.109         -44.7216         46.2067         -44.7216         46.2067       -0.0135701         145.609
0.58                    -1.44013        -165.764         -44.5792         44.6792         -44.5792         44.6792       -0.0137522         145.534
0.581                   -1.47611        -166.422         -44.4372         43.1497         -44.4372         43.1497       -0.0139371          145.46
0.582                   -1.51295        -167.083         -44.2957         41.6184         -44.2957         41.6184       -0.0141249         145.385
0.583                   -1.55067        -167.746         -44.1545         40.0851         -44.1545         40.0851       -0.0143156         145.311
0.584                   -1.58929        -168.412         -44.0137         38.5498         -44.0137         38.5498       -0.0145091         145.236
0.585                   -1.62881        -169.081         -43.8733         37.0125         -43.8733         37.0125       -0.0147055         145.161
0.586                   -1.66927        -169.752         -43.7333         35.4732         -43.7333         35.4732       -0.0149048         145.085
0.587                   -1.71068        -170.425         -43.5937         33.9318         -43.5937         33.9318       -0.0151068          145.01
0.588                   -1.75305          -171.1         -43.4545         32.3885         -43.4545         32.3885       -0.0153118         144.934
0.589                   -1.79641        -171.778         -43.3158         30.8431         -43.3158         30.8431       -0.0155195         144.859
0.59                    -1.84076        -172.457         -43.1774         29.2956         -43.1774         29.2956       -0.0157301         144.783
0.591                   -1.88613        -173.139         -43.0395         27.7461         -43.0395         27.7461       -0.0159435         144.707
0.592                   -1.93253        -173.822          -42.902         26.1945          -42.902         26.1945       -0.0161597          144.63
0.593                   -1.97998        -174.507         -42.7649         24.6408         -42.7649         24.6408       -0.0163788         144.554
0.594                   -2.02849        -175.194         -42.6283         23.0851         -42.6283         23.0851       -0.0166006         144.477
0.595                   -2.07808        -175.882         -42.4921         21.5274         -42.4921         21.5274       -0.0168252         144.401
0.596                   -2.12876        -176.571         -42.3564         19.9676         -42.3564         19.9676       -0.0170526         144.324
0.597                   -2.18055        -177.262         -42.2211         18.4057         -42.2211         18.4057       -0.0172828         144.247
0.598                   -2.23347        -177.953         -42.0863         16.8419         -42.0863         16.8419       -0.0175158         144.169
0.599                   -2.28751        -178.645         -41.9519          15.276         -41.9519          15.276       -0.0177516         144.092
0.6                     -2.34271        -179.339         -41.8181         13.7082         -41.8181         13.7082       -0.0179901         144.014
0.601                   -2.39906         179.968         -41.6847         12.1384         -41.6847         12.1384       -0.0182314         143.936
0.602                   -2.45658         179.274         -41.5517         10.5667         -41.5517         10.5667       -0.0184754         143.858
0.603                   -2.51528          178.58         -41.4193         8.99313         -41.4193         8.99313       -0.0187222          143.78
0.604                   -2.57517         177.886         -41.2874         7.41768         -41.2874         7.41768       -0.0189718         143.701
0.605                   -2.63625         177.192          -41.156         5.84041          -41.156         5.84041       -0.0192241         143.623
0.606                   -2.69853         176.498         -41.0251         4.26137         -41.0251         4.26137       -0.0194792         143.544
0.607                   -2.76202         175.805         -40.8947          2.6806         -40.8947          2.6806       -0.0197371         143.465
0.608                   -2.82673         175.113         -40.7648         1.09815         -40.7648         1.09815       -0.0199978         143.385
0.609                   -2.89264         174.422         -40.6354       -0.485924         -40.6354       -0.485924       -0.0202614         143.306
0.61                    -2.95978         173.731         -40.5066        -2.07157         -40.5066        -2.07157       -0.0205277         143.226
0.611                   -3.02814         173.043         -40.3783        -3.65873         -40.3783        -3.65873       -0.0207969         143.146
0.612                   -3.09771         172.355         -40.2505        -5.24734         -40.2505        -5.24734       -0.0210689         143.066
0.613                   -3.16849          171.67         -40.1233        -6.83733         -40.1233        -6.83733       -0.0213438         142.985
0.614                   -3.24049         170.987         -39.9967        -8.42864         -39.9967        -8.42864       -0.0216217         142.905
0.615                   -3.31369         170.306         -39.8706        -10.0212         -39.8706        -10.0212       -0.0219025         142.824
0.616                   -3.38809         169.627          -39.745        -11.6149          -39.745        -11.6149       -0.0221864         142.743
0.617                   -3.46368         168.951           -39.62        -13.2098           -39.62        -13.2098       -0.0224732         142.662
0.618                   -3.54045         168.278         -39.4955        -14.8056         -39.4955        -14.8056       -0.0227632          142.58
0.619                   -3.61838         167.608         -39.3716        -16.4024         -39.3716        -16.4024       -0.0230563         142.498
0.62                    -3.69747         166.941         -39.2483        -18.0001         -39.2483        -18.0001       -0.0233527         142.416
0.621                   -3.77769         166.278         -39.1255        -19.5985         -39.1255        -19.5985       -0.0236523         142.334
0.622                   -3.85903         165.618         -39.0032        -21.1976         -39.0032        -21.1976       -0.0239552         142.251
0.623                   -3.94147         164.962         -38.8816        -22.7974         -38.8816        -22.7974       -0.0242616         142.168
0.624                   -4.02499         164.311         -38.7604        -24.3976         -38.7604        -24.3976       -0.0245715         142.085
0.625                   -4.10956         163.664         -38.6398        -25.9983         -38.6398        -25.9983        -0.024885         142.002
0.626                   -4.19516         163.021         -38.5198        -27.5994         -38.5198        -27.5994       -0.0252022         141.918
0.627                   -4.28176         162.383         -38.4002        -29.2007         -38.4002        -29.2007       -0.0255232         141.834
0.628                   -4.36934          161.75         -38.2813        -30.8022         -38.2813        -30.8022       -0.0258481          141.75
0.629                   -4.45786         161.122         -38.1628        -32.4039         -38.1628        -32.4039       -0.0261771         141.666
