! TOUCHSTONE file generated by CST MICROWAVE STUDIO
! Date and time: Fri Oct  2 16:20:23 2020
! Project name: Scenario_1_Free_Space_out_of_line.cst
! Parameters = {Lambda=346.42; Step_1=17.321; dy1=-155.249; dx1=346; L_HA=400; MT=2.54; Rad_Dielectric=30; Rad_Lower=7.3; Rad_Upper=30; a_HA=580; a_WG=246; b_HA=500; b_WG=121; c_HA=0; c_WG=187; d_feed=85; h_feed=15; h_lower=18; h_upper=40}
! Header version: 2018
! Port assignment regex: !\s*Touchstone port\s*([0-9]+)\s*=\s*(CST MWS port|CST DS port)\s*([0-9]+|Zmin|Zmax)\s*\(\"(.*)\"\)(\s*mode\s*([0-9]+))?.*
! Touchstone port assignment:
! Touchstone port 1 = CST MWS port 1 ("")
! Touchstone port 2 = CST MWS port 2 ("")
# GHz S DB R 50
0.5                     -0.14423        -122.781         -59.8591         75.5861         -59.8591         75.5861      -0.00667178          151.05
0.501                  -0.150469        -123.242         -59.5844         73.8306         -59.5853         73.8303      -0.00676185         150.984
0.502                   -0.15699        -123.704          -59.315          72.091         -59.3166         72.0904      -0.00685243         150.919
0.503                  -0.163795        -124.168         -59.0506         70.3654          -59.053         70.3644      -0.00694351         150.853
0.504                  -0.170882        -124.634         -58.7911         68.6521         -58.7941         68.6508      -0.00703508         150.787
0.505                  -0.178251          -125.1         -58.5362         66.9497         -58.5398          66.948      -0.00712713         150.721
0.506                  -0.185904        -125.568         -58.2858         65.2568         -58.2898         65.2547      -0.00721967         150.656
0.507                  -0.193838        -126.037         -58.0395         63.5721         -58.0441         63.5696      -0.00731268          150.59
0.508                  -0.202054        -126.508         -57.7974         61.8945         -57.8023         61.8917      -0.00740616         150.524
0.509                  -0.210551         -126.98         -57.5591         60.2229         -57.5644         60.2197       -0.0075001         150.458
0.51                   -0.219329        -127.453         -57.3246         58.5563         -57.3301         58.5529       -0.0075945         150.391
0.511                  -0.228387        -127.928         -57.0936          56.894         -57.0994         56.8903      -0.00768936         150.325
0.512                  -0.237724        -128.403         -56.8661         55.2352         -56.8722         55.2312      -0.00778466         150.259
0.513                   -0.24734         -128.88         -56.6419          53.579         -56.6481         53.5748      -0.00788041         150.192
0.514                  -0.257233        -129.359         -56.4208         51.9248         -56.4272         51.9204      -0.00797659         150.126
0.515                  -0.267403        -129.838         -56.2029         50.2721         -56.2094         50.2675      -0.00807321         150.059
0.516                  -0.277849        -130.319         -55.9878         48.6202         -55.9944         48.6155      -0.00817025         149.993
0.517                  -0.288569        -130.801         -55.7756         46.9687         -55.7822         46.9638      -0.00826771         149.926
0.518                  -0.299563        -131.284         -55.5661          45.317         -55.5728          45.312       -0.0083656         149.859
0.519                  -0.310828        -131.769         -55.3592         43.6648         -55.3659         43.6597      -0.00846389         149.792
0.52                   -0.322365        -132.255         -55.1549         42.0116         -55.1616         42.0065      -0.00856259         149.726
0.521                  -0.334171        -132.742          -54.953         40.3571         -54.9597          40.352       -0.0086617         149.658
0.522                  -0.346246         -133.23         -54.7535          38.701         -54.7601         38.6958       -0.0087612         149.591
0.523                  -0.358587         -133.72         -54.5563          37.043         -54.5628         37.0378      -0.00886109         149.524
0.524                  -0.371193        -134.211         -54.3613         35.3827         -54.3677         35.3775      -0.00896138         149.457
0.525                  -0.384064        -134.703         -54.1684           33.72         -54.1748         33.7148      -0.00906204          149.39
0.526                  -0.397197        -135.196         -53.9776         32.0546         -53.9838         32.0495      -0.00916309         149.322
0.527                  -0.410591        -135.691         -53.7887         30.3863         -53.7949         30.3813      -0.00926452         149.254
0.528                  -0.424244        -136.187         -53.6019          28.715         -53.6079           28.71      -0.00936632         149.187
0.529                  -0.438155        -136.685         -53.4169         27.0405         -53.4228         27.0356      -0.00946848         149.119
0.53                   -0.452323        -137.183         -53.2338         25.3626         -53.2395         25.3578      -0.00957102         149.051
0.531                  -0.466745        -137.683         -53.0524         23.6813          -53.058         23.6766      -0.00967392         148.983
0.532                   -0.48142        -138.185         -52.8727         21.9964         -52.8782         21.9918      -0.00977717         148.915
0.533                  -0.496347        -138.687         -52.6948         20.3079         -52.7001         20.3033      -0.00988079         148.847
0.534                  -0.511524        -139.191         -52.5184         18.6156         -52.5236         18.6112      -0.00998476         148.779
0.535                   -0.52695        -139.697         -52.3437         16.9195         -52.3487         16.9152       -0.0100891         148.711
0.536                  -0.542623        -140.204         -52.1705         15.2196         -52.1753         15.2154       -0.0101938         148.642
0.537                  -0.558541        -140.712         -51.9988         13.5159         -52.0034         13.5118       -0.0102988         148.574
0.538                  -0.574705        -141.222         -51.8286         11.8082          -51.833         11.8043       -0.0104042         148.505
0.539                  -0.591111        -141.733         -51.6598         10.0967         -51.6641         10.0929       -0.0105099         148.437
0.54                    -0.60776        -142.246         -51.4924         8.38124         -51.4965         8.37754        -0.010616         148.368
0.541                  -0.624649         -142.76         -51.3264         6.66192         -51.3303         6.65834       -0.0107224         148.299
0.542                  -0.641779        -143.276         -51.1617         4.93876         -51.1654         4.93529       -0.0108292          148.23
0.543                  -0.659147        -143.793         -50.9983         3.21177         -51.0018         3.20842       -0.0109363         148.161
0.544                  -0.676754        -144.312         -50.8362           1.481         -50.8395         1.47776       -0.0110438         148.092
0.545                  -0.694598        -144.833         -50.6753       -0.253503         -50.6785       -0.256636       -0.0111516         148.022
0.546                  -0.712678        -145.355         -50.5157        -1.99167         -50.5186        -1.99471       -0.0112598         147.953
0.547                  -0.730996         -145.88         -50.3572        -3.73345           -50.36        -3.73639       -0.0113684         147.883
0.548                  -0.749549        -146.405         -50.1999        -5.47877         -50.2025        -5.48161       -0.0114773         147.814
0.549                  -0.768338        -146.933         -50.0437        -7.22754         -50.0462        -7.23029       -0.0115867         147.744
0.55                   -0.787364        -147.463         -49.8886        -8.97967         -49.8909        -8.98235       -0.0116964         147.674
0.551                  -0.806625        -147.994         -49.7347        -10.7351         -49.7368        -10.7377       -0.0118064         147.604
0.552                  -0.826124        -148.527         -49.5817        -12.4937         -49.5837        -12.4962       -0.0119169         147.534
0.553                   -0.84586        -149.063         -49.4299        -14.2554         -49.4317        -14.2578       -0.0120278         147.464
0.554                  -0.865834          -149.6          -49.279          -16.02         -49.2807        -16.0224       -0.0121392         147.393
0.555                  -0.886047        -150.139         -49.1291        -17.7876         -49.1306        -17.7899       -0.0122509         147.323
0.556                  -0.906501        -150.681         -48.9802        -19.5578         -48.9816        -19.5601       -0.0123631         147.252
0.557                  -0.927197        -151.225         -48.8323        -21.3308         -48.8335         -21.333       -0.0124758         147.182
0.558                  -0.948137        -151.771         -48.6853        -23.1062         -48.6864        -23.1084       -0.0125889         147.111
0.559                  -0.969324        -152.319         -48.5392         -24.884         -48.5402        -24.8862       -0.0127026          147.04
0.56                    -0.99076         -152.87          -48.394        -26.6642         -48.3948        -26.6663       -0.0128168         146.969
0.561                   -1.01245        -153.423         -48.2496        -28.4464         -48.2504        -28.4486       -0.0129315         146.898
0.562                   -1.03439        -153.978         -48.1062        -30.2307         -48.1068        -30.2328       -0.0130467         146.826
0.563                   -1.05659        -154.536         -47.9635        -32.0169          -47.964         -32.019       -0.0131626         146.755
0.564                   -1.07905        -155.097         -47.8217        -33.8049         -47.8221         -33.807        -0.013279         146.683
0.565                   -1.10178         -155.66         -47.6806        -35.5945         -47.6809        -35.5966       -0.0133962         146.611
0.566                   -1.12478        -156.226         -47.5403        -37.3856         -47.5405        -37.3877        -0.013514         146.539
0.567                   -1.14806        -156.795         -47.4008        -39.1781         -47.4009        -39.1802       -0.0136325         146.467
0.568                   -1.17162        -157.367          -47.262        -40.9719          -47.262         -40.974       -0.0137517         146.395
0.569                   -1.19547        -157.942         -47.1239        -42.7669         -47.1239         -42.769       -0.0138718         146.323
0.57                    -1.21961        -158.519         -46.9865        -44.5629         -46.9864        -44.5649       -0.0139926          146.25
0.571                   -1.24406          -159.1         -46.8497        -46.3598         -46.8496        -46.3618       -0.0141144         146.178
0.572                   -1.26881        -159.684         -46.7136        -48.1575         -46.7135        -48.1595       -0.0142371         146.105
0.573                   -1.29388        -160.271         -46.5782        -49.9558          -46.578        -49.9579       -0.0143608         146.032
0.574                   -1.31928        -160.862         -46.4434        -51.7548         -46.4431        -51.7569       -0.0144855         145.959
0.575                   -1.34502        -161.456         -46.3091        -53.5542         -46.3088        -53.5563       -0.0146113         145.886
0.576                    -1.3711        -162.054         -46.1755         -55.354         -46.1751        -55.3561       -0.0147382         145.813
0.577                   -1.39753        -162.655         -46.0423        -57.1541          -46.042        -57.1561       -0.0148664         145.739
0.578                   -1.42434         -163.26         -45.9098        -58.9543         -45.9094        -58.9563       -0.0149959         145.665
0.579                   -1.45152        -163.868         -45.7777        -60.7547         -45.7773        -60.7567       -0.0151267         145.592
0.58                    -1.47909        -164.481         -45.6462         -62.555         -45.6457         -62.557        -0.015259         145.518
0.581                   -1.50708        -165.097         -45.5151        -64.3553         -45.5147        -64.3572       -0.0153929         145.443
0.582                   -1.53548        -165.718         -45.3845        -66.1554          -45.384        -66.1573       -0.0155283         145.369
0.583                   -1.56432        -166.342         -45.2543        -67.9553         -45.2539        -67.9571       -0.0156655         145.295
0.584                    -1.5936        -166.971         -45.1246        -69.7549         -45.1241        -69.7567       -0.0158045          145.22
0.585                   -1.62336        -167.604         -44.9952        -71.5542         -44.9948         -71.556       -0.0159453         145.145
0.586                    -1.6536        -168.241         -44.8663        -73.3531         -44.8659        -73.3548       -0.0160882          145.07
0.587                   -1.68435        -168.883         -44.7377        -75.1515         -44.7373        -75.1532       -0.0162333         144.995
0.588                   -1.71562        -169.529         -44.6095        -76.9495         -44.6091        -76.9511       -0.0163805         144.919
0.589                   -1.74744         -170.18         -44.4816         -78.747         -44.4812        -78.7486       -0.0165302         144.844
0.59                    -1.77982        -170.836          -44.354         -80.544         -44.3537        -80.5454       -0.0166823         144.768
0.591                   -1.81279        -171.496         -44.2268        -82.3403         -44.2264        -82.3417        -0.016837         144.692
0.592                   -1.84638        -172.162         -44.0998        -84.1362         -44.0995        -84.1375       -0.0169945         144.616
0.593                    -1.8806        -172.832         -43.9731        -85.9314         -43.9728        -85.9326       -0.0171549          144.54
0.594                   -1.91548        -173.508         -43.8467        -87.7261         -43.8464        -87.7272       -0.0173183         144.463
0.595                   -1.95106        -174.188         -43.7205        -89.5202         -43.7202        -89.5212       -0.0174849         144.387
0.596                   -1.98735        -174.874         -43.5945        -91.3137         -43.5942        -91.3146       -0.0176548          144.31
0.597                    -2.0244        -175.565         -43.4687        -93.1067         -43.4685        -93.1074       -0.0178281         144.233
0.598                   -2.06222        -176.261         -43.3432        -94.8991          -43.343        -94.8998       -0.0180051         144.156
0.599                   -2.10086        -176.963         -43.2178         -96.691         -43.2176        -96.6916       -0.0181858         144.078
0.6                     -2.14034         -177.67         -43.0926        -98.4825         -43.0925        -98.4829       -0.0183705             144
0.601                    -2.1807        -178.382         -42.9676        -100.274         -42.9675        -100.274       -0.0185593         143.923
0.602                   -2.22198          -179.1         -42.8427        -102.064         -42.8426        -102.064       -0.0187523         143.844
0.603                   -2.26421        -179.824          -42.718        -103.855         -42.7179        -103.854       -0.0189497         143.766
0.604                   -2.30744         179.447         -42.5934        -105.645         -42.5934        -105.644       -0.0191517         143.688
0.605                    -2.3517         178.711          -42.469        -107.434          -42.469        -107.434       -0.0193584         143.609
0.606                   -2.39703         177.971         -42.3446        -109.224         -42.3447        -109.224         -0.01957          143.53
0.607                   -2.44349         177.224         -42.2204        -111.014         -42.2205        -111.013       -0.0197865         143.451
0.608                    -2.4911         176.472         -42.0963        -112.803         -42.0964        -112.802       -0.0200082         143.371
0.609                   -2.53993         175.714         -41.9723        -114.593         -41.9724        -114.592       -0.0202352         143.292
0.61                    -2.59001         174.951         -41.8484        -116.383         -41.8486        -116.381       -0.0204676         143.212
0.611                   -2.64141         174.182         -41.7247        -118.172         -41.7248        -118.171       -0.0207056         143.132
0.612                   -2.69415         173.407          -41.601        -119.963         -41.6011        -119.961       -0.0209492         143.052
0.613                   -2.74831         172.627         -41.4774        -121.754         -41.4776        -121.752       -0.0211986         142.971
0.614                   -2.80393         171.841         -41.3539        -123.545         -41.3541        -123.543       -0.0214538         142.891
0.615                   -2.86107          171.05         -41.2305        -125.337         -41.2307        -125.335        -0.021715          142.81
0.616                   -2.91978         170.253         -41.1072        -127.129         -41.1075        -127.127       -0.0219822         142.729
0.617                   -2.98013         169.451          -40.984        -128.922         -40.9843         -128.92       -0.0222555         142.647
0.618                   -3.04216         168.644         -40.8609        -130.716         -40.8612        -130.714        -0.022535         142.566
0.619                   -3.10594         167.832          -40.738        -132.512         -40.7383        -132.509       -0.0228206         142.484
0.62                    -3.17154         167.015         -40.6151        -134.308         -40.6155        -134.305       -0.0231125         142.402
0.621                     -3.239         166.194         -40.4924        -136.105         -40.4928        -136.102       -0.0234106         142.319
0.622                    -3.3084         165.368         -40.3699        -137.904         -40.3702        -137.901       -0.0237149         142.237
0.623                    -3.3798         164.538         -40.2475        -139.704         -40.2478        -139.701       -0.0240254         142.154
0.624                   -3.45326         163.704         -40.1252        -141.505         -40.1256        -141.502       -0.0243421         142.071
0.625                   -3.52885         162.867         -40.0031        -143.308         -40.0035        -143.305       -0.0246651         141.987
0.626                   -3.60663         162.026         -39.8812        -145.113         -39.8816         -145.11       -0.0249941         141.904
0.627                   -3.68667         161.182         -39.7596        -146.919         -39.7599        -146.916       -0.0253292          141.82
0.628                   -3.76903         160.335         -39.6381        -148.728         -39.6384        -148.724       -0.0256703         141.736
0.629                   -3.85379         159.486         -39.5169        -150.538         -39.5172        -150.534       -0.0260173         141.652
