! TOUCHSTONE file generated by CST MICROWAVE STUDIO
! Date and time: Fri Oct  2 16:36:13 2020
! Project name: Scenario_1_Free_Space_out_of_line.cst
! Parameters = {Lambda=346.42; Step_1=17.321; dy1=-155.249; dx1=520; L_HA=400; MT=2.54; Rad_Dielectric=30; Rad_Lower=7.3; Rad_Upper=30; a_HA=580; a_WG=246; b_HA=500; b_WG=121; c_HA=0; c_WG=187; d_feed=85; h_feed=15; h_lower=18; h_upper=40}
! Header version: 2018
! Port assignment regex: !\s*Touchstone port\s*([0-9]+)\s*=\s*(CST MWS port|CST DS port)\s*([0-9]+|Zmin|Zmax)\s*\(\"(.*)\"\)(\s*mode\s*([0-9]+))?.*
! Touchstone port assignment:
! Touchstone port 1 = CST MWS port 1 ("")
! Touchstone port 2 = CST MWS port 2 ("")
# GHz S DB R 50
0.5                    -0.150043        -122.448         -61.5895        -22.0318         -61.5895        -22.0318      -0.00662111         151.124
0.501                  -0.155366        -122.884         -61.4023        -23.9317         -61.4023        -23.9318       -0.0066708         151.059
0.502                  -0.160837        -123.323         -61.2146        -25.8196         -61.2147        -25.8198      -0.00672107         150.993
0.503                   -0.16646        -123.764         -61.0265        -27.6963         -61.0266        -27.6966      -0.00677196         150.928
0.504                  -0.172237        -124.207          -60.838        -29.5625         -60.8381        -29.5629      -0.00682349         150.862
0.505                  -0.178174        -124.652         -60.6492         -31.419         -60.6493        -31.4195      -0.00687567         150.797
0.506                  -0.184275          -125.1         -60.4602        -33.2663         -60.4603        -33.2669      -0.00692852         150.731
0.507                  -0.190544         -125.55          -60.271        -35.1053         -60.2711         -35.106      -0.00698207         150.666
0.508                  -0.196985        -126.002         -60.0817        -36.9366         -60.0818        -36.9374      -0.00703634           150.6
0.509                  -0.203603        -126.456         -59.8923        -38.7609         -59.8925        -38.7617      -0.00709134         150.534
0.51                   -0.210403        -126.913          -59.703        -40.5787         -59.7031        -40.5796      -0.00714712         150.468
0.511                  -0.217389        -127.372         -59.5136        -42.3908         -59.5138        -42.3917      -0.00720369         150.402
0.512                  -0.224567        -127.833         -59.3244        -44.1977         -59.3246        -44.1987      -0.00726107         150.336
0.513                  -0.231942        -128.297         -59.1352        -46.0001         -59.1354        -46.0011      -0.00731929          150.27
0.514                  -0.239519        -128.763         -58.9462        -47.7984         -58.9464        -47.7995      -0.00737839         150.203
0.515                  -0.247304        -129.231         -58.7574        -49.5934         -58.7576        -49.5945      -0.00743838         150.137
0.516                  -0.255301        -129.702         -58.5687        -51.3854         -58.5689        -51.3866      -0.00749929         150.071
0.517                  -0.263517        -130.175         -58.3803        -53.1751         -58.3805        -53.1763      -0.00756116         150.004
0.518                  -0.271958        -130.651         -58.1921        -54.9629         -58.1923        -54.9641      -0.00762402         149.937
0.519                  -0.280629        -131.129         -58.0042        -56.7493         -58.0044        -56.7505      -0.00768789         149.871
0.52                   -0.289536         -131.61         -57.8166        -58.5348         -57.8168         -58.536      -0.00775281         149.804
0.521                  -0.298687        -132.093         -57.6293        -60.3199         -57.6295        -60.3211      -0.00781881         149.737
0.522                  -0.308087        -132.578         -57.4423        -62.1049         -57.4425         -62.106      -0.00788593          149.67
0.523                  -0.317743        -133.067         -57.2557        -63.8902         -57.2559        -63.8914      -0.00795419         149.603
0.524                  -0.327662        -133.557         -57.0694        -65.6764         -57.0696        -65.6775      -0.00802364         149.536
0.525                   -0.33785        -134.051         -56.8835        -67.4636         -56.8837        -67.4648      -0.00809431         149.468
0.526                  -0.348314        -134.546          -56.698        -69.2524         -56.6981        -69.2536      -0.00816624         149.401
0.527                  -0.359062        -135.045         -56.5129        -71.0431          -56.513        -71.0442      -0.00823947         149.334
0.528                  -0.370101        -135.546         -56.3282        -72.8359         -56.3283         -72.837      -0.00831403         149.266
0.529                  -0.381439        -136.049         -56.1439        -74.6313          -56.144        -74.6323      -0.00838997         149.198
0.53                   -0.393082        -136.555         -55.9601        -76.4294         -55.9602        -76.4304      -0.00846732         149.131
0.531                  -0.405038        -137.064         -55.7767        -78.2306         -55.7769        -78.2316      -0.00854612         149.063
0.532                  -0.417316        -137.575         -55.5938        -80.0352          -55.594        -80.0362      -0.00862642         148.995
0.533                  -0.429923        -138.089         -55.4114        -81.8434         -55.4115        -81.8443      -0.00870826         148.927
0.534                  -0.442867        -138.606         -55.2295        -83.6554         -55.2296        -83.6562      -0.00879168         148.859
0.535                  -0.456156        -139.125         -55.0481        -85.4714         -55.0482        -85.4723      -0.00887672         148.791
0.536                  -0.469799        -139.646         -54.8672        -87.2917         -54.8673        -87.2925      -0.00896343         148.722
0.537                  -0.483803        -140.171         -54.6869        -89.1165          -54.687        -89.1173      -0.00905184         148.654
0.538                  -0.498177        -140.697         -54.5071        -90.9459         -54.5072        -90.9466      -0.00914201         148.585
0.539                  -0.512929        -141.227         -54.3279        -92.7801          -54.328        -92.7808      -0.00923397         148.517
0.54                   -0.528068        -141.759         -54.1493        -94.6192         -54.1493        -94.6198      -0.00932778         148.448
0.541                  -0.543603        -142.294         -53.9712        -96.4634         -53.9713         -96.464      -0.00942346         148.379
0.542                  -0.559541        -142.831         -53.7938        -98.3128         -53.7939        -98.3134      -0.00952106          148.31
0.543                  -0.575891         -143.37          -53.617        -100.168         -53.6171        -100.168      -0.00962063         148.241
0.544                  -0.592662        -143.913         -53.4408        -102.028         -53.4409        -102.028      -0.00972221         148.172
0.545                  -0.609862        -144.457         -53.2653        -103.893         -53.2654        -103.894      -0.00982583         148.103
0.546                    -0.6275        -145.004         -53.0905        -105.764         -53.0906        -105.765      -0.00993153         148.033
0.547                  -0.645583        -145.554         -52.9164        -107.641         -52.9164        -107.641       -0.0100394         147.964
0.548                  -0.664121        -146.106          -52.743        -109.523          -52.743        -109.524       -0.0101493         147.894
0.549                  -0.683121        -146.661         -52.5703        -111.411         -52.5703        -111.411       -0.0102615         147.824
0.55                   -0.702591        -147.218         -52.3983        -113.305         -52.3983        -113.305       -0.0103759         147.755
0.551                  -0.722539        -147.777         -52.2271        -115.204         -52.2271        -115.204       -0.0104926         147.685
0.552                  -0.742972        -148.338         -52.0566        -117.109         -52.0567        -117.109       -0.0106115         147.615
0.553                  -0.763899        -148.902          -51.887         -119.02          -51.887         -119.02       -0.0107327         147.544
0.554                  -0.785327        -149.468         -51.7181        -120.936         -51.7181        -120.936       -0.0108562         147.474
0.555                  -0.807262        -150.037         -51.5501        -122.857         -51.5501        -122.857       -0.0109821         147.404
0.556                  -0.829711        -150.607         -51.3829        -124.784         -51.3829        -124.784       -0.0111104         147.333
0.557                  -0.852681         -151.18         -51.2165        -126.717         -51.2165        -126.717        -0.011241         147.263
0.558                  -0.876178        -151.754          -51.051        -128.655          -51.051        -128.655        -0.011374         147.192
0.559                  -0.900206        -152.331         -50.8864        -130.598         -50.8864        -130.598       -0.0115093         147.121
0.56                   -0.924773         -152.91         -50.7227        -132.546         -50.7226        -132.546       -0.0116471          147.05
0.561                  -0.949883        -153.491         -50.5598        -134.499         -50.5598        -134.499       -0.0117872         146.979
0.562                  -0.975539        -154.073         -50.3979        -136.457         -50.3979        -136.457       -0.0119296         146.908
0.563                   -1.00175        -154.658         -50.2369         -138.42         -50.2368         -138.42       -0.0120744         146.836
0.564                   -1.02851        -155.244         -50.0768        -140.388         -50.0768        -140.387       -0.0122215         146.765
0.565                   -1.05583        -155.832         -49.9177         -142.36         -49.9176        -142.359        -0.012371         146.693
0.566                   -1.08371        -156.422         -49.7595        -144.336         -49.7594        -144.336       -0.0125227         146.621
0.567                   -1.11216        -157.013         -49.6023        -146.316         -49.6022        -146.316       -0.0126766          146.55
0.568                   -1.14116        -157.606          -49.446        -148.301          -49.446          -148.3       -0.0128328         146.478
0.569                   -1.17074          -158.2         -49.2907        -150.289         -49.2907        -150.288       -0.0129911         146.405
0.57                    -1.20088        -158.796         -49.1364         -152.28         -49.1363         -152.28       -0.0131515         146.333
0.571                   -1.23158        -159.394         -48.9831        -154.276          -48.983        -154.275        -0.013314         146.261
0.572                   -1.26285        -159.992         -48.8307        -156.274         -48.8306        -156.274       -0.0134785         146.188
0.573                   -1.29468        -160.593         -48.6793        -158.275         -48.6793        -158.275        -0.013645         146.116
0.574                   -1.32707        -161.194         -48.5289         -160.28         -48.5289        -160.279       -0.0138134         146.043
0.575                   -1.36002        -161.797         -48.3795        -162.287         -48.3794        -162.286       -0.0139836          145.97
0.576                   -1.39353        -162.401         -48.2311        -164.296          -48.231        -164.296       -0.0141557         145.897
0.577                   -1.42758        -163.006         -48.0836        -166.308         -48.0835        -166.307       -0.0143295         145.824
0.578                   -1.46219        -163.612         -47.9371        -168.321          -47.937        -168.321       -0.0145049         145.751
0.579                   -1.49734         -164.22         -47.7915        -170.337         -47.7914        -170.337        -0.014682         145.677
0.58                    -1.53303        -164.828         -47.6469        -172.354         -47.6468        -172.354       -0.0148607         145.604
0.581                   -1.56925        -165.438         -47.5033        -174.373         -47.5032        -174.373       -0.0150409          145.53
0.582                     -1.606        -166.049         -47.3605        -176.393         -47.3604        -176.393       -0.0152225         145.456
0.583                   -1.64327        -166.661         -47.2187        -178.414         -47.2186        -178.414       -0.0154055         145.382
0.584                   -1.68106        -167.274         -47.0778         179.564         -47.0777         179.564       -0.0155899         145.308
0.585                   -1.71935        -167.888         -46.9378         177.541         -46.9377         177.542       -0.0157756         145.233
0.586                   -1.75815        -168.503         -46.7986         175.518         -46.7985         175.518       -0.0159626         145.159
0.587                   -1.79745        -169.119         -46.6603         173.494         -46.6602         173.495       -0.0161509         145.084
0.588                   -1.83723        -169.737         -46.5229         171.471         -46.5228         171.471       -0.0163403         145.009
0.589                    -1.8775        -170.355         -46.3862         169.447         -46.3861         169.447        -0.016531         144.934
0.59                    -1.91824        -170.975         -46.2504         167.423         -46.2503         167.423       -0.0167229         144.859
0.591                   -1.95946        -171.596         -46.1154         165.399         -46.1153           165.4        -0.016916         144.784
0.592                   -2.00114        -172.219         -45.9811         163.376          -45.981         163.376       -0.0171103         144.709
0.593                   -2.04328        -172.843         -45.8476         161.353         -45.8475         161.354       -0.0173058         144.633
0.594                   -2.08588        -173.468         -45.7148         159.331         -45.7147         159.332       -0.0175026         144.557
0.595                   -2.12893        -174.095         -45.5827          157.31         -45.5826          157.31       -0.0177006         144.481
0.596                   -2.17243        -174.724         -45.4512          155.29         -45.4511          155.29       -0.0178999         144.405
0.597                   -2.21638        -175.354         -45.3204          153.27         -45.3203          153.27       -0.0181005         144.329
0.598                   -2.26077        -175.986         -45.1903         151.252         -45.1902         151.252       -0.0183025         144.252
0.599                   -2.30561         -176.62         -45.0607         149.234         -45.0606         149.234       -0.0185059         144.175
0.6                     -2.35089        -177.256         -44.9317         147.218         -44.9316         147.218       -0.0187109         144.098
0.601                   -2.39661        -177.894         -44.8033         145.203         -44.8032         145.203       -0.0189175         144.021
0.602                   -2.44279        -178.534         -44.6754         143.189         -44.6753         143.189       -0.0191257         143.944
0.603                   -2.48943        -179.177          -44.548         141.176         -44.5479         141.176       -0.0193357         143.867
0.604                   -2.53652        -179.823         -44.4211         139.165          -44.421         139.165       -0.0195476         143.789
0.605                   -2.58408         179.529         -44.2946         137.155         -44.2945         137.155       -0.0197614         143.711
0.606                   -2.63212         178.879         -44.1686         135.146         -44.1685         135.146       -0.0199773         143.633
0.607                   -2.68065         178.225          -44.043         133.139         -44.0429         133.139       -0.0201954         143.555
0.608                   -2.72968         177.568         -43.9178         131.133         -43.9177         131.133       -0.0204159         143.476
0.609                   -2.77922         176.908         -43.7929         129.128         -43.7929         129.129       -0.0206387         143.397
0.61                    -2.82929         176.244         -43.6684         127.125         -43.6684         127.125       -0.0208642         143.318
0.611                   -2.87991         175.577         -43.5442         125.123         -43.5442         125.123       -0.0210924         143.239
0.612                    -2.9311         174.906         -43.4203         123.122         -43.4203         123.122       -0.0213234          143.16
0.613                   -2.98287         174.232         -43.2967         121.122         -43.2967         121.122       -0.0215575          143.08
0.614                   -3.03526         173.553         -43.1734         119.123         -43.1733         119.123       -0.0217947             143
0.615                   -3.08829          172.87         -43.0503         117.126         -43.0502         117.126       -0.0220353          142.92
0.616                   -3.14199         172.183         -42.9274         115.129         -42.9274         115.129       -0.0222794          142.84
0.617                   -3.19638         171.491         -42.8048         113.133         -42.8047         113.133       -0.0225271         142.759
0.618                    -3.2515         170.795         -42.6823         111.138         -42.6823         111.138       -0.0227787         142.678
0.619                   -3.30738         170.094           -42.56         109.144           -42.56         109.144       -0.0230342         142.597
0.62                    -3.36407         169.388         -42.4379          107.15         -42.4379          107.15       -0.0232939         142.516
0.621                   -3.42159         168.677          -42.316         105.156         -42.3159         105.156        -0.023558         142.435
0.622                   -3.47999         167.961         -42.1941         103.163         -42.1941         103.163       -0.0238266         142.353
0.623                   -3.53931         167.239         -42.0725         101.171         -42.0724         101.171          -0.0241         142.271
0.624                    -3.5996         166.513         -41.9509         99.1782         -41.9509         99.1783       -0.0243782         142.188
0.625                    -3.6609          165.78         -41.8294         97.1857         -41.8294         97.1858       -0.0246615         142.106
0.626                   -3.72327         165.043         -41.7081         95.1932         -41.7081         95.1932       -0.0249501         142.023
0.627                   -3.78674         164.299         -41.5869         93.2004         -41.5869         93.2004       -0.0252441          141.94
0.628                   -3.85139          163.55         -41.4658         91.2072         -41.4657         91.2072       -0.0255438         141.857
0.629                   -3.91726         162.795         -41.3447         89.2136         -41.3447         89.2136       -0.0258494         141.773
