! TOUCHSTONE file generated by CST MICROWAVE STUDIO
! Date and time: Fri Oct  2 16:59:05 2020
! Project name: Scenario_1_Free_Space_out_of_line.cst
! Parameters = {Lambda=346.42; Step_1=17.321; dy1=-155.249; dx1=693; L_HA=400; MT=2.54; Rad_Dielectric=30; Rad_Lower=7.3; Rad_Upper=30; a_HA=580; a_WG=246; b_HA=500; b_WG=121; c_HA=0; c_WG=187; d_feed=85; h_feed=15; h_lower=18; h_upper=40}
! Header version: 2018
! Port assignment regex: !\s*Touchstone port\s*([0-9]+)\s*=\s*(CST MWS port|CST DS port)\s*([0-9]+|Zmin|Zmax)\s*\(\"(.*)\"\)(\s*mode\s*([0-9]+))?.*
! Touchstone port assignment:
! Touchstone port 1 = CST MWS port 1 ("")
! Touchstone port 2 = CST MWS port 2 ("")
# GHz S DB R 50
0.5                    -0.146661        -122.678         -62.8427        -119.164         -62.8427        -119.164      -0.00670909         151.084
0.501                  -0.150582        -123.123         -62.7811        -121.086         -62.7811        -121.086      -0.00676453         151.018
0.502                  -0.154747        -123.569         -62.7153        -123.029         -62.7153        -123.029      -0.00682075         150.953
0.503                  -0.159159        -124.017          -62.645        -124.992          -62.645        -124.992      -0.00687778         150.888
0.504                   -0.16382        -124.467         -62.5702        -126.974         -62.5702        -126.974      -0.00693562         150.822
0.505                  -0.168733        -124.919         -62.4908        -128.976         -62.4908        -128.976      -0.00699427         150.757
0.506                  -0.173902        -125.373         -62.4067        -130.995         -62.4067        -130.995      -0.00705376         150.691
0.507                  -0.179328        -125.829         -62.3178        -133.031         -62.3178        -133.031      -0.00711409         150.625
0.508                  -0.185015        -126.286         -62.2239        -135.083          -62.224        -135.083      -0.00717528         150.559
0.509                  -0.190967        -126.746         -62.1252        -137.149         -62.1252         -137.15      -0.00723733         150.493
0.51                   -0.197185        -127.208         -62.0214         -139.23         -62.0214         -139.23      -0.00730026         150.427
0.511                  -0.203673        -127.671         -61.9125        -141.323         -61.9125        -141.323      -0.00736408         150.361
0.512                  -0.210433        -128.137         -61.7985        -143.427         -61.7986        -143.428       -0.0074288         150.295
0.513                  -0.217469        -128.604         -61.6795        -145.542         -61.6795        -145.542      -0.00749443         150.229
0.514                  -0.224784        -129.073         -61.5554        -147.666         -61.5554        -147.667      -0.00756098         150.162
0.515                  -0.232381        -129.545         -61.4261        -149.799         -61.4261        -149.799      -0.00762847         150.096
0.516                  -0.240263        -130.018         -61.2918        -151.938         -61.2918        -151.938      -0.00769691         150.029
0.517                  -0.248433        -130.493         -61.1525        -154.083         -61.1525        -154.083       -0.0077663         149.963
0.518                  -0.256894         -130.97         -61.0082        -156.233         -61.0082        -156.234      -0.00783667         149.896
0.519                  -0.265649         -131.45          -60.859        -158.387          -60.859        -158.388      -0.00790801         149.829
0.52                   -0.274701        -131.931          -60.705        -160.544          -60.705        -160.545      -0.00798036         149.763
0.521                  -0.284054        -132.414         -60.5463        -162.703         -60.5463        -162.704      -0.00805371         149.696
0.522                  -0.293711        -132.899         -60.3829        -164.863         -60.3829        -164.864      -0.00812808         149.629
0.523                  -0.303675        -133.386          -60.215        -167.024          -60.215        -167.024      -0.00820348         149.561
0.524                  -0.313949        -133.875         -60.0426        -169.184         -60.0427        -169.184      -0.00827992         149.494
0.525                  -0.324537        -134.366         -59.8661        -171.343         -59.8661        -171.343      -0.00835743         149.427
0.526                  -0.335441        -134.859         -59.6853          -173.5         -59.6853          -173.5        -0.008436         149.359
0.527                  -0.346666        -135.354         -59.5006        -175.655         -59.5006        -175.656      -0.00851566         149.292
0.528                  -0.358214        -135.851          -59.312        -177.808          -59.312        -177.808      -0.00859641         149.224
0.529                  -0.370089         -136.35         -59.1198        -179.957         -59.1198        -179.958      -0.00867827         149.157
0.53                   -0.382294        -136.851         -58.9239         177.896         -58.9239         177.896      -0.00876125         149.089
0.531                  -0.394833        -137.354         -58.7247         175.754         -58.7247         175.753      -0.00884537         149.021
0.532                  -0.407709        -137.859         -58.5223         173.615         -58.5223         173.614      -0.00893064         148.953
0.533                  -0.420926        -138.366         -58.3168         171.479         -58.3168         171.479      -0.00901707         148.885
0.534                  -0.434486        -138.875         -58.1084         169.348         -58.1084         169.348      -0.00910468         148.817
0.535                  -0.448395        -139.386         -57.8972          167.22         -57.8972          167.22      -0.00919348         148.748
0.536                  -0.462654        -139.899         -57.6835         165.096         -57.6835         165.096      -0.00928348          148.68
0.537                  -0.477268        -140.414         -57.4674         162.976         -57.4674         162.976      -0.00937469         148.611
0.538                  -0.492241        -140.931          -57.249         160.859          -57.249         160.859      -0.00946715         148.543
0.539                  -0.507576         -141.45         -57.0285         158.745         -57.0285         158.745      -0.00956084         148.474
0.54                   -0.523276        -141.972         -56.8061         156.634         -56.8061         156.633       -0.0096558         148.405
0.541                  -0.539346        -142.495         -56.5819         154.525         -56.5819         154.525      -0.00975204         148.336
0.542                  -0.555789         -143.02          -56.356         152.418          -56.356         152.418      -0.00984957         148.267
0.543                  -0.572609        -143.547         -56.1287         150.313         -56.1287         150.313       -0.0099484         148.198
0.544                  -0.589809        -144.076         -55.9001         148.209         -55.9001         148.209       -0.0100486         148.129
0.545                  -0.607394        -144.607         -55.6702         146.106         -55.6702         146.106         -0.01015         148.059
0.546                  -0.625368        -145.141         -55.4393         144.003         -55.4393         144.003       -0.0102529          147.99
0.547                  -0.643734        -145.676         -55.2076           141.9         -55.2076           141.9       -0.0103571          147.92
0.548                  -0.662496        -146.213          -54.975         139.796          -54.975         139.796       -0.0104627         147.851
0.549                  -0.681658        -146.753         -54.7419         137.691         -54.7419          137.69       -0.0105697         147.781
0.55                   -0.701225        -147.294         -54.5083         135.584         -54.5083         135.583       -0.0106781         147.711
0.551                    -0.7212        -147.838         -54.2743         133.474         -54.2743         133.474        -0.010788         147.641
0.552                  -0.741588        -148.383         -54.0401         131.362         -54.0401         131.361       -0.0108992         147.571
0.553                  -0.762392        -148.931         -53.8059         129.246         -53.8059         129.245        -0.011012           147.5
0.554                  -0.783617        -149.481         -53.5717         127.126         -53.5717         127.125       -0.0111263          147.43
0.555                  -0.805267        -150.032         -53.3377         125.001         -53.3377         125.001        -0.011242         147.359
0.556                  -0.827346        -150.586          -53.104         122.871          -53.104         122.871       -0.0113593         147.289
0.557                  -0.849859        -151.142         -52.8708         120.736         -52.8708         120.736       -0.0114781         147.218
0.558                   -0.87281          -151.7         -52.6381         118.595         -52.6381         118.595       -0.0115985         147.147
0.559                  -0.896204         -152.26         -52.4061         116.447         -52.4061         116.447       -0.0117204         147.076
0.56                   -0.920044        -152.822          -52.175         114.293          -52.175         114.292       -0.0118439         147.005
0.561                  -0.944336        -153.386         -51.9448          112.13         -51.9448          112.13       -0.0119691         146.934
0.562                  -0.969084        -153.952         -51.7158         109.961         -51.7158         109.961       -0.0120959         146.862
0.563                  -0.994293         -154.52         -51.4879         107.783         -51.4879         107.783       -0.0122243         146.791
0.564                   -1.01997         -155.09         -51.2614         105.597         -51.2614         105.597       -0.0123544         146.719
0.565                   -1.04611        -155.663         -51.0364         103.402         -51.0364         103.402       -0.0124862         146.647
0.566                   -1.07273        -156.237         -50.8129         101.198         -50.8129         101.198       -0.0126197         146.575
0.567                   -1.09983        -156.814         -50.5912         98.9849         -50.5912         98.9849        -0.012755         146.503
0.568                   -1.12742        -157.393         -50.3713         96.7628         -50.3713         96.7628        -0.012892         146.431
0.569                   -1.15549        -157.973         -50.1533         94.5313         -50.1533         94.5314       -0.0130308         146.359
0.57                    -1.18406        -158.556         -49.9375         92.2904         -49.9375         92.2906       -0.0131714         146.286
0.571                   -1.21313        -159.141         -49.7238         90.0402         -49.7238         90.0403       -0.0133138         146.214
0.572                   -1.24271        -159.728         -49.5125         87.7806         -49.5125         87.7808        -0.013458         146.141
0.573                   -1.27279        -160.317         -49.3036         85.5118         -49.3036          85.512       -0.0136042         146.068
0.574                    -1.3034        -160.909         -49.0972         83.2339         -49.0972         83.2341       -0.0137522         145.995
0.575                   -1.33452        -161.502         -48.8935         80.9471         -48.8935         80.9473       -0.0139021         145.922
0.576                   -1.36618        -162.098         -48.6925         78.6516         -48.6925         78.6518        -0.014054         145.848
0.577                   -1.39836        -162.695         -48.4943         76.3478         -48.4943          76.348       -0.0142079         145.775
0.578                   -1.43109        -163.295         -48.2991          74.036         -48.2991         74.0363       -0.0143637         145.701
0.579                   -1.46436        -163.897         -48.1069         71.7167         -48.1069         71.7169       -0.0145216         145.627
0.58                    -1.49818        -164.501         -47.9178         69.3901         -47.9178         69.3904       -0.0146815         145.553
0.581                   -1.53256        -165.107         -47.7319          67.057         -47.7319         67.0573       -0.0148435         145.479
0.582                   -1.56751        -165.715         -47.5491         64.7177         -47.5491          64.718       -0.0150076         145.405
0.583                   -1.60302        -166.326         -47.3697         62.3729         -47.3697         62.3732       -0.0151738          145.33
0.584                   -1.63911        -166.938         -47.1936         60.0232         -47.1936         60.0235       -0.0153422         145.256
0.585                   -1.67578        -167.553         -47.0209         57.6691         -47.0209         57.6695       -0.0155128         145.181
0.586                   -1.71304         -168.17         -46.8516         55.3114         -46.8516         55.3118       -0.0156857         145.106
0.587                    -1.7509        -168.789         -46.6857         52.9508         -46.6857         52.9512       -0.0158608         145.031
0.588                   -1.78937         -169.41         -46.5233         50.5879         -46.5233         50.5883       -0.0160381         144.956
0.589                   -1.82844        -170.033         -46.3643         48.2235         -46.3643         48.2239       -0.0162178          144.88
0.59                    -1.86813        -170.659         -46.2087         45.8583         -46.2087         45.8587       -0.0163999         144.805
0.591                   -1.90845        -171.286         -46.0566          43.493         -46.0566         43.4935       -0.0165843         144.729
0.592                    -1.9494        -171.916         -45.9079         41.1284         -45.9079         41.1288       -0.0167712         144.653
0.593                     -1.991        -172.548         -45.7625         38.7651         -45.7625         38.7656       -0.0169606         144.577
0.594                   -2.03324        -173.183         -45.6205          36.404         -45.6205         36.4044       -0.0171525           144.5
0.595                   -2.07614        -173.819         -45.4817         34.0456         -45.4817          34.046       -0.0173469         144.424
0.596                   -2.11971        -174.458         -45.3462         31.6906         -45.3462          31.691       -0.0175439         144.347
0.597                   -2.16395        -175.099         -45.2138         29.3397         -45.2138         29.3402       -0.0177435          144.27
0.598                   -2.20887        -175.742         -45.0844         26.9936         -45.0844          26.994       -0.0179458         144.193
0.599                   -2.25449        -176.387         -44.9581         24.6527         -44.9581         24.6532       -0.0181508         144.116
0.6                     -2.30081        -177.035         -44.8346         22.3178         -44.8346         22.3182       -0.0183586         144.038
0.601                   -2.34784        -177.684          -44.714         19.9892          -44.714         19.9896       -0.0185692         143.961
0.602                   -2.39559        -178.336         -44.5961         17.6674          -44.596         17.6678       -0.0187827         143.883
0.603                   -2.44407         -178.99         -44.4807          15.353         -44.4807         15.3534       -0.0189991         143.805
0.604                   -2.49329        -179.647         -44.3679         13.0462         -44.3679         13.0466       -0.0192184         143.726
0.605                   -2.54326         179.694         -44.2575         10.7475         -44.2574         10.7479       -0.0194407         143.648
0.606                     -2.594         179.034         -44.1493         8.45715         -44.1493         8.45758       -0.0196662         143.569
0.607                    -2.6455          178.37         -44.0433         6.17543         -44.0432         6.17586       -0.0198947          143.49
0.608                    -2.6978         177.705         -43.9393         3.90256         -43.9393         3.90298       -0.0201264         143.411
0.609                   -2.75089         177.037         -43.8372         1.63872         -43.8372         1.63913       -0.0203614         143.332
0.61                    -2.80479         176.367          -43.737       -0.615957         -43.7369       -0.615547       -0.0205997         143.252
0.611                   -2.85951         175.695         -43.6384        -2.86137         -43.6384        -2.86096       -0.0208414         143.173
0.612                   -2.91506         175.021         -43.5414        -5.09746         -43.5414        -5.09706       -0.0210865         143.093
0.613                   -2.97146         174.344         -43.4458         -7.3242         -43.4458        -7.32381       -0.0213351         143.012
0.614                   -3.02872         173.665         -43.3516        -9.54163         -43.3516        -9.54125       -0.0215873         142.932
0.615                   -3.08685         172.984         -43.2586        -11.7498         -43.2586        -11.7494       -0.0218432         142.851
0.616                   -3.14587           172.3         -43.1667        -13.9488         -43.1667        -13.9484       -0.0221028          142.77
0.617                    -3.2058         171.614         -43.0758        -16.1387         -43.0758        -16.1383       -0.0223662         142.689
0.618                   -3.26664         170.926         -42.9858        -18.3197         -42.9858        -18.3194       -0.0226335         142.608
0.619                   -3.32842         170.236         -42.8966         -20.492         -42.8965        -20.4917       -0.0229048         142.526
0.62                    -3.39114         169.543          -42.808        -22.6558          -42.808        -22.6554       -0.0231801         142.444
0.621                   -3.45484         168.848         -42.7201        -24.8112         -42.7201        -24.8109       -0.0234596         142.362
0.622                   -3.51951         168.151         -42.6326        -26.9586         -42.6326        -26.9583       -0.0237434          142.28
0.623                   -3.58519         167.451         -42.5456        -29.0982         -42.5455        -29.0979       -0.0240315         142.197
0.624                   -3.65189         166.749         -42.4588        -31.2303         -42.4588          -31.23       -0.0243241         142.114
0.625                   -3.71963         166.045         -42.3723        -33.3552         -42.3723        -33.3549       -0.0246212         142.031
0.626                   -3.78843         165.339          -42.286        -35.4732          -42.286        -35.4729        -0.024923         141.948
0.627                    -3.8583          164.63         -42.1997        -37.5846         -42.1997        -37.5843       -0.0252296         141.864
0.628                   -3.92928          163.92         -42.1134        -39.6899         -42.1134        -39.6896       -0.0255411          141.78
0.629                   -4.00138         163.207         -42.0271        -41.7892         -42.0271         -41.789       -0.0258576         141.696
