! TOUCHSTONE file generated by CST MICROWAVE STUDIO
! Date and time: Fri Oct  2 19:15:20 2020
! Project name: Scenario_1_Free_Space_out_of_line.cst
! Parameters = {Lambda=346.42; Step_1=17.321; dy1=-155.249; dx1=866; L_HA=400; MT=2.54; Rad_Dielectric=30; Rad_Lower=7.3; Rad_Upper=30; a_HA=580; a_WG=246; b_HA=500; b_WG=121; c_HA=0; c_WG=187; d_feed=85; h_feed=15; h_lower=18; h_upper=40}
! Header version: 2018
! Port assignment regex: !\s*Touchstone port\s*([0-9]+)\s*=\s*(CST MWS port|CST DS port)\s*([0-9]+|Zmin|Zmax)\s*\(\"(.*)\"\)(\s*mode\s*([0-9]+))?.*
! Touchstone port assignment:
! Touchstone port 1 = CST MWS port 1 ("")
! Touchstone port 2 = CST MWS port 2 ("")
# GHz S DB R 50
0.5                    -0.148934        -122.556         -63.5597         141.863         -63.5597         141.863      -0.00662313         151.122
0.501                  -0.153566        -122.994         -63.3663         139.741         -63.3663          139.74      -0.00666632         151.057
0.502                  -0.158454        -123.435          -63.172         137.615          -63.172         137.613      -0.00671306         150.991
0.503                  -0.163598        -123.878         -62.9767         135.483         -62.9768         135.481      -0.00676311         150.926
0.504                  -0.169001        -124.324         -62.7807         133.345         -62.7809         133.343      -0.00681622          150.86
0.505                  -0.174665        -124.772          -62.584         131.202         -62.5841         131.199      -0.00687219         150.795
0.506                  -0.180594        -125.222         -62.3866         129.053         -62.3868          129.05      -0.00693083         150.729
0.507                  -0.186789        -125.674         -62.1887         126.898         -62.1888         126.895      -0.00699198         150.663
0.508                  -0.193252        -126.129         -61.9903         124.736         -61.9904         124.734      -0.00705547         150.597
0.509                  -0.199986        -126.586         -61.7914         122.568         -61.7915         122.566      -0.00712118         150.531
0.51                   -0.206994        -127.045         -61.5922         120.394         -61.5923         120.392      -0.00718898         150.465
0.511                  -0.214277        -127.507         -61.3927         118.213         -61.3928         118.212      -0.00725876         150.399
0.512                  -0.221839         -127.97         -61.1931         116.025         -61.1931         116.025      -0.00733042         150.333
0.513                  -0.229682        -128.437         -60.9933         113.831         -60.9933         113.831      -0.00740388         150.267
0.514                  -0.237807        -128.905         -60.7934         111.629         -60.7934          111.63      -0.00747904           150.2
0.515                  -0.246218        -129.376         -60.5936          109.42         -60.5935         109.421      -0.00755583         150.134
0.516                  -0.254917        -129.848         -60.3938         107.203         -60.3937         107.206       -0.0076342         150.067
0.517                  -0.263907        -130.324         -60.1942          104.98         -60.1941         104.983      -0.00771407             150
0.518                  -0.273189        -130.801         -59.9948         102.749         -59.9947         102.753      -0.00779538         149.934
0.519                  -0.282767        -131.281         -59.7958          100.51         -59.7956         100.515       -0.0078781         149.867
0.52                   -0.292642        -131.763         -59.5971         98.2632         -59.5968         98.2697      -0.00796218           149.8
0.521                  -0.302818        -132.247         -59.3988          96.009         -59.3985         96.0165      -0.00804756         149.733
0.522                  -0.313297        -132.733          -59.201          93.747         -59.2007         93.7556      -0.00813422         149.666
0.523                   -0.32408        -133.221         -59.0038         91.4772         -59.0035         91.4869      -0.00822213         149.599
0.524                  -0.335172        -133.712         -58.8072         89.1996         -58.8068         89.2103      -0.00831125         149.532
0.525                  -0.346573        -134.205         -58.6114         86.9143         -58.6109         86.9259      -0.00840155         149.464
0.526                  -0.358287          -134.7         -58.4162         84.6211         -58.4157         84.6337      -0.00849301         149.397
0.527                  -0.370316        -135.198         -58.2219         82.3202         -58.2213         82.3338      -0.00858561         149.329
0.528                  -0.382662        -135.697         -58.0285         80.0115         -58.0278          80.026      -0.00867933         149.262
0.529                  -0.395328        -136.199          -57.836         77.6953         -57.8352         77.7106      -0.00877415         149.194
0.53                   -0.408317        -136.703         -57.6444         75.3715         -57.6437         75.3876      -0.00887006         149.126
0.531                  -0.421629        -137.209         -57.4539         73.0402         -57.4531         73.0571      -0.00896704         149.058
0.532                  -0.435269        -137.717         -57.2645         70.7016         -57.2636         70.7192      -0.00906508          148.99
0.533                  -0.449238        -138.228         -57.0762         68.3559         -57.0753         68.3741      -0.00916418         148.922
0.534                  -0.463539         -138.74         -56.8891          66.003         -56.8881         66.0218      -0.00926432         148.854
0.535                  -0.478174        -139.255         -56.7033         63.6433         -56.7022         63.6626      -0.00936549         148.786
0.536                  -0.493145        -139.772         -56.5187         61.2769         -56.5175         61.2966       -0.0094677         148.717
0.537                  -0.508455        -140.291         -56.3354          58.904         -56.3342          58.924      -0.00957094         148.649
0.538                  -0.524106        -140.812         -56.1534         56.5248         -56.1522          56.545       -0.0096752          148.58
0.539                  -0.540101        -141.335         -55.9728         54.1395         -55.9715         54.1599      -0.00978049         148.512
0.54                    -0.55644        -141.861         -55.7936         51.7484         -55.7923         51.7689       -0.0098868         148.443
0.541                  -0.573127        -142.388         -55.6158         49.3516         -55.6145         49.3722      -0.00999414         148.374
0.542                  -0.590165        -142.918         -55.4395         46.9496         -55.4381         46.9701       -0.0101025         148.305
0.543                  -0.607554        -143.449         -55.2646         44.5425         -55.2632         44.5628       -0.0102119         148.236
0.544                  -0.625298        -143.983         -55.0912         42.1305         -55.0898         42.1507       -0.0103223         148.166
0.545                  -0.643398        -144.519         -54.9193         39.7141         -54.9179          39.734       -0.0104338         148.097
0.546                  -0.661856        -145.057          -54.749         37.2934         -54.7475          37.313       -0.0105463         148.028
0.547                  -0.680676        -145.598         -54.5801         34.8688         -54.5786         34.8879       -0.0106599         147.958
0.548                  -0.699857         -146.14         -54.4127         32.4405         -54.4113         32.4592       -0.0107745         147.888
0.549                  -0.719404        -146.684         -54.2469         30.0089         -54.2454          30.027       -0.0108902         147.819
0.55                   -0.739317        -147.231         -54.0826         27.5742         -54.0811         27.5917       -0.0110069         147.749
0.551                  -0.759599        -147.779         -53.9197         25.1367         -53.9183         25.1536       -0.0111248         147.679
0.552                  -0.780252         -148.33         -53.7584         22.6968          -53.757         22.7129       -0.0112437         147.609
0.553                  -0.801278        -148.883         -53.5985         20.2546         -53.5971           20.27       -0.0113638         147.538
0.554                  -0.822678        -149.438         -53.4401         17.8106         -53.4388         17.8252        -0.011485         147.468
0.555                  -0.844454        -149.994         -53.2832         15.3648         -53.2819         15.3786       -0.0116073         147.398
0.556                  -0.866609        -150.554         -53.1277         12.9178         -53.1264         12.9307       -0.0117307         147.327
0.557                  -0.889143        -151.115         -52.9735         10.4696         -52.9723         10.4816       -0.0118553         147.256
0.558                   -0.91206        -151.678         -52.8208         8.02048         -52.8197         8.03159       -0.0119811         147.185
0.559                  -0.935361        -152.243         -52.6694         5.57079         -52.6683         5.58097       -0.0121081         147.115
0.56                   -0.959047        -152.811         -52.5193          3.1207         -52.5183         3.12994       -0.0122363         147.043
0.561                   -0.98312        -153.381         -52.3705        0.670426         -52.3696        0.678723       -0.0123657         146.972
0.562                   -1.00758        -153.953         -52.2229        -1.77982         -52.2221        -1.77247       -0.0124963         146.901
0.563                   -1.03244        -154.527         -52.0766        -4.22985         -52.0758        -4.22344       -0.0126282         146.829
0.564                   -1.05768        -155.103         -51.9314        -6.67949         -51.9307          -6.674       -0.0127614         146.758
0.565                   -1.08332        -155.681         -51.7873        -9.12856         -51.7868          -9.124       -0.0128959         146.686
0.566                   -1.10936        -156.262         -51.6444        -11.5769          -51.644        -11.5733       -0.0130317         146.614
0.567                   -1.13579        -156.844         -51.5025        -14.0244         -51.5022        -14.0217       -0.0131688         146.542
0.568                   -1.16262        -157.429         -51.3616         -16.471         -51.3614        -16.4691       -0.0133073          146.47
0.569                   -1.18986        -158.017         -51.2217        -18.9165         -51.2216        -18.9154       -0.0134472         146.398
0.57                    -1.21749        -158.606         -51.0828        -21.3608         -51.0828        -21.3605       -0.0135885         146.325
0.571                   -1.24553        -159.198         -50.9447        -23.8038         -50.9448        -23.8043       -0.0137312         146.253
0.572                   -1.27398        -159.792         -50.8075        -26.2456         -50.8077        -26.2467       -0.0138754          146.18
0.573                   -1.30283        -160.388         -50.6711         -28.686         -50.6714        -28.6878       -0.0140211         146.107
0.574                    -1.3321        -160.987         -50.5354         -31.125         -50.5359        -31.1274       -0.0141683         146.034
0.575                   -1.36178        -161.588         -50.4005        -33.5625         -50.4011        -33.5656       -0.0143169         145.961
0.576                   -1.39187        -162.192         -50.2663        -35.9986          -50.267        -36.0022       -0.0144672         145.888
0.577                   -1.42237        -162.798         -50.1327        -38.4333         -50.1335        -38.4374        -0.014619         145.814
0.578                    -1.4533        -163.407         -49.9998        -40.8665         -50.0007        -40.8711       -0.0147725         145.741
0.579                   -1.48465        -164.018         -49.8674        -43.2984         -49.8684        -43.3033       -0.0149276         145.667
0.58                    -1.51642        -164.632         -49.7356        -45.7288         -49.7367        -45.7341       -0.0150844         145.593
0.581                   -1.54861        -165.248         -49.6043        -48.1579         -49.6055        -48.1635       -0.0152429         145.519
0.582                   -1.58124        -165.868         -49.4735        -50.5857         -49.4747        -50.5916       -0.0154031         145.445
0.583                   -1.61429        -166.489         -49.3432        -53.0123         -49.3444        -53.0184       -0.0155651          145.37
0.584                   -1.64779        -167.114         -49.2132        -55.4378         -49.2146         -55.444       -0.0157288         145.296
0.585                   -1.68172        -167.742         -49.0837        -57.8621         -49.0851        -57.8684       -0.0158945         145.221
0.586                   -1.71609        -168.373         -48.9545        -60.2855          -48.956        -60.2918        -0.016062         145.146
0.587                   -1.75092        -169.007         -48.8257        -62.7079         -48.8272        -62.7142       -0.0162313         145.071
0.588                   -1.78619        -169.644         -48.6972        -65.1294         -48.6988        -65.1358       -0.0164027         144.996
0.589                   -1.82193        -170.284          -48.569        -67.5502         -48.5706        -67.5565        -0.016576          144.92
0.59                    -1.85813        -170.927         -48.4411        -69.9704         -48.4427        -69.9766       -0.0167513         144.845
0.591                    -1.8948        -171.574         -48.3135          -72.39         -48.3151        -72.3961       -0.0169287         144.769
0.592                   -1.93196        -172.225         -48.1861        -74.8092         -48.1877        -74.8151       -0.0171081         144.693
0.593                    -1.9696        -172.879         -48.0589         -77.228         -48.0606        -77.2337       -0.0172897         144.617
0.594                   -2.00774        -173.537          -47.932        -79.6466         -47.9336         -79.652       -0.0174735         144.541
0.595                   -2.04639        -174.199         -47.8053         -82.065         -47.8069        -82.0702       -0.0176594         144.464
0.596                   -2.08556        -174.865         -47.6789        -84.4834         -47.6804        -84.4883       -0.0178476         144.387
0.597                   -2.12527        -175.535         -47.5526        -86.9018         -47.5541        -86.9064       -0.0180381         144.311
0.598                   -2.16552         -176.21         -47.4265        -89.3204          -47.428        -89.3246        -0.018231         144.233
0.599                   -2.20635        -176.889         -47.3006        -91.7392          -47.302        -91.7431       -0.0184262         144.156
0.6                     -2.24777        -177.573         -47.1749        -94.1584         -47.1763        -94.1619       -0.0186238         144.079
0.601                   -2.28979        -178.262         -47.0495         -96.578         -47.0507        -96.5812       -0.0188239         144.001
0.602                   -2.33245        -178.956         -46.9242        -98.9981         -46.9254        -99.0009       -0.0190264         143.923
0.603                   -2.37578        -179.655         -46.7991        -101.419         -46.8002        -101.421       -0.0192316         143.845
0.604                    -2.4198          179.64         -46.6742         -103.84         -46.6752        -103.842       -0.0194393         143.767
0.605                   -2.46455         178.929         -46.5495        -106.262         -46.5504        -106.264       -0.0196497         143.688
0.606                   -2.51007         178.212         -46.4251        -108.685         -46.4259        -108.686       -0.0198627          143.61
0.607                   -2.55641         177.489         -46.3008        -111.109         -46.3015         -111.11       -0.0200784         143.531
0.608                   -2.60361          176.76         -46.1768        -113.533         -46.1774        -113.534       -0.0202969         143.452
0.609                   -2.65174         176.023          -46.053        -115.959         -46.0535        -115.959       -0.0205182         143.372
0.61                    -2.70085          175.28         -45.9295        -118.385         -45.9299        -118.385       -0.0207424         143.293
0.611                   -2.75102          174.53         -45.8063        -120.813         -45.8065        -120.813       -0.0209694         143.213
0.612                   -2.80231         173.772         -45.6833        -123.241         -45.6834        -123.241       -0.0211993         143.133
0.613                   -2.85483         173.006         -45.5606        -125.671         -45.5605         -125.67       -0.0214322         143.053
0.614                   -2.90866         172.233         -45.4382        -128.101          -45.438        -128.101        -0.021668         142.972
0.615                    -2.9639         171.452         -45.3161        -130.533         -45.3157        -130.532       -0.0219068         142.892
0.616                   -3.02069         170.662         -45.1943        -132.965         -45.1938        -132.965       -0.0221487         142.811
0.617                   -3.07913         169.864         -45.0729        -135.399         -45.0722        -135.398       -0.0223935          142.73
0.618                   -3.13937         169.058         -44.9518        -137.834          -44.951        -137.833       -0.0226413         142.648
0.619                   -3.20155         168.244         -44.8311        -140.269         -44.8301        -140.268       -0.0228921         142.566
0.62                    -3.26584         167.422         -44.7107        -142.706         -44.7096        -142.704       -0.0231458         142.484
0.621                   -3.33239         166.592         -44.5907        -145.143         -44.5895        -145.142       -0.0234025         142.402
0.622                   -3.40138         165.755         -44.4711        -147.581         -44.4698         -147.58        -0.023662          142.32
0.623                     -3.473         164.911          -44.352         -150.02         -44.3505        -150.019       -0.0239242         142.237
0.624                   -3.54743         164.062         -44.2332        -152.459         -44.2316        -152.458        -0.024189         142.154
0.625                   -3.62485         163.207         -44.1149        -154.899         -44.1132        -154.899       -0.0244562         142.071
0.626                   -3.70544         162.348          -43.997         -157.34         -43.9952        -157.339       -0.0247255         141.987
0.627                   -3.78937         161.486         -43.8796        -159.781         -43.8776         -159.78       -0.0249967         141.903
0.628                    -3.8768         160.623         -43.7626        -162.222         -43.7605        -162.222       -0.0252693         141.819
0.629                   -3.96785         159.761         -43.6461        -164.664         -43.6439        -164.664       -0.0255427         141.735
