! TOUCHSTONE file generated by CST MICROWAVE STUDIO
! Date and time: Fri Oct  2 18:06:46 2020
! Project name: Scenario_1_Free_Space_out_of_line.cst
! Parameters = {Lambda=346.42; Step_1=17.321; dy1=-172.59; dx1=173; L_HA=400; MT=2.54; Rad_Dielectric=30; Rad_Lower=7.3; Rad_Upper=30; a_HA=580; a_WG=246; b_HA=500; b_WG=121; c_HA=0; c_WG=187; d_feed=85; h_feed=15; h_lower=18; h_upper=40}
! Header version: 2018
! Port assignment regex: !\s*Touchstone port\s*([0-9]+)\s*=\s*(CST MWS port|CST DS port)\s*([0-9]+|Zmin|Zmax)\s*\(\"(.*)\"\)(\s*mode\s*([0-9]+))?.*
! Touchstone port assignment:
! Touchstone port 1 = CST MWS port 1 ("")
! Touchstone port 2 = CST MWS port 2 ("")
# GHz S DB R 50
0.5                    -0.155156        -122.697         -58.1486          158.91         -58.1924         158.931      -0.00650281         151.081
0.501                  -0.160739        -123.134         -57.9754         157.543         -58.0312         157.328       -0.0065276         151.016
0.502                  -0.166461        -123.573         -57.8019         156.174         -57.8688         155.735      -0.00655374          150.95
0.503                  -0.172322        -124.014         -57.6283         154.804         -57.7054         154.152      -0.00658123         150.885
0.504                  -0.178327        -124.457         -57.4545         153.432          -57.541         152.579      -0.00661008         150.819
0.505                  -0.184478        -124.902         -57.2806         152.059         -57.3758         151.016       -0.0066403         150.753
0.506                  -0.190778        -125.349         -57.1066         150.683         -57.2097         149.463       -0.0066719         150.687
0.507                   -0.19723        -125.799         -56.9324         149.305         -57.0429         147.919      -0.00670488         150.621
0.508                  -0.203838         -126.25         -56.7582         147.925         -56.8754         146.383      -0.00673926         150.555
0.509                  -0.210604        -126.704          -56.584         146.543         -56.7073         144.856      -0.00677503         150.489
0.51                   -0.217533        -127.159         -56.4097         145.159         -56.5386         143.338      -0.00681222         150.423
0.511                  -0.224627        -127.617         -56.2355         143.772         -56.3694         141.827      -0.00685082         150.357
0.512                   -0.23189        -128.077         -56.0612         142.383         -56.1999         140.324      -0.00689085          150.29
0.513                  -0.239325         -128.54          -55.887         140.991         -56.0299         138.828      -0.00693231         150.224
0.514                  -0.246937        -129.004         -55.7129         139.596         -55.8596          137.34      -0.00697522         150.157
0.515                  -0.254729        -129.471         -55.5388         138.199          -55.689         135.858      -0.00701958         150.091
0.516                  -0.262706         -129.94         -55.3649         136.799         -55.5182         134.382       -0.0070654         150.024
0.517                  -0.270871        -130.412         -55.1911         135.396         -55.3472         132.912      -0.00711269         149.957
0.518                  -0.279229        -130.885         -55.0174          133.99          -55.176         131.448      -0.00716146          149.89
0.519                  -0.287783        -131.362          -54.844         132.581         -55.0047          129.99      -0.00721172         149.823
0.52                   -0.296539         -131.84         -54.6707         131.169         -54.8333         128.536      -0.00726348         149.756
0.521                    -0.3055        -132.321         -54.4976         129.754         -54.6619         127.087      -0.00731674         149.689
0.522                  -0.314672        -132.804         -54.3248         128.336         -54.4905         125.643      -0.00737153         149.622
0.523                   -0.32406         -133.29         -54.1523         126.914         -54.3191         124.202      -0.00742785         149.554
0.524                  -0.333668        -133.778           -53.98         125.489         -54.1477         122.766       -0.0074857         149.487
0.525                  -0.343501        -134.269          -53.808         124.061         -53.9764         121.332      -0.00754511         149.419
0.526                  -0.353565        -134.762         -53.6364          122.63         -53.8052         119.902      -0.00760608         149.352
0.527                  -0.363864        -135.258          -53.465         121.196         -53.6342         118.475      -0.00766862         149.284
0.528                  -0.374406        -135.756         -53.2941         119.758         -53.4632         117.051      -0.00773274         149.216
0.529                  -0.385194        -136.257         -53.1235         118.317         -53.2925         115.629      -0.00779845         149.148
0.53                   -0.396235        -136.761         -52.9533         116.872         -53.1219         114.209      -0.00786577          149.08
0.531                  -0.407535        -137.267         -52.7835         115.424         -52.9516          112.79      -0.00793471         149.012
0.532                    -0.4191        -137.776         -52.6142         113.973         -52.7815         111.374      -0.00800527         148.944
0.533                  -0.430937        -138.287         -52.4453         112.518         -52.6116         109.958      -0.00807748         148.876
0.534                  -0.443051        -138.801         -52.2768          111.06          -52.442         108.544      -0.00815133         148.807
0.535                  -0.455449        -139.318         -52.1089         109.599         -52.2727          107.13      -0.00822686         148.739
0.536                  -0.468139        -139.838         -51.9414         108.135         -52.1037         105.717      -0.00830406          148.67
0.537                  -0.481126         -140.36         -51.7745         106.667          -51.935         104.304      -0.00838295         148.601
0.538                  -0.494419        -140.885         -51.6081         105.196         -51.7667         102.891      -0.00846354         148.533
0.539                  -0.508024        -141.413         -51.4422         103.722         -51.5987         101.478      -0.00854585         148.464
0.54                   -0.521949        -141.944         -51.2769         102.244         -51.4311         100.065      -0.00862989         148.395
0.541                  -0.536201        -142.477         -51.1121         100.764         -51.2638         98.6511      -0.00871567         148.326
0.542                  -0.550789        -143.014          -50.948         99.2803          -51.097         97.2365      -0.00880321         148.256
0.543                  -0.565721        -143.553         -50.7844         97.7937         -50.9305          95.821      -0.00889252         148.187
0.544                  -0.581005        -144.095         -50.6214         96.3041         -50.7645         94.4043      -0.00898362         148.118
0.545                  -0.596648         -144.64         -50.4591         94.8116         -50.5988         92.9864      -0.00907651         148.048
0.546                  -0.612661        -145.188         -50.2974         93.3162         -50.4337         91.5669      -0.00917122         147.978
0.547                  -0.629052        -145.739         -50.1363         91.8181          -50.269         90.1459      -0.00926776         147.908
0.548                  -0.645829        -146.293         -49.9758         90.3172         -50.1047          88.723      -0.00936615         147.839
0.549                  -0.663002         -146.85          -49.816         88.8136          -49.941         87.2981       -0.0094664         147.769
0.55                   -0.680581         -147.41         -49.6569         87.3075         -49.7777         85.8712      -0.00956853         147.698
0.551                  -0.698576        -147.972         -49.4984         85.7989         -49.6149          84.442      -0.00967254         147.628
0.552                  -0.716995        -148.538         -49.3406         84.2878         -49.4527         83.0104      -0.00977847         147.558
0.553                   -0.73585        -149.107         -49.1835         82.7743          -49.291         81.5764      -0.00988633         147.487
0.554                  -0.755151        -149.679         -49.0271         81.2586         -49.1298         80.1397      -0.00999613         147.417
0.555                  -0.774907        -150.254         -48.8713         79.7406         -48.9691         78.7004       -0.0101079         147.346
0.556                  -0.795131        -150.832         -48.7162         78.2206         -48.8091         77.2582       -0.0102216         147.275
0.557                  -0.815833        -151.413         -48.5619         76.6984         -48.6495          75.813       -0.0103374         147.204
0.558                  -0.837024        -151.997         -48.4082         75.1743         -48.4906         74.3649       -0.0104551         147.133
0.559                  -0.858716        -152.584         -48.2552         73.6483         -48.3323         72.9137       -0.0105749         147.062
0.56                    -0.88092        -153.174         -48.1029         72.1205         -48.1746         71.4593       -0.0106967          146.99
0.561                  -0.903648        -153.767         -47.9512          70.591         -48.0174         70.0016       -0.0108206         146.919
0.562                  -0.926912        -154.364         -47.8003         69.0598         -47.8609         68.5407       -0.0109466         146.847
0.563                  -0.950725        -154.963         -47.6501          67.527         -47.7051         67.0764       -0.0110747         146.776
0.564                  -0.975099        -155.565         -47.5005         65.9928         -47.5499         65.6086       -0.0112049         146.704
0.565                   -1.00005        -156.171         -47.3516         64.4571         -47.3953         64.1374       -0.0113373         146.632
0.566                   -1.02558        -156.779         -47.2034         62.9201         -47.2414         62.6628       -0.0114719          146.56
0.567                   -1.05171        -157.391         -47.0559         61.3818         -47.0882         61.1846       -0.0116086         146.487
0.568                   -1.07846        -158.005          -46.909         59.8423         -46.9356         59.7028       -0.0117476         146.415
0.569                   -1.10584        -158.622         -46.7628         58.3016         -46.7838         58.2175       -0.0118888         146.342
0.57                    -1.13385        -159.243         -46.6173         56.7599         -46.6326         56.7286       -0.0120323          146.27
0.571                   -1.16252        -159.866         -46.4724         55.2171         -46.4822         55.2362        -0.012178         146.197
0.572                   -1.19185        -160.493         -46.3281         53.6734         -46.3325         53.7401       -0.0123261         146.124
0.573                   -1.22187        -161.122         -46.1845         52.1288         -46.1835         52.2406       -0.0124764         146.051
0.574                   -1.25259        -161.754         -46.0415         50.5834         -46.0352         50.7374       -0.0126292         145.977
0.575                   -1.28401        -162.389         -45.8991         49.0372         -45.8877         49.2307       -0.0127843         145.904
0.576                   -1.31616        -163.027         -45.7573         47.4902         -45.7409         47.7205       -0.0129418          145.83
0.577                   -1.34905        -163.667         -45.6161         45.9426         -45.5949         46.2069       -0.0131017         145.757
0.578                    -1.3827         -164.31         -45.4755         44.3942         -45.4496         44.6898       -0.0132641         145.683
0.579                   -1.41712        -164.956         -45.3355         42.8453         -45.3051         43.1693        -0.013429         145.609
0.58                    -1.45232        -165.605         -45.1961         41.2958         -45.1614         41.6455       -0.0135964         145.535
0.581                   -1.48832        -166.256         -45.0572         39.7457         -45.0185         40.1184       -0.0137663          145.46
0.582                   -1.52514         -166.91         -44.9189         38.1951         -44.8763         38.5881       -0.0139388         145.386
0.583                   -1.56278        -167.566         -44.7812         36.6441         -44.7349         37.0546       -0.0141138         145.311
0.584                   -1.60127        -168.225         -44.6439         35.0925         -44.5943          35.518       -0.0142915         145.236
0.585                   -1.64062        -168.885         -44.5072         33.5405         -44.4545         33.9784       -0.0144718         145.161
0.586                   -1.68085        -169.549         -44.3711         31.9881         -44.3155         32.4358       -0.0146548         145.086
0.587                   -1.72196        -170.214         -44.2354         30.4352         -44.1772         30.8904       -0.0148405         145.011
0.588                   -1.76398        -170.882         -44.1002         28.8819         -44.0398         29.3422        -0.015029         144.935
0.589                   -1.80691        -171.551         -43.9655         27.3282         -43.9031         27.7913       -0.0152202          144.86
0.59                    -1.85078        -172.223         -43.8313         25.7741         -43.7673         26.2378       -0.0154142         144.784
0.591                    -1.8956        -172.896         -43.6976         24.2196         -43.6322         24.6818        -0.015611         144.708
0.592                   -1.94138        -173.572         -43.5644         22.6648         -43.4979         23.1234       -0.0158107         144.632
0.593                   -1.98814        -174.249         -43.4316         21.1095         -43.3644         21.5627       -0.0160133         144.555
0.594                   -2.03588        -174.927         -43.2992         19.5538         -43.2317         19.9997       -0.0162188         144.479
0.595                   -2.08462        -175.607         -43.1673         17.9977         -43.0998         18.4347       -0.0164273         144.402
0.596                   -2.13438        -176.289         -43.0358         16.4411         -42.9686         16.8677       -0.0166387         144.325
0.597                   -2.18517        -176.971         -42.9048         14.8842         -42.8382         15.2987       -0.0168532         144.248
0.598                   -2.23699        -177.655         -42.7742         13.3268         -42.7086          13.728       -0.0170708         144.171
0.599                   -2.28987         -178.34          -42.644          11.769         -42.5797         12.1556       -0.0172914         144.093
0.6                     -2.34381        -179.025         -42.5142         10.2107         -42.4515         10.5816       -0.0175152         144.016
0.601                   -2.39882        -179.712         -42.3848         8.65191         -42.3241         9.00621       -0.0177422         143.938
0.602                   -2.45491         179.601         -42.2558         7.09266         -42.1974         7.42942       -0.0179724          143.86
0.603                   -2.51209         178.914         -42.1272         5.53291         -42.0715         5.85138       -0.0182058         143.781
0.604                   -2.57037         178.226          -41.999         3.97264         -41.9462          4.2722       -0.0184425         143.703
0.605                   -2.62975         177.538         -41.8712         2.41184         -41.8216         2.69198       -0.0186825         143.624
0.606                   -2.69025          176.85         -41.7438        0.850509         -41.6977         1.11084       -0.0189259         143.545
0.607                   -2.75187         176.162         -41.6168       -0.711379         -41.5745       -0.471135       -0.0191727         143.466
0.608                   -2.81462         175.475         -41.4901        -2.27383         -41.4519        -2.05383       -0.0194229         143.387
0.609                   -2.87849         174.787         -41.3638        -3.83686           -41.33        -3.63716       -0.0196766         143.307
0.61                     -2.9435         174.101         -41.2379        -5.40048         -41.2087        -5.22102       -0.0199338         143.228
0.611                   -3.00965         173.415         -41.1124        -6.96469          -41.088        -6.80531       -0.0201946         143.148
0.612                   -3.07693          172.73         -40.9872        -8.52951         -40.9679        -8.38995       -0.0204589         143.068
0.613                   -3.14534         172.047         -40.8624        -10.0949         -40.8484        -9.97484        -0.020727         142.987
0.614                    -3.2149         171.364          -40.738         -11.661         -40.7294        -11.5599       -0.0209986         142.907
0.615                   -3.28558         170.683         -40.6139        -13.2276          -40.611        -13.1451       -0.0212741         142.826
0.616                    -3.3574         170.004         -40.4902        -14.7949         -40.4931        -14.7302       -0.0215532         142.745
0.617                   -3.43035         169.326         -40.3669        -16.3628         -40.3757        -16.3153       -0.0218362         142.663
0.618                   -3.50442          168.65         -40.2439        -17.9314         -40.2588        -17.9003        -0.022123         142.582
0.619                    -3.5796         167.977         -40.1213        -19.5005         -40.1423        -19.4851       -0.0224137           142.5
0.62                    -3.65589         167.306          -39.999        -21.0703         -40.0263        -21.0696       -0.0227084         142.418
0.621                   -3.73328         166.637         -39.8771        -22.6406         -39.9108        -22.6538        -0.023007         142.336
0.622                   -3.81175         165.971         -39.7556        -24.2116         -39.7956        -24.2376       -0.0233096         142.253
0.623                    -3.8913         165.308         -39.6344        -25.7831         -39.6809         -25.821       -0.0236163          142.17
0.624                   -3.97191         164.648         -39.5136        -27.3552         -39.5665         -27.404       -0.0239271         142.087
0.625                   -4.05356          163.99         -39.3931        -28.9279         -39.4525        -28.9864       -0.0242421         142.004
0.626                   -4.13625         163.337          -39.273        -30.5011         -39.3388        -30.5683       -0.0245612          141.92
0.627                   -4.21995         162.686         -39.1532        -32.0748         -39.2254        -32.1496       -0.0248846         141.836
0.628                   -4.30465         162.039         -39.0338         -33.649         -39.1123        -33.7304       -0.0252123         141.752
0.629                   -4.39032         161.396         -38.9147        -35.2237         -38.9995        -35.3105       -0.0255443         141.668
