! TOUCHSTONE file generated by CST MICROWAVE STUDIO
! Date and time: Fri Oct  2 16:20:14 2020
! Project name: Scenario_1_Free_Space_out_of_line.cst
! Parameters = {Lambda=346.42; Step_1=17.321; dy1=-172.59; dx1=346; L_HA=400; MT=2.54; Rad_Dielectric=30; Rad_Lower=7.3; Rad_Upper=30; a_HA=580; a_WG=246; b_HA=500; b_WG=121; c_HA=0; c_WG=187; d_feed=85; h_feed=15; h_lower=18; h_upper=40}
! Header version: 2018
! Port assignment regex: !\s*Touchstone port\s*([0-9]+)\s*=\s*(CST MWS port|CST DS port)\s*([0-9]+|Zmin|Zmax)\s*\(\"(.*)\"\)(\s*mode\s*([0-9]+))?.*
! Touchstone port assignment:
! Touchstone port 1 = CST MWS port 1 ("")
! Touchstone port 2 = CST MWS port 2 ("")
# GHz S DB R 50
0.5                    -0.144298        -122.732         -60.1313         73.9483         -60.1313         73.9483      -0.00667992         151.061
0.501                  -0.150701        -123.193         -59.9135         72.5431         -59.9135         72.5431      -0.00679901         150.996
0.502                  -0.157375        -123.656          -59.696          71.126          -59.696          71.126      -0.00691663          150.93
0.503                   -0.16432         -124.12          -59.479         69.6969          -59.479         69.6968      -0.00703284         150.864
0.504                  -0.171534        -124.585         -59.2623         68.2557         -59.2623         68.2556      -0.00714773         150.799
0.505                  -0.179019        -125.052         -59.0461         66.8024         -59.0461         66.8024      -0.00726134         150.733
0.506                  -0.186773        -125.519         -58.8303         65.3371         -58.8303          65.337      -0.00737373         150.667
0.507                  -0.194797        -125.988          -58.615         63.8597          -58.615         63.8596      -0.00748498         150.601
0.508                  -0.203089        -126.459         -58.4002         62.3702         -58.4002         62.3701      -0.00759513         150.535
0.509                   -0.21165         -126.93         -58.1859         60.8686         -58.1859         60.8685      -0.00770425         150.469
0.51                   -0.220478        -127.403         -57.9722          59.355         -57.9722         59.3549      -0.00781239         150.403
0.511                  -0.229574        -127.876          -57.759         57.8293         -57.7591         57.8292      -0.00791961         150.336
0.512                  -0.238936        -128.351         -57.5465         56.2916         -57.5466         56.2915      -0.00802596          150.27
0.513                  -0.248564        -128.828         -57.3347          54.742         -57.3347         54.7419      -0.00813149         150.204
0.514                  -0.258457        -129.305         -57.1236         53.1804         -57.1236         53.1803      -0.00823625         150.137
0.515                  -0.268614        -129.784         -56.9131          51.607         -56.9132         51.6069      -0.00834029         150.071
0.516                  -0.279035        -130.264         -56.7035         50.0218         -56.7035         50.0217      -0.00844367         150.004
0.517                  -0.289719        -130.745         -56.4946         48.4249         -56.4946         48.4248      -0.00854641         149.937
0.518                  -0.300664        -131.227         -56.2866         46.8164         -56.2866         46.8163      -0.00864858         149.871
0.519                  -0.311871        -131.711         -56.0794         45.1964         -56.0795         45.1963      -0.00875021         149.804
0.52                   -0.323337        -132.196         -55.8732          43.565         -55.8732         43.5649      -0.00885135         149.737
0.521                  -0.335063        -132.682         -55.6679         41.9224         -55.6679         41.9223      -0.00895203          149.67
0.522                  -0.347047        -133.169         -55.4636         40.2687         -55.4636         40.2686      -0.00905229         149.603
0.523                  -0.359288        -133.658         -55.2603          38.604         -55.2603         38.6039      -0.00915218         149.536
0.524                  -0.371784        -134.147         -55.0581         36.9286         -55.0581         36.9285      -0.00925173         149.468
0.525                  -0.384536        -134.639         -54.8569         35.2425          -54.857         35.2425      -0.00935097         149.401
0.526                  -0.397542        -135.131          -54.657         33.5461          -54.657          33.546      -0.00944995         149.333
0.527                  -0.410802        -135.625         -54.4581         31.8395         -54.4582         31.8394      -0.00954869         149.266
0.528                  -0.424313         -136.12         -54.2605         30.1229         -54.2605         30.1228      -0.00964723         149.198
0.529                  -0.438074        -136.616         -54.0642         28.3966         -54.0642         28.3965       -0.0097456         149.131
0.53                   -0.452086        -137.114         -53.8691         26.6608         -53.8691         26.6607      -0.00984383         149.063
0.531                  -0.466347        -137.613         -53.6753         24.9158         -53.6753         24.9157      -0.00994196         148.995
0.532                  -0.480855        -138.114         -53.4828         23.1618         -53.4828         23.1618         -0.01004         148.927
0.533                  -0.495611        -138.616         -53.2917         21.3992         -53.2918         21.3992        -0.010138         148.859
0.534                  -0.510612        -139.119         -53.1021         19.6283         -53.1021         19.6282        -0.010236         148.791
0.535                  -0.525859        -139.624         -52.9138         17.8493         -52.9138         17.8492        -0.010334         148.722
0.536                  -0.541349         -140.13          -52.727         16.0625          -52.727         16.0625       -0.0104321         148.654
0.537                  -0.557083        -140.637         -52.5417         14.2684         -52.5417         14.2684       -0.0105302         148.586
0.538                   -0.57306        -141.147         -52.3579         12.4672         -52.3579         12.4672       -0.0106284         148.517
0.539                  -0.589278        -141.657         -52.1755         10.6593         -52.1756         10.6592       -0.0107268         148.448
0.54                   -0.605738         -142.17         -51.9948         8.84498         -51.9948         8.84495       -0.0108253         148.379
0.541                  -0.622438        -142.683         -51.8155         7.02469         -51.8155         7.02466       -0.0109239         148.311
0.542                  -0.639379        -143.199         -51.6378         5.19875         -51.6378         5.19872       -0.0110228         148.242
0.543                  -0.656559        -143.716         -51.4617         3.36754         -51.4617         3.36751        -0.011122         148.173
0.544                  -0.673979        -144.235         -51.2872         1.53142         -51.2872         1.53139       -0.0112214         148.103
0.545                  -0.691638        -144.755         -51.1142       -0.309236         -51.1142       -0.309258       -0.0113211         148.034
0.546                  -0.709536        -145.278         -50.9428        -2.15405         -50.9429        -2.15407       -0.0114211         147.965
0.547                  -0.727674        -145.802          -50.773        -4.00264         -50.7731        -4.00266       -0.0115215         147.895
0.548                  -0.746051        -146.328         -50.6048        -5.85465         -50.6048        -5.85467       -0.0116223         147.825
0.549                  -0.764669        -146.855         -50.4382         -7.7097         -50.4382        -7.70972       -0.0117235         147.756
0.55                   -0.783526        -147.385         -50.2731        -9.56743         -50.2731        -9.56744       -0.0118252         147.686
0.551                  -0.802625        -147.917         -50.1095        -11.4275         -50.1095        -11.4275       -0.0119273         147.616
0.552                  -0.821966         -148.45         -49.9475        -13.2895         -49.9475        -13.2895         -0.01203         147.546
0.553                  -0.841551        -148.986          -49.787        -15.1531         -49.7871        -15.1531       -0.0121332         147.475
0.554                  -0.861379        -149.523         -49.6281         -17.018         -49.6281         -17.018        -0.012237         147.405
0.555                  -0.881454        -150.063         -49.4706        -18.8839         -49.4706        -18.8839       -0.0123414         147.335
0.556                  -0.901777        -150.605         -49.3145        -20.7503         -49.3145        -20.7503       -0.0124464         147.264
0.557                  -0.922349         -151.15         -49.1599        -22.6171         -49.1599        -22.6171       -0.0125522         147.193
0.558                  -0.943174        -151.696         -49.0067        -24.4839         -49.0067        -24.4839       -0.0126587         147.122
0.559                  -0.964253        -152.245         -48.8549        -26.3504         -48.8549        -26.3504        -0.012766         147.051
0.56                   -0.985591        -152.797         -48.7044        -28.2164         -48.7044        -28.2164        -0.012874          146.98
0.561                   -1.00719         -153.35         -48.5552        -30.0816         -48.5552        -30.0816       -0.0129829         146.909
0.562                   -1.02905        -153.907         -48.4073        -31.9457         -48.4073        -31.9457       -0.0130928         146.838
0.563                   -1.05118        -154.466         -48.2607        -33.8086         -48.2607        -33.8086       -0.0132035         146.766
0.564                   -1.07359        -155.027         -48.1152          -35.67         -48.1152          -35.67       -0.0133153         146.695
0.565                   -1.09627        -155.592         -47.9709        -37.5296         -47.9709        -37.5296       -0.0134281         146.623
0.566                   -1.11923        -156.159         -47.8278        -39.3874         -47.8278        -39.3874        -0.013542         146.551
0.567                   -1.14249        -156.729         -47.6857        -41.2432         -47.6857        -41.2432        -0.013657         146.479
0.568                   -1.16603        -157.302         -47.5447        -43.0968         -47.5447        -43.0968       -0.0137732         146.407
0.569                   -1.18988        -157.878         -47.4047         -44.948         -47.4047         -44.948       -0.0138907         146.334
0.57                    -1.21404        -158.457         -47.2657        -46.7968         -47.2657        -46.7968       -0.0140094         146.262
0.571                   -1.23851         -159.04         -47.1276        -48.6431         -47.1276        -48.6431       -0.0141296         146.189
0.572                    -1.2633        -159.625         -46.9904        -50.4866         -46.9904        -50.4866       -0.0142511         146.116
0.573                   -1.28843        -160.214          -46.854        -52.3275          -46.854        -52.3275       -0.0143742         146.044
0.574                    -1.3139        -160.806         -46.7185        -54.1656         -46.7185        -54.1656       -0.0144987          145.97
0.575                   -1.33972        -161.402         -46.5837        -56.0009         -46.5837        -56.0009       -0.0146249         145.897
0.576                   -1.36591        -162.001         -46.4496        -57.8333         -46.4496        -57.8333       -0.0147528         145.824
0.577                   -1.39246        -162.604         -46.3163        -59.6629         -46.3163        -59.6629       -0.0148825          145.75
0.578                   -1.41941        -163.211         -46.1836        -61.4896         -46.1836        -61.4896       -0.0150139         145.677
0.579                   -1.44675        -163.821         -46.0514        -63.3135         -46.0514        -63.3135       -0.0151473         145.603
0.58                    -1.47451        -164.436         -45.9199        -65.1345         -45.9199        -65.1345       -0.0152826         145.529
0.581                   -1.50269        -165.054         -45.7889        -66.9528         -45.7889        -66.9528         -0.01542         145.454
0.582                   -1.53132        -165.677         -45.6584        -68.7683         -45.6584        -68.7683       -0.0155596          145.38
0.583                    -1.5604        -166.303         -45.5284        -70.5811         -45.5284        -70.5811       -0.0157014         145.306
0.584                   -1.58996        -166.934         -45.3988        -72.3913         -45.3988        -72.3913       -0.0158454         145.231
0.585                   -1.62001         -167.57         -45.2696         -74.199         -45.2696         -74.199       -0.0159919         145.156
0.586                   -1.65058        -168.209         -45.1408        -76.0042         -45.1408        -76.0042       -0.0161409         145.081
0.587                   -1.68167        -168.853         -45.0124        -77.8071         -45.0124        -77.8071       -0.0162924         145.006
0.588                   -1.71333        -169.502         -44.8842        -79.6078         -44.8842        -79.6078       -0.0164466          144.93
0.589                   -1.74555        -170.155         -44.7564        -81.4063         -44.7564        -81.4063       -0.0166036         144.855
0.59                    -1.77838        -170.814         -44.6288        -83.2029         -44.6288        -83.2029       -0.0167634         144.779
0.591                   -1.81183        -171.477         -44.5015        -84.9976         -44.5015        -84.9976       -0.0169262         144.703
0.592                   -1.84592        -172.144         -44.3744        -86.7905         -44.3744        -86.7905        -0.017092         144.627
0.593                    -1.8807        -172.817         -44.2475        -88.5818         -44.2475        -88.5819        -0.017261         144.551
0.594                   -1.91617        -173.495         -44.1208        -90.3717         -44.1208        -90.3717       -0.0174333         144.474
0.595                   -1.95238        -174.178         -43.9943        -92.1603         -43.9943        -92.1603        -0.017609         144.397
0.596                   -1.98934        -174.866         -43.8679        -93.9478         -43.8679        -93.9478       -0.0177881         144.321
0.597                   -2.02711        -175.559         -43.7417        -95.7342         -43.7417        -95.7342       -0.0179707         144.243
0.598                   -2.06569        -176.258         -43.6156        -97.5199         -43.6156        -97.5199       -0.0181571         144.166
0.599                   -2.10514        -176.962         -43.4896        -99.3048         -43.4896        -99.3048       -0.0183473         144.089
0.6                     -2.14548        -177.671         -43.3637        -101.089         -43.3637        -101.089       -0.0185413         144.011
0.601                   -2.18675        -178.386         -43.2379        -102.873         -43.2379        -102.873       -0.0187393         143.933
0.602                     -2.229        -179.106         -43.1122        -104.657         -43.1122        -104.657       -0.0189414         143.855
0.603                   -2.27225        -179.832         -42.9866        -106.441         -42.9866        -106.441       -0.0191478         143.777
0.604                   -2.31655         179.437         -42.8611        -108.225         -42.8611        -108.225       -0.0193584         143.698
0.605                   -2.36194         178.701         -42.7357        -110.009         -42.7357        -110.009       -0.0195734          143.62
0.606                   -2.40846         177.959         -42.6104        -111.794         -42.6104        -111.794       -0.0197929         143.541
0.607                   -2.45616         177.212         -42.4852        -113.579         -42.4852        -113.579        -0.020017         143.462
0.608                   -2.50508         176.459         -42.3601        -115.366         -42.3601        -115.366       -0.0202458         143.382
0.609                   -2.55528         175.701          -42.235        -117.153          -42.235        -117.153       -0.0204793         143.303
0.61                    -2.60679         174.937         -42.1101        -118.941         -42.1101        -118.941       -0.0207177         143.223
0.611                   -2.65966         174.169         -41.9853         -120.73         -41.9853         -120.73        -0.020961         143.143
0.612                   -2.71395         173.395         -41.8606        -122.521         -41.8606        -122.521       -0.0212093         143.063
0.613                   -2.76971         172.616          -41.736        -124.313          -41.736        -124.313       -0.0214626         142.983
0.614                   -2.82699         171.832         -41.6116        -126.107         -41.6116        -126.107       -0.0217211         142.902
0.615                   -2.88583         171.044         -41.4874        -127.902         -41.4874        -127.902       -0.0219848         142.821
0.616                    -2.9463          170.25         -41.3633        -129.699         -41.3633        -129.699       -0.0222538          142.74
0.617                   -3.00845         169.452         -41.2394        -131.499         -41.2394        -131.499        -0.022528         142.659
0.618                   -3.07232          168.65         -41.1157          -133.3         -41.1157          -133.3       -0.0228076         142.577
0.619                   -3.13799         167.844         -40.9922        -135.104         -40.9922        -135.104       -0.0230925         142.495
0.62                    -3.20549         167.033          -40.869         -136.91          -40.869         -136.91       -0.0233828         142.413
0.621                   -3.27489         166.219          -40.746        -138.718          -40.746        -138.718       -0.0236786         142.331
0.622                   -3.34625         165.401         -40.6233        -140.528         -40.6233        -140.528       -0.0239797         142.248
0.623                   -3.41961         164.581         -40.5009        -142.341         -40.5009        -142.341       -0.0242864         142.166
0.624                   -3.49503         163.757         -40.3788        -144.157         -40.3788        -144.157       -0.0245984         142.082
0.625                   -3.57256         162.931          -40.257        -145.975          -40.257        -145.975       -0.0249159         141.999
0.626                   -3.65227         162.102         -40.1357        -147.796         -40.1357        -147.796       -0.0252388         141.916
0.627                    -3.7342         161.272         -40.0146        -149.619         -40.0146        -149.619       -0.0255671         141.832
0.628                   -3.81841          160.44          -39.894        -151.445          -39.894        -151.445       -0.0259008         141.748
0.629                   -3.90494         159.607         -39.7739        -153.274         -39.7739        -153.274       -0.0262398         141.663
