! TOUCHSTONE file generated by CST MICROWAVE STUDIO
! Date and time: Fri Oct  2 16:36:02 2020
! Project name: Scenario_1_Free_Space_out_of_line.cst
! Parameters = {Lambda=346.42; Step_1=17.321; dy1=-172.59; dx1=520; L_HA=400; MT=2.54; Rad_Dielectric=30; Rad_Lower=7.3; Rad_Upper=30; a_HA=580; a_WG=246; b_HA=500; b_WG=121; c_HA=0; c_WG=187; d_feed=85; h_feed=15; h_lower=18; h_upper=40}
! Header version: 2018
! Port assignment regex: !\s*Touchstone port\s*([0-9]+)\s*=\s*(CST MWS port|CST DS port)\s*([0-9]+|Zmin|Zmax)\s*\(\"(.*)\"\)(\s*mode\s*([0-9]+))?.*
! Touchstone port assignment:
! Touchstone port 1 = CST MWS port 1 ("")
! Touchstone port 2 = CST MWS port 2 ("")
# GHz S DB R 50
0.5                    -0.151269        -122.689         -61.6342        -23.3467         -61.6342        -23.3467       -0.0067025         151.099
0.501                  -0.155502        -123.134         -61.4817        -25.4327         -61.4818        -25.4312      -0.00674668         151.033
0.502                  -0.159956        -123.582         -61.3255        -27.5033         -61.3257        -27.5005      -0.00679207         150.968
0.503                  -0.164635        -124.032         -61.1659        -29.5584         -61.1662        -29.5544      -0.00683867         150.902
0.504                  -0.169542        -124.484         -61.0032        -31.5977         -61.0036        -31.5926       -0.0068865         150.836
0.505                   -0.17468        -124.938         -60.8375        -33.6212          -60.838        -33.6151      -0.00693555          150.77
0.506                  -0.180054        -125.394         -60.6691        -35.6291         -60.6697         -35.622      -0.00698585         150.705
0.507                  -0.185666        -125.852         -60.4981        -37.6213         -60.4988        -37.6134      -0.00703738         150.639
0.508                  -0.191521        -126.312         -60.3248        -39.5982         -60.3256        -39.5895      -0.00709017         150.573
0.509                  -0.197622        -126.774         -60.1493        -41.5599         -60.1502        -41.5506      -0.00714421         150.507
0.51                   -0.203973        -127.239         -59.9718        -43.5069         -59.9728         -43.497      -0.00719953          150.44
0.511                  -0.210578        -127.706         -59.7925        -45.4394         -59.7935        -45.4291      -0.00725611         150.374
0.512                  -0.217441        -128.174         -59.6116         -47.358         -59.6126        -47.3473      -0.00731398         150.308
0.513                  -0.224565        -128.645         -59.4291        -49.2632         -59.4303        -49.2521      -0.00737315         150.241
0.514                  -0.231953        -129.119         -59.2453        -51.1554         -59.2465         -51.144      -0.00743361         150.175
0.515                  -0.239611        -129.594         -59.0603        -53.0352         -59.0615        -53.0236      -0.00749537         150.108
0.516                  -0.247542        -130.071         -58.8742        -54.9031         -58.8755        -54.8913      -0.00755845         150.042
0.517                   -0.25575        -130.551         -58.6871        -56.7598         -58.6885        -56.7479      -0.00762286         149.975
0.518                  -0.264238        -131.032         -58.4992        -58.6058         -58.5006        -58.5939       -0.0076886         149.908
0.519                  -0.273011        -131.516         -58.3106        -60.4419          -58.312        -60.4299      -0.00775568         149.841
0.52                   -0.282072        -132.002         -58.1213        -62.2685         -58.1228        -62.2566      -0.00782411         149.774
0.521                  -0.291427         -132.49         -57.9315        -64.0864          -57.933        -64.0746       -0.0078939         149.707
0.522                  -0.301077         -132.98         -57.7413        -65.8962         -57.7428        -65.8845      -0.00796506          149.64
0.523                  -0.311028        -133.473         -57.5507        -67.6986         -57.5522        -67.6869      -0.00803759         149.572
0.524                  -0.321284        -133.967         -57.3598        -69.4941         -57.3614        -69.4826      -0.00811151         149.505
0.525                  -0.331849        -134.464         -57.1688        -71.2834         -57.1703        -71.2721      -0.00818682         149.438
0.526                  -0.342726        -134.963         -56.9776        -73.0671         -56.9791        -73.0561      -0.00826354          149.37
0.527                   -0.35392        -135.464         -56.7863         -74.846         -56.7878        -74.8352      -0.00834167         149.302
0.528                  -0.365434        -135.967          -56.595        -76.6205         -56.5965        -76.6099      -0.00842123         149.235
0.529                  -0.377274        -136.473         -56.4038        -78.3913         -56.4053         -78.381      -0.00850222         149.167
0.53                   -0.389442         -136.98         -56.2127         -80.159         -56.2141         -80.149      -0.00858465         149.099
0.531                  -0.401944         -137.49         -56.0217        -81.9241         -56.0231        -81.9145      -0.00866854         149.031
0.532                  -0.414783        -138.001          -55.831        -83.6873         -55.8324         -83.678      -0.00875389         148.963
0.533                  -0.427964        -138.515         -55.6405        -85.4491         -55.6418        -85.4402      -0.00884071         148.894
0.534                  -0.441489        -139.031         -55.4502        -87.2101         -55.4515        -87.2015      -0.00892902         148.826
0.535                  -0.455365         -139.55         -55.2603        -88.9707         -55.2616        -88.9625      -0.00901882         148.758
0.536                  -0.469594         -140.07         -55.0708        -90.7315          -55.072        -90.7236      -0.00911013         148.689
0.537                  -0.484181        -140.592         -54.8817        -92.4929         -54.8829        -92.4855      -0.00920295          148.62
0.538                   -0.49913        -141.117          -54.693        -94.2556         -54.6941        -94.2485       -0.0092973         148.552
0.539                  -0.514445        -141.644         -54.5048        -96.0198         -54.5059        -96.0132      -0.00939319         148.483
0.54                    -0.53013        -142.173         -54.3171        -97.7862         -54.3181          -97.78      -0.00949062         148.414
0.541                  -0.546189        -142.704         -54.1299        -99.5551         -54.1309        -99.5492      -0.00958962         148.345
0.542                  -0.562627        -143.237         -53.9433        -101.327         -53.9442        -101.321      -0.00969018         148.276
0.543                  -0.579448        -143.772         -53.7573        -103.102         -53.7581        -103.097      -0.00979233         148.206
0.544                  -0.596655        -144.309         -53.5719        -104.881         -53.5727        -104.876      -0.00989608         148.137
0.545                  -0.614253        -144.849         -53.3872        -106.664         -53.3878         -106.66       -0.0100014         148.068
0.546                  -0.632245         -145.39         -53.2031        -108.451         -53.2037        -108.447       -0.0101084         147.998
0.547                  -0.650636        -145.934         -53.0197        -110.243         -53.0203         -110.24        -0.010217         147.928
0.548                  -0.669431        -146.479         -52.8371         -112.04         -52.8376        -112.037       -0.0103272         147.859
0.549                  -0.688632        -147.027         -52.6552        -113.843         -52.6556         -113.84       -0.0104391         147.789
0.55                   -0.708244        -147.577         -52.4741        -115.651         -52.4744        -115.649       -0.0105527         147.719
0.551                  -0.728271        -148.129         -52.2938        -117.465          -52.294        -117.463        -0.010668         147.648
0.552                  -0.748716        -148.683         -52.1143        -119.285         -52.1145        -119.284       -0.0107849         147.578
0.553                  -0.769585        -149.239         -51.9356        -121.112         -51.9358        -121.111       -0.0109035         147.508
0.554                   -0.79088        -149.797         -51.7579        -122.945         -51.7579        -122.944       -0.0110239         147.437
0.555                  -0.812607        -150.357          -51.581        -124.784          -51.581        -124.784        -0.011146         147.367
0.556                  -0.834767        -150.919         -51.4051        -126.631          -51.405        -126.631       -0.0112699         147.296
0.557                  -0.857367        -151.483         -51.2301        -128.484         -51.2299        -128.485       -0.0113955         147.225
0.558                  -0.880408        -152.049          -51.056        -130.345         -51.0558        -130.346       -0.0115229         147.154
0.559                  -0.903896        -152.618          -50.883        -132.213         -50.8827        -132.214        -0.011652         147.083
0.56                   -0.927834        -153.188          -50.711        -134.088         -50.7106         -134.09        -0.011783         147.012
0.561                  -0.952226         -153.76           -50.54        -135.971         -50.5396        -135.973       -0.0119158          146.94
0.562                  -0.977075        -154.335           -50.37        -137.861         -50.3696        -137.863       -0.0120505         146.869
0.563                   -1.00239        -154.911         -50.2011        -139.758         -50.2007        -139.761        -0.012187         146.797
0.564                   -1.02816        -155.489         -50.0334        -141.663         -50.0328        -141.666       -0.0123253         146.726
0.565                   -1.05441         -156.07         -49.8667        -143.575         -49.8661        -143.579       -0.0124655         146.654
0.566                   -1.08112        -156.652         -49.7012        -145.495         -49.7005        -145.499       -0.0126077         146.582
0.567                   -1.10831        -157.236         -49.5368        -147.422         -49.5361        -147.426       -0.0127517         146.509
0.568                   -1.13599        -157.823         -49.3735        -149.356         -49.3728        -149.361       -0.0128977         146.437
0.569                   -1.16414        -158.411         -49.2115        -151.298         -49.2107        -151.303       -0.0130456         146.365
0.57                    -1.19279        -159.001         -49.0506        -153.246         -49.0498        -153.251       -0.0131955         146.292
0.571                   -1.22192        -159.593          -48.891        -155.202         -48.8902        -155.207       -0.0133474         146.219
0.572                   -1.25155        -160.188         -48.7326        -157.164         -48.7317         -157.17       -0.0135012         146.147
0.573                   -1.28167        -160.784         -48.5754        -159.133         -48.5745        -159.139       -0.0136571         146.074
0.574                    -1.3123        -161.382         -48.4194        -161.108         -48.4185        -161.115        -0.013815         146.001
0.575                   -1.34343        -161.982         -48.2647         -163.09         -48.2638        -163.097       -0.0139749         145.927
0.576                   -1.37507        -162.584         -48.1112        -165.078         -48.1103        -165.085        -0.014137         145.854
0.577                   -1.40722        -163.188          -47.959        -167.072         -47.9581        -167.079       -0.0143011          145.78
0.578                   -1.43988        -163.794         -47.8081        -169.071         -47.8071        -169.078       -0.0144673         145.707
0.579                   -1.47307        -164.403         -47.6584        -171.076         -47.6574        -171.084       -0.0146357         145.633
0.58                    -1.50678        -165.013           -47.51        -173.087          -47.509        -173.094       -0.0148062         145.559
0.581                   -1.54101        -165.625         -47.3628        -175.102         -47.3618        -175.109       -0.0149789         145.484
0.582                   -1.57578        -166.239         -47.2169        -177.122         -47.2158        -177.129       -0.0151538          145.41
0.583                   -1.61107        -166.855         -47.0722        -179.146         -47.0712        -179.154       -0.0153309         145.336
0.584                   -1.64691        -167.473         -46.9287         178.825         -46.9277         178.818       -0.0155102         145.261
0.585                   -1.68328        -168.093         -46.7865         176.793         -46.7855         176.785       -0.0156918         145.186
0.586                    -1.7202        -168.715         -46.6455         174.757         -46.6445         174.749       -0.0158757         145.111
0.587                   -1.75767         -169.34         -46.5056         172.717         -46.5047         172.709       -0.0160619         145.036
0.588                   -1.79569        -169.966          -46.367         170.675          -46.366         170.667       -0.0162504         144.961
0.589                   -1.83427        -170.594         -46.2295          168.63         -46.2285         168.621       -0.0164413         144.885
0.59                    -1.87341        -171.225         -46.0931         166.582         -46.0922         166.574       -0.0166345         144.809
0.591                   -1.91311        -171.857         -45.9579         164.532          -45.957         164.524       -0.0168302         144.734
0.592                   -1.95338        -172.492         -45.8237         162.479         -45.8228         162.471       -0.0170283         144.658
0.593                   -1.99423        -173.129         -45.6907         160.426         -45.6898         160.418       -0.0172289         144.581
0.594                   -2.03566        -173.768         -45.5586          158.37         -45.5577         158.363        -0.017432         144.505
0.595                   -2.07767         -174.41         -45.4276         156.314         -45.4267         156.306       -0.0176376         144.428
0.596                   -2.12026        -175.053         -45.2975         154.257         -45.2967         154.249       -0.0178458         144.352
0.597                   -2.16346        -175.699         -45.1684         152.199         -45.1676         152.191       -0.0180566         144.275
0.598                   -2.20725        -176.347         -45.0402          150.14         -45.0394         150.133         -0.01827         144.198
0.599                   -2.25165        -176.998         -44.9129         148.081         -44.9121         148.074        -0.018486          144.12
0.6                     -2.29666        -177.651         -44.7864         146.022         -44.7857         146.015       -0.0187048         144.043
0.601                   -2.34229        -178.306         -44.6607         143.964           -44.66         143.957       -0.0189263         143.965
0.602                   -2.38854        -178.964         -44.5358         141.906         -44.5351         141.899       -0.0191506         143.887
0.603                   -2.43543        -179.624         -44.4116         139.848          -44.411         139.841       -0.0193777         143.809
0.604                   -2.48295         179.713         -44.2881         137.791         -44.2875         137.785       -0.0196077         143.731
0.605                   -2.53113         179.047         -44.1653         135.735         -44.1648         135.729       -0.0198405         143.652
0.606                   -2.57996         178.379         -44.0431          133.68         -44.0426         133.674       -0.0200764         143.574
0.607                   -2.62946         177.708         -43.9215         131.626          -43.921          131.62       -0.0203152         143.495
0.608                   -2.67964         177.034         -43.8004         129.573         -43.7999         129.568       -0.0205571         143.416
0.609                    -2.7305         176.358         -43.6799         127.522         -43.6794         127.516       -0.0208021         143.336
0.61                    -2.78207         175.678         -43.5598         125.472         -43.5593         125.467       -0.0210503         143.257
0.611                   -2.83434         174.996         -43.4401         123.423         -43.4397         123.419       -0.0213017         143.177
0.612                   -2.88734          174.31         -43.3208         121.376         -43.3204         121.372       -0.0215564         143.097
0.613                   -2.94107         173.621         -43.2019         119.331         -43.2016         119.327       -0.0218145         143.017
0.614                   -2.99556         172.929         -43.0833         117.287          -43.083         117.283        -0.022076         142.936
0.615                   -3.05081         172.234          -42.965         115.245         -42.9647         115.242        -0.022341         142.856
0.616                   -3.10685         171.535         -42.8469         113.205         -42.8467         113.202       -0.0226096         142.775
0.617                    -3.1637         170.832         -42.7291         111.166         -42.7289         111.163       -0.0228819         142.694
0.618                   -3.22137         170.127         -42.6115         109.129         -42.6113         109.126        -0.023158         142.612
0.619                   -3.27988         169.417          -42.494         107.094         -42.4938         107.091       -0.0234379          142.53
0.62                    -3.33926         168.703         -42.3767          105.06         -42.3765         105.057       -0.0237217         142.449
0.621                   -3.39953         167.986         -42.2594         103.027         -42.2593         103.025       -0.0240097         142.366
0.622                   -3.46072         167.265         -42.1423         100.996         -42.1422         100.994       -0.0243018         142.284
0.623                   -3.52286         166.539         -42.0252         98.9666         -42.0251         98.9648       -0.0245983         142.201
0.624                   -3.58597          165.81         -41.9081         96.9381          -41.908         96.9366       -0.0248992         142.118
0.625                   -3.65008         165.075         -41.7911         94.9108          -41.791         94.9095       -0.0252046         142.035
0.626                   -3.71524         164.337         -41.6741         92.8846          -41.674         92.8835       -0.0255148         141.952
0.627                   -3.78148         163.594          -41.557         90.8593          -41.557         90.8584       -0.0258298         141.868
0.628                   -3.84883         162.846           -41.44         88.8348         -41.4399         88.8341       -0.0261499         141.784
0.629                   -3.91735         162.093         -41.3228          86.811         -41.3228         86.8105       -0.0264752           141.7
