! TOUCHSTONE file generated by CST MICROWAVE STUDIO
! Date and time: Fri Oct  2 19:15:29 2020
! Project name: Scenario_1_Free_Space_out_of_line.cst
! Parameters = {Lambda=346.42; Step_1=17.321; dy1=-172.59; dx1=866; L_HA=400; MT=2.54; Rad_Dielectric=30; Rad_Lower=7.3; Rad_Upper=30; a_HA=580; a_WG=246; b_HA=500; b_WG=121; c_HA=0; c_WG=187; d_feed=85; h_feed=15; h_lower=18; h_upper=40}
! Header version: 2018
! Port assignment regex: !\s*Touchstone port\s*([0-9]+)\s*=\s*(CST MWS port|CST DS port)\s*([0-9]+|Zmin|Zmax)\s*\(\"(.*)\"\)(\s*mode\s*([0-9]+))?.*
! Touchstone port assignment:
! Touchstone port 1 = CST MWS port 1 ("")
! Touchstone port 2 = CST MWS port 2 ("")
# GHz S DB R 50
0.5                    -0.149022        -122.608         -63.7015         141.275         -63.7015         141.275      -0.00661838         151.122
0.501                  -0.154248        -123.047         -63.5082          139.11         -63.5082          139.11      -0.00667375         151.057
0.502                  -0.159626        -123.487         -63.3141         136.946         -63.3141         136.946      -0.00672984         150.991
0.503                  -0.165164         -123.93         -63.1194         134.782         -63.1194         134.782      -0.00678671         150.926
0.504                  -0.170867        -124.375         -62.9242         132.617         -62.9242         132.617      -0.00684439          150.86
0.505                  -0.176739        -124.823         -62.7285         130.452         -62.7285         130.452      -0.00690293         150.795
0.506                  -0.182788        -125.273         -62.5323         128.285         -62.5323         128.285      -0.00696235         150.729
0.507                  -0.189018        -125.725         -62.3358         126.117         -62.3358         126.117       -0.0070227         150.663
0.508                  -0.195438         -126.18         -62.1389         123.946         -62.1389         123.946      -0.00708403         150.597
0.509                  -0.202052        -126.637         -61.9418         121.773         -61.9418         121.773      -0.00714636         150.531
0.51                   -0.208867        -127.097         -61.7445         119.597         -61.7445         119.597      -0.00720975         150.465
0.511                  -0.215891        -127.558         -61.5471         117.418         -61.5471         117.418      -0.00727424         150.399
0.512                   -0.22313        -128.023         -61.3496         115.235         -61.3496         115.235      -0.00733987         150.333
0.513                  -0.230591         -128.49         -61.1521         113.047         -61.1521         113.048      -0.00740667         150.266
0.514                  -0.238281        -128.959         -60.9546         110.856         -60.9546         110.856      -0.00747468           150.2
0.515                  -0.246209        -129.431         -60.7571         108.659         -60.7571         108.659      -0.00754396         150.133
0.516                   -0.25438        -129.905         -60.5598         106.458         -60.5598         106.458      -0.00761453         150.067
0.517                  -0.262803        -130.382         -60.3626         104.251         -60.3626         104.251      -0.00768644             150
0.518                  -0.271485        -130.861         -60.1657         102.038         -60.1657         102.038      -0.00775973         149.933
0.519                  -0.280435        -131.342          -59.969         99.8192          -59.969         99.8192      -0.00783442         149.866
0.52                    -0.28966        -131.827         -59.7727         97.5941         -59.7727         97.5941      -0.00791056           149.8
0.521                  -0.299168        -132.313         -59.5767         95.3624         -59.5767         95.3624      -0.00798818         149.733
0.522                  -0.308966        -132.802         -59.3811          93.124         -59.3811          93.124      -0.00806731         149.665
0.523                  -0.319064        -133.294         -59.1859         90.8785         -59.1859         90.8785      -0.00814798         149.598
0.524                  -0.329468        -133.788         -58.9913         88.6259         -58.9913         88.6259      -0.00823022         149.531
0.525                  -0.340188        -134.284         -58.7972         86.3659         -58.7972         86.3659      -0.00831406         149.463
0.526                   -0.35123        -134.783         -58.6037         84.0984         -58.6037         84.0984      -0.00839952         149.396
0.527                  -0.362603        -135.285         -58.4108         81.8233         -58.4108         81.8233      -0.00848661         149.328
0.528                  -0.374314        -135.789         -58.2187         79.5404         -58.2187         79.5404      -0.00857536         149.261
0.529                  -0.386371        -136.295         -58.0272         77.2496         -58.0272         77.2496      -0.00866578         149.193
0.53                   -0.398782        -136.803         -57.8365          74.951         -57.8365          74.951      -0.00875788         149.125
0.531                  -0.411553        -137.314         -57.6466         72.6444         -57.6466         72.6444      -0.00885167         149.057
0.532                  -0.424692        -137.827         -57.4576         70.3298         -57.4576         70.3298      -0.00894716         148.989
0.533                  -0.438206        -138.343         -57.2695         68.0072         -57.2695         68.0072      -0.00904433         148.921
0.534                  -0.452101         -138.86         -57.0823         65.6767         -57.0823         65.6767       -0.0091432         148.853
0.535                  -0.466383         -139.38         -56.8961         63.3382         -56.8961         63.3382      -0.00924376         148.784
0.536                  -0.481057        -139.902         -56.7109         60.9919         -56.7109         60.9919      -0.00934598         148.716
0.537                  -0.496131        -140.426         -56.5267         58.6378         -56.5267         58.6378      -0.00944986         148.647
0.538                  -0.511607        -140.953         -56.3436         56.2761         -56.3436         56.2761      -0.00955538         148.579
0.539                  -0.527492        -141.481         -56.1617         53.9068         -56.1617         53.9068      -0.00966251          148.51
0.54                   -0.543788        -142.011         -55.9809         51.5301         -55.9809         51.5301      -0.00977122         148.441
0.541                  -0.560499        -142.544         -55.8013         49.1462         -55.8013         49.1462       -0.0098815         148.372
0.542                  -0.577628        -143.078         -55.6229         46.7552         -55.6229         46.7552      -0.00999329         148.303
0.543                  -0.595177        -143.614         -55.4458         44.3574         -55.4458         44.3574       -0.0101066         148.234
0.544                  -0.613148        -144.152         -55.2699          41.953         -55.2699          41.953       -0.0102213         148.165
0.545                  -0.631541        -144.691         -55.0953         39.5423         -55.0953         39.5423       -0.0103374         148.095
0.546                  -0.650357        -145.233         -54.9221         37.1254         -54.9221         37.1253       -0.0104549         148.026
0.547                  -0.669596        -145.776         -54.7502         34.7026         -54.7502         34.7026       -0.0105737         147.956
0.548                  -0.689255         -146.32         -54.5796         32.2743         -54.5796         32.2743       -0.0106937         147.887
0.549                  -0.709334        -146.867         -54.4104         29.8407         -54.4104         29.8407       -0.0108149         147.817
0.55                   -0.729829        -147.414         -54.2426         27.4021         -54.2426         27.4021       -0.0109373         147.747
0.551                  -0.750738        -147.964         -54.0762         24.9589         -54.0762         24.9588       -0.0110608         147.677
0.552                  -0.772056        -148.515         -53.9111         22.5113         -53.9111         22.5113       -0.0111854         147.607
0.553                  -0.793779        -149.067         -53.7475         20.0597         -53.7475         20.0597       -0.0113109         147.537
0.554                  -0.815901        -149.621         -53.5853         17.6045         -53.5853         17.6045       -0.0114374         147.467
0.555                  -0.838417        -150.176         -53.4244         15.1459         -53.4244         15.1459       -0.0115647         147.396
0.556                  -0.861321        -150.732          -53.265         12.6843          -53.265         12.6843        -0.011693         147.326
0.557                  -0.884604         -151.29         -53.1069         10.2201         -53.1069         10.2201        -0.011822         147.255
0.558                  -0.908261         -151.85         -52.9502         7.75353         -52.9502         7.75353       -0.0119518         147.184
0.559                  -0.932284         -152.41         -52.7949         5.28502         -52.7949         5.28501       -0.0120823         147.113
0.56                   -0.956664        -152.972         -52.6409         2.81485         -52.6409         2.81485       -0.0122135         147.042
0.561                  -0.981394        -153.536         -52.4882        0.343374         -52.4882         0.34337       -0.0123454         146.971
0.562                   -1.00647        -154.101         -52.3369         -2.1291         -52.3369         -2.1291        -0.012478           146.9
0.563                   -1.03187        -154.667         -52.1868        -4.60226         -52.1868        -4.60226       -0.0126112         146.828
0.564                    -1.0576        -155.235          -52.038        -7.07579          -52.038        -7.07579        -0.012745         146.757
0.565                   -1.08365        -155.805         -51.8904        -9.54941         -51.8904        -9.54942       -0.0128795         146.685
0.566                   -1.11001        -156.376          -51.744        -12.0228          -51.744        -12.0228       -0.0130146         146.613
0.567                   -1.13667        -156.949         -51.5988        -14.4958         -51.5988        -14.4958       -0.0131503         146.541
0.568                   -1.16362        -157.523         -51.4546         -16.968         -51.4546         -16.968       -0.0132868         146.469
0.569                   -1.19087          -158.1         -51.3116        -19.4393         -51.3116        -19.4393       -0.0134239         146.397
0.57                    -1.21841        -158.678         -51.1697        -21.9094         -51.1697        -21.9094       -0.0135617         146.325
0.571                   -1.24623        -159.259         -51.0288        -24.3781         -51.0288        -24.3781       -0.0137004         146.252
0.572                   -1.27433        -159.841         -50.8888        -26.8452         -50.8888        -26.8452       -0.0138398         146.179
0.573                    -1.3027        -160.426         -50.7498        -29.3105         -50.7498        -29.3105       -0.0139802         146.107
0.574                   -1.33136        -161.014         -50.6117         -31.774         -50.6117         -31.774       -0.0141215         146.034
0.575                   -1.36029        -161.603         -50.4745        -34.2353         -50.4745        -34.2353       -0.0142638          145.96
0.576                    -1.3895        -162.196          -50.338        -36.6944          -50.338        -36.6944       -0.0144072         145.887
0.577                     -1.419        -162.791         -50.2024        -39.1513         -50.2024        -39.1513       -0.0145517         145.814
0.578                    -1.4488         -163.39         -50.0675        -41.6057         -50.0675        -41.6057       -0.0146976          145.74
0.579                   -1.47889        -163.991         -49.9333        -44.0577         -49.9333        -44.0577       -0.0148448         145.666
0.58                    -1.50929        -164.595         -49.7998        -46.5072         -49.7998        -46.5072       -0.0149935         145.593
0.581                   -1.54001        -165.203         -49.6668        -48.9541         -49.6668        -48.9541       -0.0151437         145.519
0.582                   -1.57106        -165.815         -49.5345        -51.3984         -49.5345        -51.3984       -0.0152957         145.444
0.583                   -1.60247         -166.43         -49.4027        -53.8401         -49.4027        -53.8401       -0.0154494          145.37
0.584                   -1.63423        -167.049         -49.2714        -56.2792         -49.2714        -56.2792        -0.015605         145.295
0.585                   -1.66639        -167.672         -49.1405        -58.7158         -49.1405        -58.7158       -0.0157627         145.221
0.586                   -1.69895        -168.299         -49.0101        -61.1499         -49.0101        -61.1499       -0.0159225         145.146
0.587                   -1.73194        -168.931         -48.8801        -63.5815         -48.8801        -63.5815       -0.0160847         145.071
0.588                   -1.76538        -169.567         -48.7505        -66.0108         -48.7505        -66.0108       -0.0162492         144.995
0.589                   -1.79931        -170.207         -48.6212        -68.4377         -48.6212        -68.4377       -0.0164163          144.92
0.59                    -1.83375        -170.852         -48.4922        -70.8624         -48.4922        -70.8624        -0.016586         144.844
0.591                   -1.86873        -171.502         -48.3634        -73.2849         -48.3634        -73.2849       -0.0167585         144.769
0.592                   -1.90429        -172.157          -48.235        -75.7055          -48.235        -75.7055       -0.0169339         144.693
0.593                   -1.94045        -172.817         -48.1067        -78.1242         -48.1067        -78.1242       -0.0171124         144.616
0.594                   -1.97727        -173.482         -47.9787        -80.5411         -47.9787        -80.5411       -0.0172941          144.54
0.595                   -2.01477        -174.152         -47.8508        -82.9564         -47.8508        -82.9564        -0.017479         144.464
0.596                     -2.053        -174.827         -47.7231        -85.3702         -47.7231        -85.3702       -0.0176673         144.387
0.597                     -2.092        -175.507         -47.5956        -87.7828         -47.5956        -87.7828       -0.0178592          144.31
0.598                    -2.1318        -176.193         -47.4682        -90.1941         -47.4682        -90.1941       -0.0180547         144.233
0.599                   -2.17246        -176.885          -47.341        -92.6045         -47.3409        -92.6045       -0.0182539         144.155
0.6                     -2.21403        -177.581         -47.2138         -95.014         -47.2138         -95.014        -0.018457         144.078
0.601                   -2.25653        -178.283         -47.0868        -97.4228         -47.0868        -97.4228       -0.0186641             144
0.602                   -2.30004        -178.991         -46.9598        -99.8312         -46.9598        -99.8312       -0.0188751         143.922
0.603                   -2.34458        -179.704          -46.833        -102.239          -46.833        -102.239       -0.0190903         143.844
0.604                   -2.39022         179.578         -46.7062        -104.647         -46.7062        -104.647       -0.0193098         143.766
0.605                     -2.437         178.855         -46.5796        -107.055         -46.5796        -107.055       -0.0195335         143.687
0.606                   -2.48498         178.127          -46.453        -109.463          -46.453        -109.463       -0.0197615         143.609
0.607                   -2.53419         177.394         -46.3266        -111.871         -46.3266        -111.871        -0.019994          143.53
0.608                    -2.5847         176.656         -46.2002         -114.28         -46.2002         -114.28        -0.020231         143.451
0.609                   -2.63656         175.913          -46.074         -116.69          -46.074         -116.69       -0.0204725         143.371
0.61                     -2.6898         175.166         -45.9479          -119.1         -45.9479          -119.1       -0.0207186         143.292
0.611                   -2.74449         174.414         -45.8219        -121.511         -45.8219        -121.511       -0.0209693         143.212
0.612                   -2.80068         173.658         -45.6961        -123.924         -45.6961        -123.924       -0.0212246         143.132
0.613                    -2.8584         172.898         -45.5705        -126.337         -45.5705        -126.337       -0.0214847         143.052
0.614                   -2.91771         172.135          -45.445        -128.752          -45.445        -128.752       -0.0217494         142.971
0.615                   -2.97866         171.368         -45.3197        -131.169         -45.3197        -131.169       -0.0220188          142.89
0.616                   -3.04128         170.599         -45.1947        -133.587         -45.1947        -133.587        -0.022293         142.809
0.617                   -3.10562         169.826         -45.0699        -136.006         -45.0699        -136.006       -0.0225719         142.728
0.618                   -3.17173         169.051         -44.9453        -138.427         -44.9453        -138.427       -0.0228555         142.647
0.619                   -3.23963         168.274          -44.821        -140.851          -44.821        -140.851       -0.0231438         142.565
0.62                    -3.30936         167.495          -44.697        -143.276          -44.697        -143.276       -0.0234368         142.483
0.621                   -3.38097         166.715         -44.5733        -145.703         -44.5733        -145.703       -0.0237346         142.401
0.622                   -3.45447         165.934           -44.45        -148.131           -44.45        -148.131        -0.024037         142.319
0.623                   -3.52989         165.152          -44.327        -150.562          -44.327        -150.562        -0.024344         142.236
0.624                   -3.60727         164.371         -44.2044        -152.995         -44.2044        -152.995       -0.0246557         142.154
0.625                   -3.68661          163.59         -44.0822         -155.43         -44.0822         -155.43        -0.024972          142.07
0.626                   -3.76793         162.809         -43.9605        -157.867         -43.9605        -157.867       -0.0252929         141.987
0.627                   -3.85125         162.031         -43.8392        -160.305         -43.8392        -160.305       -0.0256183         141.904
0.628                   -3.93657         161.253         -43.7184        -162.746         -43.7184        -162.746       -0.0259483          141.82
0.629                   -4.02389         160.479         -43.5981        -165.189         -43.5981        -165.189       -0.0262829         141.736
