! TOUCHSTONE file generated by CST MICROWAVE STUDIO
! Date and time: Fri Oct  2 18:58:59 2020
! Project name: Scenario_1_Free_Space_out_of_line.cst
! Parameters = {Lambda=346.42; Step_1=17.321; dy1=-172.59; dx1=1039; L_HA=400; MT=2.54; Rad_Dielectric=30; Rad_Lower=7.3; Rad_Upper=30; a_HA=580; a_WG=246; b_HA=500; b_WG=121; c_HA=0; c_WG=187; d_feed=85; h_feed=15; h_lower=18; h_upper=40}
! Header version: 2018
! Port assignment regex: !\s*Touchstone port\s*([0-9]+)\s*=\s*(CST MWS port|CST DS port)\s*([0-9]+|Zmin|Zmax)\s*\(\"(.*)\"\)(\s*mode\s*([0-9]+))?.*
! Touchstone port assignment:
! Touchstone port 1 = CST MWS port 1 ("")
! Touchstone port 2 = CST MWS port 2 ("")
# GHz S DB R 50
0.5                    -0.147146         -122.41         -64.3373         44.8705         -64.3373         44.8705      -0.00666629         151.129
0.501                   -0.15329        -122.848         -64.1723         42.1353         -64.1405         42.0227      -0.00673224         151.064
0.502                   -0.15958        -123.287         -64.0046         39.4136         -63.9432         39.2002      -0.00679899         150.998
0.503                   -0.16602        -123.728         -63.8343         36.7053         -63.7456         36.4021      -0.00686654         150.933
0.504                  -0.172612        -124.171         -63.6615         34.0104         -63.5477         33.6273      -0.00693489         150.868
0.505                  -0.179359        -124.617         -63.4866         31.3289         -63.3499         30.8751      -0.00700402         150.802
0.506                  -0.186264        -125.064         -63.3096         28.6607         -63.1521         28.1445      -0.00707394         150.736
0.507                   -0.19333        -125.513         -63.1308         26.0054         -62.9545         25.4345      -0.00714464         150.671
0.508                  -0.200559        -125.964         -62.9502         23.3628         -62.7571         22.7442      -0.00721612         150.605
0.509                  -0.207954        -126.417         -62.7681         20.7327         -62.5602         20.0726      -0.00728836         150.539
0.51                    -0.21552        -126.872         -62.5846         18.1145         -62.3636         17.4189      -0.00736136         150.473
0.511                  -0.223258        -127.329         -62.3998          15.508         -62.1676          14.782      -0.00743512         150.407
0.512                  -0.231173        -127.788         -62.2139         12.9127         -61.9721         12.1611      -0.00750962         150.341
0.513                  -0.239268         -128.25         -62.0271         10.3281         -61.7772         9.55524      -0.00758487         150.275
0.514                  -0.247547        -128.713         -61.8393         7.75368         -61.5829         6.96356      -0.00766084         150.209
0.515                  -0.256012        -129.179         -61.6508         5.18896         -61.3893         4.38518      -0.00773754         150.142
0.516                  -0.264668        -129.647         -61.4616         2.63338         -61.1963         1.81926      -0.00781495         150.076
0.517                   -0.27352        -130.117         -61.2718       0.0864134         -61.0041       -0.735057      -0.00789307         150.009
0.518                   -0.28257        -130.589         -61.0815        -2.45252         -60.8126        -3.27857      -0.00797187         149.943
0.519                  -0.291823        -131.063         -60.8909        -4.98397         -60.6217        -5.81208      -0.00805136         149.876
0.52                   -0.301284         -131.54            -60.7        -7.50852         -60.4316        -8.33635      -0.00813151          149.81
0.521                  -0.310957        -132.019         -60.5088        -10.0267         -60.2423        -10.8522      -0.00821231         149.743
0.522                  -0.320846          -132.5         -60.3175        -12.5392         -60.0536        -13.3602      -0.00829376         149.676
0.523                  -0.330957        -132.983         -60.1261        -15.0465         -59.8657        -15.8613      -0.00837583         149.609
0.524                  -0.341293        -133.469         -59.9347        -17.5492         -59.6785         -18.356       -0.0084585         149.542
0.525                  -0.351861        -133.957         -59.7433        -20.0478         -59.4919        -20.8451      -0.00854177         149.475
0.526                  -0.362665        -134.448         -59.5519        -22.5429         -59.3061        -23.3293       -0.0086256         149.407
0.527                  -0.373711        -134.941         -59.3608         -25.035          -59.121        -25.8091      -0.00870998          149.34
0.528                  -0.385004        -135.436         -59.1698        -27.5247         -58.9365        -28.2852      -0.00879489         149.273
0.529                   -0.39655        -135.934          -58.979        -30.0126         -58.7527        -30.7582      -0.00888029         149.205
0.53                   -0.408354        -136.434         -58.7885         -32.499         -58.5696        -33.2287      -0.00896618         149.138
0.531                  -0.420423        -136.937         -58.5983        -34.9846         -58.3871        -35.6973      -0.00905251          149.07
0.532                  -0.432764        -137.442         -58.4084        -37.4698         -58.2052        -38.1645      -0.00913925         149.002
0.533                  -0.445381        -137.949          -58.219        -39.9552         -58.0239        -40.6308      -0.00922638         148.934
0.534                  -0.458282         -138.46         -58.0299         -42.441         -57.8433        -43.0968      -0.00931386         148.866
0.535                  -0.471474        -138.972         -57.8414        -44.9279         -57.6632        -45.5631      -0.00940166         148.798
0.536                  -0.484963        -139.487         -57.6533        -47.4162         -57.4837          -48.03      -0.00948973          148.73
0.537                  -0.498757        -140.005         -57.4657        -49.9064         -57.3049         -50.498      -0.00957804         148.662
0.538                  -0.512862        -140.525         -57.2787        -52.3988         -57.1265        -52.9677      -0.00966654         148.594
0.539                  -0.527287        -141.048         -57.0922        -54.8938         -56.9488        -55.4394       -0.0097552         148.525
0.54                   -0.542038        -141.574         -56.9064        -57.3919         -56.7716        -57.9136      -0.00984397         148.457
0.541                  -0.557124        -142.102         -56.7212        -59.8933          -56.595        -60.3906      -0.00993281         148.388
0.542                  -0.572553        -142.633         -56.5367        -62.3985          -56.419        -62.8709       -0.0100217         148.319
0.543                  -0.588332        -143.166         -56.3529        -64.9076         -56.2435        -65.3549       -0.0101105          148.25
0.544                   -0.60447        -143.702         -56.1698         -67.421         -56.0686        -67.8428       -0.0101993         148.181
0.545                  -0.620976        -144.241         -55.9874         -69.939         -55.8943         -70.335       -0.0102881         148.112
0.546                  -0.637858        -144.782         -55.8058        -72.4618         -55.7206        -72.8318       -0.0103768         148.043
0.547                  -0.655125        -145.326         -55.6251        -74.9896         -55.5474        -75.3336       -0.0104654         147.974
0.548                  -0.672786        -145.872         -55.4451        -77.5228         -55.3749        -77.8405        -0.010554         147.904
0.549                   -0.69085        -146.422         -55.2661        -80.0614         -55.2029         -80.353       -0.0106427         147.835
0.55                   -0.709325        -146.973         -55.0879        -82.6056         -55.0316        -82.8711       -0.0107315         147.765
0.551                  -0.728223        -147.528         -54.9106        -85.1557          -54.861        -85.3951       -0.0108206         147.695
0.552                  -0.747551        -148.085         -54.7343        -87.7116          -54.691        -87.9252       -0.0109102         147.625
0.553                  -0.767319        -148.645          -54.559        -90.2736         -54.5217        -90.4616       -0.0110006         147.555
0.554                  -0.787537        -149.207         -54.3846        -92.8418          -54.353        -93.0045       -0.0110922         147.485
0.555                  -0.808214        -149.772         -54.2113        -95.4161         -54.1851        -95.5539       -0.0111854         147.414
0.556                   -0.82936        -150.339         -54.0391        -97.9967          -54.018          -98.11       -0.0112808         147.344
0.557                  -0.850984        -150.909          -53.868        -100.583         -53.8516        -100.673        -0.011379         147.273
0.558                  -0.873096        -151.482         -53.6979        -103.177          -53.686        -103.242       -0.0114807         147.203
0.559                  -0.895705        -152.057          -53.529        -105.776         -53.5212        -105.819       -0.0115867         147.132
0.56                   -0.918821        -152.635         -53.3613        -108.381         -53.3573        -108.402       -0.0116977         147.061
0.561                  -0.942452        -153.215         -53.1947        -110.993         -53.1943        -110.993       -0.0118145         146.989
0.562                  -0.966608        -153.797         -53.0294        -113.611         -53.0321         -113.59       -0.0119375         146.918
0.563                  -0.991297        -154.382         -52.8653        -116.234         -52.8709        -116.194       -0.0120673         146.847
0.564                   -1.01653        -154.969         -52.7024        -118.864         -52.7106        -118.804        -0.012204         146.775
0.565                   -1.04231        -155.559         -52.5408        -121.499         -52.5513        -121.421       -0.0123475         146.703
0.566                   -1.06865         -156.15         -52.3805        -124.139         -52.3931        -124.045       -0.0124975         146.631
0.567                   -1.09555        -156.744         -52.2216        -126.785         -52.2359        -126.675       -0.0126534         146.559
0.568                   -1.12303         -157.34         -52.0639        -129.436         -52.0797        -129.311       -0.0128145         146.487
0.569                   -1.15108        -157.939         -51.9076        -132.092         -51.9246        -131.953       -0.0129798         146.415
0.57                    -1.17972        -158.539         -51.7527        -134.752         -51.7707        -134.601       -0.0131486         146.343
0.571                   -1.20895        -159.141         -51.5991        -137.417         -51.6178        -137.254       -0.0133198         146.271
0.572                   -1.23877        -159.745         -51.4468        -140.086         -51.4662        -139.913       -0.0134926         146.198
0.573                   -1.26919        -160.351          -51.296        -142.759         -51.3157        -142.577       -0.0136664         146.126
0.574                   -1.30021        -160.959         -51.1465        -145.435         -51.1664        -145.245       -0.0138406         146.053
0.575                   -1.33184        -161.569         -50.9984        -148.115         -51.0183        -147.918       -0.0140148          145.98
0.576                   -1.36407         -162.18         -50.8516        -150.797         -50.8714        -150.594       -0.0141886         145.907
0.577                    -1.3969        -162.794         -50.7063        -153.483         -50.7257        -153.275       -0.0143619         145.834
0.578                   -1.43034        -163.408         -50.5622         -156.17         -50.5813        -155.959       -0.0145345         145.761
0.579                   -1.46439        -164.024         -50.4196         -158.86         -50.4381        -158.646       -0.0147066         145.687
0.58                    -1.49903        -164.642         -50.2782        -161.551         -50.2961        -161.336        -0.014878         145.614
0.581                   -1.53428        -165.261         -50.1382        -164.244         -50.1554        -164.028        -0.015049          145.54
0.582                   -1.57012        -165.882         -49.9994        -166.937         -50.0159        -166.722       -0.0152196         145.466
0.583                   -1.60654        -166.503         -49.8619        -169.632         -49.8775        -169.418       -0.0153901         145.393
0.584                   -1.64356        -167.127         -49.7257        -172.327         -49.7404        -172.115       -0.0155605         145.318
0.585                   -1.68114        -167.751         -49.5907        -175.022         -49.6045        -174.813        -0.015731         145.244
0.586                    -1.7193        -168.377         -49.4568        -177.717         -49.4697        -177.512       -0.0159018          145.17
0.587                   -1.75801        -169.004         -49.3241         179.589         -49.3361         179.789       -0.0160731         145.095
0.588                   -1.79728        -169.632         -49.1926         176.895         -49.2036          177.09       -0.0162449          145.02
0.589                   -1.83709        -170.261         -49.0621         174.203         -49.0722         174.392       -0.0164176         144.945
0.59                    -1.87742        -170.892         -48.9326         171.511         -48.9418         171.694       -0.0165912          144.87
0.591                   -1.91828        -171.524         -48.8042         168.821         -48.8125         168.997        -0.016766         144.795
0.592                   -1.95965        -172.157         -48.6767         166.133         -48.6841         166.302       -0.0169419          144.72
0.593                   -2.00152        -172.792         -48.5502         163.446         -48.5567         163.608       -0.0171193         144.644
0.594                   -2.04388        -173.428         -48.4245         160.762         -48.4303         160.916       -0.0172982         144.568
0.595                   -2.08672        -174.066         -48.2996          158.08         -48.3046         158.226       -0.0174787         144.492
0.596                   -2.13004        -174.706         -48.1755           155.4         -48.1798         155.538       -0.0176611         144.416
0.597                   -2.17382        -175.347         -48.0521         152.723         -48.0558         152.852       -0.0178454         144.339
0.598                   -2.21805         -175.99         -47.9295         150.048         -47.9326         150.169       -0.0180318         144.263
0.599                   -2.26274        -176.636         -47.8074         147.376           -47.81         147.489       -0.0182203         144.186
0.6                     -2.30788        -177.283          -47.686         144.706          -47.688         144.812       -0.0184112         144.109
0.601                   -2.35347        -177.933         -47.5651          142.04         -47.5667         142.137       -0.0186046         144.032
0.602                   -2.39952        -178.586         -47.4446         139.376         -47.4458         139.465       -0.0188006         143.955
0.603                   -2.44602        -179.241         -47.3247         136.715         -47.3255         136.796       -0.0189993         143.877
0.604                   -2.49298        -179.899         -47.2051         134.056         -47.2057         134.131       -0.0192009         143.799
0.605                   -2.54041         179.439         -47.0859         131.401         -47.0862         131.468       -0.0194055         143.721
0.606                   -2.58833         178.774          -46.967         128.748         -46.9671         128.808       -0.0196133         143.643
0.607                   -2.63675         178.106         -46.8484         126.098         -46.8483         126.151       -0.0198244         143.565
0.608                    -2.6857         177.433           -46.73          123.45         -46.7298         123.497       -0.0200389         143.486
0.609                    -2.7352         176.757         -46.6119         120.805         -46.6116         120.846        -0.020257         143.407
0.61                    -2.78527         176.075         -46.4938         118.162         -46.4935         118.197       -0.0204788         143.328
0.611                   -2.83595          175.39         -46.3759         115.521         -46.3756         115.551       -0.0207045         143.249
0.612                   -2.88728         174.699         -46.2582         112.882         -46.2578         112.907       -0.0209342          143.17
0.613                    -2.9393         174.004         -46.1404         110.245         -46.1401         110.266       -0.0211682          143.09
0.614                   -2.99205         173.303         -46.0228         107.609         -46.0224         107.626       -0.0214065          143.01
0.615                   -3.04558         172.597         -45.9051         104.975         -45.9048         104.988       -0.0216493          142.93
0.616                   -3.09995         171.885         -45.7875         102.342         -45.7873         102.352       -0.0218967         142.849
0.617                   -3.15521         171.167         -45.6698         99.7106         -45.6697         99.7174        -0.022149         142.769
0.618                   -3.21142         170.444         -45.5521         97.0795          -45.552         97.0837       -0.0224063         142.688
0.619                   -3.26866         169.714         -45.4343         94.4491         -45.4344         94.4509       -0.0226687         142.607
0.62                    -3.32698         168.978         -45.3165          91.819         -45.3166         91.8188       -0.0229365         142.525
0.621                   -3.38647         168.236         -45.1986          89.189         -45.1989         89.1871       -0.0232096         142.444
0.622                   -3.44719         167.487         -45.0807         86.5589          -45.081         86.5556       -0.0234884         142.362
0.623                   -3.50922         166.732         -44.9627         83.9284         -44.9631         83.9239        -0.023773          142.28
0.624                   -3.57265         165.971         -44.8447         81.2973         -44.8451          81.292       -0.0240634         142.198
0.625                   -3.63756         165.204         -44.7265         78.6655         -44.7271         78.6594       -0.0243599         142.115
0.626                   -3.70402          164.43         -44.6084         76.0325          -44.609          76.026       -0.0246626         142.032
0.627                   -3.77214          163.65         -44.4902         73.3983         -44.4908         73.3915       -0.0249715         141.949
0.628                   -3.84199         162.865          -44.372         70.7626         -44.3727         70.7557       -0.0252869         141.866
0.629                   -3.91367         162.073         -44.2538         68.1251         -44.2545         68.1183       -0.0256087         141.782
