! TOUCHSTONE file generated by CST MICROWAVE STUDIO
! Date and time: Fri Oct  2 18:06:36 2020
! Project name: Scenario_1_Free_Space_out_of_line.cst
! Parameters = {Lambda=346.42; Step_1=17.321; dy1=-189.931; dx1=173; L_HA=400; MT=2.54; Rad_Dielectric=30; Rad_Lower=7.3; Rad_Upper=30; a_HA=580; a_WG=246; b_HA=500; b_WG=121; c_HA=0; c_WG=187; d_feed=85; h_feed=15; h_lower=18; h_upper=40}
! Header version: 2018
! Port assignment regex: !\s*Touchstone port\s*([0-9]+)\s*=\s*(CST MWS port|CST DS port)\s*([0-9]+|Zmin|Zmax)\s*\(\"(.*)\"\)(\s*mode\s*([0-9]+))?.*
! Touchstone port assignment:
! Touchstone port 1 = CST MWS port 1 ("")
! Touchstone port 2 = CST MWS port 2 ("")
# GHz S DB R 50
0.5                    -0.152741        -122.663          -58.575         157.449          -58.555         156.923      -0.00647782          151.09
0.501                  -0.157931        -123.101         -58.3806         156.182         -58.3662         155.617      -0.00652608         151.024
0.502                  -0.163279        -123.541         -58.1868         154.902         -58.1781         154.304      -0.00657424         150.959
0.503                   -0.16879        -123.983         -57.9938         153.609         -57.9906         152.982      -0.00662233         150.894
0.504                  -0.174465        -124.428         -57.8016         152.303         -57.8037         151.654      -0.00667035         150.828
0.505                  -0.180308        -124.874         -57.6102         150.985         -57.6174         150.319      -0.00671834         150.762
0.506                  -0.186323        -125.322         -57.4197         149.656         -57.4318         148.977      -0.00676631         150.697
0.507                  -0.192512        -125.773           -57.23         148.316         -57.2468         147.627      -0.00681429         150.631
0.508                   -0.19888        -126.226         -57.0412         146.964         -57.0625         146.271      -0.00686231         150.565
0.509                  -0.205429        -126.681         -56.8533         145.603         -56.8788         144.909       -0.0069104         150.499
0.51                   -0.212164        -127.138         -56.6663         144.231         -56.6959          143.54      -0.00695858         150.433
0.511                  -0.219088        -127.597         -56.4803          142.85         -56.5136         142.164      -0.00700689         150.367
0.512                  -0.226204        -128.059         -56.2953          141.46         -56.3319         140.783      -0.00705537         150.301
0.513                  -0.233518        -128.523         -56.1112         140.061          -56.151         139.395      -0.00710405         150.234
0.514                  -0.241031        -128.989         -55.9281         138.653         -55.9708         138.002      -0.00715297         150.168
0.515                   -0.24875        -129.458          -55.746         137.238         -55.7913         136.602      -0.00720218         150.102
0.516                  -0.256676        -129.929          -55.565         135.815         -55.6125         135.197      -0.00725172         150.035
0.517                  -0.264816        -130.402         -55.3849         134.385         -55.4345         133.786      -0.00730163         149.968
0.518                  -0.273173        -130.877         -55.2058         132.948         -55.2571          132.37      -0.00735197         149.902
0.519                  -0.281751        -131.355         -55.0278         131.505         -55.0806         130.949      -0.00740278         149.835
0.52                   -0.290555        -131.835         -54.8508         130.056         -54.9047         129.522      -0.00745411         149.768
0.521                  -0.299589        -132.318         -54.6748           128.6         -54.7296          128.09      -0.00750602         149.701
0.522                  -0.308859        -132.803         -54.4998         127.139         -54.5552         126.654      -0.00755857         149.634
0.523                  -0.318368         -133.29         -54.3258         125.673         -54.3816         125.212       -0.0076118         149.566
0.524                  -0.328122         -133.78         -54.1528         124.202         -54.2088         123.767      -0.00766579         149.499
0.525                  -0.338126        -134.273         -53.9808         122.727         -54.0367         122.316      -0.00772058         149.432
0.526                  -0.348384        -134.767         -53.8097         121.247         -53.8654         120.861      -0.00777625         149.364
0.527                  -0.358901        -135.265         -53.6397         119.762         -53.6948         119.402      -0.00783285         149.297
0.528                  -0.369684        -135.765         -53.4706         118.275         -53.5251         117.939      -0.00789044         149.229
0.529                  -0.380738        -136.267         -53.3025         116.783         -53.3561         116.472       -0.0079491         149.161
0.53                   -0.392067        -136.772         -53.1353         115.288         -53.1878         115.001      -0.00800889         149.093
0.531                  -0.403678        -137.279         -52.9691          113.79         -53.0203         113.527      -0.00806987         149.025
0.532                  -0.415576        -137.789         -52.8038         112.289         -52.8537         112.049       -0.0081321         148.957
0.533                  -0.427767        -138.302         -52.6394         110.785         -52.6877         110.567      -0.00819566         148.889
0.534                  -0.440257        -138.817         -52.4758         109.279         -52.5226         109.082      -0.00826062          148.82
0.535                  -0.453053        -139.334         -52.3132          107.77         -52.3582         107.594      -0.00832703         148.752
0.536                   -0.46616        -139.855         -52.1514         106.259         -52.1946         106.103      -0.00839496         148.683
0.537                  -0.479584        -140.378         -51.9905         104.747         -52.0317         104.609      -0.00846448         148.615
0.538                  -0.493333        -140.903         -51.8304         103.232         -51.8696         103.112      -0.00853566         148.546
0.539                  -0.507412        -141.432         -51.6711         101.715         -51.7083         101.612      -0.00860854         148.477
0.54                    -0.52183        -141.963         -51.5127         100.197         -51.5477          100.11      -0.00868321         148.408
0.541                  -0.536591        -142.496          -51.355         98.6772         -51.3879         98.6051      -0.00875971         148.339
0.542                  -0.551704        -143.033         -51.1981         97.1561         -51.2288         97.0979      -0.00883811          148.27
0.543                  -0.567176        -143.572         -51.0419         95.6337         -51.0705         95.5884      -0.00891846           148.2
0.544                  -0.583014        -144.114         -50.8865         94.1101         -50.9128         94.0767      -0.00900082         148.131
0.545                  -0.599225        -144.658         -50.7318         92.5854          -50.756         92.5629      -0.00908524         148.061
0.546                  -0.615818        -145.206         -50.5778         91.0597         -50.5998         91.0472      -0.00917177         147.992
0.547                  -0.632799        -145.756         -50.4245          89.533         -50.4444         89.5295      -0.00926045         147.922
0.548                  -0.650177        -146.308         -50.2719         88.0054         -50.2896           88.01      -0.00935135         147.852
0.549                  -0.667959        -146.864           -50.12          86.477         -50.1356         86.4888      -0.00944449         147.782
0.55                   -0.686155        -147.422         -49.9687         84.9478         -49.9823         84.9659      -0.00953991         147.712
0.551                  -0.704772        -147.983          -49.818         83.4179         -49.8297         83.4415      -0.00963767         147.642
0.552                  -0.723819        -148.547          -49.668         81.8872         -49.6777         81.9155      -0.00973778         147.571
0.553                  -0.743305        -149.114         -49.5186         80.3559         -49.5264         80.3882      -0.00984027         147.501
0.554                  -0.763238        -149.684         -49.3698          78.824         -49.3758         78.8594      -0.00994519          147.43
0.555                  -0.783627        -150.256         -49.2216         77.2914         -49.2258         77.3294       -0.0100526          147.36
0.556                  -0.804483        -150.831         -49.0739         75.7582         -49.0765         75.7982       -0.0101624         147.289
0.557                  -0.825813        -151.409         -48.9268         74.2245         -48.9278         74.2658       -0.0102747         147.218
0.558                  -0.847628         -151.99         -48.7803         72.6902         -48.7798         72.7323       -0.0103895         147.147
0.559                  -0.869937        -152.573         -48.6343         71.1553         -48.6324         71.1977       -0.0105068         147.075
0.56                    -0.89275         -153.16         -48.4888         69.6199         -48.4856         69.6622       -0.0106267         147.004
0.561                  -0.916077        -153.749         -48.3439          68.084         -48.3394         68.1256       -0.0107491         146.933
0.562                  -0.939928        -154.341         -48.1994         66.5474         -48.1938         66.5881        -0.010874         146.861
0.563                  -0.964314        -154.936         -48.0555         65.0103         -48.0488         65.0497       -0.0110015         146.789
0.564                  -0.989244        -155.533         -47.9121         63.4727         -47.9043         63.5105       -0.0111315         146.717
0.565                   -1.01473        -156.134         -47.7692         61.9344         -47.7605         61.9704        -0.011264         146.645
0.566                   -1.04078        -156.737         -47.6267         60.3956         -47.6172         60.4296       -0.0113991         146.573
0.567                   -1.06741        -157.343         -47.4847         58.8561         -47.4744          58.888       -0.0115367         146.501
0.568                   -1.09463        -157.952         -47.3432          57.316         -47.3322         57.3456       -0.0116769         146.429
0.569                   -1.12245        -158.563         -47.2022         55.7753         -47.1906         55.8025       -0.0118195         146.356
0.57                    -1.15088        -159.177         -47.0616          54.234         -47.0494         54.2587       -0.0119647         146.283
0.571                   -1.17994        -159.794         -46.9214          52.692         -46.9088         52.7142       -0.0121124         146.211
0.572                   -1.20962        -160.414         -46.7817         51.1493         -46.7687          51.169       -0.0122625         146.138
0.573                   -1.23996        -161.036         -46.6425         49.6058         -46.6291         49.6232       -0.0124151         146.064
0.574                   -1.27095        -161.661         -46.5037         48.0617         -46.4901         48.0767       -0.0125702         145.991
0.575                   -1.30261        -162.289         -46.3653         46.5169         -46.3515         46.5295       -0.0127277         145.918
0.576                   -1.33496        -162.919         -46.2274         44.9712         -46.2134         44.9817       -0.0128876         145.844
0.577                     -1.368        -163.552         -46.0899         43.4249         -46.0758         43.4333       -0.0130499         145.771
0.578                   -1.40175        -164.187         -45.9529         41.8777         -45.9386         41.8842       -0.0132147         145.697
0.579                   -1.43622        -164.825         -45.8162         40.3297         -45.8019         40.3345       -0.0133818         145.623
0.58                    -1.47142        -165.465           -45.68         38.7809         -45.6657         38.7841       -0.0135513         145.549
0.581                   -1.50737        -166.108         -45.5442         37.2313           -45.53         37.2331       -0.0137231         145.474
0.582                   -1.54407        -166.753         -45.4089         35.6809         -45.3947         35.6815       -0.0138973           145.4
0.583                   -1.58155          -167.4          -45.274         34.1296         -45.2598         34.1292       -0.0140738         145.325
0.584                   -1.61981         -168.05         -45.1395         32.5774         -45.1254         32.5762       -0.0142526         145.251
0.585                   -1.65886        -168.702         -45.0054         31.0244         -44.9915         31.0226       -0.0144337         145.176
0.586                   -1.69873        -169.356         -44.8717         29.4705         -44.8579         29.4683       -0.0146172         145.101
0.587                   -1.73942        -170.012         -44.7385         27.9157         -44.7248         27.9134       -0.0148029         145.026
0.588                   -1.78095        -170.671         -44.6057           26.36         -44.5922         26.3578        -0.014991          144.95
0.589                   -1.82332        -171.331         -44.4733         24.8035         -44.4599         24.8015       -0.0151813         144.875
0.59                    -1.86655        -171.994         -44.3413         23.2461         -44.3281         23.2445        -0.015374         144.799
0.591                   -1.91066        -172.658         -44.2098         21.6878         -44.1967         21.6868       -0.0155689         144.723
0.592                   -1.95566        -173.324         -44.0786         20.1286         -44.0657         20.1284       -0.0157661         144.647
0.593                   -2.00155        -173.992          -43.948         18.5685         -43.9351         18.5694       -0.0159657         144.571
0.594                   -2.04835        -174.662         -43.8177         17.0076          -43.805         17.0096       -0.0161675         144.494
0.595                   -2.09608        -175.333         -43.6878         15.4458         -43.6752         15.4491       -0.0163717         144.418
0.596                   -2.14475        -176.005         -43.5584         13.8832         -43.5459         13.8879       -0.0165783         144.341
0.597                   -2.19436        -176.679         -43.4294         12.3197         -43.4169          12.326       -0.0167872         144.264
0.598                   -2.24492        -177.355         -43.3008         10.7555         -43.2884         10.7634       -0.0169985         144.187
0.599                   -2.29646        -178.031         -43.1727         9.19038         -43.1602         9.20004       -0.0172122         144.109
0.6                     -2.34898        -178.709          -43.045         7.62451         -43.0325         7.63598       -0.0174283         144.032
0.601                   -2.40249        -179.388         -42.9177         6.05787         -42.9052         6.07121       -0.0176469         143.954
0.602                     -2.457         179.933         -42.7908         4.49048         -42.7782         4.50573        -0.017868         143.876
0.603                   -2.51252         179.252         -42.6643         2.92237         -42.6517         2.93954       -0.0180916         143.798
0.604                   -2.56906         178.571         -42.5383         1.35354         -42.5255         1.37265       -0.0183178          143.72
0.605                   -2.62663         177.889         -42.4127       -0.215962         -42.3998       -0.194934       -0.0185466         143.641
0.606                   -2.68523         177.207         -42.2875        -1.78613         -42.2744         -1.7632       -0.0187781         143.563
0.607                   -2.74488         176.525         -42.1627        -3.35692         -42.1495        -3.33215       -0.0190123         143.484
0.608                   -2.80558         175.842         -42.0383        -4.92833         -42.0249        -4.90177       -0.0192493         143.404
0.609                   -2.86734         175.159         -41.9143        -6.50032         -41.9007        -6.47204       -0.0194891         143.325
0.61                    -2.93016         174.477         -41.7908        -8.07286         -41.7769        -8.04296       -0.0197318         143.245
0.611                   -2.99405         173.794         -41.6676        -9.64592         -41.6535        -9.61452       -0.0199775         143.166
0.612                   -3.05901         173.112         -41.5449        -11.2195         -41.5304        -11.1867       -0.0202262         143.086
0.613                   -3.12504          172.43         -41.4225        -12.7935         -41.4078        -12.7595        -0.020478         143.005
0.614                   -3.19216         171.749         -41.3006         -14.368         -41.2855        -14.3328        -0.020733         142.925
0.615                   -3.26035         171.069          -41.179        -15.9429         -41.1636        -15.9067       -0.0209913         142.844
0.616                   -3.32962         170.389         -41.0578        -17.5182         -41.0421        -17.4812       -0.0212529         142.763
0.617                   -3.39998         169.711          -40.937        -19.0938          -40.921        -19.0562        -0.021518         142.682
0.618                   -3.47141         169.034         -40.8166        -20.6698         -40.8002        -20.6317       -0.0217866           142.6
0.619                   -3.54392         168.358         -40.6966        -22.2461         -40.6798        -22.2077       -0.0220589         142.519
0.62                     -3.6175         167.683         -40.5769        -23.8227         -40.5598        -23.7842       -0.0223349         142.437
0.621                   -3.69215          167.01         -40.4576        -25.3995         -40.4401        -25.3612       -0.0226148         142.354
0.622                   -3.76786         166.339         -40.3386        -26.9766         -40.3208        -26.9385       -0.0228987         142.272
0.623                   -3.84462          165.67           -40.22        -28.5539         -40.2018        -28.5163       -0.0231868         142.189
0.624                   -3.92244         165.003         -40.1017        -30.1314         -40.0832        -30.0945        -0.023479         142.106
0.625                   -4.00129         164.338         -39.9837         -31.709         -39.9649         -31.673       -0.0237757         142.023
0.626                   -4.08118         163.675         -39.8661        -33.2869         -39.8469        -33.2519       -0.0240768         141.939
0.627                   -4.16208         163.015         -39.7488        -34.8649         -39.7293        -34.8311       -0.0243826         141.855
0.628                   -4.24399         162.358         -39.6318         -36.443         -39.6121        -36.4106       -0.0246933         141.771
0.629                   -4.32689         161.703          -39.515        -38.0212         -39.4951        -37.9904       -0.0250089         141.687
