! TOUCHSTONE file generated by CST MICROWAVE STUDIO
! Date and time: Fri Oct  2 16:19:56 2020
! Project name: Scenario_1_Free_Space_out_of_line.cst
! Parameters = {Lambda=346.42; Step_1=17.321; dy1=-189.931; dx1=346; L_HA=400; MT=2.54; Rad_Dielectric=30; Rad_Lower=7.3; Rad_Upper=30; a_HA=580; a_WG=246; b_HA=500; b_WG=121; c_HA=0; c_WG=187; d_feed=85; h_feed=15; h_lower=18; h_upper=40}
! Header version: 2018
! Port assignment regex: !\s*Touchstone port\s*([0-9]+)\s*=\s*(CST MWS port|CST DS port)\s*([0-9]+|Zmin|Zmax)\s*\(\"(.*)\"\)(\s*mode\s*([0-9]+))?.*
! Touchstone port assignment:
! Touchstone port 1 = CST MWS port 1 ("")
! Touchstone port 2 = CST MWS port 2 ("")
# GHz S DB R 50
0.5                    -0.144669        -122.698         -60.4111         72.1871         -60.4111         72.1871      -0.00666578         151.083
0.501                  -0.142457        -123.119         -60.2017         70.7903         -60.2021         70.7852      -0.00675872         151.017
0.502                  -0.140512        -123.547          -59.992         69.3809         -59.9927         69.3711      -0.00685195         150.952
0.503                  -0.138935        -123.984         -59.7821          67.959         -59.7832         67.9449      -0.00694548         150.886
0.504                  -0.137823        -124.429          -59.572         66.5244         -59.5734         66.5063      -0.00703929         150.821
0.505                  -0.137264        -124.881         -59.3617         65.0772         -59.3635         65.0554      -0.00713339         150.755
0.506                   -0.13734        -125.341         -59.1514         63.6172         -59.1534         63.5921      -0.00722777         150.689
0.507                  -0.138123        -125.807          -58.941         62.1444         -58.9434         62.1164      -0.00732242         150.623
0.508                  -0.139673         -126.28         -58.7306         60.6589         -58.7333         60.6281      -0.00741735         150.557
0.509                  -0.142043        -126.758         -58.5203         59.1605         -58.5232         59.1274      -0.00751254         150.491
0.51                    -0.14527        -127.241           -58.31         57.6493         -58.3133         57.6141      -0.00760801         150.425
0.511                  -0.149384        -127.729            -58.1         56.1252         -58.1035         56.0882      -0.00770373         150.359
0.512                  -0.154402        -128.221         -57.8901         54.5884          -57.894         54.5498      -0.00779972         150.293
0.513                  -0.160331        -128.717         -57.6806         53.0387         -57.6847         52.9989      -0.00789597         150.226
0.514                  -0.167169        -129.216         -57.4713         51.4763         -57.4757         51.4354      -0.00799248          150.16
0.515                  -0.174905        -129.717         -57.2625         49.9011          -57.267         49.8595      -0.00808925         150.094
0.516                   -0.18352         -130.22         -57.0541         48.3134         -57.0589         48.2711      -0.00818627         150.027
0.517                  -0.192991        -130.725         -56.8461          46.713         -56.8511         46.6705      -0.00828354          149.96
0.518                  -0.203286        -131.231         -56.6388         45.1002          -56.644         45.0575      -0.00838107         149.894
0.519                  -0.214373        -131.738         -56.4321          43.475         -56.4374         43.4323      -0.00847885         149.827
0.52                   -0.226212        -132.246          -56.226         41.8376         -56.2315         41.7951      -0.00857689          149.76
0.521                  -0.238764        -132.754         -56.0207          40.188         -56.0263          40.146      -0.00867517         149.693
0.522                  -0.251988        -133.263         -55.8161         38.5265         -55.8219          38.485      -0.00877371         149.626
0.523                  -0.265842        -133.771         -55.6124         36.8532         -55.6183         36.8124      -0.00887251         149.559
0.524                  -0.280285        -134.279         -55.4096         35.1684         -55.4156         35.1283      -0.00897156         149.492
0.525                  -0.295274        -134.787         -55.2077         33.4721         -55.2138          33.433      -0.00907087         149.424
0.526                   -0.31077        -135.295         -55.0069         31.7646          -55.013         31.7266      -0.00917043         149.357
0.527                  -0.326733        -135.802         -54.8071         30.0462         -54.8132         30.0093      -0.00927026          149.29
0.528                  -0.343127        -136.309         -54.6084         28.3171         -54.6146         28.2815      -0.00937036         149.222
0.529                  -0.359916        -136.816         -54.4109         26.5776          -54.417         26.5433      -0.00947072         149.154
0.53                   -0.377068        -137.322         -54.2146          24.828         -54.2207          24.795      -0.00957136         149.087
0.531                   -0.39455        -137.828         -54.0195         23.0685         -54.0257          23.037      -0.00967227         149.019
0.532                  -0.412335        -138.334         -53.8258         21.2995         -53.8319         21.2695      -0.00977347         148.951
0.533                  -0.430397        -138.839         -53.6334         19.5214         -53.6394         19.4928      -0.00987495         148.883
0.534                   -0.44871        -139.345         -53.4424         17.7343         -53.4483         17.7073      -0.00997673         148.815
0.535                  -0.467254        -139.851         -53.2528         15.9388         -53.2586         15.9133       -0.0100788         148.746
0.536                  -0.486007        -140.356         -53.0647         14.1352         -53.0704         14.1111       -0.0101812         148.678
0.537                  -0.504953        -140.862          -52.878         12.3238         -52.8836         12.3013       -0.0102839          148.61
0.538                  -0.524076        -141.368         -52.6929          10.505         -52.6984          10.484       -0.0103869         148.541
0.539                  -0.543361        -141.875         -52.5093         8.67925         -52.5147         8.65976       -0.0104903         148.473
0.54                   -0.562797        -142.382         -52.3273         6.84694         -52.3325         6.82891        -0.010594         148.404
0.541                  -0.582373         -142.89         -52.1469         5.00848         -52.1519         4.99188       -0.0106981         148.335
0.542                  -0.602081        -143.399         -51.9681         3.16426         -51.9729         3.14905       -0.0108025         148.266
0.543                  -0.621912        -143.909         -51.7909         1.31472         -51.7956         1.30086       -0.0109073         148.197
0.544                  -0.641861        -144.419         -51.6153       -0.539731         -51.6198       -0.552306       -0.0110125         148.128
0.545                  -0.661924        -144.931         -51.4414        -2.39868         -51.4457        -2.41001       -0.0111182         148.059
0.546                  -0.682097        -145.444         -51.2691         -4.2617         -51.2733        -4.27186       -0.0112242         147.989
0.547                  -0.702378        -145.959         -51.0985        -6.12838         -51.1024        -6.13742       -0.0113307          147.92
0.548                  -0.722766        -146.475         -50.9295        -7.99832         -50.9332         -8.0063       -0.0114377          147.85
0.549                   -0.74326        -146.992         -50.7621        -9.87109         -50.7657        -9.87808       -0.0115451          147.78
0.55                   -0.763861        -147.511         -50.5964        -11.7463         -50.5997        -11.7524        -0.011653         147.711
0.551                  -0.784572        -148.033         -50.4322        -13.6236         -50.4354        -13.6288       -0.0117615         147.641
0.552                  -0.805395        -148.556         -50.2697        -15.5025         -50.2726         -15.507       -0.0118705         147.571
0.553                  -0.826333        -149.081         -50.1087        -17.3828         -50.1115        -17.3865       -0.0119801           147.5
0.554                   -0.84739        -149.608         -49.9493        -19.2639         -49.9518         -19.267       -0.0120903          147.43
0.555                  -0.868572        -150.138         -49.7914        -21.1457         -49.7938        -21.1482       -0.0122011          147.36
0.556                  -0.889884         -150.67         -49.6351        -23.0277         -49.6372        -23.0297       -0.0123125         147.289
0.557                  -0.911332        -151.204         -49.4802        -24.9097         -49.4821        -24.9112       -0.0124246         147.219
0.558                  -0.932923        -151.741         -49.3267        -26.7913         -49.3285        -26.7924       -0.0125374         147.148
0.559                  -0.954665        -152.281         -49.1747        -28.6722         -49.1762         -28.673        -0.012651         147.077
0.56                   -0.976566        -152.824          -49.024        -30.5522         -49.0254        -30.5527       -0.0127654         147.006
0.561                  -0.998634        -153.369         -48.8746        -32.4311         -48.8759        -32.4313       -0.0128805         146.935
0.562                   -1.02088        -153.917         -48.7266        -34.3085         -48.7277        -34.3085       -0.0129966         146.863
0.563                   -1.04331        -154.469         -48.5798        -36.1842         -48.5808        -36.1841       -0.0131135         146.792
0.564                   -1.06594        -155.023         -48.4343        -38.0582         -48.4351         -38.058       -0.0132313          146.72
0.565                   -1.08877        -155.581         -48.2899        -39.9301         -48.2905        -39.9298       -0.0133501         146.649
0.566                   -1.11183        -156.142         -48.1467        -41.7998         -48.1472        -41.7995         -0.01347         146.577
0.567                   -1.13512        -156.707         -48.0045        -43.6672         -48.0049        -43.6669       -0.0135909         146.505
0.568                   -1.15865        -157.275         -47.8634        -45.5321         -47.8637        -45.5319       -0.0137129         146.433
0.569                   -1.18243        -157.846         -47.7234        -47.3945         -47.7235        -47.3943       -0.0138361         146.361
0.57                    -1.20649        -158.422         -47.5842        -49.2542         -47.5843        -49.2541       -0.0139606         146.288
0.571                   -1.23083            -159         -47.4461        -51.1112         -47.4461        -51.1112       -0.0140863         146.216
0.572                   -1.25547        -159.583         -47.3087        -52.9653         -47.3087        -52.9654       -0.0142133         146.143
0.573                   -1.28043         -160.17         -47.1723        -54.8166         -47.1721        -54.8169       -0.0143418          146.07
0.574                   -1.30571        -160.761         -47.0366        -56.6651         -47.0364        -56.6655       -0.0144717         145.997
0.575                   -1.33134        -161.355         -46.9017        -58.5106         -46.9014        -58.5112       -0.0146032         145.924
0.576                   -1.35734        -161.954         -46.7675        -60.3533         -46.7672         -60.354       -0.0147362         145.851
0.577                   -1.38371        -162.557          -46.634        -62.1931         -46.6336         -62.194       -0.0148709         145.777
0.578                   -1.41048        -163.164         -46.5011        -64.0301         -46.5007        -64.0311       -0.0150073         145.704
0.579                   -1.43768        -163.776         -46.3688        -65.8643         -46.3684        -65.8655       -0.0151456          145.63
0.58                     -1.4653        -164.392         -46.2371        -67.6958         -46.2366        -67.6971       -0.0152857         145.556
0.581                   -1.49339        -165.012         -46.1059        -69.5246         -46.1054         -69.526       -0.0154278         145.482
0.582                   -1.52195        -165.637         -45.9752        -71.3508         -45.9747        -71.3524        -0.015572         145.408
0.583                   -1.55101        -166.267          -45.845        -73.1745         -45.8445        -73.1762       -0.0157183         145.333
0.584                    -1.5806        -166.901         -45.7153        -74.9958         -45.7147        -74.9976       -0.0158668         145.258
0.585                   -1.61072         -167.54         -45.5859        -76.8148         -45.5854        -76.8168       -0.0160176         145.184
0.586                   -1.64141        -168.184         -45.4569        -78.6317         -45.4564        -78.6337       -0.0161707         145.109
0.587                    -1.6727        -168.832         -45.3283        -80.4464         -45.3278        -80.4485       -0.0163264         145.034
0.588                   -1.70459        -169.485            -45.2        -82.2592         -45.1995        -82.2614       -0.0164846         144.958
0.589                   -1.73713        -170.143          -45.072        -84.0703         -45.0715        -84.0725       -0.0166455         144.883
0.59                    -1.77033        -170.806         -44.9443        -85.8796         -44.9438        -85.8818       -0.0168092         144.807
0.591                   -1.80423        -171.474         -44.8168        -87.6874         -44.8164        -87.6897       -0.0169757         144.732
0.592                   -1.83885        -172.147         -44.6897        -89.4938         -44.6892        -89.4961       -0.0171452         144.656
0.593                   -1.87422        -172.826         -44.5627         -91.299         -44.5623        -91.3013       -0.0173177         144.579
0.594                   -1.91037        -173.509          -44.436        -93.1032         -44.4356        -93.1054       -0.0174934         144.503
0.595                   -1.94733        -174.197         -44.3095        -94.9063         -44.3091        -94.9086       -0.0176723         144.427
0.596                   -1.98512         -174.89         -44.1831        -96.7088         -44.1828         -96.711       -0.0178546          144.35
0.597                   -2.02379        -175.588          -44.057        -98.5106         -44.0567        -98.5127       -0.0180403         144.273
0.598                   -2.06336        -176.292         -43.9311        -100.312         -43.9308        -100.314       -0.0182295         144.196
0.599                   -2.10387            -177         -43.8053        -102.113          -43.805        -102.115       -0.0184224         144.118
0.6                     -2.14535        -177.714         -43.6797        -103.914         -43.6794        -103.916        -0.018619         144.041
0.601                   -2.18783        -178.433         -43.5543        -105.715          -43.554        -105.717       -0.0188195         143.963
0.602                   -2.23136        -179.156          -43.429        -107.516         -43.4288        -107.518       -0.0190239         143.885
0.603                   -2.27596        -179.885         -43.3039        -109.317         -43.3037        -109.319       -0.0192322         143.807
0.604                   -2.32168         179.381         -43.1789        -111.119         -43.1788        -111.121       -0.0194447         143.729
0.605                   -2.36854         178.643         -43.0542        -112.921          -43.054        -112.923       -0.0196614          143.65
0.606                    -2.4166         177.899         -42.9296        -114.724         -42.9294        -114.726       -0.0198823         143.572
0.607                   -2.46589         177.151         -42.8052        -116.528          -42.805         -116.53       -0.0201076         143.493
0.608                   -2.51645         176.398         -42.6809        -118.333         -42.6808        -118.335       -0.0203373         143.414
0.609                   -2.56832          175.64         -42.5569         -120.14         -42.5568        -120.141       -0.0205714         143.334
0.61                    -2.62155         174.877         -42.4331        -121.947          -42.433        -121.948       -0.0208101         143.255
0.611                   -2.67616          174.11         -42.3095        -123.756         -42.3094        -123.757       -0.0210535         143.175
0.612                   -2.73222         173.339         -42.1861        -125.566          -42.186        -125.567       -0.0213015         143.095
0.613                   -2.78975         172.564         -42.0629        -127.378         -42.0629        -127.378       -0.0215542         143.015
0.614                    -2.8488         171.784           -41.94        -129.191           -41.94        -129.192       -0.0218116         142.934
0.615                   -2.90942             171         -41.8174        -131.006         -41.8174        -131.007       -0.0220739         142.854
0.616                   -2.97166         170.213          -41.695        -132.823          -41.695        -132.824        -0.022341         142.773
0.617                   -3.03555         169.422          -41.573        -134.642          -41.573        -134.642       -0.0226129         142.692
0.618                   -3.10114         168.627         -41.4512        -136.463         -41.4512        -136.463       -0.0228897          142.61
0.619                   -3.16847          167.83         -41.3298        -138.286         -41.3298        -138.286       -0.0231714         142.529
0.62                    -3.23759         167.029         -41.2088        -140.111         -41.2088        -140.111        -0.023458         142.447
0.621                   -3.30856         166.225         -41.0881        -141.938         -41.0881        -141.938       -0.0237494         142.365
0.622                    -3.3814         165.419         -40.9677        -143.767         -40.9677        -143.767       -0.0240458         142.282
0.623                   -3.45616         164.611         -40.8478        -145.599         -40.8478        -145.599       -0.0243471           142.2
0.624                    -3.5329         163.801         -40.7284        -147.433         -40.7284        -147.432       -0.0246532         142.117
0.625                   -3.61165         162.989         -40.6093        -149.268         -40.6093        -149.268       -0.0249642         142.034
0.626                   -3.69245         162.175         -40.4907        -151.106         -40.4908        -151.106       -0.0252799         141.951
0.627                   -3.77536         161.361         -40.3727        -152.946         -40.3727        -152.946       -0.0256005         141.867
0.628                   -3.86041         160.546         -40.2551        -154.789         -40.2551        -154.788       -0.0259259         141.783
0.629                   -3.94764          159.73          -40.138        -156.633          -40.138        -156.633        -0.026256         141.699
