! TOUCHSTONE file generated by CST MICROWAVE STUDIO
! Date and time: Fri Oct  2 16:35:53 2020
! Project name: Scenario_1_Free_Space_out_of_line.cst
! Parameters = {Lambda=346.42; Step_1=17.321; dy1=-189.931; dx1=520; L_HA=400; MT=2.54; Rad_Dielectric=30; Rad_Lower=7.3; Rad_Upper=30; a_HA=580; a_WG=246; b_HA=500; b_WG=121; c_HA=0; c_WG=187; d_feed=85; h_feed=15; h_lower=18; h_upper=40}
! Header version: 2018
! Port assignment regex: !\s*Touchstone port\s*([0-9]+)\s*=\s*(CST MWS port|CST DS port)\s*([0-9]+|Zmin|Zmax)\s*\(\"(.*)\"\)(\s*mode\s*([0-9]+))?.*
! Touchstone port assignment:
! Touchstone port 1 = CST MWS port 1 ("")
! Touchstone port 2 = CST MWS port 2 ("")
# GHz S DB R 50
0.5                    -0.150336        -122.623         -61.8737        -24.9123         -61.8737        -24.9123       -0.0067062          151.07
0.501                  -0.153274        -123.087         -61.7304        -26.7522         -61.7304        -26.7525      -0.00675212         151.005
0.502                  -0.156509        -123.553         -61.5842        -28.5921         -61.5842        -28.5926      -0.00679918         150.939
0.503                  -0.160045        -124.019         -61.4351        -30.4318         -61.4351        -30.4325      -0.00684742         150.874
0.504                  -0.163883        -124.488         -61.2833        -32.2709         -61.2832        -32.2719      -0.00689682         150.808
0.505                  -0.168026        -124.957         -61.1287        -34.1094         -61.1286        -34.1106      -0.00694739         150.742
0.506                  -0.172477        -125.428         -60.9716        -35.9469         -60.9715        -35.9483      -0.00699915         150.676
0.507                  -0.177238          -125.9         -60.8119        -37.7833         -60.8118        -37.7848      -0.00705211          150.61
0.508                  -0.182312        -126.374         -60.6498        -39.6185         -60.6496        -39.6202      -0.00710626         150.544
0.509                    -0.1877        -126.849         -60.4854        -41.4524         -60.4852        -41.4543      -0.00716161         150.478
0.51                   -0.193406        -127.326         -60.3187         -43.285         -60.3185        -43.2869      -0.00721818         150.412
0.511                  -0.199432        -127.804         -60.1499        -45.1161         -60.1496        -45.1182      -0.00727598         150.346
0.512                   -0.20578        -128.283          -59.979        -46.9458         -59.9787         -46.948        -0.007335         150.279
0.513                  -0.212452        -128.764         -59.8061        -48.7742         -59.8058        -48.7765      -0.00739526         150.213
0.514                  -0.219452        -129.246         -59.6313        -50.6012         -59.6311        -50.6036      -0.00745676         150.146
0.515                   -0.22678         -129.73         -59.4548         -52.427         -59.4545        -52.4295      -0.00751952          150.08
0.516                   -0.23444        -130.215         -59.2766        -54.2516         -59.2763        -54.2542      -0.00758354         150.013
0.517                  -0.242434        -130.702         -59.0967        -56.0753         -59.0964        -56.0778      -0.00764882         149.946
0.518                  -0.250764         -131.19         -58.9154         -57.898         -58.9151        -57.9006      -0.00771539         149.879
0.519                  -0.259431         -131.68         -58.7326          -59.72         -58.7323        -59.7226      -0.00778325         149.812
0.52                    -0.26844        -132.171         -58.5484        -61.5414         -58.5482        -61.5441       -0.0078524         149.745
0.521                  -0.277791        -132.663         -58.3631        -63.3626         -58.3628        -63.3652      -0.00792285         149.678
0.522                  -0.287486        -133.157         -58.1765        -65.1835         -58.1762        -65.1862      -0.00799462         149.611
0.523                  -0.297529        -133.653         -57.9889        -67.0046         -57.9886        -67.0073      -0.00806771         149.544
0.524                  -0.307921         -134.15         -57.8003         -68.826            -57.8        -68.8287      -0.00814214         149.476
0.525                  -0.318663        -134.648         -57.6107         -70.648         -57.6104        -70.6506       -0.0082179         149.409
0.526                  -0.329759        -135.148         -57.4203        -72.4707           -57.42        -72.4734      -0.00829502         149.341
0.527                   -0.34121         -135.65         -57.2292        -74.2946         -57.2289        -74.2972      -0.00837349         149.273
0.528                  -0.353019        -136.153         -57.0373        -76.1198          -57.037        -76.1224      -0.00845334         149.206
0.529                  -0.365187        -136.657         -56.8449        -77.9466         -56.8446        -77.9492      -0.00853457         149.138
0.53                   -0.377716        -137.163         -56.6519        -79.7753         -56.6517        -79.7778      -0.00861718          149.07
0.531                  -0.390608        -137.671         -56.4585        -81.6062         -56.4583        -81.6086       -0.0087012         149.002
0.532                  -0.403866         -138.18         -56.2648        -83.4395         -56.2645        -83.4419      -0.00878663         148.934
0.533                  -0.417491        -138.691         -56.0707        -85.2755         -56.0704        -85.2778      -0.00887348         148.865
0.534                  -0.431485        -139.203         -55.8764        -87.1144         -55.8761        -87.1167      -0.00896176         148.797
0.535                   -0.44585        -139.717         -55.6819        -88.9566         -55.6817        -88.9588      -0.00905148         148.729
0.536                  -0.460588        -140.233         -55.4874        -90.8023         -55.4871        -90.8044      -0.00914266          148.66
0.537                  -0.475701         -140.75         -55.2928        -92.6517         -55.2926        -92.6537       -0.0092353         148.591
0.538                  -0.491192        -141.269         -55.0983        -94.5051         -55.0981        -94.5071      -0.00932942         148.523
0.539                   -0.50706        -141.789         -54.9039        -96.3627         -54.9037        -96.3646      -0.00942502         148.454
0.54                    -0.52331        -142.311         -54.7097        -98.2247         -54.7095        -98.2265      -0.00952212         148.385
0.541                  -0.539942        -142.834         -54.5157        -100.091         -54.5156        -100.093      -0.00962074         148.316
0.542                  -0.556958         -143.36         -54.3221        -101.963         -54.3219        -101.965      -0.00972087         148.247
0.543                  -0.574361        -143.887         -54.1289         -103.84         -54.1287        -103.841      -0.00982254         148.177
0.544                  -0.592152        -144.415         -53.9361        -105.721         -53.9359        -105.723      -0.00992576         148.108
0.545                  -0.610333        -144.946         -53.7438        -107.609         -53.7437         -107.61       -0.0100305         148.039
0.546                  -0.628907        -145.477         -53.5521        -109.501          -53.552        -109.503       -0.0101369         147.969
0.547                  -0.647874        -146.011         -53.3611          -111.4          -53.361        -111.401       -0.0102448         147.899
0.548                  -0.667237        -146.547         -53.1707        -113.304         -53.1706        -113.305       -0.0103543         147.829
0.549                  -0.686998        -147.084         -52.9811        -115.214          -52.981        -115.215       -0.0104655          147.76
0.55                   -0.707158        -147.623         -52.7924         -117.13         -52.7923        -117.131       -0.0105782          147.69
0.551                  -0.727721        -148.163         -52.6045        -119.052         -52.6044        -119.053       -0.0106926         147.619
0.552                  -0.748687        -148.706         -52.4175         -120.98         -52.4174        -120.981       -0.0108087         147.549
0.553                  -0.770059         -149.25         -52.2315        -122.914         -52.2315        -122.915       -0.0109264         147.479
0.554                  -0.791838        -149.796         -52.0466        -124.855         -52.0465        -124.855       -0.0110458         147.408
0.555                  -0.814028        -150.344         -51.8627        -126.801         -51.8627        -126.801       -0.0111669         147.338
0.556                   -0.83663        -150.893           -51.68        -128.753           -51.68        -128.754       -0.0112897         147.267
0.557                  -0.859646        -151.445         -51.4985        -130.712         -51.4985        -130.712       -0.0114142         147.196
0.558                  -0.883078        -151.998         -51.3182        -132.676         -51.3182        -132.676       -0.0115404         147.125
0.559                   -0.90693        -152.553         -51.1392        -134.646         -51.1392        -134.646       -0.0116684         147.054
0.56                   -0.931202         -153.11         -50.9616        -136.622         -50.9616        -136.622       -0.0117982         146.983
0.561                  -0.955898        -153.669         -50.7853        -138.603         -50.7853        -138.603       -0.0119298         146.911
0.562                  -0.981019         -154.23         -50.6104         -140.59         -50.6104         -140.59       -0.0120631          146.84
0.563                   -1.00657        -154.793         -50.4369        -142.583         -50.4369        -142.582       -0.0121983         146.768
0.564                   -1.03255        -155.358         -50.2649         -144.58         -50.2649        -144.579       -0.0123353         146.696
0.565                   -1.05897        -155.925         -50.0944        -146.582         -50.0944        -146.581       -0.0124741         146.625
0.566                   -1.08582        -156.494         -49.9254        -148.589         -49.9254        -148.588       -0.0126149         146.553
0.567                   -1.11311        -157.065         -49.7579          -150.6          -49.758          -150.6       -0.0127575          146.48
0.568                   -1.14084        -157.638          -49.592        -152.616         -49.5921        -152.615        -0.012902         146.408
0.569                   -1.16902        -158.213         -49.4277        -154.635         -49.4278        -154.635       -0.0130484         146.336
0.57                    -1.19764         -158.79          -49.265        -156.659         -49.2651        -156.658       -0.0131967         146.263
0.571                   -1.22672         -159.37         -49.1039        -158.686          -49.104        -158.685        -0.013347          146.19
0.572                   -1.25625        -159.951         -48.9445        -160.716         -48.9445        -160.714       -0.0134993         146.118
0.573                   -1.28624        -160.535         -48.7866        -162.748         -48.7867        -162.747       -0.0136536         146.045
0.574                    -1.3167        -161.121         -48.6303        -164.784         -48.6304        -164.783       -0.0138099         145.972
0.575                   -1.34761        -161.709         -48.4757        -166.822         -48.4758        -166.821       -0.0139682         145.898
0.576                     -1.379        -162.299         -48.3227        -168.862         -48.3227         -168.86       -0.0141286         145.825
0.577                   -1.41087        -162.891         -48.1713        -170.903         -48.1713        -170.902        -0.014291         145.751
0.578                   -1.44321        -163.486         -48.0214        -172.946         -48.0215        -172.945       -0.0144556         145.678
0.579                   -1.47603        -164.083         -47.8731        -174.991         -47.8732        -174.989       -0.0146222         145.604
0.58                    -1.50934        -164.683         -47.7264        -177.036         -47.7264        -177.035        -0.014791          145.53
0.581                   -1.54314        -165.285         -47.5812        -179.082         -47.5812         -179.08       -0.0149619         145.456
0.582                   -1.57744        -165.889         -47.4375         178.872         -47.4375         178.873        -0.015135         145.381
0.583                   -1.61224        -166.496         -47.2952         176.826         -47.2953         176.827       -0.0153104         145.307
0.584                   -1.64755        -167.105         -47.1544          174.78         -47.1544         174.781       -0.0154879         145.232
0.585                   -1.68337        -167.717          -47.015         172.734          -47.015         172.736       -0.0156677         145.157
0.586                   -1.71971        -168.332         -46.8769         170.689          -46.877         170.691       -0.0158498         145.082
0.587                   -1.75658        -168.948         -46.7402         168.645         -46.7403         168.647       -0.0160341         145.007
0.588                   -1.79398        -169.568         -46.6048         166.602         -46.6048         166.604       -0.0162208         144.932
0.589                   -1.83192         -170.19         -46.4706         164.561         -46.4707         164.562       -0.0164098         144.856
0.59                     -1.8704        -170.815         -46.3376         162.521         -46.3377         162.522       -0.0166013         144.781
0.591                   -1.90944        -171.443         -46.2058         160.482         -46.2058         160.484       -0.0167951         144.705
0.592                   -1.94904        -172.073         -46.0751         158.446         -46.0751         158.447       -0.0169913         144.629
0.593                   -1.98921        -172.706         -45.9454         156.411         -45.9455         156.412         -0.01719         144.553
0.594                   -2.02996        -173.343         -45.8168         154.378         -45.8168          154.38       -0.0173912         144.476
0.595                   -2.07129        -173.982         -45.6891         152.348         -45.6891         152.349       -0.0175949           144.4
0.596                   -2.11322        -174.623         -45.5623          150.32         -45.5623         150.321       -0.0178012         144.323
0.597                   -2.15575        -175.268         -45.4364         148.294         -45.4364         148.295         -0.01801         144.246
0.598                    -2.1989        -175.916         -45.3113          146.27         -45.3113         146.272       -0.0182215         144.169
0.599                   -2.24268        -176.567         -45.1869         144.249         -45.1869         144.251       -0.0184356         144.092
0.6                      -2.2871        -177.221         -45.0633         142.231         -45.0633         142.232       -0.0186524         144.015
0.601                   -2.33216        -177.878         -44.9403         140.215         -44.9402         140.216       -0.0188719         143.937
0.602                   -2.37789        -178.539         -44.8179         138.201         -44.8179         138.202       -0.0190941         143.859
0.603                   -2.42429        -179.202          -44.696          136.19          -44.696         136.191       -0.0193192         143.781
0.604                   -2.47138        -179.869         -44.5747         134.181         -44.5747         134.182       -0.0195471         143.703
0.605                   -2.51917          179.46         -44.4538         132.175         -44.4538         132.175       -0.0197778         143.624
0.606                   -2.56768         178.787         -44.3334          130.17         -44.3334         130.171       -0.0200115         143.546
0.607                   -2.61692          178.11         -44.2133         128.168         -44.2133         128.169       -0.0202482         143.467
0.608                   -2.66691         177.429         -44.0935         126.168         -44.0935         126.169       -0.0204879         143.388
0.609                   -2.71766         176.745         -43.9741         124.171         -43.9741         124.171       -0.0207306         143.308
0.61                    -2.76919         176.057         -43.8549         122.174         -43.8548         122.175       -0.0209765         143.229
0.611                   -2.82153         175.366         -43.7358          120.18         -43.7358         120.181       -0.0212255         143.149
0.612                   -2.87468         174.671          -43.617         118.188          -43.617         118.188       -0.0214778         143.069
0.613                   -2.92868         173.972         -43.4983         116.196         -43.4983         116.197       -0.0217334         142.989
0.614                   -2.98353          173.27         -43.3797         114.206         -43.3797         114.207       -0.0219923         142.908
0.615                   -3.03927         172.563         -43.2611         112.218         -43.2611         112.218       -0.0222547         142.828
0.616                   -3.09591         171.853         -43.1426          110.23         -43.1426          110.23       -0.0225205         142.747
0.617                   -3.15349         171.139         -43.0241         108.243         -43.0241         108.243         -0.02279         142.666
0.618                   -3.21202         170.421         -42.9057         106.256         -42.9056         106.256       -0.0230631         142.584
0.619                   -3.27153         169.699         -42.7871          104.27         -42.7871          104.27         -0.02334         142.503
0.62                    -3.33205         168.973         -42.6686         102.285         -42.6685         102.285       -0.0236207         142.421
0.621                   -3.39361         168.242         -42.5499         100.299         -42.5499         100.299       -0.0239054         142.339
0.622                   -3.45623         167.508         -42.4312         98.3129         -42.4312         98.3129       -0.0241941         142.257
0.623                   -3.51996         166.769         -42.3123         96.3266         -42.3123         96.3266        -0.024487         142.174
0.624                   -3.58482         166.026         -42.1934         94.3397         -42.1934         94.3396       -0.0247842         142.091
0.625                   -3.65085         165.279         -42.0743          92.352         -42.0743         92.3519       -0.0250859         142.008
0.626                   -3.71808         164.528         -41.9551         90.3633         -41.9551         90.3632       -0.0253921         141.924
0.627                   -3.78656         163.772         -41.8358         88.3734         -41.8358         88.3733       -0.0257031         141.841
0.628                   -3.85631         163.012         -41.7164         86.3821         -41.7164          86.382        -0.026019         141.757
0.629                   -3.92739         162.248         -41.5968         84.3892         -41.5968          84.389       -0.0263399         141.673
