! TOUCHSTONE file generated by CST MICROWAVE STUDIO
! Date and time: Fri Oct  2 16:59:37 2020
! Project name: Scenario_1_Free_Space_out_of_line.cst
! Parameters = {Lambda=346.42; Step_1=17.321; dy1=-189.931; dx1=693; L_HA=400; MT=2.54; Rad_Dielectric=30; Rad_Lower=7.3; Rad_Upper=30; a_HA=580; a_WG=246; b_HA=500; b_WG=121; c_HA=0; c_WG=187; d_feed=85; h_feed=15; h_lower=18; h_upper=40}
! Header version: 2018
! Port assignment regex: !\s*Touchstone port\s*([0-9]+)\s*=\s*(CST MWS port|CST DS port)\s*([0-9]+|Zmin|Zmax)\s*\(\"(.*)\"\)(\s*mode\s*([0-9]+))?.*
! Touchstone port assignment:
! Touchstone port 1 = CST MWS port 1 ("")
! Touchstone port 2 = CST MWS port 2 ("")
# GHz S DB R 50
0.5                    -0.146957        -122.669         -63.1573        -120.971         -63.1573        -120.971      -0.00668649          151.11
0.501                  -0.154319        -123.122         -63.0219        -123.243         -63.0219        -123.243      -0.00671217         151.045
0.502                  -0.161879        -123.576         -62.8822         -125.51         -62.8823         -125.51      -0.00673952         150.979
0.503                  -0.169636        -124.032         -62.7385        -127.771         -62.7385        -127.772      -0.00676858         150.914
0.504                  -0.177589        -124.488         -62.5909        -130.027         -62.5909        -130.027      -0.00679941         150.849
0.505                   -0.18574        -124.947         -62.4394        -132.276         -62.4395        -132.277      -0.00683208         150.783
0.506                  -0.194087        -125.406         -62.2844        -134.518         -62.2845        -134.519      -0.00686663         150.717
0.507                  -0.202632        -125.867         -62.1259        -136.753          -62.126        -136.753      -0.00690313         150.652
0.508                  -0.211373        -126.329         -61.9642        -138.979         -61.9643         -138.98      -0.00694163         150.586
0.509                   -0.22031        -126.793         -61.7993        -141.197         -61.7994        -141.198      -0.00698218          150.52
0.51                   -0.229444        -127.258         -61.6315        -143.407         -61.6316        -143.408      -0.00702484         150.454
0.511                  -0.238774        -127.724         -61.4608        -145.608          -61.461        -145.609      -0.00706966         150.388
0.512                    -0.2483        -128.192         -61.2876          -147.8         -61.2877        -147.801      -0.00711669         150.322
0.513                  -0.258021        -128.661         -61.1118        -149.984          -61.112        -149.984      -0.00716597         150.256
0.514                  -0.267938        -129.131         -60.9338        -152.158         -60.9339        -152.159      -0.00721754         150.189
0.515                  -0.278049        -129.603         -60.7536        -154.324         -60.7537        -154.325      -0.00727144         150.123
0.516                  -0.288354        -130.076         -60.5713        -156.481         -60.5715        -156.482       -0.0073277         150.056
0.517                  -0.298854        -130.551         -60.3873        -158.629         -60.3874         -158.63      -0.00738636          149.99
0.518                  -0.309546        -131.028         -60.2015        -160.769         -60.2016         -160.77      -0.00744742         149.923
0.519                  -0.320432        -131.505         -60.0141        -162.902         -60.0142        -162.903       -0.0075109         149.857
0.52                    -0.33151        -131.985         -59.8253        -165.026         -59.8254        -165.027      -0.00757682          149.79
0.521                   -0.34278        -132.465         -59.6351        -167.143         -59.6353        -167.144      -0.00764517         149.723
0.522                  -0.354241        -132.948         -59.4438        -169.253          -59.444        -169.254      -0.00771596         149.656
0.523                  -0.365893        -133.431         -59.2514        -171.355         -59.2516        -171.357      -0.00778917         149.589
0.524                  -0.377735        -133.917         -59.0581        -173.452         -59.0583        -173.453      -0.00786479         149.522
0.525                  -0.389767        -134.404         -58.8639        -175.543         -58.8641        -175.544      -0.00794278         149.455
0.526                  -0.401989        -134.892          -58.669        -177.628         -58.6692        -177.629      -0.00802314         149.387
0.527                  -0.414399        -135.383         -58.4735        -179.708         -58.4737        -179.709      -0.00810581          149.32
0.528                  -0.426998        -135.875         -58.2775         178.217         -58.2776         178.216      -0.00819077         149.252
0.529                  -0.439784        -136.368          -58.081         176.146         -58.0812         176.145      -0.00827797         149.185
0.53                   -0.452759        -136.864         -57.8842         174.079         -57.8843         174.078      -0.00836735         149.117
0.531                  -0.465921        -137.361         -57.6871         172.015         -57.6873         172.014      -0.00845888         149.049
0.532                   -0.47927         -137.86         -57.4899         169.955           -57.49         169.954      -0.00855249         148.981
0.533                  -0.492807         -138.36         -57.2926         167.896         -57.2927         167.895      -0.00864814         148.913
0.534                  -0.506531        -138.863         -57.0953          165.84         -57.0954         165.839      -0.00874575         148.845
0.535                  -0.520444        -139.368          -56.898         163.785         -56.8981         163.784      -0.00884528         148.777
0.536                  -0.534544        -139.874         -56.7009         161.732          -56.701         161.731      -0.00894667         148.708
0.537                  -0.548834        -140.383          -56.504         159.679         -56.5041         159.678      -0.00904985          148.64
0.538                  -0.563313        -140.893         -56.3073         157.627         -56.3075         157.626      -0.00915478         148.571
0.539                  -0.577984        -141.406          -56.111         155.574         -56.1112         155.573      -0.00926139         148.503
0.54                   -0.592846        -141.921         -55.9152         153.521         -55.9153         153.521      -0.00936963         148.434
0.541                  -0.607903        -142.438         -55.7197         151.468         -55.7198         151.467      -0.00947946         148.365
0.542                  -0.623156        -142.957         -55.5248         149.413         -55.5249         149.412      -0.00959082         148.296
0.543                  -0.638607        -143.479         -55.3305         147.356         -55.3305         147.355      -0.00970367         148.227
0.544                  -0.654259        -144.003         -55.1367         145.298         -55.1368         145.297      -0.00981797         148.158
0.545                  -0.670116        -144.529         -54.9437         143.237         -54.9438         143.236      -0.00993368         148.088
0.546                  -0.686182        -145.058         -54.7514         141.174         -54.7515         141.173       -0.0100508         148.019
0.547                   -0.70246         -145.59         -54.5598         139.108         -54.5599         139.107       -0.0101692         147.949
0.548                  -0.718955        -146.124         -54.3691         137.039         -54.3692         137.038        -0.010289         147.879
0.549                  -0.735673        -146.661         -54.1793         134.967         -54.1794         134.966         -0.01041          147.81
0.55                   -0.752621        -147.201         -53.9904         132.891         -53.9905          132.89       -0.0105323          147.74
0.551                  -0.769805        -147.743         -53.8024         130.811         -53.8025          130.81       -0.0106559          147.67
0.552                  -0.787233        -148.289         -53.6155         128.727         -53.6155         128.726       -0.0107808         147.599
0.553                  -0.804913        -148.837         -53.4296         126.639         -53.4296         126.638       -0.0109069         147.529
0.554                  -0.822855        -149.389         -53.2447         124.546         -53.2448         124.546       -0.0110342         147.459
0.555                   -0.84107        -149.944          -53.061         122.449         -53.0611         122.449       -0.0111628         147.388
0.556                  -0.859567        -150.502         -52.8785         120.348         -52.8785         120.348       -0.0112926         147.318
0.557                  -0.878361        -151.064         -52.6971         118.241         -52.6971         118.241       -0.0114237         147.247
0.558                  -0.897464        -151.629         -52.5169          116.13          -52.517          116.13        -0.011556         147.176
0.559                  -0.916892        -152.198         -52.3381         114.014         -52.3381         114.014       -0.0116896         147.105
0.56                   -0.936659         -152.77         -52.1605         111.893         -52.1605         111.893       -0.0118244         147.034
0.561                  -0.956782        -153.345         -51.9842         109.767         -51.9842         109.767       -0.0119606         146.962
0.562                   -0.97728        -153.925         -51.8092         107.636         -51.8093         107.635       -0.0120981         146.891
0.563                  -0.998172        -154.508         -51.6357         105.499         -51.6357         105.499       -0.0122369         146.819
0.564                   -1.01948        -155.096         -51.4635         103.358         -51.4635         103.358        -0.012377         146.748
0.565                   -1.04122        -155.687         -51.2928         101.212         -51.2928         101.212       -0.0125185         146.676
0.566                   -1.06342        -156.282         -51.1235         99.0604         -51.1234         99.0605       -0.0126615         146.604
0.567                   -1.08611        -156.881         -50.9556         96.9043         -50.9556         96.9043       -0.0128058         146.532
0.568                   -1.10931        -157.485         -50.7892         94.7433         -50.7892         94.7434       -0.0129516         146.459
0.569                   -1.13303        -158.092         -50.6243         92.5777         -50.6243         92.5777       -0.0130989         146.387
0.57                    -1.15733        -158.704         -50.4609         90.4074         -50.4609         90.4075       -0.0132476         146.314
0.571                   -1.18221        -159.319         -50.2991         88.2326          -50.299         88.2327       -0.0133979         146.242
0.572                   -1.20771        -159.939         -50.1387         86.0535         -50.1387         86.0536       -0.0135498         146.169
0.573                   -1.23386        -160.563         -49.9799         83.8702         -49.9799         83.8703       -0.0137033         146.096
0.574                   -1.26068        -161.191         -49.8226         81.6828         -49.8226          81.683       -0.0138583         146.023
0.575                   -1.28822        -161.823         -49.6669         79.4916         -49.6668         79.4918       -0.0140151          145.95
0.576                   -1.31649        -162.459         -49.5126         77.2966         -49.5126         77.2968       -0.0141735         145.876
0.577                   -1.34554        -163.099           -49.36         75.0981         -49.3599         75.0984       -0.0143337         145.803
0.578                   -1.37538        -163.743         -49.2088         72.8963         -49.2088         72.8966       -0.0144956         145.729
0.579                   -1.40605        -164.391         -49.0592         70.6914         -49.0591         70.6917       -0.0146594         145.655
0.58                    -1.43757        -165.042         -48.9111         68.4836          -48.911         68.4838       -0.0148249         145.581
0.581                   -1.46998        -165.696         -48.7644          66.273         -48.7644         66.2732       -0.0149924         145.507
0.582                    -1.5033        -166.354         -48.6193         64.0599         -48.6193         64.0601       -0.0151617         145.433
0.583                   -1.53755        -167.015         -48.4756         61.8445         -48.4756         61.8448        -0.015333         145.358
0.584                   -1.57276         -167.68         -48.3334          59.627         -48.3334         59.6273       -0.0155062         145.284
0.585                   -1.60894        -168.347         -48.1926         57.4077         -48.1926         57.4079       -0.0156815         145.209
0.586                   -1.64612        -169.016         -48.0533         55.1867         -48.0532         55.1869       -0.0158589         145.134
0.587                   -1.68431        -169.688         -47.9153         52.9642         -47.9152         52.9645       -0.0160383         145.059
0.588                   -1.72353        -170.363         -47.7786         50.7405         -47.7786         50.7408       -0.0162199         144.983
0.589                   -1.76378        -171.039         -47.6433         48.5158         -47.6433          48.516       -0.0164036         144.908
0.59                    -1.80509        -171.717         -47.5093         46.2902         -47.5093         46.2904       -0.0165896         144.832
0.591                   -1.84744        -172.397         -47.3766          44.064         -47.3765         44.0642       -0.0167779         144.756
0.592                   -1.89085        -173.079         -47.2451         41.8373          -47.245         41.8376       -0.0169684         144.681
0.593                   -1.93531        -173.761         -47.1148         39.6104         -47.1147         39.6106       -0.0171613         144.604
0.594                   -1.98083        -174.445         -46.9856         37.3834         -46.9856         37.3836       -0.0173566         144.528
0.595                    -2.0274        -175.129         -46.8576         35.1564         -46.8576         35.1566       -0.0175543         144.451
0.596                   -2.07501        -175.814         -46.7307         32.9297         -46.7306         32.9299       -0.0177545         144.375
0.597                   -2.12365        -176.499         -46.6048         30.7033         -46.6047         30.7035       -0.0179572         144.298
0.598                   -2.17332        -177.185         -46.4799         28.4775         -46.4799         28.4777       -0.0181626         144.221
0.599                     -2.224        -177.871          -46.356         26.2523         -46.3559         26.2525       -0.0183705         144.144
0.6                     -2.27567        -178.557          -46.233          24.028          -46.233         24.0281       -0.0185811         144.066
0.601                   -2.32833        -179.242         -46.1109         21.8045         -46.1108         21.8046       -0.0187945         143.988
0.602                   -2.38194        -179.928         -45.9896          19.582         -45.9896         19.5821       -0.0190106         143.911
0.603                   -2.43651         179.387         -45.8691         17.3605         -45.8691         17.3607       -0.0192295         143.832
0.604                     -2.492         178.703         -45.7494         15.1403         -45.7494         15.1404       -0.0194514         143.754
0.605                    -2.5484         178.019         -45.6304         12.9213         -45.6303         12.9214       -0.0196761         143.676
0.606                    -2.6057         177.335          -45.512         10.7036          -45.512         10.7037       -0.0199039         143.597
0.607                   -2.66386         176.652         -45.3943         8.48718         -45.3943         8.48728       -0.0201347         143.518
0.608                   -2.72289          175.97         -45.2772         6.27219         -45.2771         6.27228       -0.0203687         143.439
0.609                   -2.78275         175.288         -45.1606         4.05861         -45.1605         4.05869       -0.0206058          143.36
0.61                    -2.84344         174.606         -45.0445         1.84646         -45.0444         1.84653       -0.0208462          143.28
0.611                   -2.90494         173.926         -44.9288       -0.364256         -44.9288       -0.364193       -0.0210898         143.201
0.612                   -2.96723         173.245         -44.8136        -2.57353         -44.8136        -2.57347       -0.0213368         143.121
0.613                   -3.03031         172.566         -44.6987        -4.78137         -44.6987        -4.78133       -0.0215873          143.04
0.614                   -3.09416         171.886         -44.5842        -6.98781         -44.5842        -6.98777       -0.0218413          142.96
0.615                   -3.15877         171.207         -44.4701        -9.19286           -44.47        -9.19283       -0.0220988         142.879
0.616                   -3.22414         170.528         -44.3561        -11.3966         -44.3561        -11.3966         -0.02236         142.798
0.617                   -3.29026          169.85         -44.2424         -13.599         -44.2424         -13.599        -0.022625         142.717
0.618                   -3.35713         169.171          -44.129        -15.8002         -44.1289        -15.8001       -0.0228937         142.636
0.619                   -3.42474         168.492         -44.0156        -18.0001         -44.0156        -18.0001       -0.0231663         142.554
0.62                    -3.49309         167.814         -43.9025         -20.199         -43.9025         -20.199       -0.0234429         142.472
0.621                    -3.5622         167.135         -43.7894        -22.3968         -43.7894        -22.3968       -0.0237236          142.39
0.622                   -3.63205         166.455         -43.6764        -24.5937         -43.6764        -24.5937       -0.0240084         142.308
0.623                   -3.70265         165.775         -43.5635        -26.7897         -43.5635        -26.7897       -0.0242975         142.225
0.624                   -3.77402         165.095         -43.4506        -28.9849         -43.4506        -28.9849       -0.0245909         142.143
0.625                   -3.84617         164.414         -43.3377        -31.1794         -43.3377        -31.1794       -0.0248887         142.059
0.626                   -3.91909         163.732         -43.2247        -33.3733         -43.2248        -33.3733       -0.0251911         141.976
0.627                   -3.99281         163.049         -43.1118        -35.5667         -43.1118        -35.5668       -0.0254981         141.892
0.628                   -4.06735         162.366         -42.9988        -37.7598         -42.9988        -37.7598       -0.0258099         141.808
0.629                   -4.14271         161.681         -42.8857        -39.9526         -42.8857        -39.9527       -0.0261266         141.724
