! TOUCHSTONE file generated by CST MICROWAVE STUDIO
! Date and time: Fri Oct  2 19:15:39 2020
! Project name: Scenario_1_Free_Space_out_of_line.cst
! Parameters = {Lambda=346.42; Step_1=17.321; dy1=-189.931; dx1=866; L_HA=400; MT=2.54; Rad_Dielectric=30; Rad_Lower=7.3; Rad_Upper=30; a_HA=580; a_WG=246; b_HA=500; b_WG=121; c_HA=0; c_WG=187; d_feed=85; h_feed=15; h_lower=18; h_upper=40}
! Header version: 2018
! Port assignment regex: !\s*Touchstone port\s*([0-9]+)\s*=\s*(CST MWS port|CST DS port)\s*([0-9]+|Zmin|Zmax)\s*\(\"(.*)\"\)(\s*mode\s*([0-9]+))?.*
! Touchstone port assignment:
! Touchstone port 1 = CST MWS port 1 ("")
! Touchstone port 2 = CST MWS port 2 ("")
# GHz S DB R 50
0.5                    -0.148451        -122.568          -63.893         140.626          -63.893         140.626      -0.00661725         151.127
0.501                  -0.152384        -123.019         -63.7415         138.449         -63.7452         138.453      -0.00667872         151.061
0.502                  -0.156594        -123.471         -63.5869         136.269         -63.5941         136.278      -0.00674124         150.996
0.503                  -0.161087        -123.926         -63.4292         134.087         -63.4397           134.1      -0.00680481          150.93
0.504                  -0.165865        -124.383         -63.2687         131.903         -63.2823         131.919      -0.00686942         150.865
0.505                  -0.170931        -124.842         -63.1053         129.716         -63.1218         129.735      -0.00693509         150.799
0.506                  -0.176289        -125.303         -62.9392         127.528         -62.9584         127.549      -0.00700182         150.733
0.507                  -0.181943        -125.766         -62.7705         125.338         -62.7922         125.361       -0.0070696         150.667
0.508                  -0.187895        -126.231         -62.5993         123.146         -62.6232          123.17      -0.00713843         150.601
0.509                  -0.194148        -126.698         -62.4258         120.951         -62.4518         120.977      -0.00720833         150.535
0.51                   -0.200706        -127.167         -62.2499         118.755         -62.2778         118.782      -0.00727929         150.469
0.511                  -0.207572        -127.638         -62.0719         116.556         -62.1015         116.584      -0.00735132         150.403
0.512                  -0.214748        -128.111         -61.8919         114.355          -61.923         114.384      -0.00742441         150.337
0.513                  -0.222238        -128.586         -61.7099         112.152         -61.7424         112.182      -0.00749858          150.27
0.514                  -0.230045        -129.063         -61.5262         109.946         -61.5597         109.976      -0.00757381         150.204
0.515                   -0.23817        -129.542         -61.3406         107.737         -61.3752         107.768      -0.00765011         150.138
0.516                  -0.246618        -130.022         -61.1535         105.525         -61.1889         105.557      -0.00772749         150.071
0.517                   -0.25539        -130.505         -60.9649          103.31          -61.001         103.342      -0.00780595         150.004
0.518                  -0.264488        -130.989          -60.775         101.091         -60.8115         101.124      -0.00788548         149.938
0.519                  -0.273917        -131.476         -60.5837         98.8688         -60.6206         98.9016       -0.0079661         149.871
0.52                   -0.283677        -131.964         -60.3913         96.6423         -60.4284         96.6755      -0.00804779         149.804
0.521                  -0.293771        -132.454         -60.1978         94.4113          -60.235         94.4451      -0.00813057         149.737
0.522                  -0.304201        -132.946         -60.0034         92.1758         -60.0406         92.2101      -0.00821444          149.67
0.523                   -0.31497         -133.44         -59.8081         89.9354         -59.8451         89.9702      -0.00829939         149.603
0.524                  -0.326078        -133.935         -59.6121         87.6898         -59.6489         87.7251      -0.00838543         149.535
0.525                  -0.337529        -134.432         -59.4155         85.4388         -59.4519         85.4746      -0.00847255         149.468
0.526                  -0.349323        -134.932         -59.2183         83.1821         -59.2542         83.2185      -0.00856077           149.4
0.527                  -0.361462        -135.432         -59.0207         80.9194         -59.0561         80.9563      -0.00865008         149.333
0.528                  -0.373949        -135.935         -58.8228         78.6504         -58.8576         78.6879      -0.00874048         149.265
0.529                  -0.386783        -136.439         -58.6247          76.375         -58.6587          76.413      -0.00883198         149.198
0.53                   -0.399967        -136.946         -58.4265         74.0928         -58.4597         74.1313      -0.00892457          149.13
0.531                  -0.413501        -137.453         -58.2283         71.8037         -58.2606         71.8427      -0.00901825         149.062
0.532                  -0.427387        -137.963         -58.0301         69.5075         -58.0615          69.547      -0.00911303         148.994
0.533                  -0.441625        -138.474         -57.8321          67.204         -57.8625         67.2438      -0.00920891         148.926
0.534                  -0.456216        -138.987         -57.6344          64.893         -57.6638         64.9332      -0.00930589         148.858
0.535                  -0.471162        -139.502         -57.4371         62.5744         -57.4654         62.6148      -0.00940396         148.789
0.536                  -0.486461        -140.018         -57.2402         60.2481         -57.2675         60.2887      -0.00950314         148.721
0.537                  -0.502115        -140.536          -57.044          57.914           -57.07         57.9546       -0.0096034         148.652
0.538                  -0.518124        -141.056         -56.8483          55.572         -56.8732         55.6126      -0.00970477         148.584
0.539                  -0.534487        -141.577         -56.6534         53.2221         -56.6772         53.2626      -0.00980724         148.515
0.54                   -0.551206          -142.1         -56.4594         50.8642         -56.4819         50.9045       -0.0099108         148.446
0.541                  -0.568279        -142.624         -56.2662         48.4985         -56.2876         48.5385       -0.0100155         148.377
0.542                  -0.585707         -143.15         -56.0741         46.1249         -56.0942         46.1645       -0.0101212         148.308
0.543                  -0.603488        -143.678          -55.883         43.7436          -55.902         43.7826       -0.0102281         148.239
0.544                  -0.621623        -144.207         -55.6931         41.3546         -55.7109         41.3929        -0.010336          148.17
0.545                  -0.640111        -144.738         -55.5044         38.9581          -55.521         38.9955       -0.0104451         148.101
0.546                  -0.658951        -145.271         -55.3169         36.5542         -55.3324         36.5907       -0.0105552         148.031
0.547                  -0.678142        -145.805         -55.1309         34.1432         -55.1453         34.1787       -0.0106665         147.962
0.548                  -0.697683        -146.341         -54.9463         31.7252         -54.9596         31.7596       -0.0107788         147.892
0.549                  -0.717573        -146.879         -54.7631         29.3006         -54.7754         29.3337       -0.0108922         147.823
0.55                   -0.737811        -147.418         -54.5815         26.8695         -54.5927         26.9013       -0.0110067         147.753
0.551                  -0.758395        -147.958         -54.4015         24.4324         -54.4117         24.4627       -0.0111223         147.683
0.552                  -0.779325        -148.501         -54.2231         21.9895         -54.2324         22.0183        -0.011239         147.613
0.553                  -0.800598        -149.045         -54.0464         19.5412         -54.0547         19.5683       -0.0113568         147.542
0.554                  -0.822213         -149.59         -53.8714         17.0878         -53.8788         17.1133       -0.0114756         147.472
0.555                  -0.844169        -150.138         -53.6981         14.6297         -53.7047         14.6535       -0.0115956         147.402
0.556                  -0.866464        -150.687         -53.5266         12.1673         -53.5324         12.1894       -0.0117166         147.331
0.557                  -0.889096        -151.238         -53.3568         9.70108         -53.3618         9.72136       -0.0118388          147.26
0.558                  -0.912064         -151.79         -53.1888         7.23137         -53.1932         7.24986        -0.011962          147.19
0.559                  -0.935367        -152.345         -53.0226         4.75862         -53.0263         4.77533       -0.0120863         147.119
0.56                   -0.959003        -152.901         -52.8582         2.28325         -52.8613          2.2982       -0.0122117         147.048
0.561                   -0.98297        -153.459         -52.6955         -0.1943         -52.6981       -0.181098       -0.0123381         146.976
0.562                   -1.00727        -154.019         -52.5346        -2.67361         -52.5368        -2.66211       -0.0124657         146.905
0.563                   -1.03189        -154.581         -52.3755        -5.15426         -52.3772        -5.14441       -0.0125944         146.834
0.564                   -1.05684        -155.144         -52.2182        -7.63583         -52.2194        -7.62757       -0.0127242         146.762
0.565                   -1.08212         -155.71         -52.0625        -10.1179         -52.0634        -10.1112       -0.0128551          146.69
0.566                   -1.10773        -156.278         -51.9085        -12.6001         -51.9091        -12.5948       -0.0129871         146.619
0.567                   -1.13366        -156.848         -51.7561        -15.0821         -51.7564        -15.0781       -0.0131202         146.547
0.568                   -1.15992         -157.42         -51.6054        -17.5634         -51.6054        -17.5607       -0.0132545         146.475
0.569                    -1.1865        -157.994         -51.4562        -20.0437          -51.456        -20.0422       -0.0133899         146.402
0.57                     -1.2134        -158.571         -51.3085        -22.5228         -51.3082        -22.5223       -0.0135265          146.33
0.571                   -1.24064         -159.15         -51.1622        -25.0003         -51.1618        -25.0007       -0.0136642         146.257
0.572                    -1.2682        -159.731         -51.0174        -27.4758         -51.0169        -27.4771       -0.0138032         146.185
0.573                   -1.29609        -160.315         -50.8739        -29.9493         -50.8733        -29.9512       -0.0139434         146.112
0.574                   -1.32431        -160.902         -50.7318        -32.4204         -50.7311        -32.4229       -0.0140849         146.039
0.575                   -1.35287        -161.491         -50.5908        -34.8889         -50.5901        -34.8918       -0.0142277         145.966
0.576                   -1.38176        -162.083          -50.451        -37.3547         -50.4503        -37.3579       -0.0143718         145.893
0.577                     -1.411        -162.678         -50.3123        -39.8175         -50.3116         -39.821       -0.0145172         145.819
0.578                   -1.44059        -163.276         -50.1747        -42.2773          -50.174         -42.281       -0.0146641         145.746
0.579                   -1.47053        -163.877          -50.038        -44.7341         -50.0374        -44.7377       -0.0148125         145.672
0.58                    -1.50083        -164.481         -49.9023        -47.1876         -49.9017        -47.1912       -0.0149624         145.598
0.581                    -1.5315        -165.088         -49.7674        -49.6379         -49.7668        -49.6413       -0.0151139         145.524
0.582                   -1.56256        -165.699         -49.6333        -52.0849         -49.6328        -52.0881       -0.0152671          145.45
0.583                     -1.594        -166.313         -49.4999        -54.5287         -49.4995        -54.5316       -0.0154221         145.375
0.584                   -1.62585        -166.931         -49.3672        -56.9693         -49.3668        -56.9718       -0.0155789         145.301
0.585                   -1.65811        -167.553         -49.2351        -59.4067         -49.2348        -59.4088       -0.0157376         145.226
0.586                    -1.6908        -168.179         -49.1035         -61.841         -49.1033        -61.8427       -0.0158984         145.151
0.587                   -1.72394        -168.808         -48.9725        -64.2724         -48.9723        -64.2735       -0.0160613         145.076
0.588                   -1.75755        -169.442         -48.8419        -66.7008         -48.8418        -66.7015       -0.0162265         145.001
0.589                   -1.79165         -170.08         -48.7117        -69.1266         -48.7116        -69.1267       -0.0163942         144.925
0.59                    -1.82625        -170.723         -48.5818        -71.5498         -48.5818        -71.5493       -0.0165644          144.85
0.591                   -1.86139         -171.37         -48.4522        -73.9705         -48.4523        -73.9695       -0.0167372         144.774
0.592                   -1.89709        -172.022          -48.323        -76.3891         -48.3231        -76.3875       -0.0169129         144.698
0.593                   -1.93337        -172.678         -48.1939        -78.8056          -48.194        -78.8035       -0.0170916         144.622
0.594                   -1.97028         -173.34          -48.065        -81.2203         -48.0652        -81.2176       -0.0172734         144.546
0.595                   -2.00784        -174.007         -47.9363        -83.6334         -47.9365        -83.6302       -0.0174585         144.469
0.596                   -2.04609        -174.678         -47.8077        -86.0451          -47.808        -86.0415        -0.017647         144.392
0.597                   -2.08507        -175.355         -47.6793        -88.4557         -47.6795        -88.4516       -0.0178392         144.315
0.598                   -2.12481        -176.038         -47.5509        -90.8653         -47.5511        -90.8609       -0.0180351         144.238
0.599                   -2.16537        -176.726         -47.4226        -93.2743         -47.4228        -93.2695       -0.0182349         144.161
0.6                     -2.20679        -177.419         -47.2943        -95.6828         -47.2946        -95.6777       -0.0184388         144.083
0.601                   -2.24911        -178.118         -47.1661        -98.0911         -47.1664        -98.0858       -0.0186469         144.006
0.602                   -2.29239        -178.823         -47.0379        -100.499         -47.0382        -100.494       -0.0188594         143.928
0.603                   -2.33667        -179.533         -46.9098        -102.908           -46.91        -102.902       -0.0190762          143.85
0.604                   -2.38203         179.751         -46.7817        -105.317         -46.7819        -105.312       -0.0192976         143.771
0.605                    -2.4285          179.03         -46.6536        -107.727         -46.6538        -107.721       -0.0195236         143.693
0.606                   -2.47616         178.303         -46.5256        -110.138         -46.5258        -110.132       -0.0197543         143.614
0.607                   -2.52505          177.57         -46.3976         -112.55         -46.3978        -112.544       -0.0199898         143.535
0.608                   -2.57525         176.833         -46.2696        -114.963         -46.2698        -114.958         -0.02023         143.456
0.609                   -2.62682          176.09         -46.1418        -117.378         -46.1419        -117.373        -0.020475         143.377
0.61                    -2.67981         175.341          -46.014        -119.794         -46.0141         -119.79       -0.0207249         143.297
0.611                    -2.7343         174.588         -45.8863        -122.213         -45.8864        -122.208       -0.0209796         143.217
0.612                   -2.79035         173.831         -45.7588        -124.633         -45.7589        -124.629        -0.021239         143.137
0.613                   -2.84801         173.068         -45.6314        -127.056         -45.6315        -127.052       -0.0215032         143.057
0.614                   -2.90735         172.302         -45.5042        -129.481         -45.5043        -129.478       -0.0217721         142.977
0.615                   -2.96842         171.532         -45.3772        -131.908         -45.3772        -131.905       -0.0220456         142.896
0.616                   -3.03129         170.759         -45.2504        -134.338         -45.2504        -134.336       -0.0223237         142.815
0.617                   -3.09601         169.983         -45.1238         -136.77         -45.1239        -136.768       -0.0226063         142.734
0.618                   -3.16263         169.204         -44.9976        -139.205         -44.9976        -139.204       -0.0228934         142.653
0.619                   -3.23118         168.423         -44.8716        -141.642         -44.8717        -141.642       -0.0231848         142.571
0.62                    -3.30172         167.641          -44.746        -144.082         -44.7461        -144.083       -0.0234805         142.489
0.621                   -3.37428         166.857         -44.6208        -146.525         -44.6209        -146.526       -0.0237805         142.407
0.622                   -3.44889         166.073          -44.496         -148.97         -44.4961        -148.972       -0.0240846         142.325
0.623                   -3.52556         165.289         -44.3716        -151.418         -44.3717         -151.42       -0.0243929         142.242
0.624                   -3.60432         164.506         -44.2477        -153.869         -44.2479        -153.872       -0.0247052          142.16
0.625                   -3.68518         163.725         -44.1242        -156.322         -44.1245        -156.325       -0.0250215         142.077
0.626                   -3.76814         162.945         -44.0013        -158.777         -44.0016        -158.781       -0.0253419         141.993
0.627                   -3.85319         162.167          -43.879        -161.235         -43.8793        -161.239       -0.0256662          141.91
0.628                   -3.94031         161.393         -43.7572        -163.694         -43.7576        -163.699       -0.0259944         141.826
0.629                    -4.0295         160.623          -43.636        -166.156         -43.6364        -166.161       -0.0263266         141.742
