! TOUCHSTONE file generated by CST MICROWAVE STUDIO
! Date and time: Fri Oct  2 18:59:21 2020
! Project name: Scenario_1_Free_Space_out_of_line.cst
! Parameters = {Lambda=346.42; Step_1=17.321; dy1=-189.931; dx1=1039; L_HA=400; MT=2.54; Rad_Dielectric=30; Rad_Lower=7.3; Rad_Upper=30; a_HA=580; a_WG=246; b_HA=500; b_WG=121; c_HA=0; c_WG=187; d_feed=85; h_feed=15; h_lower=18; h_upper=40}
! Header version: 2018
! Port assignment regex: !\s*Touchstone port\s*([0-9]+)\s*=\s*(CST MWS port|CST DS port)\s*([0-9]+|Zmin|Zmax)\s*\(\"(.*)\"\)(\s*mode\s*([0-9]+))?.*
! Touchstone port assignment:
! Touchstone port 1 = CST MWS port 1 ("")
! Touchstone port 2 = CST MWS port 2 ("")
# GHz S DB R 50
0.5                    -0.147884        -122.507         -64.4608         44.3094         -64.4608         44.3094      -0.00671402         151.119
0.501                  -0.152024        -122.936         -64.7689         40.4123         -64.7695         40.4121      -0.00677187         151.054
0.502                  -0.156351        -123.368         -65.0503          36.251         -65.0516           36.25      -0.00683042         150.988
0.503                   -0.16087        -123.801         -65.2981         31.8368         -65.2999         31.8343      -0.00688969         150.923
0.504                  -0.165585        -124.238         -65.5049         27.1923         -65.5074         27.1874      -0.00694969         150.857
0.505                  -0.170503        -124.677         -65.6642         22.3524         -65.6672         22.3445      -0.00701042         150.791
0.506                  -0.175628        -125.118         -65.7702         17.3639         -65.7736         17.3525      -0.00707189         150.726
0.507                  -0.180965        -125.563         -65.8189         12.2839         -65.8227         12.2684      -0.00713413          150.66
0.508                   -0.18652        -126.009         -65.8087         7.17541         -65.8126         7.15556      -0.00719713         150.594
0.509                  -0.192299        -126.459           -65.74         2.10275          -65.744         2.07855       -0.0072609         150.528
0.51                   -0.198307        -126.911         -65.6158        -2.87349         -65.6197        -2.90186      -0.00732547         150.462
0.511                  -0.204549        -127.365         -65.4409        -7.70106         -65.4446        -7.73323      -0.00739083         150.396
0.512                  -0.211031        -127.822         -65.2217        -12.3389         -65.2251        -12.3743        -0.007457          150.33
0.513                  -0.217759        -128.282          -64.965        -16.7582         -64.9681        -16.7964      -0.00752399         150.263
0.514                  -0.224738        -128.744         -64.6781        -20.9425         -64.6808        -20.9828      -0.00759182         150.197
0.515                  -0.231974        -129.209         -64.3678        -24.8854           -64.37        -24.9272      -0.00766049         150.131
0.516                  -0.239473        -129.677         -64.0402        -28.5892         -64.0421         -28.632      -0.00773001         150.064
0.517                   -0.24724        -130.147         -63.7009        -32.0622         -63.7023        -32.1055       -0.0078004         149.997
0.518                  -0.255281         -130.62         -63.3543        -35.3171         -63.3554        -35.3605      -0.00787167         149.931
0.519                  -0.263602        -131.095         -63.0043        -38.3689         -63.0049        -38.4121      -0.00794384         149.864
0.52                   -0.272209        -131.573         -62.6538        -41.2339         -62.6541        -41.2765       -0.0080169         149.797
0.521                  -0.281108        -132.054         -62.3051        -43.9287         -62.3052        -43.9706      -0.00809089          149.73
0.522                  -0.290304        -132.537         -61.9602        -46.4695           -61.96        -46.5104       -0.0081658         149.663
0.523                  -0.299804        -133.023         -61.6204        -48.8717         -61.6199        -48.9116      -0.00824166         149.596
0.524                  -0.309613        -133.511         -61.2867        -51.1498          -61.286        -51.1885      -0.00831848         149.529
0.525                  -0.319737        -134.002         -60.9597        -53.3171         -60.9588        -53.3546      -0.00839626         149.461
0.526                  -0.330183        -134.496           -60.64        -55.3859          -60.639        -55.4221      -0.00847503         149.394
0.527                  -0.340955        -134.992         -60.3279        -57.3673         -60.3267        -57.4021       -0.0085548         149.326
0.528                   -0.35206        -135.491         -60.0234        -59.2714         -60.0221        -59.3048      -0.00863558         149.259
0.529                  -0.363503        -135.992         -59.7267        -61.1073         -59.7253        -61.1393      -0.00871739         149.191
0.53                   -0.375292        -136.496         -59.4377        -62.8831         -59.4362        -62.9138      -0.00880023         149.123
0.531                   -0.38743        -137.003         -59.1564        -64.6065         -59.1548        -64.6357      -0.00888414         149.055
0.532                  -0.399925        -137.511         -58.8824         -66.284         -58.8808        -66.3119      -0.00896911         148.987
0.533                  -0.412781        -138.023         -58.6158        -67.9217         -58.6141        -67.9483      -0.00905518         148.919
0.534                  -0.426006        -138.537         -58.3563        -69.5252         -58.3546        -69.5504      -0.00914234         148.851
0.535                  -0.439603        -139.054         -58.1037        -71.0995          -58.102        -71.1233      -0.00923063         148.783
0.536                   -0.45358        -139.573         -57.8578         -72.649          -57.856        -72.6715      -0.00932005         148.714
0.537                   -0.46794        -140.094         -57.6183        -74.1779         -57.6165        -74.1991      -0.00941062         148.646
0.538                  -0.482691        -140.618          -57.385          -75.69         -57.3832          -75.71      -0.00950235         148.577
0.539                  -0.497838        -141.145         -57.1577        -77.1888          -57.156        -77.2076      -0.00959528         148.509
0.54                   -0.513385        -141.673         -56.9362        -78.6775         -56.9345         -78.695       -0.0096894          148.44
0.541                  -0.529339        -142.205         -56.7202         -80.159         -56.7185        -80.1753      -0.00978475         148.371
0.542                  -0.545704        -142.738         -56.5096         -81.636         -56.5079        -81.6512      -0.00988133         148.302
0.543                  -0.562485        -143.274          -56.304        -83.1111         -56.3025        -83.1252      -0.00997917         148.233
0.544                  -0.579688        -143.813         -56.1034        -84.5867         -56.1019        -84.5997       -0.0100783         148.164
0.545                  -0.597317        -144.354         -55.9076        -86.0649         -55.9061        -86.0769       -0.0101787         148.094
0.546                  -0.615378        -144.897         -55.7162        -87.5479         -55.7148        -87.5588       -0.0102804         148.025
0.547                  -0.633875        -145.442         -55.5292        -89.0376         -55.5279        -89.0475       -0.0103835         147.955
0.548                  -0.652812         -145.99         -55.3464        -90.5358         -55.3452        -90.5447       -0.0104879         147.886
0.549                  -0.672195         -146.54         -55.1676        -92.0444         -55.1664        -92.0523       -0.0105936         147.816
0.55                   -0.692027        -147.092         -54.9926        -93.5649         -54.9915         -93.572       -0.0107008         147.746
0.551                  -0.712313        -147.646         -54.8212         -95.099         -54.8202        -95.1052       -0.0108094         147.676
0.552                  -0.733056        -148.203         -54.6534        -96.6483         -54.6524        -96.6535       -0.0109194         147.606
0.553                  -0.754261        -148.762         -54.4889         -98.214          -54.488        -98.2185       -0.0110309         147.536
0.554                  -0.775931        -149.323         -54.3276        -99.7978         -54.3268        -99.8014       -0.0111438         147.465
0.555                  -0.798071        -149.886         -54.1693        -101.401         -54.1686        -101.404       -0.0112582         147.395
0.556                  -0.820682        -150.451          -54.014        -103.025         -54.0134        -103.027       -0.0113742         147.324
0.557                   -0.84377        -151.019         -53.8614         -104.67         -53.8609        -104.672       -0.0114917         147.253
0.558                  -0.867336        -151.588         -53.7114        -106.339          -53.711         -106.34       -0.0116108         147.182
0.559                  -0.891384        -152.159          -53.564        -108.032         -53.5636        -108.032       -0.0117315         147.112
0.56                   -0.915916        -152.733         -53.4188        -109.751         -53.4186         -109.75       -0.0118537          147.04
0.561                  -0.940935        -153.308         -53.2759        -111.496         -53.2758        -111.495       -0.0119777         146.969
0.562                  -0.966444        -153.886         -53.1351        -113.269         -53.1351        -113.268       -0.0121033         146.898
0.563                  -0.992443        -154.465         -52.9963        -115.071         -52.9963        -115.069       -0.0122305         146.826
0.564                   -1.01894        -155.047         -52.8592        -116.903         -52.8594          -116.9       -0.0123595         146.755
0.565                   -1.04593         -155.63         -52.7239        -118.766         -52.7242        -118.762       -0.0124903         146.683
0.566                   -1.07341        -156.215         -52.5902         -120.66         -52.5905        -120.656       -0.0126228         146.611
0.567                   -1.10139        -156.802         -52.4579        -122.587         -52.4583        -122.583       -0.0127571         146.539
0.568                   -1.12988        -157.391         -52.3269        -124.548         -52.3275        -124.543       -0.0128933         146.467
0.569                   -1.15886        -157.982         -52.1972        -126.543         -52.1978        -126.538       -0.0130312         146.395
0.57                    -1.18834        -158.575         -52.0685        -128.573         -52.0692        -128.568       -0.0131711         146.322
0.571                   -1.21833        -159.169         -51.9407         -130.64         -51.9415        -130.634       -0.0133129          146.25
0.572                   -1.24881        -159.766         -51.8138        -132.743         -51.8147        -132.737       -0.0134566         146.177
0.573                    -1.2798        -160.364         -51.6876        -134.884         -51.6885        -134.878       -0.0136023         146.104
0.574                   -1.31129        -160.964         -51.5619        -137.063         -51.5629        -137.056         -0.01375         146.031
0.575                   -1.34329        -161.566         -51.4367         -139.28         -51.4378        -139.274       -0.0138998         145.958
0.576                   -1.37578        -162.169         -51.3117        -141.537          -51.313         -141.53       -0.0140516         145.884
0.577                   -1.40878        -162.775          -51.187        -143.833         -51.1883        -143.826       -0.0142055         145.811
0.578                   -1.44227        -163.382         -51.0624        -146.169         -51.0637        -146.162       -0.0143615         145.737
0.579                   -1.47627        -163.991         -50.9377        -148.546         -50.9391        -148.539       -0.0145197         145.664
0.58                    -1.51076        -164.602         -50.8128        -150.962         -50.8143        -150.955       -0.0146801          145.59
0.581                   -1.54576        -165.215         -50.6876        -153.419         -50.6892        -153.412       -0.0148428         145.516
0.582                   -1.58125        -165.829         -50.5621        -155.917         -50.5637         -155.91       -0.0150077         145.441
0.583                   -1.61723        -166.446          -50.436        -158.455         -50.4376        -158.448       -0.0151749         145.367
0.584                   -1.65371        -167.064         -50.3093        -161.033          -50.311        -161.026       -0.0153444         145.292
0.585                   -1.69069        -167.684          -50.182        -163.651         -50.1837        -163.644       -0.0155164         145.218
0.586                   -1.72815        -168.306         -50.0538        -166.308         -50.0555        -166.302       -0.0156908         145.143
0.587                   -1.76611        -168.931         -49.9247        -169.005         -49.9264        -168.998       -0.0158676         145.068
0.588                   -1.80456        -169.557         -49.7946        -171.739         -49.7964        -171.733       -0.0160469         144.993
0.589                    -1.8435        -170.185         -49.6635        -174.511         -49.6653        -174.505       -0.0162288         144.917
0.59                    -1.88293        -170.816         -49.5314         -177.32         -49.5331        -177.314       -0.0164132         144.842
0.591                   -1.92284        -171.448          -49.398         179.836         -49.3998         179.842       -0.0166003         144.766
0.592                   -1.96325        -172.083         -49.2635         176.958         -49.2653         176.963       -0.0167901          144.69
0.593                   -2.00415        -172.721         -49.1278         174.047         -49.1295         174.052       -0.0169825         144.614
0.594                   -2.04554         -173.36         -48.9908         171.103         -48.9925         171.108       -0.0171778         144.538
0.595                   -2.08742        -174.003         -48.8526          168.13         -48.8543         168.134       -0.0173758         144.461
0.596                   -2.12979        -174.647         -48.7132         165.127         -48.7148         165.132       -0.0175767         144.384
0.597                   -2.17266        -175.295         -48.5726         162.098         -48.5742         162.102       -0.0177804         144.308
0.598                   -2.21604        -175.945         -48.4308         159.043         -48.4324         159.047       -0.0179872         144.231
0.599                   -2.25992        -176.598         -48.2879         155.965         -48.2894         155.969       -0.0181969         144.153
0.6                     -2.30431        -177.254          -48.144         152.865         -48.1454         152.869       -0.0184096         144.076
0.601                   -2.34921        -177.913         -47.9991         149.746         -48.0004         149.749       -0.0186255         143.998
0.602                   -2.39465        -178.576         -47.8533          146.61         -47.8546         146.612       -0.0188445         143.921
0.603                   -2.44062        -179.242         -47.7067         143.457         -47.7079          143.46       -0.0190667         143.843
0.604                   -2.48714        -179.912         -47.5594         140.292         -47.5606         140.294       -0.0192922         143.765
0.605                   -2.53422         179.415         -47.4116         137.115         -47.4126         137.117        -0.019521         143.686
0.606                   -2.58187         178.738         -47.2633         133.929         -47.2643         133.931       -0.0197532         143.608
0.607                   -2.63012         178.057         -47.1147         130.736         -47.1156         130.738       -0.0199888         143.529
0.608                   -2.67898         177.371         -46.9659         127.538         -46.9667          127.54       -0.0202278          143.45
0.609                   -2.72847         176.681         -46.8171         124.338         -46.8178         124.339       -0.0204705          143.37
0.61                    -2.77863         175.986         -46.6683         121.136         -46.6689         121.137       -0.0207167         143.291
0.611                   -2.82947         175.287         -46.5198         117.935         -46.5203         117.936       -0.0209666         143.211
0.612                   -2.88103         174.582         -46.3716         114.738          -46.372         114.738       -0.0212202         143.131
0.613                   -2.93335         173.873         -46.2239         111.545         -46.2243         111.545       -0.0214776         143.051
0.614                   -2.98647         173.158         -46.0769         108.359         -46.0771         108.359       -0.0217389         142.971
0.615                   -3.04042         172.437         -45.9306         105.181         -45.9307         105.181       -0.0220042          142.89
0.616                   -3.09525          171.71         -45.7851         102.014         -45.7852         102.013       -0.0222734          142.81
0.617                   -3.15102         170.977         -45.6407         98.8573         -45.6406          98.857       -0.0225467         142.729
0.618                   -3.20779         170.238         -45.4973         95.7138         -45.4972         95.7133       -0.0228241         142.647
0.619                   -3.26562         169.493          -45.355         92.5844         -45.3549         92.5838       -0.0231058         142.566
0.62                    -3.32457         168.741         -45.2141         89.4703         -45.2138         89.4696       -0.0233917         142.484
0.621                   -3.38471         167.982         -45.0745         86.3727         -45.0741         86.3719        -0.023682         142.402
0.622                   -3.44614         167.217         -44.9362         83.2924         -44.9358         83.2916       -0.0239768          142.32
0.623                   -3.50892         166.444         -44.7994         80.2305          -44.799         80.2296       -0.0242761         142.237
0.624                   -3.57315         165.665         -44.6642         77.1877         -44.6636         77.1868       -0.0245799         142.155
0.625                   -3.63893         164.879         -44.5304         74.1647         -44.5298         74.1637       -0.0248885         142.072
0.626                   -3.70636         164.085         -44.3982          71.162         -44.3976         71.1609       -0.0252018         141.988
0.627                   -3.77553         163.285         -44.2676         68.1801         -44.2669          68.179         -0.02552         141.905
0.628                   -3.84658         162.477         -44.1386         65.2194         -44.1379         65.2182       -0.0258432         141.821
0.629                    -3.9196         161.663         -44.0112         62.2802         -44.0104          62.279       -0.0261713         141.737
