! TOUCHSTONE file generated by CST MICROWAVE STUDIO
! Date and time: Fri Oct  2 18:06:24 2020
! Project name: Scenario_1_Free_Space_out_of_line.cst
! Parameters = {Lambda=346.42; Step_1=17.321; dy1=-207.272; dx1=173; L_HA=400; MT=2.54; Rad_Dielectric=30; Rad_Lower=7.3; Rad_Upper=30; a_HA=580; a_WG=246; b_HA=500; b_WG=121; c_HA=0; c_WG=187; d_feed=85; h_feed=15; h_lower=18; h_upper=40}
! Header version: 2018
! Port assignment regex: !\s*Touchstone port\s*([0-9]+)\s*=\s*(CST MWS port|CST DS port)\s*([0-9]+|Zmin|Zmax)\s*\(\"(.*)\"\)(\s*mode\s*([0-9]+))?.*
! Touchstone port assignment:
! Touchstone port 1 = CST MWS port 1 ("")
! Touchstone port 2 = CST MWS port 2 ("")
# GHz S DB R 50
0.5                    -0.152163         -122.79         -59.0594         153.999         -59.0594         153.999      -0.00641238         151.142
0.501                  -0.158648        -123.222         -58.8896          152.51         -58.8896          152.51      -0.00644364         151.077
0.502                  -0.165219        -123.655         -58.7195         151.025         -58.7195         151.025      -0.00647609         151.011
0.503                  -0.171879        -124.091          -58.549         149.544          -58.549         149.544      -0.00650974         150.946
0.504                  -0.178635        -124.529         -58.3782         148.068         -58.3782         148.068      -0.00654459          150.88
0.505                   -0.18549         -124.97         -58.2071         146.596         -58.2071         146.596      -0.00658067         150.814
0.506                   -0.19245        -125.413         -58.0357         145.127         -58.0357         145.127      -0.00661796         150.748
0.507                   -0.19952        -125.858         -57.8642         143.661         -57.8642         143.661      -0.00665648         150.683
0.508                  -0.206705        -126.305         -57.6925         142.199         -57.6925         142.199      -0.00669625         150.617
0.509                  -0.214011        -126.756         -57.5206          140.74         -57.5207          140.74      -0.00673725         150.551
0.51                   -0.221444        -127.208         -57.3487         139.284         -57.3487         139.284      -0.00677951         150.485
0.511                  -0.229007        -127.663         -57.1767          137.83         -57.1767          137.83      -0.00682303         150.418
0.512                  -0.236709        -128.121         -57.0046         136.378         -57.0046         136.378      -0.00686782         150.352
0.513                  -0.244553        -128.581         -56.8326         134.928         -56.8326         134.928      -0.00691388         150.286
0.514                  -0.252547        -129.043         -56.6605         133.481         -56.6605         133.481      -0.00696123         150.219
0.515                  -0.260696        -129.508         -56.4885         132.034         -56.4885         132.034      -0.00700987         150.153
0.516                  -0.269006        -129.976         -56.3165         130.589         -56.3165         130.589      -0.00705981         150.086
0.517                  -0.277484        -130.446         -56.1447         129.146         -56.1447         129.146      -0.00711106          150.02
0.518                  -0.286135        -130.919         -55.9729         127.703         -55.9729         127.703      -0.00716363         149.953
0.519                  -0.294967        -131.395         -55.8013         126.261         -55.8013         126.261      -0.00721752         149.886
0.52                   -0.303986        -131.873         -55.6298          124.82         -55.6298          124.82      -0.00727275         149.819
0.521                  -0.313198        -132.354         -55.4585         123.379         -55.4585         123.379      -0.00732933         149.752
0.522                   -0.32261        -132.838         -55.2875         121.938         -55.2875         121.938      -0.00738726         149.685
0.523                   -0.33223        -133.324         -55.1166         120.497         -55.1166         120.497      -0.00744656         149.618
0.524                  -0.342064        -133.813          -54.946         119.056          -54.946         119.056      -0.00750723          149.55
0.525                  -0.352119        -134.305         -54.7756         117.615         -54.7756         117.615      -0.00756928         149.483
0.526                  -0.362403          -134.8         -54.6056         116.173         -54.6056         116.173      -0.00763273         149.415
0.527                  -0.372923        -135.297         -54.4358          114.73         -54.4358          114.73      -0.00769758         149.348
0.528                  -0.383686        -135.797         -54.2663         113.287         -54.2663         113.287      -0.00776384          149.28
0.529                    -0.3947          -136.3         -54.0972         111.842         -54.0972         111.842      -0.00783153         149.212
0.53                   -0.405973        -136.806         -53.9284         110.397         -53.9284         110.397      -0.00790065         149.144
0.531                  -0.417512        -137.314           -53.76          108.95           -53.76          108.95      -0.00797122         149.076
0.532                  -0.429325        -137.826          -53.592         107.502          -53.592         107.502      -0.00804325         149.008
0.533                   -0.44142         -138.34         -53.4243         106.052         -53.4243         106.052      -0.00811674          148.94
0.534                  -0.453806        -138.857         -53.2571         104.601         -53.2571         104.601      -0.00819171         148.872
0.535                   -0.46649        -139.377         -53.0904         103.147         -53.0904         103.147      -0.00826818         148.804
0.536                  -0.479481          -139.9          -52.924         101.692          -52.924         101.692      -0.00834614         148.735
0.537                  -0.492787        -140.425         -52.7581         100.235         -52.7581         100.235      -0.00842562         148.667
0.538                  -0.506416        -140.954         -52.5927         98.7758         -52.5927         98.7759      -0.00850663         148.598
0.539                  -0.520378        -141.486         -52.4278         97.3144         -52.4278         97.3145      -0.00858918         148.529
0.54                   -0.534681         -142.02         -52.2634         95.8507         -52.2634         95.8508      -0.00867328          148.46
0.541                  -0.549333        -142.557         -52.0996         94.3847         -52.0996         94.3847      -0.00875895         148.391
0.542                  -0.564344        -143.097         -51.9362         92.9162         -51.9362         92.9163      -0.00884619         148.322
0.543                  -0.579722         -143.64         -51.7734         91.4453         -51.7734         91.4453      -0.00893503         148.253
0.544                  -0.595476        -144.186         -51.6112         89.9718         -51.6112         89.9718      -0.00902547         148.183
0.545                  -0.611616        -144.735         -51.4495         88.4956         -51.4495         88.4957      -0.00911753         148.114
0.546                  -0.628151        -145.287         -51.2884         87.0168         -51.2884         87.0169      -0.00921123         148.045
0.547                   -0.64509        -145.842         -51.1279         85.5353         -51.1279         85.5354      -0.00930657         147.975
0.548                  -0.662441        -146.399          -50.968         84.0511          -50.968         84.0511      -0.00940357         147.905
0.549                  -0.680215         -146.96         -50.8088         82.5641         -50.8088         82.5641      -0.00950225         147.835
0.55                   -0.698422        -147.523         -50.6501         81.0742         -50.6501         81.0743      -0.00960263         147.765
0.551                  -0.717069        -148.089         -50.4921         79.5816         -50.4921         79.5816      -0.00970471         147.695
0.552                  -0.736168        -148.658         -50.3348         78.0861         -50.3348         78.0862      -0.00980852         147.625
0.553                  -0.755727         -149.23         -50.1781         76.5878         -50.1781         76.5878      -0.00991406         147.554
0.554                  -0.775756        -149.805         -50.0221         75.0867         -50.0221         75.0867       -0.0100214         147.484
0.555                  -0.796266        -150.383         -49.8668         73.5826         -49.8668         73.5827       -0.0101304         147.413
0.556                  -0.817265        -150.963         -49.7122         72.0758         -49.7122         72.0758       -0.0102413         147.343
0.557                  -0.838763        -151.546         -49.5583         70.5662         -49.5583         70.5662        -0.010354         147.272
0.558                   -0.86077        -152.132         -49.4051         69.0537         -49.4051         69.0537       -0.0104685         147.201
0.559                  -0.883296        -152.721         -49.2526         67.5385         -49.2526         67.5385       -0.0105848          147.13
0.56                    -0.90635        -153.312         -49.1008         66.0205         -49.1008         66.0205        -0.010703         147.058
0.561                  -0.929943        -153.907         -48.9498         64.4998         -48.9498         64.4998       -0.0108231         146.987
0.562                  -0.954084        -154.504         -48.7995         62.9764         -48.7995         62.9764       -0.0109451         146.916
0.563                  -0.978783        -155.103         -48.6499         61.4504         -48.6499         61.4504        -0.011069         146.844
0.564                   -1.00405        -155.705         -48.5011         59.9218         -48.5011         59.9218       -0.0111948         146.772
0.565                   -1.02989         -156.31         -48.3531         58.3906         -48.3531         58.3906       -0.0113226           146.7
0.566                   -1.05633        -156.918         -48.2058          56.857         -48.2058          56.857       -0.0114524         146.628
0.567                   -1.08335        -157.528         -48.0592          55.321         -48.0592          55.321       -0.0115841         146.556
0.568                   -1.11099         -158.14         -47.9134         53.7826         -47.9135         53.7826       -0.0117179         146.484
0.569                   -1.13924        -158.756         -47.7684         52.2419         -47.7684         52.2419       -0.0118538         146.411
0.57                    -1.16812        -159.373         -47.6242         50.6989         -47.6242         50.6989       -0.0119917         146.339
0.571                   -1.19763        -159.993         -47.4807         49.1539         -47.4807         49.1539       -0.0121317         146.266
0.572                   -1.22778        -160.616          -47.338         47.6067          -47.338         47.6067       -0.0122738         146.193
0.573                   -1.25859         -161.24         -47.1961         46.0575         -47.1961         46.0575       -0.0124181          146.12
0.574                   -1.29007        -161.867         -47.0549         44.5064         -47.0549         44.5064       -0.0125645         146.047
0.575                   -1.32221        -162.497         -46.9145         42.9535         -46.9145         42.9535       -0.0127131         145.974
0.576                   -1.35504        -163.128         -46.7749         41.3988         -46.7749         41.3988       -0.0128639           145.9
0.577                   -1.38856        -163.762          -46.636         39.8424          -46.636         39.8424       -0.0130169         145.827
0.578                   -1.42278        -164.398         -46.4979         38.2844         -46.4979         38.2844       -0.0131723         145.753
0.579                   -1.45771        -165.036         -46.3605         36.7249         -46.3605         36.7249       -0.0133299         145.679
0.58                    -1.49335        -165.677         -46.2239          35.164         -46.2239          35.164       -0.0134898         145.605
0.581                   -1.52972        -166.319          -46.088         33.6018          -46.088         33.6018       -0.0136521         145.531
0.582                   -1.56683        -166.963         -45.9529         32.0383         -45.9529         32.0383       -0.0138168         145.456
0.583                   -1.60467        -167.609         -45.8184         30.4736         -45.8184         30.4736       -0.0139838         145.382
0.584                   -1.64327        -168.257         -45.6847         28.9078         -45.6847         28.9078       -0.0141533         145.307
0.585                   -1.68263        -168.907         -45.5517         27.3411         -45.5517         27.3411       -0.0143253         145.232
0.586                   -1.72276        -169.558         -45.4194         25.7734         -45.4194         25.7734       -0.0144998         145.157
0.587                   -1.76365        -170.212         -45.2878         24.2049         -45.2878         24.2049       -0.0146768         145.082
0.588                   -1.80534        -170.867         -45.1569         22.6357         -45.1569         22.6357       -0.0148564         145.006
0.589                   -1.84781        -171.523         -45.0267         21.0658         -45.0267         21.0658       -0.0150386         144.931
0.59                    -1.89108        -172.181         -44.8971         19.4953         -44.8971         19.4953       -0.0152235         144.855
0.591                   -1.93515        -172.841         -44.7681         17.9243         -44.7681         17.9243        -0.015411         144.779
0.592                   -1.98004        -173.502         -44.6398         16.3528         -44.6398         16.3528       -0.0156012         144.703
0.593                   -2.02574        -174.164         -44.5121          14.781         -44.5121          14.781       -0.0157942         144.627
0.594                   -2.07227        -174.828          -44.385         13.2089          -44.385         13.2089         -0.01599          144.55
0.595                   -2.11963        -175.492         -44.2586         11.6365         -44.2586         11.6365       -0.0161886         144.474
0.596                   -2.16783        -176.158         -44.1327          10.064         -44.1327          10.064         -0.01639         144.397
0.597                   -2.21687        -176.826         -44.0073         8.49137         -44.0073         8.49136       -0.0165944          144.32
0.598                   -2.26676        -177.494         -43.8825         6.91867         -43.8825         6.91867       -0.0168018         144.243
0.599                   -2.31751        -178.163         -43.7583         5.34597         -43.7583         5.34597       -0.0170122         144.165
0.6                     -2.36912        -178.833         -43.6346         3.77332         -43.6346         3.77332       -0.0172256         144.088
0.601                    -2.4216        -179.504         -43.5113         2.20076         -43.5113         2.20076       -0.0174421          144.01
0.602                   -2.47494         179.824         -43.3886        0.628338         -43.3886        0.628333       -0.0176618         143.932
0.603                   -2.52917         179.151         -43.2663       -0.943916         -43.2663        -0.94392       -0.0178846         143.854
0.604                   -2.58428         178.478         -43.1445        -2.51596         -43.1445        -2.51597       -0.0181107         143.775
0.605                   -2.64027         177.804         -43.0231        -4.08777         -43.0231        -4.08778       -0.0183402         143.697
0.606                   -2.69716          177.13         -42.9022        -5.65932         -42.9022        -5.65933       -0.0185729         143.618
0.607                   -2.75494         176.455         -42.7817        -7.23059         -42.7817        -7.23059       -0.0188091         143.539
0.608                   -2.81363          175.78         -42.6615        -8.80155         -42.6615        -8.80155       -0.0190488         143.459
0.609                   -2.87322         175.104         -42.5417        -10.3722         -42.5417        -10.3722        -0.019292          143.38
0.61                    -2.93372         174.428         -42.4223        -11.9425         -42.4223        -11.9425       -0.0195388           143.3
0.611                   -2.99513         173.752         -42.3032        -13.5125         -42.3032        -13.5125       -0.0197893          143.22
0.612                   -3.05745         173.076         -42.1845        -15.0822         -42.1845        -15.0822       -0.0200435          143.14
0.613                    -3.1207           172.4          -42.066        -16.6515          -42.066        -16.6515       -0.0203014          143.06
0.614                   -3.18487         171.723         -41.9479        -18.2205         -41.9479        -18.2205       -0.0205633         142.979
0.615                   -3.24997         171.047           -41.83        -19.7892           -41.83        -19.7892       -0.0208291         142.898
0.616                     -3.316          170.37         -41.7123        -21.3576         -41.7123        -21.3576       -0.0210989         142.817
0.617                   -3.38297         169.694         -41.5949        -22.9258         -41.5949        -22.9258       -0.0213728         142.736
0.618                   -3.45087         169.018         -41.4778        -24.4937         -41.4778        -24.4937       -0.0216509         142.654
0.619                   -3.51971         168.343         -41.3608        -26.0614         -41.3608        -26.0614       -0.0219332         142.572
0.62                    -3.58949         167.668         -41.2441        -27.6289         -41.2441        -27.6288       -0.0222199          142.49
0.621                   -3.66023         166.993         -41.1275        -29.1962         -41.1275        -29.1962        -0.022511         142.408
0.622                   -3.73191         166.318         -41.0111        -30.7634         -41.0111        -30.7634       -0.0228067         142.325
0.623                   -3.80454         165.645         -40.8949        -32.3306         -40.8949        -32.3306       -0.0231069         142.243
0.624                   -3.87813         164.971         -40.7788        -33.8977         -40.7788        -33.8977       -0.0234119         142.159
0.625                   -3.95268         164.299         -40.6628        -35.4648         -40.6628        -35.4648       -0.0237218         142.076
0.626                   -4.02818         163.627          -40.547        -37.0321          -40.547        -37.0321       -0.0240365         141.992
0.627                   -4.10466         162.955         -40.4313        -38.5995         -40.4313        -38.5994       -0.0243564         141.908
0.628                    -4.1821         162.285         -40.3156         -40.167         -40.3156         -40.167       -0.0246814         141.824
0.629                   -4.26051         161.616         -40.2001        -41.7349         -40.2001        -41.7349       -0.0250117          141.74
