! TOUCHSTONE file generated by CST MICROWAVE STUDIO
! Date and time: Fri Oct  2 16:19:48 2020
! Project name: Scenario_1_Free_Space_out_of_line.cst
! Parameters = {Lambda=346.42; Step_1=17.321; dy1=-207.272; dx1=346; L_HA=400; MT=2.54; Rad_Dielectric=30; Rad_Lower=7.3; Rad_Upper=30; a_HA=580; a_WG=246; b_HA=500; b_WG=121; c_HA=0; c_WG=187; d_feed=85; h_feed=15; h_lower=18; h_upper=40}
! Header version: 2018
! Port assignment regex: !\s*Touchstone port\s*([0-9]+)\s*=\s*(CST MWS port|CST DS port)\s*([0-9]+|Zmin|Zmax)\s*\(\"(.*)\"\)(\s*mode\s*([0-9]+))?.*
! Touchstone port assignment:
! Touchstone port 1 = CST MWS port 1 ("")
! Touchstone port 2 = CST MWS port 2 ("")
# GHz S DB R 50
0.5                    -0.144917        -122.627          -60.694         70.2765          -60.694         70.2765       -0.0066336         151.145
0.501                  -0.152495         -123.08         -60.5656         68.5675         -60.5686         68.5768      -0.00671422         151.079
0.502                  -0.160257        -123.534         -60.4334         66.8596         -60.4393         66.8777      -0.00679565         151.014
0.503                  -0.168206        -123.989         -60.2975         65.1533         -60.3062         65.1796      -0.00687788         150.948
0.504                   -0.17634        -124.445         -60.1578          63.449         -60.1693          63.483      -0.00696091         150.883
0.505                  -0.184662        -124.903         -60.0146         61.7471         -60.0287         61.7882      -0.00704475         150.817
0.506                  -0.193172        -125.363         -59.8678         60.0478         -59.8845         60.0957      -0.00712938         150.751
0.507                   -0.20187        -125.823         -59.7175         58.3515         -59.7367         58.4056       -0.0072148         150.685
0.508                  -0.210756        -126.285         -59.5639         56.6583         -59.5855         56.7182      -0.00730101          150.62
0.509                  -0.219832        -126.749         -59.4069         54.9683         -59.4308         55.0338      -0.00738801         150.554
0.51                   -0.229099        -127.214         -59.2468         53.2819         -59.2729         53.3525      -0.00747579         150.488
0.511                  -0.238556         -127.68         -59.0835         51.5989         -59.1117         51.6743      -0.00756436         150.422
0.512                  -0.248205        -128.148         -58.9172         49.9195         -58.9473         49.9994      -0.00765369         150.355
0.513                  -0.258046        -128.617          -58.748         48.2436         -58.7799         48.3277       -0.0077438         150.289
0.514                   -0.26808        -129.087          -58.576         46.5712         -58.6096         46.6592      -0.00783468         150.223
0.515                  -0.278309        -129.559         -58.4012         44.9021         -58.4364         44.9939      -0.00792633         150.156
0.516                  -0.288732        -130.033         -58.2237         43.2362         -58.2604         43.3316      -0.00801873          150.09
0.517                  -0.299351        -130.508         -58.0437         41.5734         -58.0817         41.6721      -0.00811189         150.023
0.518                  -0.310166        -130.984         -57.8613         39.9134         -57.9005         40.0153       -0.0082058         149.957
0.519                  -0.321179        -131.463         -57.6764          38.256         -57.7167         38.3609      -0.00830046          149.89
0.52                   -0.332391        -131.942         -57.4893         36.6008         -57.5305         36.7086      -0.00839585         149.823
0.521                  -0.343802        -132.423         -57.3001         34.9475         -57.3421         35.0581      -0.00849199         149.756
0.522                  -0.355413        -132.906         -57.1087         33.2957         -57.1514          33.409      -0.00858886         149.689
0.523                  -0.367227         -133.39         -56.9154         31.6451         -56.9586         31.7609      -0.00868646         149.622
0.524                  -0.379243        -133.876         -56.7201         29.9953         -56.7637         30.1135      -0.00878478         149.555
0.525                  -0.391463        -134.364         -56.5231         28.3457          -56.567         28.4663      -0.00888381         149.487
0.526                  -0.403888        -134.853         -56.3243         26.6959         -56.3684         26.8187      -0.00898356          149.42
0.527                   -0.41652        -135.344         -56.1239         25.0454          -56.168         25.1704      -0.00908402         149.353
0.528                  -0.429361        -135.837          -55.922         23.3938          -55.966         23.5207      -0.00918517         149.285
0.529                   -0.44241        -136.331         -55.7187         21.7404         -55.7625         21.8691      -0.00928702         149.217
0.53                   -0.455671        -136.827         -55.5141         20.0847         -55.5575         20.2151      -0.00938956          149.15
0.531                  -0.469144        -137.325         -55.3082         18.4261         -55.3511         18.5581      -0.00949278         149.082
0.532                  -0.482831        -137.825         -55.1012         16.7642         -55.1435         16.8975      -0.00959668         149.014
0.533                  -0.496734        -138.326         -54.8932         15.0982         -54.9348         15.2327      -0.00970125         148.946
0.534                  -0.510855        -138.829         -54.6843         13.4276          -54.725         13.5631      -0.00980648         148.878
0.535                  -0.525196        -139.334         -54.4745         11.7519         -54.5143          11.888      -0.00991238          148.81
0.536                  -0.539758        -139.841          -54.264         10.0704         -54.3028         10.2069       -0.0100189         148.741
0.537                  -0.554543         -140.35         -54.0529         8.38251         -54.0905         8.51915       -0.0101261         148.673
0.538                  -0.569555        -140.861         -53.8414         6.68774         -53.8777         6.82415        -0.010234         148.605
0.539                  -0.584795        -141.373         -53.6294         4.98548         -53.6644          5.1213       -0.0103424         148.536
0.54                   -0.600265        -141.888         -53.4172         3.27519         -53.4508         3.41002       -0.0104515         148.467
0.541                  -0.615969        -142.405         -53.2049         1.55634         -53.2369         1.68976       -0.0105613         148.398
0.542                  -0.631908        -142.924         -52.9925       -0.171586          -53.023       -0.040036       -0.0106716          148.33
0.543                  -0.648085        -143.445         -52.7803        -1.90906         -52.8091        -1.77987       -0.0107826         148.261
0.544                  -0.664504        -143.967         -52.5683        -3.65654         -52.5954        -3.53022       -0.0108942         148.191
0.545                  -0.681167        -144.493         -52.3567        -5.41443          -52.382        -5.29153       -0.0110064         148.122
0.546                  -0.698077         -145.02         -52.1456        -7.18311         -52.1691         -7.0642       -0.0111192         148.053
0.547                  -0.715238        -145.549         -51.9352        -8.96292         -51.9568        -8.84859       -0.0112325         147.983
0.548                  -0.732653        -146.081         -51.7256        -10.7541         -51.7454         -10.645       -0.0113465         147.914
0.549                  -0.750325        -146.615         -51.5169        -12.5569         -51.5349        -12.4536       -0.0114611         147.844
0.55                   -0.768259        -147.151         -51.3094        -14.3716         -51.3255        -14.2747       -0.0115763         147.774
0.551                  -0.786459         -147.69         -51.1031        -16.1981         -51.1173        -16.1083       -0.0116921         147.705
0.552                  -0.804928         -148.23         -50.8983        -18.0365         -50.9106        -17.9545       -0.0118084         147.635
0.553                  -0.823671        -148.774          -50.695        -19.8869         -50.7055        -19.8132       -0.0119254         147.564
0.554                  -0.842692         -149.32         -50.4934        -21.7491         -50.5022        -21.6844        -0.012043         147.494
0.555                  -0.861996        -149.868         -50.2937        -23.6229         -50.3008        -23.5677       -0.0121612         147.424
0.556                  -0.881588        -150.419         -50.0959         -25.508         -50.1014         -25.463       -0.0122799         147.353
0.557                  -0.901473        -150.972         -49.9004        -27.4042         -49.9043        -27.3698       -0.0123993         147.283
0.558                  -0.921657        -151.528         -49.7071        -29.3109         -49.7096        -29.2877       -0.0125194         147.212
0.559                  -0.942145        -152.087         -49.5163        -31.2278         -49.5174        -31.2161         -0.01264         147.141
0.56                   -0.962943        -152.648          -49.328        -33.1541         -49.3279        -33.1544       -0.0127614          147.07
0.561                  -0.984057        -153.212         -49.1424        -35.0893         -49.1412        -35.1018       -0.0128834         146.999
0.562                   -1.00549        -153.779         -48.9596        -37.0327         -48.9574        -37.0575        -0.013006         146.928
0.563                   -1.02726        -154.348         -48.7796        -38.9833         -48.7767        -39.0207       -0.0131294         146.856
0.564                   -1.04936        -154.921         -48.6026        -40.9404          -48.599        -40.9903       -0.0132535         146.785
0.565                   -1.07181        -155.496         -48.4287        -42.9031         -48.4245        -42.9655       -0.0133784         146.713
0.566                    -1.0946        -156.075         -48.2578        -44.8703         -48.2533         -44.945        -0.013504         146.641
0.567                   -1.11776        -156.656         -48.0902        -46.8411         -48.0854        -46.9279       -0.0136305          146.57
0.568                   -1.14128         -157.24         -47.9256        -48.8143         -47.9208        -48.9129       -0.0137578         146.497
0.569                   -1.16518        -157.828         -47.7643         -50.789         -47.7596        -50.8989       -0.0138861         146.425
0.57                    -1.18947        -158.418         -47.6062        -52.7641         -47.6016        -52.8848       -0.0140152         146.353
0.571                   -1.21415        -159.012         -47.4512        -54.7385          -47.447        -54.8693       -0.0141454          146.28
0.572                   -1.23923        -159.609         -47.2994        -56.7111         -47.2956        -56.8513       -0.0142766         146.208
0.573                   -1.26473         -160.21         -47.1507        -58.6808         -47.1475        -58.8298       -0.0144089         146.135
0.574                   -1.29066        -160.813          -47.005        -60.6467         -47.0025        -60.8035       -0.0145424         146.062
0.575                   -1.31702         -161.42         -46.8623        -62.6078         -46.8605        -62.7716       -0.0146771         145.989
0.576                   -1.34383        -162.031         -46.7224        -64.5631         -46.7214         -64.733       -0.0148131         145.916
0.577                    -1.3711        -162.645         -46.5852        -66.5119         -46.5852        -66.6868       -0.0149505         145.842
0.578                   -1.39885        -163.262         -46.4507        -68.4532         -46.4517        -68.6322       -0.0150894         145.769
0.579                   -1.42708        -163.884         -46.3187        -70.3864         -46.3206        -70.5684       -0.0152298         145.695
0.58                    -1.45581        -164.508         -46.1891        -72.3108          -46.192        -72.4949       -0.0153719         145.621
0.581                   -1.48505        -165.137         -46.0617        -74.2259         -46.0656        -74.4111       -0.0155158         145.547
0.582                   -1.51483        -165.769         -45.9364        -76.1312         -45.9413        -76.3164       -0.0156615         145.473
0.583                   -1.54515        -166.405          -45.813        -78.0262         -45.8189        -78.2107       -0.0158092         145.398
0.584                   -1.57603        -167.045         -45.6913        -79.9108         -45.6982        -80.0935        -0.015959         145.324
0.585                   -1.60748        -167.688         -45.5713        -81.7847         -45.5791        -81.9648        -0.016111         145.249
0.586                   -1.63954        -168.336         -45.4526        -83.6478         -45.4613        -83.8244       -0.0162653         145.174
0.587                    -1.6722        -168.988         -45.3353           -85.5         -45.3448        -85.6725       -0.0164222         145.099
0.588                    -1.7055        -169.643         -45.2191        -87.3414         -45.2294        -87.5091       -0.0165816         145.024
0.589                   -1.73945        -170.303         -45.1039        -89.1721         -45.1148        -89.3344       -0.0167437         144.948
0.59                    -1.77406        -170.967         -44.9895        -90.9924          -45.001        -91.1487       -0.0169088         144.873
0.591                   -1.80938        -171.635         -44.8758        -92.8026         -44.8877        -92.9524       -0.0170768         144.797
0.592                    -1.8454        -172.307         -44.7626        -94.6029         -44.7749        -94.7459        -0.017248         144.721
0.593                   -1.88216        -172.983         -44.6498        -96.3937         -44.6625        -96.5296       -0.0174225         144.645
0.594                   -1.91969        -173.664         -44.5373        -98.1756         -44.5502        -98.3041       -0.0176004         144.568
0.595                   -1.95799        -174.348          -44.425        -99.9491          -44.438         -100.07       -0.0177818         144.492
0.596                   -1.99711        -175.038         -44.3127        -101.715         -44.3257        -101.828        -0.017967         144.415
0.597                   -2.03706        -175.731         -44.2004        -103.473         -44.2134        -103.578       -0.0181559         144.338
0.598                   -2.07788        -176.429          -44.088        -105.224         -44.1008        -105.322       -0.0183488         144.261
0.599                   -2.11958        -177.131         -43.9754         -106.97          -43.988         -107.06       -0.0185458         144.183
0.6                      -2.1622        -177.838         -43.8624         -108.71         -43.8748        -108.792       -0.0187469         144.106
0.601                   -2.20578        -178.548         -43.7492        -110.445         -43.7611         -110.52       -0.0189523         144.028
0.602                   -2.25033        -179.264         -43.6356        -112.177          -43.647        -112.244       -0.0191621          143.95
0.603                   -2.29589        -179.983         -43.5215        -113.904         -43.5325        -113.965       -0.0193763         143.872
0.604                   -2.34249         179.293         -43.4069         -115.63         -43.4174        -115.684        -0.019595         143.794
0.605                   -2.39017         178.564         -43.2919        -117.353         -43.3017        -117.401       -0.0198183         143.715
0.606                   -2.43897         177.831         -43.1763        -119.075         -43.1855        -119.117       -0.0200463         143.636
0.607                    -2.4889         177.094         -43.0602        -120.797         -43.0687        -120.833       -0.0202789         143.557
0.608                   -2.54003         176.353         -42.9436        -122.518         -42.9513        -122.549       -0.0205162         143.478
0.609                   -2.59237         175.608         -42.8265        -124.241         -42.8334        -124.267       -0.0207583         143.399
0.61                    -2.64597         174.858         -42.7088        -125.964          -42.715        -125.986       -0.0210051         143.319
0.611                   -2.70086         174.104         -42.5906         -127.69          -42.596        -127.707       -0.0212567         143.239
0.612                    -2.7571         173.347          -42.472        -129.417         -42.4766        -129.431       -0.0215129         143.159
0.613                   -2.81471         172.585         -42.3529        -131.148         -42.3567        -131.159       -0.0217739         143.079
0.614                   -2.87374         171.819         -42.2334        -132.882         -42.2364         -132.89       -0.0220396         142.999
0.615                   -2.93424          171.05         -42.1136        -134.621         -42.1158        -134.626       -0.0223099         142.918
0.616                   -2.99624         170.277         -41.9934        -136.363         -41.9949        -136.366       -0.0225849         142.837
0.617                   -3.05979         169.501          -41.873        -138.111         -41.8737        -138.112       -0.0228644         142.756
0.618                   -3.12494         168.721         -41.7523        -139.863         -41.7523        -139.863       -0.0231483         142.675
0.619                   -3.19172         167.939         -41.6315        -141.621         -41.6307         -141.62       -0.0234368         142.593
0.62                    -3.26019         167.153         -41.5105        -143.385         -41.5091        -143.383       -0.0237296         142.511
0.621                   -3.33039         166.364         -41.3895        -145.154         -41.3875        -145.152       -0.0240267         142.429
0.622                   -3.40236         165.573         -41.2686         -146.93         -41.2659        -146.928       -0.0243281         142.347
0.623                   -3.47616          164.78         -41.1477        -148.713         -41.1444         -148.71       -0.0246337         142.264
0.624                   -3.55183         163.984          -41.027        -150.501         -41.0232        -150.499       -0.0249434         142.181
0.625                   -3.62941         163.187         -40.9065        -152.297         -40.9022        -152.295       -0.0252572         142.098
0.626                   -3.70895         162.388         -40.7862        -154.099         -40.7815        -154.097        -0.025575         142.015
0.627                    -3.7905         161.588         -40.6664        -155.907         -40.6612        -155.907       -0.0258968         141.931
0.628                   -3.87411         160.788         -40.5469        -157.722         -40.5413        -157.723       -0.0262225         141.847
0.629                   -3.95981         159.986         -40.4279        -159.544          -40.422        -159.546        -0.026552         141.763
