! TOUCHSTONE file generated by CST MICROWAVE STUDIO
! Date and time: Fri Oct  2 16:35:34 2020
! Project name: Scenario_1_Free_Space_out_of_line.cst
! Parameters = {Lambda=346.42; Step_1=17.321; dy1=-207.272; dx1=520; L_HA=400; MT=2.54; Rad_Dielectric=30; Rad_Lower=7.3; Rad_Upper=30; a_HA=580; a_WG=246; b_HA=500; b_WG=121; c_HA=0; c_WG=187; d_feed=85; h_feed=15; h_lower=18; h_upper=40}
! Header version: 2018
! Port assignment regex: !\s*Touchstone port\s*([0-9]+)\s*=\s*(CST MWS port|CST DS port)\s*([0-9]+|Zmin|Zmax)\s*\(\"(.*)\"\)(\s*mode\s*([0-9]+))?.*
! Touchstone port assignment:
! Touchstone port 1 = CST MWS port 1 ("")
! Touchstone port 2 = CST MWS port 2 ("")
# GHz S DB R 50
0.5                    -0.150661        -122.591         -62.0249        -26.2065         -62.0249        -26.2065       -0.0066818         151.129
0.501                  -0.153087        -123.044         -61.8707        -27.9387         -61.8707        -27.9387      -0.00673169         151.063
0.502                  -0.155842          -123.5         -61.7143        -29.6755         -61.7143        -29.6755      -0.00678254         150.998
0.503                  -0.158926        -123.957         -61.5559        -31.4169         -61.5559        -31.4169      -0.00683437         150.932
0.504                  -0.162343        -124.416         -61.3955        -33.1627         -61.3955        -33.1627      -0.00688719         150.867
0.505                  -0.166093        -124.878         -61.2332        -34.9129         -61.2332        -34.9129        -0.006941         150.801
0.506                  -0.170178        -125.341          -61.069        -36.6674          -61.069        -36.6674      -0.00699583         150.735
0.507                  -0.174601        -125.806         -60.9029        -38.4261         -60.9029        -38.4261      -0.00705166          150.67
0.508                  -0.179364        -126.273         -60.7351        -40.1889         -60.7351        -40.1889      -0.00710853         150.604
0.509                  -0.184467        -126.741         -60.5655        -41.9558         -60.5655        -41.9558      -0.00716643         150.538
0.51                   -0.189914        -127.212         -60.3942        -43.7268         -60.3942        -43.7268      -0.00722537         150.471
0.511                  -0.195705        -127.685         -60.2214        -45.5019         -60.2214        -45.5019      -0.00728537         150.405
0.512                  -0.201843        -128.159         -60.0469         -47.281         -60.0469         -47.281      -0.00734644         150.339
0.513                  -0.208329        -128.636          -59.871        -49.0641          -59.871        -49.0641      -0.00740858         150.273
0.514                  -0.215164        -129.114         -59.6936        -50.8514         -59.6936        -50.8514      -0.00747181         150.206
0.515                  -0.222351        -129.594         -59.5148        -52.6427         -59.5148        -52.6427      -0.00753614          150.14
0.516                  -0.229892        -130.076         -59.3348        -54.4382         -59.3348        -54.4382      -0.00760158         150.073
0.517                  -0.237787         -130.56         -59.1534        -56.2379         -59.1534        -56.2379      -0.00766813         150.007
0.518                  -0.246038        -131.045         -58.9709        -58.0418         -58.9709        -58.0418      -0.00773582          149.94
0.519                  -0.254648        -131.533         -58.7872          -59.85         -58.7872          -59.85      -0.00780465         149.873
0.52                   -0.263617        -132.022         -58.6025        -61.6626         -58.6025        -61.6626      -0.00787463         149.806
0.521                  -0.272947        -132.514         -58.4168        -63.4796         -58.4168        -63.4796      -0.00794578         149.739
0.522                  -0.282639        -133.007         -58.2301        -65.3012         -58.2301        -65.3012       -0.0080181         149.672
0.523                  -0.292696        -133.501         -58.0426        -67.1274         -58.0426        -67.1274      -0.00809162         149.605
0.524                  -0.303117        -133.998         -57.8542        -68.9584         -57.8542        -68.9584      -0.00816633         149.537
0.525                  -0.313906        -134.497         -57.6652        -70.7941         -57.6652        -70.7941      -0.00824226          149.47
0.526                  -0.325063        -134.997         -57.4754        -72.6348         -57.4754        -72.6348      -0.00831941         149.403
0.527                   -0.33659        -135.499         -57.2851        -74.4804         -57.2851        -74.4804       -0.0083978         149.335
0.528                  -0.348488        -136.003         -57.0942        -76.3312         -57.0942        -76.3312      -0.00847744         149.267
0.529                  -0.360759        -136.509         -56.9029        -78.1873         -56.9029        -78.1873      -0.00855835           149.2
0.53                   -0.373403        -137.016         -56.7112        -80.0486         -56.7112        -80.0486      -0.00864053         149.132
0.531                  -0.386422        -137.525         -56.5192        -81.9153         -56.5192        -81.9153        -0.008724         149.064
0.532                  -0.399818        -138.036         -56.3269        -83.7876         -56.3269        -83.7876      -0.00880878         148.996
0.533                  -0.413591        -138.549         -56.1344        -85.6654         -56.1344        -85.6654      -0.00889487         148.928
0.534                  -0.427744        -139.064         -55.9418         -87.549         -55.9418         -87.549       -0.0089823         148.859
0.535                  -0.442277         -139.58         -55.7491        -89.4383         -55.7491        -89.4383      -0.00907107         148.791
0.536                  -0.457191        -140.098         -55.5565        -91.3335         -55.5565        -91.3335       -0.0091612         148.723
0.537                  -0.472489        -140.618          -55.364        -93.2345          -55.364        -93.2345      -0.00925271         148.654
0.538                   -0.48817         -141.14         -55.1716        -95.1415         -55.1716        -95.1415      -0.00934561         148.585
0.539                  -0.504237        -141.664         -54.9794        -97.0546         -54.9794        -97.0546      -0.00943991         148.517
0.54                   -0.520691        -142.189         -54.7875        -98.9737         -54.7875        -98.9737      -0.00953562         148.448
0.541                  -0.537532        -142.716         -54.5959        -100.899         -54.5959        -100.899      -0.00963278         148.379
0.542                  -0.554763        -143.245         -54.4048         -102.83         -54.4048         -102.83      -0.00973138          148.31
0.543                  -0.572384        -143.775         -54.2142        -104.767         -54.2142        -104.767      -0.00983145         148.241
0.544                  -0.590397        -144.308         -54.0241        -106.711         -54.0241        -106.711        -0.009933         148.171
0.545                  -0.608803        -144.842         -53.8346        -108.661         -53.8346        -108.661        -0.010036         148.102
0.546                  -0.627603        -145.378         -53.6458        -110.616         -53.6458        -110.616       -0.0101406         148.032
0.547                  -0.646799        -145.916         -53.4578        -112.578         -53.4578        -112.578       -0.0102467         147.963
0.548                  -0.666392        -146.455         -53.2705        -114.545         -53.2705        -114.545       -0.0103543         147.893
0.549                  -0.686384        -146.996         -53.0841        -116.519         -53.0841        -116.519       -0.0104635         147.823
0.55                   -0.706775        -147.539         -52.8986        -118.498         -52.8986        -118.498       -0.0105743         147.753
0.551                  -0.727567        -148.084          -52.714        -120.482          -52.714        -120.482       -0.0106867         147.683
0.552                  -0.748762        -148.631         -52.5305        -122.473         -52.5305        -122.473       -0.0108007         147.613
0.553                  -0.770361        -149.179          -52.348        -124.468          -52.348        -124.468       -0.0109164         147.543
0.554                  -0.792365         -149.73         -52.1667        -126.469         -52.1667        -126.469       -0.0110337         147.473
0.555                  -0.814777        -150.282         -51.9865        -128.475         -51.9865        -128.475       -0.0111526         147.402
0.556                  -0.837598        -150.836         -51.8075        -130.486         -51.8075        -130.486       -0.0112733         147.331
0.557                  -0.860829        -151.392         -51.6298        -132.502         -51.6298        -132.502       -0.0113957         147.261
0.558                  -0.884472        -151.949         -51.4533        -134.522         -51.4533        -134.522       -0.0115198          147.19
0.559                  -0.908529        -152.509         -51.2782        -136.547         -51.2782        -136.547       -0.0116456         147.119
0.56                   -0.933002         -153.07         -51.1045        -138.575         -51.1045        -138.575       -0.0117733         147.048
0.561                  -0.957892        -153.634         -50.9321        -140.608         -50.9321        -140.608       -0.0119027         146.976
0.562                  -0.983203        -154.199         -50.7611        -142.644         -50.7611        -142.644       -0.0120339         146.905
0.563                   -1.00893        -154.766         -50.5916        -144.683         -50.5916        -144.683        -0.012167         146.833
0.564                   -1.03509        -155.335         -50.4236        -146.725         -50.4236        -146.725       -0.0123019         146.762
0.565                   -1.06167        -155.906          -50.257         -148.77          -50.257         -148.77       -0.0124387          146.69
0.566                   -1.08868        -156.479          -50.092        -150.818          -50.092        -150.818       -0.0125773         146.618
0.567                   -1.11613        -157.054         -49.9284        -152.868         -49.9284        -152.868       -0.0127179         146.546
0.568                     -1.144         -157.63         -49.7663         -154.92         -49.7663         -154.92       -0.0128605         146.474
0.569                   -1.17231        -158.209         -49.6058        -156.973         -49.6058        -156.973        -0.013005         146.401
0.57                    -1.20106         -158.79         -49.4468        -159.028         -49.4468        -159.028       -0.0131515         146.329
0.571                   -1.23025        -159.373         -49.2893        -161.084         -49.2893        -161.084          -0.0133         146.256
0.572                   -1.25989        -159.958         -49.1333        -163.141         -49.1333        -163.141       -0.0134505         146.184
0.573                   -1.28998        -160.545         -48.9788        -165.198         -48.9788        -165.198       -0.0136031         146.111
0.574                   -1.32052        -161.135         -48.8259        -167.255         -48.8259        -167.255       -0.0137578         146.038
0.575                   -1.35151        -161.726         -48.6743        -169.313         -48.6743        -169.313       -0.0139146         145.964
0.576                   -1.38296        -162.319         -48.5243         -171.37         -48.5243         -171.37       -0.0140735         145.891
0.577                   -1.41487        -162.915         -48.3757        -173.427         -48.3757        -173.427       -0.0142346         145.818
0.578                   -1.44726        -163.513         -48.2285        -175.483         -48.2285        -175.483       -0.0143978         145.744
0.579                   -1.48011        -164.113         -48.0826        -177.538         -48.0826        -177.538       -0.0145633          145.67
0.58                    -1.51344        -164.716         -47.9382        -179.591         -47.9382        -179.591        -0.014731         145.596
0.581                   -1.54725         -165.32          -47.795         178.357          -47.795         178.357       -0.0149009         145.522
0.582                   -1.58154        -165.927         -47.6532         176.306         -47.6532         176.306       -0.0150732         145.448
0.583                   -1.61633        -166.537         -47.5126         174.258         -47.5126         174.258       -0.0152477         145.374
0.584                   -1.65161        -167.149         -47.3732         172.211         -47.3732         172.211       -0.0154247         145.299
0.585                   -1.68739        -167.763          -47.235         170.166          -47.235         170.166       -0.0156039         145.224
0.586                   -1.72368         -168.38         -47.0979         168.124         -47.0979         168.124       -0.0157856         145.149
0.587                   -1.76049        -168.999          -46.962         166.085          -46.962         166.085       -0.0159697         145.074
0.588                   -1.79781        -169.621         -46.8271         164.047         -46.8271         164.047       -0.0161563         144.999
0.589                   -1.83567        -170.245         -46.6932         162.013         -46.6932         162.013       -0.0163454         144.924
0.59                    -1.87406        -170.872         -46.5602         159.981         -46.5602         159.981        -0.016537         144.848
0.591                   -1.91299        -171.501         -46.4282         157.952         -46.4282         157.952       -0.0167311         144.772
0.592                   -1.95248        -172.134          -46.297         155.926          -46.297         155.926       -0.0169278         144.697
0.593                   -1.99252        -172.769         -46.1667         153.903         -46.1667         153.903       -0.0171271          144.62
0.594                   -2.03313        -173.406         -46.0372         151.882         -46.0372         151.882       -0.0173291         144.544
0.595                   -2.07432        -174.047         -45.9084         149.865         -45.9084         149.865       -0.0175337         144.468
0.596                    -2.1161        -174.691         -45.7802          147.85         -45.7802          147.85       -0.0177411         144.391
0.597                   -2.15848        -175.337         -45.6528         145.838         -45.6528         145.838       -0.0179512         144.314
0.598                   -2.20146        -175.986         -45.5259         143.829         -45.5259         143.829        -0.018164         144.237
0.599                   -2.24506        -176.639         -45.3996         141.822         -45.3996         141.822       -0.0183797          144.16
0.6                      -2.2893        -177.294         -45.2738         139.819         -45.2738         139.819       -0.0185982         144.083
0.601                   -2.33418        -177.953         -45.1484         137.818         -45.1484         137.818       -0.0188195         144.005
0.602                   -2.37972        -178.614         -45.0235         135.819         -45.0235         135.819       -0.0190438         143.928
0.603                   -2.42593        -179.279          -44.899         133.822          -44.899         133.822       -0.0192711          143.85
0.604                   -2.47282        -179.948         -44.7748         131.828         -44.7748         131.828       -0.0195013         143.771
0.605                   -2.52041         179.381         -44.6509         129.836         -44.6509         129.836       -0.0197345         143.693
0.606                   -2.56872         178.706         -44.5273         127.846         -44.5273         127.846       -0.0199707         143.614
0.607                   -2.61777         178.028         -44.4039         125.857         -44.4039         125.857       -0.0202101         143.536
0.608                   -2.66756         177.346         -44.2808          123.87         -44.2808          123.87       -0.0204525         143.457
0.609                   -2.71812         176.661         -44.1578         121.885         -44.1578         121.885       -0.0206982         143.378
0.61                    -2.76946         175.972          -44.035         119.901          -44.035         119.901        -0.020947         143.298
0.611                   -2.82161         175.279         -43.9123         117.918         -43.9123         117.918        -0.021199         143.218
0.612                   -2.87459         174.583         -43.7897         115.935         -43.7897         115.935       -0.0214543         143.139
0.613                   -2.92842         173.883         -43.6671         113.954         -43.6671         113.954        -0.021713         143.059
0.614                   -2.98312          173.18         -43.5446         111.973         -43.5446         111.973       -0.0219749         142.978
0.615                   -3.03871         172.472         -43.4221         109.992         -43.4221         109.992       -0.0222403         142.898
0.616                   -3.09523          171.76         -43.2997         108.011         -43.2997         108.011       -0.0225091         142.817
0.617                   -3.15269         171.045         -43.1772          106.03         -43.1772          106.03       -0.0227813         142.736
0.618                   -3.21112         170.326         -43.0547         104.048         -43.0547         104.048       -0.0230571         142.655
0.619                   -3.27056         169.602         -42.9322         102.066         -42.9322         102.066       -0.0233364         142.573
0.62                    -3.33102         168.874         -42.8097         100.083         -42.8097         100.083       -0.0236193         142.492
0.621                   -3.39255         168.143         -42.6871         98.0991         -42.6871         98.0991       -0.0239059          142.41
0.622                   -3.45518         167.407         -42.5644         96.1137         -42.5644         96.1137       -0.0241961         142.327
0.623                   -3.51894         166.667         -42.4417         94.1268         -42.4417         94.1268       -0.0244901         142.245
0.624                   -3.58386         165.922         -42.3189         92.1382         -42.3189         92.1382       -0.0247879         142.162
0.625                   -3.64998         165.174         -42.1961         90.1476         -42.1961         90.1476       -0.0250895         142.079
0.626                   -3.71735         164.421         -42.0732         88.1548         -42.0732         88.1548        -0.025395         141.996
0.627                   -3.78599         163.663         -41.9503         86.1596         -41.9503         86.1596       -0.0257045         141.912
0.628                   -3.85597         162.901         -41.8274         84.1618         -41.8274         84.1618        -0.026018         141.829
0.629                   -3.92731         162.135         -41.7044         82.1612         -41.7044         82.1612       -0.0263356         141.744
