! TOUCHSTONE file generated by CST MICROWAVE STUDIO
! Date and time: Fri Oct  2 16:59:51 2020
! Project name: Scenario_1_Free_Space_out_of_line.cst
! Parameters = {Lambda=346.42; Step_1=17.321; dy1=-207.272; dx1=693; L_HA=400; MT=2.54; Rad_Dielectric=30; Rad_Lower=7.3; Rad_Upper=30; a_HA=580; a_WG=246; b_HA=500; b_WG=121; c_HA=0; c_WG=187; d_feed=85; h_feed=15; h_lower=18; h_upper=40}
! Header version: 2018
! Port assignment regex: !\s*Touchstone port\s*([0-9]+)\s*=\s*(CST MWS port|CST DS port)\s*([0-9]+|Zmin|Zmax)\s*\(\"(.*)\"\)(\s*mode\s*([0-9]+))?.*
! Touchstone port assignment:
! Touchstone port 1 = CST MWS port 1 ("")
! Touchstone port 2 = CST MWS port 2 ("")
# GHz S DB R 50
0.5                    -0.146159        -122.486         -63.4411        -121.999         -63.4411        -121.999      -0.00661731         151.121
0.501                  -0.151576        -122.926         -63.2334        -123.851         -63.2335        -123.851      -0.00668951         151.055
0.502                  -0.157182        -123.368         -63.0254        -125.713         -63.0256        -125.712      -0.00676223          150.99
0.503                  -0.162983        -123.813         -62.8172        -127.585         -62.8175        -127.584      -0.00683546         150.925
0.504                  -0.168985         -124.26         -62.6089        -129.467         -62.6092        -129.466       -0.0069092         150.859
0.505                  -0.175192        -124.708         -62.4004         -131.36         -62.4008        -131.358      -0.00698343         150.794
0.506                  -0.181611         -125.16         -62.1919        -133.263         -62.1923        -133.261      -0.00705816         150.728
0.507                  -0.188248        -125.613         -61.9834        -135.177         -61.9838        -135.174      -0.00713338         150.662
0.508                  -0.195108        -126.068         -61.7749        -137.101         -61.7753        -137.098      -0.00720907         150.597
0.509                  -0.202196        -126.526         -61.5666        -139.037          -61.567        -139.034      -0.00728525         150.531
0.51                   -0.209518        -126.986         -61.3584        -140.983         -61.3588         -140.98      -0.00736189         150.465
0.511                   -0.21708        -127.448         -61.1505        -142.941         -61.1509        -142.937      -0.00743901         150.399
0.512                  -0.224886        -127.912         -60.9429        -144.909         -60.9432        -144.906      -0.00751658         150.333
0.513                  -0.232943        -128.378         -60.7357        -146.889         -60.7359        -146.885      -0.00759461         150.267
0.514                  -0.241256        -128.847         -60.5289         -148.88         -60.5291        -148.876      -0.00767309         150.201
0.515                  -0.249829        -129.317         -60.3226        -150.882         -60.3227        -150.878      -0.00775201         150.134
0.516                  -0.258666         -129.79         -60.1168        -152.895         -60.1168        -152.891      -0.00783138         150.068
0.517                  -0.267773        -130.265         -59.9116         -154.92         -59.9116        -154.916      -0.00791118         150.001
0.518                  -0.277154        -130.742         -59.7071        -156.955          -59.707        -156.951      -0.00799142         149.935
0.519                  -0.286812        -131.221         -59.5034        -159.001         -59.5032        -158.997      -0.00807208         149.868
0.52                   -0.296752        -131.702         -59.3005        -161.058         -59.3002        -161.054      -0.00815317         149.802
0.521                  -0.306976        -132.185         -59.0984        -163.126          -59.098        -163.122      -0.00823469         149.735
0.522                  -0.317487         -132.67         -58.8972        -165.204         -58.8967        -165.201      -0.00831662         149.668
0.523                  -0.328287        -133.157          -58.697        -167.293         -58.6965        -167.289      -0.00839897         149.601
0.524                  -0.339379        -133.645         -58.4979        -169.392         -58.4972        -169.388      -0.00848173         149.534
0.525                  -0.350765        -134.136         -58.2998          -171.5         -58.2991        -171.497       -0.0085649         149.467
0.526                  -0.362444        -134.629         -58.1029        -173.618         -58.1021        -173.615      -0.00864849           149.4
0.527                  -0.374419        -135.124         -57.9071        -175.746         -57.9063        -175.743      -0.00873249         149.332
0.528                  -0.386688         -135.62         -57.7126        -177.882         -57.7117         -177.88       -0.0088169         149.265
0.529                  -0.399253        -136.118         -57.5194         179.972         -57.5184         179.974      -0.00890173         149.197
0.53                   -0.412111        -136.619         -57.3275         177.819         -57.3265          177.82      -0.00898697          149.13
0.531                  -0.425263        -137.121          -57.137         175.657         -57.1359         175.658      -0.00907263         149.062
0.532                  -0.438706        -137.624         -56.9479         173.487         -56.9468         173.488      -0.00915872         148.994
0.533                  -0.452439         -138.13         -56.7602         171.311         -56.7591         171.311      -0.00924523         148.927
0.534                  -0.466459        -138.637          -56.574         169.127         -56.5728         169.127      -0.00933218         148.859
0.535                  -0.480764        -139.147         -56.3893         166.937         -56.3881         166.937      -0.00941958         148.791
0.536                   -0.49535        -139.658         -56.2061         164.741         -56.2048          164.74      -0.00950742         148.722
0.537                  -0.510216         -140.17         -56.0244         162.539         -56.0231         162.538      -0.00959573         148.654
0.538                  -0.525358        -140.685         -55.8442         160.332         -55.8429         160.331      -0.00968452         148.586
0.539                  -0.540772        -141.202         -55.6656          158.12         -55.6643         158.118       -0.0097738         148.517
0.54                   -0.556456         -141.72         -55.4885         155.903         -55.4873         155.902      -0.00986358         148.449
0.541                  -0.572407         -142.24          -55.313         153.683         -55.3118         153.681       -0.0099539          148.38
0.542                  -0.588623        -142.762         -55.1391         151.459         -55.1378         151.457       -0.0100448         148.311
0.543                    -0.6051        -143.287         -54.9666         149.232         -54.9654          149.23       -0.0101362         148.242
0.544                  -0.621836        -143.813         -54.7957         147.002         -54.7945             147       -0.0102282         148.174
0.545                  -0.638831        -144.341         -54.6263          144.77         -54.6251         144.768       -0.0103209         148.104
0.546                  -0.656083        -144.871         -54.4584         142.537         -54.4572         142.534       -0.0104142         148.035
0.547                  -0.673592        -145.404         -54.2919         140.301         -54.2908         140.299       -0.0105081         147.966
0.548                  -0.691357        -145.939         -54.1269         138.065         -54.1258         138.062       -0.0106029         147.896
0.549                  -0.709382        -146.476         -53.9633         135.827         -53.9622         135.825       -0.0106983         147.827
0.55                   -0.727666        -147.015         -53.8011         133.589         -53.8001         133.587       -0.0107946         147.757
0.551                  -0.746214        -147.557         -53.6402         131.351         -53.6392         131.349       -0.0108918         147.688
0.552                  -0.765028        -148.101         -53.4806         129.113         -53.4796         129.111       -0.0109898         147.618
0.553                  -0.784115        -148.648         -53.3222         126.876         -53.3213         126.873       -0.0110888         147.548
0.554                   -0.80348        -149.198         -53.1651         124.639         -53.1643         124.637       -0.0111889         147.477
0.555                  -0.823129         -149.75         -53.0092         122.402         -53.0084         122.401         -0.01129         147.407
0.556                  -0.843072        -150.306         -52.8544         120.167         -52.8536         120.165       -0.0113922         147.337
0.557                  -0.863317        -150.864         -52.7007         117.933         -52.6999         117.932       -0.0114956         147.266
0.558                  -0.883875        -151.425          -52.548         115.701         -52.5472         115.699       -0.0116004         147.196
0.559                  -0.904756        -151.989         -52.3963         113.469         -52.3956         113.468       -0.0117064         147.125
0.56                   -0.925974        -152.557         -52.2455          111.24         -52.2449         111.239        -0.011814         147.054
0.561                  -0.947541        -153.127         -52.0957         109.012         -52.0951         109.011        -0.011923         146.983
0.562                  -0.969473        -153.701         -51.9467         106.786         -51.9461         106.785       -0.0120336         146.912
0.563                  -0.991784        -154.279         -51.7985         104.561         -51.7979         104.561       -0.0121459         146.841
0.564                   -1.01449        -154.859         -51.6511         102.339         -51.6505         102.339         -0.01226         146.769
0.565                   -1.03761        -155.443         -51.5044         100.118         -51.5039         100.118       -0.0123759         146.698
0.566                   -1.06116        -156.031         -51.3584         97.8986         -51.3579         97.8991       -0.0124938         146.626
0.567                   -1.08517        -156.622         -51.2131         95.6812         -51.2125         95.6819       -0.0126137         146.554
0.568                   -1.10964        -157.217         -51.0683         93.4655         -51.0678         93.4663       -0.0127358         146.482
0.569                    -1.1346        -157.815         -50.9241         91.2513         -50.9236         91.2523       -0.0128601          146.41
0.57                    -1.16007        -158.417         -50.7805         89.0386           -50.78         89.0399       -0.0129867         146.338
0.571                   -1.18607        -159.023         -50.6373         86.8274         -50.6368         86.8288       -0.0131157         146.265
0.572                   -1.21262        -159.632         -50.4946         84.6174         -50.4941          84.619       -0.0132472         146.193
0.573                   -1.23975        -160.245         -50.3524         82.4086         -50.3519         82.4104       -0.0133813          146.12
0.574                   -1.26748        -160.861         -50.2106         80.2009         -50.2101         80.2027        -0.013518         146.047
0.575                   -1.29583        -161.482         -50.0692         77.9941         -50.0687          77.996       -0.0136575         145.974
0.576                   -1.32481        -162.106         -49.9281          75.788         -49.9276         75.7901       -0.0137998         145.901
0.577                   -1.35446        -162.733         -49.7874         73.5826         -49.7869         73.5847       -0.0139449         145.828
0.578                    -1.3848        -163.364         -49.6471         71.3777         -49.6466         71.3798        -0.014093         145.755
0.579                   -1.41585        -163.999         -49.5071          69.173         -49.5066         69.1753       -0.0142441         145.681
0.58                    -1.44763        -164.637         -49.3674         66.9686         -49.3669         66.9708       -0.0143983         145.607
0.581                   -1.48016        -165.278          -49.228         64.7642         -49.2275         64.7664       -0.0145555         145.533
0.582                   -1.51347        -165.923         -49.0889         62.5596         -49.0884         62.5618       -0.0147158         145.459
0.583                   -1.54758        -166.571         -48.9501         60.3548         -48.9496         60.3569       -0.0148793         145.385
0.584                    -1.5825        -167.222         -48.8117         58.1495         -48.8111         58.1516       -0.0150459         145.311
0.585                   -1.61826        -167.876         -48.6735         55.9437          -48.673         55.9457       -0.0152157         145.236
0.586                   -1.65488        -168.533         -48.5356         53.7372         -48.5351         53.7391       -0.0153887         145.162
0.587                   -1.69237        -169.194         -48.3981         51.5299         -48.3975         51.5317       -0.0155649         145.087
0.588                   -1.73076        -169.857         -48.2608         49.3216         -48.2603         49.3233       -0.0157442         145.012
0.589                   -1.77007        -170.522         -48.1239         47.1123         -48.1234         47.1139       -0.0159266         144.937
0.59                     -1.8103         -171.19         -47.9873         44.9019         -47.9868         44.9033       -0.0161122         144.862
0.591                   -1.85147        -171.861         -47.8511         42.6902         -47.8506         42.6915       -0.0163009         144.786
0.592                   -1.89361        -172.534         -47.7152         40.4772         -47.7147         40.4783       -0.0164926         144.711
0.593                   -1.93672        -173.209         -47.5797         38.2628         -47.5792         38.2638       -0.0166873         144.635
0.594                   -1.98081        -173.886         -47.4445          36.047          -47.444         36.0478       -0.0168851         144.559
0.595                    -2.0259        -174.565         -47.3098         33.8297         -47.3093         33.8303       -0.0170858         144.483
0.596                     -2.072        -175.246         -47.1754         31.6109          -47.175         31.6113       -0.0172893         144.406
0.597                   -2.11911        -175.928         -47.0415         29.3905         -47.0411         29.3908       -0.0174958          144.33
0.598                   -2.16724        -176.612         -46.9081         27.1686         -46.9077         27.1688        -0.017705         144.253
0.599                    -2.2164        -177.297         -46.7751         24.9452         -46.7747         24.9452        -0.017917         144.176
0.6                     -2.26659        -177.983         -46.6425         22.7202         -46.6422           22.72       -0.0181317         144.099
0.601                   -2.31782         -178.67         -46.5105         20.4937         -46.5101         20.4934       -0.0183491         144.022
0.602                   -2.37008        -179.358          -46.379         18.2657         -46.3786         18.2653       -0.0185692         143.945
0.603                   -2.42337         179.954         -46.2479         16.0364         -46.2476         16.0357       -0.0187919         143.867
0.604                    -2.4777         179.265         -46.1174         13.8056         -46.1172         13.8049       -0.0190171         143.789
0.605                   -2.53307         178.575         -45.9875         11.5735         -45.9872         11.5727        -0.019245         143.711
0.606                   -2.58945         177.885         -45.8581         9.34026         -45.8579         9.33931       -0.0194753         143.633
0.607                   -2.64686         177.196         -45.7293         7.10584         -45.7291          7.1048       -0.0197082         143.555
0.608                   -2.70528         176.506          -45.601         4.87037         -45.6008         4.86926       -0.0199436         143.476
0.609                    -2.7647         175.816         -45.4733         2.63396         -45.4732         2.63277       -0.0201816         143.398
0.61                    -2.82512         175.127         -45.3462        0.396696         -45.3461        0.395458       -0.0204221         143.319
0.611                   -2.88652         174.438         -45.2197         -1.8413         -45.2196        -1.84258       -0.0206651         143.239
0.612                   -2.94889          173.75         -45.0938        -4.07992         -45.0938        -4.08122       -0.0209107          143.16
0.613                   -3.01222         173.062         -44.9685        -6.31903         -44.9685        -6.32036       -0.0211589          143.08
0.614                   -3.07649         172.374         -44.8438        -8.55854         -44.8438        -8.55987       -0.0214097         143.001
0.615                   -3.14169         171.688         -44.7197        -10.7983         -44.7197        -10.7996       -0.0216632          142.92
0.616                   -3.20781         171.002         -44.5962        -13.0382         -44.5962        -13.0395       -0.0219195          142.84
0.617                   -3.27483         170.317         -44.4732        -15.2781         -44.4733        -15.2794       -0.0221785          142.76
0.618                   -3.34274         169.632         -44.3509         -17.518          -44.351        -17.5192       -0.0224404         142.679
0.619                   -3.41151         168.948         -44.2291        -19.7576         -44.2292        -19.7588       -0.0227052         142.598
0.62                    -3.48114         168.265         -44.1079        -21.9969          -44.108         -21.998        -0.022973         142.517
0.621                   -3.55161         167.583         -43.9872        -24.2358         -43.9874        -24.2368       -0.0232439         142.435
0.622                    -3.6229         166.902         -43.8671        -26.4741         -43.8673        -26.4751        -0.023518         142.354
0.623                   -3.69501         166.221         -43.7475        -28.7118         -43.7477        -28.7127       -0.0237954         142.272
0.624                   -3.76792         165.541         -43.6285        -30.9488         -43.6286        -30.9496       -0.0240762         142.189
0.625                   -3.84162         164.861         -43.5099         -33.185           -43.51        -33.1857       -0.0243606         142.107
0.626                    -3.9161         164.181         -43.3918        -35.4203         -43.3919         -35.421       -0.0246487         142.024
0.627                   -3.99135         163.502         -43.2741        -37.6546         -43.2743        -37.6552       -0.0249405         141.941
0.628                   -4.06738         162.823         -43.1569         -39.888         -43.1571        -39.8885       -0.0252363         141.858
0.629                   -4.14417         162.144         -43.0401        -42.1203         -43.0403        -42.1207       -0.0255362         141.775
