! TOUCHSTONE file generated by CST MICROWAVE STUDIO
! Date and time: Fri Oct  2 19:15:49 2020
! Project name: Scenario_1_Free_Space_out_of_line.cst
! Parameters = {Lambda=346.42; Step_1=17.321; dy1=-207.272; dx1=866; L_HA=400; MT=2.54; Rad_Dielectric=30; Rad_Lower=7.3; Rad_Upper=30; a_HA=580; a_WG=246; b_HA=500; b_WG=121; c_HA=0; c_WG=187; d_feed=85; h_feed=15; h_lower=18; h_upper=40}
! Header version: 2018
! Port assignment regex: !\s*Touchstone port\s*([0-9]+)\s*=\s*(CST MWS port|CST DS port)\s*([0-9]+|Zmin|Zmax)\s*\(\"(.*)\"\)(\s*mode\s*([0-9]+))?.*
! Touchstone port assignment:
! Touchstone port 1 = CST MWS port 1 ("")
! Touchstone port 2 = CST MWS port 2 ("")
# GHz S DB R 50
0.5                    -0.148719        -122.628         -64.0644         139.928         -64.0644         139.928      -0.00666481         151.094
0.501                  -0.153872        -123.067         -63.8732         137.688         -63.8736           137.7       -0.0067225         151.028
0.502                  -0.159187        -123.507         -63.6808         135.455         -63.6816         135.477      -0.00678086         150.963
0.503                  -0.164671         -123.95         -63.4873          133.23         -63.4886          133.26      -0.00683993         150.897
0.504                  -0.170327        -124.395         -63.2928          131.01         -63.2946         131.048      -0.00689973         150.832
0.505                  -0.176163        -124.843         -63.0975         128.797         -63.0998         128.841      -0.00696028         150.766
0.506                  -0.182182        -125.293         -62.9015         126.588         -62.9043         126.637      -0.00702161           150.7
0.507                  -0.188392        -125.745         -62.7049         124.383         -62.7082         124.436      -0.00708375         150.634
0.508                  -0.194797          -126.2         -62.5079         122.182         -62.5115         122.238      -0.00714673         150.568
0.509                  -0.201405        -126.657         -62.3104         119.984         -62.3145         120.041      -0.00721056         150.502
0.51                   -0.208221        -127.116         -62.1127         117.787         -62.1171         117.846       -0.0072753         150.436
0.511                  -0.215251        -127.578         -61.9147         115.592         -61.9194         115.651      -0.00734097          150.37
0.512                  -0.222502        -128.042         -61.7166         113.397         -61.7215         113.456       -0.0074076         150.303
0.513                  -0.229981        -128.509         -61.5184         111.203         -61.5235         111.261      -0.00747523         150.237
0.514                  -0.237694        -128.978         -61.3203         109.007         -61.3255         109.064      -0.00754389         150.171
0.515                  -0.245648         -129.45         -61.1222          106.81         -61.1274         106.865      -0.00761362         150.104
0.516                   -0.25385        -129.924         -60.9242         104.611         -60.9294         104.664      -0.00768446         150.037
0.517                  -0.262306          -130.4         -60.7264         102.409         -60.7316         102.459      -0.00775644         149.971
0.518                  -0.271025        -130.879         -60.5288         100.204         -60.5339         100.251      -0.00782961         149.904
0.519                  -0.280013        -131.361         -60.3315         97.9952         -60.3365         98.0398      -0.00790401         149.837
0.52                   -0.289278        -131.844         -60.1346         95.7821         -60.1393         95.8236      -0.00797966          149.77
0.521                  -0.298827        -132.331          -59.938         93.5641         -59.9425         93.6025      -0.00805662         149.703
0.522                  -0.308667        -132.819         -59.7418         91.3409          -59.746         91.3762      -0.00813492         149.636
0.523                  -0.318805         -133.31          -59.546          89.112           -59.55         89.1441       -0.0082146         149.568
0.524                  -0.329249        -133.804         -59.3508          86.877         -59.3544          86.906       -0.0082957         149.501
0.525                  -0.340007          -134.3         -59.1561         84.6355         -59.1593         84.6615      -0.00837825         149.433
0.526                  -0.351086        -134.798         -58.9619         82.3873         -58.9648         82.4103       -0.0084623         149.366
0.527                  -0.362492        -135.299         -58.7684          80.132         -58.7708         80.1521      -0.00854787         149.298
0.528                  -0.374234        -135.802         -58.5755         77.8693         -58.5775         77.8866      -0.00863501         149.231
0.529                  -0.386318        -136.308         -58.3832          75.599         -58.3849         75.6137      -0.00872373         149.163
0.53                   -0.398751        -136.816         -58.1917          73.321         -58.1929         73.3332      -0.00881407         149.095
0.531                  -0.411541        -137.326         -58.0009         71.0349         -58.0017         71.0448      -0.00890605         149.027
0.532                  -0.424694        -137.838         -57.8108         68.7408         -57.8113         68.7485       -0.0089997         148.959
0.533                  -0.438215        -138.353         -57.6216         66.4384         -57.6216         66.4441      -0.00909502          148.89
0.534                  -0.452112         -138.87         -57.4332         64.1278         -57.4329         64.1317      -0.00919203         148.822
0.535                  -0.466391        -139.389         -57.2457         61.8088          -57.245          61.811      -0.00929075         148.754
0.536                  -0.481057         -139.91         -57.0591         59.4814          -57.058         59.4821      -0.00939117         148.685
0.537                  -0.496114        -140.434         -56.8734         57.1457          -56.872         57.1451      -0.00949328         148.617
0.538                  -0.511569        -140.959         -56.6887         54.8018          -56.687         54.7999      -0.00959709         148.548
0.539                  -0.527425        -141.487          -56.505         52.4496          -56.503         52.4467      -0.00970258         148.479
0.54                   -0.543687        -142.016         -56.3223         50.0892           -56.32         50.0854      -0.00980973          148.41
0.541                  -0.560357        -142.548         -56.1406         47.7209         -56.1381         47.7163      -0.00991852         148.341
0.542                   -0.57744        -143.082         -55.9601         45.3447         -55.9574         45.3395       -0.0100289         148.272
0.543                  -0.594937        -143.617         -55.7806         42.9609         -55.7777         42.9552       -0.0101409         148.203
0.544                   -0.61285        -144.154         -55.6023         40.5696         -55.5993         40.5635       -0.0102543         148.133
0.545                   -0.63118        -144.693         -55.4252         38.1711          -55.422         38.1647       -0.0103693         148.064
0.546                  -0.649928        -145.234         -55.2492         35.7655          -55.246         35.7589       -0.0104857         147.994
0.547                  -0.669094        -145.776         -55.0745         33.3533         -55.0711         33.3465       -0.0106035         147.925
0.548                  -0.688678         -146.32         -54.9009         30.9346         -54.8976         30.9278       -0.0107226         147.855
0.549                  -0.708677        -146.866         -54.7286         28.5097         -54.7253          28.503       -0.0108429         147.785
0.55                   -0.729089        -147.414         -54.5576          26.079         -54.5543         26.0724       -0.0109645         147.715
0.551                  -0.749913        -147.963         -54.3879         23.6429         -54.3846         23.6363       -0.0110872         147.645
0.552                  -0.771144        -148.513         -54.2194         21.2015         -54.2162         21.1952        -0.011211         147.575
0.553                  -0.792778        -149.065         -54.0523         18.7554         -54.0491         18.7493       -0.0113358         147.505
0.554                   -0.81481        -149.618         -53.8864         16.3048         -53.8834         16.2989       -0.0114615         147.434
0.555                  -0.837236        -150.173         -53.7219         13.8501          -53.719         13.8445       -0.0115882         147.364
0.556                  -0.860049        -150.729         -53.5587         11.3917         -53.5559         11.3865       -0.0117157         147.293
0.557                  -0.883242        -151.287         -53.3968         8.92992         -53.3942         8.92505        -0.011844         147.222
0.558                  -0.906809        -151.846         -53.2362         6.46519         -53.2337         6.46069       -0.0119731         147.151
0.559                  -0.930743        -152.407         -53.0769         3.99787         -53.0746         3.99374        -0.012103          147.08
0.56                   -0.955035        -152.969         -52.9189         1.52832         -52.9168         1.52457       -0.0122336         147.009
0.561                  -0.979677        -153.532         -52.7622        -0.94309         -52.7603       -0.946449       -0.0123648         146.938
0.562                   -1.00466        -154.097         -52.6068        -3.41601          -52.605        -3.41897       -0.0124967         146.867
0.563                   -1.02998        -154.663         -52.4526        -5.89007          -52.451        -5.89265       -0.0126294         146.795
0.564                   -1.05563        -155.231         -52.2996        -8.36495         -52.2983        -8.36714       -0.0127627         146.723
0.565                   -1.08159        -155.801         -52.1479        -10.8403         -52.1467        -10.8421       -0.0128966         146.652
0.566                   -1.10787        -156.372         -51.9973        -13.3158         -51.9964        -13.3172       -0.0130314          146.58
0.567                   -1.13445        -156.945         -51.8479        -15.7912         -51.8472        -15.7922       -0.0131668         146.508
0.568                   -1.16132        -157.519         -51.6997        -18.2661         -51.6991        -18.2668       -0.0133031         146.435
0.569                   -1.18849        -158.096         -51.5525        -20.7404         -51.5521        -20.7407       -0.0134402         146.363
0.57                    -1.21594        -158.674         -51.4064        -23.2136         -51.4062        -23.2136       -0.0135782         146.291
0.571                   -1.24368        -159.255         -51.2614        -25.6857         -51.2613        -25.6853       -0.0137171         146.218
0.572                   -1.27169        -159.837         -51.1173        -28.1563         -51.1174        -28.1556       -0.0138571         146.145
0.573                   -1.29998        -160.422         -50.9742        -30.6253         -50.9745        -30.6243       -0.0139982         146.072
0.574                   -1.32854         -161.01          -50.832        -33.0925         -50.8324        -33.0912       -0.0141404         145.999
0.575                   -1.35738          -161.6         -50.6907        -35.5578         -50.6913        -35.5562       -0.0142839         145.926
0.576                   -1.38651        -162.192         -50.5503        -38.0209         -50.5509         -38.019       -0.0144287         145.853
0.577                   -1.41591        -162.788         -50.4106        -40.4818         -50.4114        -40.4797        -0.014575         145.779
0.578                    -1.4456        -163.386         -50.2717        -42.9403         -50.2726         -42.938       -0.0147229         145.705
0.579                   -1.47559        -163.988         -50.1336        -45.3965         -50.1345        -45.3939       -0.0148723         145.632
0.58                    -1.50589        -164.592         -49.9961        -47.8501         -49.9971        -47.8474       -0.0150236         145.558
0.581                    -1.5365        -165.201         -49.8592        -50.3013         -49.8603        -50.2984       -0.0151766         145.483
0.582                   -1.56745        -165.812          -49.723          -52.75         -49.7241        -52.7469       -0.0153317         145.409
0.583                   -1.59874        -166.428         -49.5873        -55.1961         -49.5885        -55.1929       -0.0154888         145.335
0.584                    -1.6304        -167.047         -49.4521        -57.6397         -49.4533        -57.6364       -0.0156481          145.26
0.585                   -1.66244        -167.671         -49.3174        -60.0809         -49.3187        -60.0774       -0.0158097         145.185
0.586                    -1.6949        -168.299         -49.1832        -62.5197         -49.1844        -62.5161       -0.0159737          145.11
0.587                   -1.72778        -168.931         -49.0493        -64.9561         -49.0506        -64.9525       -0.0161403         145.035
0.588                   -1.76113        -169.567         -48.9159        -67.3903         -48.9171        -67.3866       -0.0163095          144.96
0.589                   -1.79496        -170.209         -48.7828        -69.8224          -48.784        -69.8186       -0.0164814         144.884
0.59                    -1.82931        -170.855           -48.65        -72.2524         -48.6512        -72.2486       -0.0166562         144.808
0.591                   -1.86421        -171.506         -48.5174        -74.6805         -48.5186        -74.6767        -0.016834         144.732
0.592                    -1.8997        -172.161         -48.3852        -77.1069         -48.3863        -77.1031       -0.0170149         144.656
0.593                   -1.93581        -172.822         -48.2531        -79.5317         -48.2542         -79.528        -0.017199          144.58
0.594                   -1.97258        -173.488         -48.1213        -81.9551         -48.1223        -81.9514       -0.0173864         144.504
0.595                   -2.01005         -174.16         -47.9897        -84.3772         -47.9906        -84.3736       -0.0175772         144.427
0.596                   -2.04827        -174.836         -47.8582        -86.7983         -47.8591        -86.7947       -0.0177715          144.35
0.597                   -2.08727        -175.518         -47.7269        -89.2185         -47.7277         -89.215       -0.0179694         144.273
0.598                    -2.1271        -176.206         -47.5957        -91.6379         -47.5964        -91.6346        -0.018171         144.196
0.599                    -2.1678        -176.898         -47.4646        -94.0569         -47.4653        -94.0537       -0.0183764         144.118
0.6                     -2.20943        -177.596         -47.3337        -96.4756         -47.3343        -96.4725       -0.0185856         144.041
0.601                   -2.25203          -178.3         -47.2029        -98.8942         -47.2034        -98.8913       -0.0187989         143.963
0.602                   -2.29565        -179.009         -47.0721        -101.313         -47.0726         -101.31       -0.0190162         143.885
0.603                   -2.34034        -179.723         -46.9415        -103.732         -46.9419        -103.729       -0.0192376         143.807
0.604                   -2.38614         179.558          -46.811        -106.152         -46.8113        -106.149       -0.0194632         143.728
0.605                   -2.43312         178.833         -46.6806        -108.572         -46.6808         -108.57        -0.019693          143.65
0.606                   -2.48131         178.104         -46.5503        -110.993         -46.5504        -110.991       -0.0199272         143.571
0.607                   -2.53078         177.369         -46.4201        -113.415         -46.4202        -113.414       -0.0201658         143.492
0.608                   -2.58156          176.63           -46.29        -115.839           -46.29        -115.837       -0.0204087         143.413
0.609                   -2.63372         175.886         -46.1601        -118.264         -46.1601        -118.263       -0.0206561         143.333
0.61                     -2.6873         175.138         -46.0304        -120.691         -46.0303         -120.69       -0.0209081         143.254
0.611                   -2.74234         174.386         -45.9008        -123.119         -45.9006        -123.118       -0.0211645         143.174
0.612                    -2.7989         173.629         -45.7714         -125.55         -45.7712        -125.549       -0.0214255         143.094
0.613                   -2.85703         172.869         -45.6422        -127.982         -45.6419        -127.982       -0.0216911         143.013
0.614                   -2.91677         172.106         -45.5132        -130.417         -45.5129        -130.417       -0.0219612         142.933
0.615                   -2.97816         171.339         -45.3845        -132.854         -45.3842        -132.854        -0.022236         142.852
0.616                   -3.04124          170.57         -45.2561        -135.293         -45.2557        -135.293       -0.0225153         142.771
0.617                   -3.10607         169.798          -45.128        -137.735         -45.1276        -137.736       -0.0227992          142.69
0.618                   -3.17266         169.024         -45.0002         -140.18         -44.9997         -140.18       -0.0230877         142.608
0.619                   -3.24106         168.248         -44.8727        -142.627         -44.8723        -142.628       -0.0233808         142.527
0.62                    -3.31131         167.471         -44.7456        -145.077         -44.7452        -145.077       -0.0236783         142.445
0.621                   -3.38342         166.693          -44.619        -147.529         -44.6186         -147.53       -0.0239804         142.362
0.622                   -3.45744         165.914         -44.4928        -149.984         -44.4924        -149.985        -0.024287          142.28
0.623                   -3.53337         165.135         -44.3671        -152.442         -44.3666        -152.443       -0.0245981         142.197
0.624                   -3.61124         164.357         -44.2418        -154.902         -44.2414        -154.903       -0.0249135         142.114
0.625                   -3.69107         163.579         -44.1171        -157.365         -44.1167        -157.366       -0.0252334         142.031
0.626                   -3.77286         162.803         -43.9929         -159.83         -43.9925        -159.831       -0.0255576         141.948
0.627                   -3.85662         162.028         -43.8694        -162.298          -43.869        -162.299       -0.0258861         141.864
0.628                   -3.94236         161.255         -43.7464        -164.768          -43.746        -164.769       -0.0262189          141.78
0.629                   -4.03008         160.486          -43.624         -167.24         -43.6237        -167.241        -0.026556         141.696
