! TOUCHSTONE file generated by CST MICROWAVE STUDIO
! Date and time: Fri Oct  2 17:16:57 2020
! Project name: Scenario_1_Free_Space_out_of_line.cst
! Parameters = {Lambda=346.42; Step_1=17.321; dy1=-224.613; dx1=173; L_HA=400; MT=2.54; Rad_Dielectric=30; Rad_Lower=7.3; Rad_Upper=30; a_HA=580; a_WG=246; b_HA=500; b_WG=121; c_HA=0; c_WG=187; d_feed=85; h_feed=15; h_lower=18; h_upper=40}
! Header version: 2018
! Port assignment regex: !\s*Touchstone port\s*([0-9]+)\s*=\s*(CST MWS port|CST DS port)\s*([0-9]+|Zmin|Zmax)\s*\(\"(.*)\"\)(\s*mode\s*([0-9]+))?.*
! Touchstone port assignment:
! Touchstone port 1 = CST MWS port 1 ("")
! Touchstone port 2 = CST MWS port 2 ("")
# GHz S DB R 50
0.5                    -0.150467        -122.615         -59.6207         151.426         -59.6207         151.426      -0.00631885         151.176
0.501                  -0.157401        -122.989         -59.4754          150.01         -59.4755          150.01      -0.00636202         151.111
0.502                  -0.164114        -123.367          -59.329         148.593          -59.329         148.593      -0.00640607         151.045
0.503                  -0.170627         -123.75         -59.1813         147.175         -59.1814         147.175      -0.00645099          150.98
0.504                   -0.17696        -124.137         -59.0324         145.757         -59.0325         145.756      -0.00649679         150.915
0.505                  -0.183133        -124.529         -58.8824         144.338         -58.8826         144.337      -0.00654348         150.849
0.506                  -0.189169        -124.925         -58.7313         142.917         -58.7315         142.917      -0.00659107         150.783
0.507                  -0.195087        -125.326         -58.5791         141.496         -58.5793         141.495      -0.00663955         150.718
0.508                  -0.200909        -125.731         -58.4258         140.075         -58.4261         140.073      -0.00668894         150.652
0.509                  -0.206657        -126.141         -58.2716         138.652         -58.2718          138.65      -0.00673925         150.586
0.51                    -0.21235        -126.556         -58.1163         137.228         -58.1166         137.227      -0.00679047          150.52
0.511                  -0.218011        -126.975         -57.9602         135.804         -57.9604         135.802      -0.00684261         150.454
0.512                   -0.22366        -127.399         -57.8031         134.378         -57.8034         134.376      -0.00689569         150.388
0.513                  -0.229319        -127.827         -57.6451         132.951         -57.6454         132.949      -0.00694971         150.322
0.514                  -0.235007        -128.261         -57.4863         131.523         -57.4867         131.522      -0.00700468         150.255
0.515                  -0.240747        -128.699         -57.3267         130.095         -57.3271         130.093      -0.00706059         150.189
0.516                   -0.24656        -129.141         -57.1664         128.664         -57.1667         128.662      -0.00711747         150.123
0.517                  -0.252466        -129.589         -57.0053         127.233         -57.0057         127.231      -0.00717531         150.056
0.518                  -0.258485        -130.041         -56.8435           125.8         -56.8439         125.798      -0.00723414         149.989
0.519                  -0.264639        -130.498         -56.6811         124.366         -56.6815         124.363      -0.00729394         149.923
0.52                   -0.270948         -130.96          -56.518          122.93         -56.5184         122.928      -0.00735474         149.856
0.521                  -0.277432        -131.426         -56.3543         121.493         -56.3547          121.49      -0.00741653         149.789
0.522                  -0.284111        -131.898         -56.1901         120.054         -56.1905         120.051      -0.00747934         149.722
0.523                  -0.291006        -132.373         -56.0254         118.613         -56.0258          118.61      -0.00754316         149.655
0.524                  -0.298135        -132.854         -55.8601          117.17         -55.8606         117.167      -0.00760801         149.588
0.525                   -0.30552        -133.339         -55.6945         115.725         -55.6949         115.723      -0.00767389         149.521
0.526                  -0.313178        -133.829         -55.5284         114.279         -55.5288         114.276      -0.00774082         149.453
0.527                   -0.32113        -134.323         -55.3619          112.83         -55.3623         112.827       -0.0078088         149.386
0.528                  -0.329393        -134.822          -55.195         111.379         -55.1955         111.376      -0.00787784         149.318
0.529                  -0.337986        -135.325         -55.0279         109.926         -55.0284         109.923      -0.00794796         149.251
0.53                   -0.346929        -135.833         -54.8605          108.47         -54.8609         108.468      -0.00801916         149.183
0.531                  -0.356237        -136.345         -54.6928         107.012         -54.6933         107.009      -0.00809146         149.115
0.532                   -0.36593        -136.861         -54.5249         105.551         -54.5254         105.549      -0.00816486         149.048
0.533                  -0.376024        -137.382         -54.3569         104.088         -54.3573         104.086      -0.00823938          148.98
0.534                  -0.386536        -137.907         -54.1887         102.622         -54.1891          102.62      -0.00831502         148.911
0.535                  -0.397482        -138.436         -54.0203         101.153         -54.0208         101.151       -0.0083918         148.843
0.536                   -0.40888         -138.97          -53.852         99.6816         -53.8524          99.679      -0.00846973         148.775
0.537                  -0.420744        -139.507         -53.6835         98.2069          -53.684         98.2043      -0.00854883         148.707
0.538                   -0.43309        -140.049         -53.5151         96.7292         -53.5155         96.7266       -0.0086291         148.638
0.539                  -0.445932        -140.594         -53.3467         95.2483         -53.3471         95.2458      -0.00871055          148.57
0.54                   -0.459286        -141.143         -53.1783         93.7643         -53.1787         93.7618      -0.00879321         148.501
0.541                  -0.473165        -141.696           -53.01          92.277         -53.0105         92.2746      -0.00887708         148.432
0.542                  -0.487582        -142.253         -52.8419         90.7864         -52.8423          90.784      -0.00896217         148.363
0.543                  -0.502552        -142.813         -52.6739         89.2924         -52.6743         89.2901      -0.00904851         148.294
0.544                  -0.518086        -143.377         -52.5061          87.795         -52.5065         87.7928       -0.0091361         148.225
0.545                  -0.534196        -143.945         -52.3385         86.2941         -52.3389          86.292      -0.00922496         148.156
0.546                  -0.550895        -144.516         -52.1711         84.7897         -52.1715         84.7876       -0.0093151         148.087
0.547                  -0.568194         -145.09         -52.0041         83.2818         -52.0045         83.2798      -0.00940655         148.017
0.548                  -0.586102        -145.667         -51.8374         81.7703         -51.8377         81.7683      -0.00949931         147.948
0.549                  -0.604631        -146.248          -51.671         80.2551         -51.6713         80.2533       -0.0095934         147.878
0.55                   -0.623791        -146.832          -51.505         78.7364         -51.5053         78.7346      -0.00968884         147.808
0.551                  -0.643589        -147.418         -51.3394          77.214         -51.3397         77.2122      -0.00978564         147.738
0.552                  -0.664035        -148.008         -51.1742         75.6879         -51.1745         75.6862      -0.00988383         147.668
0.553                  -0.685138          -148.6         -51.0095         74.1581         -51.0098         74.1566      -0.00998341         147.598
0.554                  -0.706904        -149.195         -50.8453         72.6247         -50.8456         72.6233       -0.0100844         147.528
0.555                  -0.729342        -149.793         -50.6816         71.0877         -50.6819         71.0863       -0.0101869         147.458
0.556                  -0.752457        -150.393         -50.5185          69.547         -50.5188         69.5457       -0.0102908         147.387
0.557                  -0.776256        -150.996         -50.3559         68.0027         -50.3562         68.0015       -0.0103961         147.316
0.558                  -0.800745        -151.601          -50.194         66.4548         -50.1943         66.4537        -0.010503         147.246
0.559                  -0.825928        -152.209         -50.0327         64.9034          -50.033         64.9023       -0.0106114         147.175
0.56                   -0.851811        -152.818         -49.8721         63.3485         -49.8723         63.3475       -0.0107213         147.104
0.561                  -0.878399         -153.43         -49.7121         61.7901         -49.7123         61.7892       -0.0108328         147.033
0.562                  -0.905694        -154.044         -49.5529         60.2283         -49.5531         60.2275       -0.0109458         146.962
0.563                    -0.9337         -154.66         -49.3944         58.6631         -49.3945         58.6624       -0.0110605          146.89
0.564                   -0.96242        -155.277         -49.2366         57.0947         -49.2368         57.0941       -0.0111768         146.819
0.565                  -0.991857        -155.897         -49.0796         55.5231         -49.0798         55.5225       -0.0112947         146.747
0.566                   -1.02201        -156.518         -48.9234         53.9483         -48.9236         53.9479       -0.0114143         146.675
0.567                   -1.05289        -157.141         -48.7681         52.3706         -48.7682         52.3702       -0.0115357         146.603
0.568                   -1.08449        -157.765         -48.6135         50.7899         -48.6137         50.7896       -0.0116587         146.531
0.569                   -1.11681        -158.391         -48.4599         49.2063           -48.46         49.2061       -0.0117835         146.459
0.57                    -1.14985        -159.018         -48.3071           47.62         -48.3071         47.6198       -0.0119101         146.387
0.571                   -1.18362        -159.647         -48.1552          46.031         -48.1552          46.031       -0.0120385         146.314
0.572                   -1.21811        -160.277         -48.0041         44.4396         -48.0042         44.4396       -0.0121687         146.242
0.573                   -1.25333        -160.908          -47.854         42.8457         -47.8541         42.8458       -0.0123008         146.169
0.574                   -1.28927         -161.54         -47.7049         41.2495         -47.7049         41.2497       -0.0124348         146.096
0.575                   -1.32593        -162.173         -47.5566         39.6512         -47.5566         39.6514       -0.0125708         146.023
0.576                   -1.36331        -162.807         -47.4093         38.0508         -47.4093         38.0511       -0.0127086          145.95
0.577                   -1.40141        -163.443          -47.263         36.4485         -47.2629         36.4489       -0.0128485         145.877
0.578                   -1.44023        -164.079         -47.1176         34.8445         -47.1175         34.8449       -0.0129905         145.803
0.579                   -1.47976        -164.716         -46.9732         33.2388         -46.9731         33.2392       -0.0131345          145.73
0.58                    -1.52001        -165.353         -46.8297         31.6316         -46.8296         31.6321       -0.0132805         145.656
0.581                   -1.56097        -165.992         -46.6872          30.023         -46.6871         30.0236       -0.0134288         145.582
0.582                   -1.60264        -166.631         -46.5457         28.4132         -46.5456         28.4138       -0.0135792         145.508
0.583                   -1.64502         -167.27         -46.4052         26.8024          -46.405          26.803       -0.0137318         145.434
0.584                    -1.6881        -167.911         -46.2656         25.1906         -46.2655         25.1913       -0.0138867         145.359
0.585                   -1.73188        -168.552          -46.127          23.578         -46.1269         23.5787       -0.0140439         145.285
0.586                   -1.77637        -169.193         -45.9894         21.9647         -45.9892         21.9655       -0.0142034          145.21
0.587                   -1.82155        -169.835         -45.8528         20.3509         -45.8525         20.3517       -0.0143653         145.135
0.588                   -1.86742        -170.477          -45.717         18.7367         -45.7168         18.7375       -0.0145296          145.06
0.589                   -1.91399         -171.12         -45.5823         17.1223          -45.582         17.1231       -0.0146964         144.985
0.59                    -1.96125        -171.763         -45.4484         15.5077         -45.4482         15.5086       -0.0148658         144.909
0.591                   -2.00919        -172.406         -45.3155         13.8932         -45.3153          13.894       -0.0150377         144.833
0.592                   -2.05782         -173.05         -45.1836         12.2787         -45.1833         12.2796       -0.0152122         144.758
0.593                   -2.10713        -173.694         -45.0525         10.6645         -45.0522         10.6654       -0.0153894         144.682
0.594                   -2.15712        -174.338         -44.9223         9.05071          -44.922          9.0516       -0.0155694         144.606
0.595                   -2.20779        -174.983          -44.793         7.43737         -44.7926         7.43826       -0.0157521         144.529
0.596                   -2.25913        -175.628         -44.6645         5.82462         -44.6642         5.82551       -0.0159376         144.453
0.597                   -2.31114        -176.273         -44.5369         4.21256         -44.5365         4.21345       -0.0161261         144.376
0.598                   -2.36383        -176.918         -44.4101         2.60129         -44.4097         2.60217       -0.0163175         144.299
0.599                   -2.41718        -177.564         -44.2841         0.99091         -44.2837         0.99178        -0.016512         144.222
0.6                     -2.47121         -178.21         -44.1589       -0.618505         -44.1585       -0.617646       -0.0167095         144.145
0.601                    -2.5259        -178.856         -44.0345        -2.22687         -44.0341        -2.22602       -0.0169102         144.067
0.602                   -2.58126        -179.502         -43.9108        -3.83411         -43.9104        -3.83328       -0.0171142          143.99
0.603                   -2.63728         179.852         -43.7878        -5.44015         -43.7874        -5.43934       -0.0173214         143.912
0.604                   -2.69397         179.205         -43.6656        -7.04494         -43.6652        -7.04415       -0.0175319         143.834
0.605                   -2.75133         178.558          -43.544        -8.64841         -43.5436        -8.64765        -0.017746         143.755
0.606                   -2.80935         177.911         -43.4231        -10.2505         -43.4227        -10.2498       -0.0179635         143.677
0.607                   -2.86804         177.263         -43.3029        -11.8512         -43.3024        -11.8505       -0.0181846         143.598
0.608                    -2.9274         176.615         -43.1832        -13.4505         -43.1828        -13.4498       -0.0184094         143.519
0.609                   -2.98742         175.967         -43.0642        -15.0483         -43.0637        -15.0477        -0.018638          143.44
0.61                    -3.04812         175.319         -42.9457        -16.6447         -42.9452        -16.6441       -0.0188704         143.361
0.611                   -3.10949          174.67         -42.8277        -18.2395         -42.8273        -18.2389       -0.0191068         143.281
0.612                   -3.17153         174.022         -42.7103        -19.8328         -42.7098        -19.8323       -0.0193472         143.202
0.613                   -3.23425         173.372         -42.5934        -21.4247         -42.5929        -21.4242       -0.0195917         143.122
0.614                   -3.29765         172.723         -42.4769         -23.015         -42.4765        -23.0145       -0.0198404         143.041
0.615                   -3.36174         172.073          -42.361        -24.6038         -42.3605        -24.6034       -0.0200934         142.961
0.616                   -3.42652         171.422         -42.2454        -26.1912         -42.2449        -26.1908       -0.0203509          142.88
0.617                   -3.49199         170.771         -42.1302        -27.7772         -42.1297        -27.7768       -0.0206129         142.799
0.618                   -3.55816          170.12         -42.0154        -29.3617          -42.015        -29.3614       -0.0208796         142.718
0.619                   -3.62504         169.468          -41.901        -30.9449         -41.9005        -30.9446        -0.021151         142.637
0.62                    -3.69263         168.816         -41.7869        -32.5268         -41.7865        -32.5265       -0.0214273         142.555
0.621                   -3.76094         168.163         -41.6732        -34.1074         -41.6727        -34.1071       -0.0217086         142.473
0.622                   -3.82997          167.51         -41.5597        -35.6867         -41.5592        -35.6866        -0.021995         142.391
0.623                   -3.89974         166.856         -41.4465         -37.265          -41.446        -37.2649       -0.0222866         142.308
0.624                   -3.97025         166.202         -41.3336        -38.8422         -41.3331        -38.8421       -0.0225836         142.226
0.625                   -4.04151         165.547         -41.2209        -40.4183         -41.2204        -40.4183       -0.0228862         142.143
0.626                   -4.11353         164.891         -41.1084        -41.9936         -41.1079        -41.9936       -0.0231944          142.06
0.627                   -4.18633         164.235         -40.9961         -43.568         -40.9956         -43.568       -0.0235084         141.976
0.628                   -4.25991         163.578          -40.884        -45.1417         -40.8835        -45.1417       -0.0238284         141.892
0.629                   -4.33428          162.92          -40.772        -46.7147         -40.7716        -46.7148       -0.0241544         141.808
