! TOUCHSTONE file generated by CST MICROWAVE STUDIO
! Date and time: Fri Oct  2 16:19:39 2020
! Project name: Scenario_1_Free_Space_out_of_line.cst
! Parameters = {Lambda=346.42; Step_1=17.321; dy1=-224.613; dx1=346; L_HA=400; MT=2.54; Rad_Dielectric=30; Rad_Lower=7.3; Rad_Upper=30; a_HA=580; a_WG=246; b_HA=500; b_WG=121; c_HA=0; c_WG=187; d_feed=85; h_feed=15; h_lower=18; h_upper=40}
! Header version: 2018
! Port assignment regex: !\s*Touchstone port\s*([0-9]+)\s*=\s*(CST MWS port|CST DS port)\s*([0-9]+|Zmin|Zmax)\s*\(\"(.*)\"\)(\s*mode\s*([0-9]+))?.*
! Touchstone port assignment:
! Touchstone port 1 = CST MWS port 1 ("")
! Touchstone port 2 = CST MWS port 2 ("")
# GHz S DB R 50
0.5                     -0.14562        -122.696         -60.9989         68.1089         -60.9989         68.1089      -0.00663616         151.142
0.501                  -0.153137        -123.148         -60.8364         66.2497         -60.8365         66.2508      -0.00671636         151.077
0.502                  -0.160833          -123.6         -60.6711         64.4012         -60.6712         64.4033       -0.0067974         151.011
0.503                  -0.168711        -124.054         -60.5031         62.5635         -60.5032         62.5665      -0.00687925         150.946
0.504                  -0.176771         -124.51         -60.3325         60.7364         -60.3326         60.7404      -0.00696192          150.88
0.505                  -0.185013        -124.967         -60.1595         58.9199         -60.1597         58.9247      -0.00704541         150.815
0.506                  -0.193438        -125.425         -59.9842         57.1139         -59.9844         57.1195       -0.0071297         150.749
0.507                  -0.202048        -125.885         -59.8068         55.3182          -59.807         55.3245      -0.00721479         150.683
0.508                  -0.210842        -126.346         -59.6273         53.5325         -59.6275         53.5395      -0.00730068         150.617
0.509                  -0.219822        -126.809         -59.4459         51.7566         -59.4462         51.7643      -0.00738736         150.551
0.51                   -0.228988        -127.273         -59.2628         49.9902         -59.2631         49.9985      -0.00747483         150.485
0.511                  -0.238342        -127.738          -59.078          48.233         -59.0783         48.2418      -0.00756308         150.419
0.512                  -0.247883        -128.205         -58.8916         46.4846         -58.8919         46.4939       -0.0076521         150.353
0.513                  -0.257614        -128.673         -58.7038         44.7446         -58.7041         44.7544      -0.00774189         150.287
0.514                  -0.267534        -129.143         -58.5147         43.0126          -58.515         43.0228      -0.00783245         150.221
0.515                  -0.277646        -129.615         -58.3243         41.2882         -58.3247         41.2987      -0.00792376         150.154
0.516                  -0.287949        -130.088         -58.1328         39.5709         -58.1332         39.5817      -0.00801582         150.088
0.517                  -0.298445        -130.563         -57.9402         37.8602         -57.9406         37.8713      -0.00810862         150.021
0.518                  -0.309136        -131.039         -57.7467         36.1557         -57.7471         36.1671      -0.00820216         149.954
0.519                  -0.320021        -131.517         -57.5523         34.4568         -57.5527         34.4684      -0.00829644         149.888
0.52                   -0.331103        -131.996         -57.3571         32.7632         -57.3575         32.7749      -0.00839143         149.821
0.521                  -0.342383        -132.477         -57.1612         31.0742         -57.1616         31.0861      -0.00848715         149.754
0.522                  -0.353861         -132.96         -56.9647         29.3894         -56.9651         29.4014      -0.00858357         149.687
0.523                   -0.36554        -133.444         -56.7676         27.7082          -56.768         27.7202       -0.0086807          149.62
0.524                   -0.37742         -133.93           -56.57         26.0301         -56.5704         26.0422      -0.00877852         149.553
0.525                  -0.389503        -134.417          -56.372         24.3546         -56.3724         24.3667      -0.00887704         149.486
0.526                  -0.401791        -134.907         -56.1737         22.6813          -56.174         22.6933      -0.00897623         149.418
0.527                  -0.414284        -135.398          -55.975         21.0095         -55.9754         21.0215       -0.0090761         149.351
0.528                  -0.426986        -135.891         -55.7761         19.3388         -55.7765         19.3507      -0.00917664         149.283
0.529                  -0.439897        -136.385         -55.5771         17.6686         -55.5774         17.6804      -0.00927783         149.216
0.53                   -0.453019        -136.882         -55.3779         15.9985         -55.3782         16.0102      -0.00937968         149.148
0.531                  -0.466354         -137.38         -55.1787          14.328          -55.179         14.3395      -0.00948218          149.08
0.532                  -0.479904         -137.88         -54.9795         12.6566         -54.9798         12.6679      -0.00958531         149.012
0.533                  -0.493671        -138.382         -54.7804         10.9838         -54.7807         10.9949      -0.00968908         148.944
0.534                  -0.507657        -138.886         -54.5814         9.30913         -54.5816         9.32001      -0.00979347         148.876
0.535                  -0.521864        -139.392         -54.3826         7.63219         -54.3828         7.64281      -0.00989848         148.808
0.536                  -0.536295          -139.9         -54.1841         5.95251         -54.1842         5.96286       -0.0100041          148.74
0.537                  -0.550953        -140.409         -53.9858         4.26968         -53.9859         4.27972       -0.0101103         148.672
0.538                  -0.565838        -140.921         -53.7879         2.58327          -53.788         2.59299       -0.0102171         148.603
0.539                  -0.580955        -141.435         -53.5904        0.892885         -53.5904        0.902267       -0.0103246         148.535
0.54                   -0.596306        -141.951         -53.3933       -0.801846         -53.3933       -0.792823       -0.0104326         148.466
0.541                  -0.611894        -142.469         -53.1968        -2.50129         -53.1968        -2.49265       -0.0105412         148.397
0.542                  -0.627722        -142.989         -53.0008         -4.2058         -53.0008        -4.19755       -0.0106504         148.328
0.543                  -0.643792        -143.511         -52.8055         -5.9157         -52.8055        -5.90785       -0.0107601         148.259
0.544                  -0.660109        -144.035         -52.6108        -7.63129         -52.6108        -7.62386       -0.0108704          148.19
0.545                  -0.676675        -144.562          -52.417        -9.35285         -52.4169        -9.34586       -0.0109813         148.121
0.546                  -0.693495        -145.091         -52.2239        -11.0807         -52.2238        -11.0741       -0.0110928         148.052
0.547                  -0.710572        -145.622         -52.0317         -12.815         -52.0316        -12.8089       -0.0112048         147.982
0.548                  -0.727909        -146.155         -51.8404         -14.556         -51.8403        -14.5503       -0.0113175         147.913
0.549                  -0.745511        -146.691         -51.6501        -16.3038         -51.6499        -16.2987       -0.0114307         147.843
0.55                   -0.763383        -147.229         -51.4608        -18.0588         -51.4607        -18.0541       -0.0115444         147.774
0.551                  -0.781528        -147.769         -51.2727        -19.8209         -51.2725        -19.8167       -0.0116588         147.704
0.552                  -0.799951        -148.312         -51.0857        -21.5904         -51.0855        -21.5867       -0.0117737         147.634
0.553                  -0.818657        -148.858         -50.8999        -23.3672         -50.8997         -23.364       -0.0118892         147.564
0.554                  -0.837651        -149.406         -50.7154        -25.1515         -50.7152        -25.1488       -0.0120054         147.494
0.555                  -0.856939        -149.956         -50.5323        -26.9433         -50.5321         -26.941       -0.0121221         147.423
0.556                  -0.876525        -150.509         -50.3505        -28.7425         -50.3503        -28.7407       -0.0122395         147.353
0.557                  -0.896416        -151.065         -50.1702        -30.5491           -50.17        -30.5479       -0.0123576         147.282
0.558                  -0.916617        -151.623         -49.9914        -32.3631         -49.9913        -32.3623       -0.0124763         147.211
0.559                  -0.937135        -152.184         -49.8142        -34.1844         -49.8141        -34.1841       -0.0125956         147.141
0.56                   -0.957976        -152.748         -49.6386        -36.0128         -49.6385        -36.0129       -0.0127157          147.07
0.561                  -0.979147        -153.315         -49.4647        -37.8482         -49.4646        -37.8488       -0.0128366         146.999
0.562                   -1.00066        -153.884         -49.2924        -39.6904         -49.2924        -39.6913       -0.0129582         146.927
0.563                   -1.02251        -154.457          -49.122        -41.5391         -49.1219        -41.5405       -0.0130805         146.856
0.564                   -1.04471        -155.032         -48.9533        -43.3942         -48.9533         -43.396       -0.0132038         146.785
0.565                   -1.06728         -155.61         -48.7865        -45.2553         -48.7865        -45.2574       -0.0133279         146.713
0.566                   -1.09021        -156.192         -48.6216        -47.1222         -48.6216        -47.1246       -0.0134529         146.641
0.567                   -1.11352        -156.776         -48.4586        -48.9945         -48.4587        -48.9972       -0.0135788         146.569
0.568                   -1.13721        -157.363         -48.2975        -50.8718         -48.2976        -50.8749       -0.0137058         146.497
0.569                    -1.1613        -157.954         -48.1384        -52.7538         -48.1386        -52.7571       -0.0138339         146.425
0.57                     -1.1858        -158.547         -47.9813        -54.6402         -47.9815        -54.6437        -0.013963         146.353
0.571                   -1.21071        -159.144         -47.8262        -56.5304         -47.8264        -56.5341       -0.0140934          146.28
0.572                   -1.23604        -159.745         -47.6731         -58.424         -47.6734         -58.428        -0.014225         146.208
0.573                   -1.26182        -160.348         -47.5221        -60.3207         -47.5224        -60.3248       -0.0143579         146.135
0.574                   -1.28804        -160.955          -47.373          -62.22         -47.3734        -62.2242       -0.0144923         146.062
0.575                   -1.31472        -161.565          -47.226        -64.1213         -47.2264        -64.1256       -0.0146281         145.989
0.576                   -1.34187        -162.179         -47.0809        -66.0243         -47.0814        -66.0287       -0.0147655         145.916
0.577                   -1.36951        -162.796         -46.9379        -67.9285         -46.9384        -67.9329       -0.0149045         145.843
0.578                   -1.39765        -163.417         -46.7968        -69.8334         -46.7973        -69.8378       -0.0150453         145.769
0.579                    -1.4263        -164.041         -46.6577        -71.7386         -46.6582         -71.743       -0.0151879         145.695
0.58                    -1.45547        -164.669         -46.5205        -73.6435          -46.521        -73.6479       -0.0153325         145.621
0.581                   -1.48519        -165.301         -46.3851        -75.5479         -46.3857        -75.5521       -0.0154791         145.547
0.582                   -1.51547        -165.936         -46.2516        -77.4511         -46.2522        -77.4553       -0.0156279         145.473
0.583                   -1.54631        -166.575         -46.1198        -79.3529         -46.1205        -79.3569       -0.0157789         145.399
0.584                   -1.57775        -167.218         -45.9898        -81.2528         -45.9905        -81.2566       -0.0159322         145.324
0.585                    -1.6098        -167.865         -45.8614        -83.1504         -45.8622        -83.1541       -0.0160881          145.25
0.586                   -1.64247        -168.515         -45.7347        -85.0454         -45.7354        -85.0489       -0.0162465         145.175
0.587                   -1.67578         -169.17         -45.6095        -86.9375         -45.6103        -86.9408       -0.0164076           145.1
0.588                   -1.70976        -169.828         -45.4858        -88.8263         -45.4866        -88.8294       -0.0165716         145.025
0.589                   -1.74442        -170.491         -45.3635        -90.7117         -45.3643        -90.7145       -0.0167385         144.949
0.59                    -1.77978        -171.157         -45.2425        -92.5932         -45.2433        -92.5958       -0.0169084         144.874
0.591                   -1.81586        -171.827         -45.1228        -94.4708         -45.1236        -94.4731       -0.0170814         144.798
0.592                    -1.8527        -172.502         -45.0043        -96.3443         -45.0051        -96.3463       -0.0172577         144.722
0.593                    -1.8903         -173.18         -44.8869        -98.2135         -44.8877        -98.2152       -0.0174374         144.646
0.594                   -1.92869        -173.862         -44.7706        -100.078         -44.7714         -100.08       -0.0176204          144.57
0.595                    -1.9679        -174.549         -44.6552        -101.938         -44.6559         -101.94       -0.0178071         144.493
0.596                   -2.00795         -175.24         -44.5406        -103.794         -44.5414        -103.795       -0.0179973         144.417
0.597                   -2.04887        -175.935         -44.4269        -105.645         -44.4276        -105.646       -0.0181913          144.34
0.598                   -2.09068        -176.633         -44.3139        -107.492         -44.3146        -107.493       -0.0183891         144.263
0.599                   -2.13341        -177.336         -44.2015        -109.334         -44.2022        -109.335       -0.0185907         144.186
0.6                     -2.17709        -178.044         -44.0897        -111.172         -44.0904        -111.172       -0.0187963         144.108
0.601                   -2.22175        -178.755         -43.9784        -113.006          -43.979        -113.006       -0.0190058         144.031
0.602                   -2.26742         -179.47         -43.8675        -114.835         -43.8681        -114.835       -0.0192193         143.953
0.603                   -2.31412         179.811          -43.757        -116.661         -43.7576         -116.66        -0.019437         143.875
0.604                   -2.36189         179.087         -43.6468        -118.482         -43.6473        -118.482       -0.0196587         143.797
0.605                   -2.41076          178.36         -43.5368        -120.301         -43.5373          -120.3       -0.0198845         143.718
0.606                   -2.46077         177.629          -43.427        -122.116         -43.4274        -122.115       -0.0201145          143.64
0.607                   -2.51194         176.893         -43.3173        -123.928         -43.3177        -123.927       -0.0203486         143.561
0.608                   -2.56431         176.154         -43.2077        -125.737          -43.208        -125.736       -0.0205869         143.482
0.609                   -2.61791         175.412         -43.0981        -127.544         -43.0984        -127.542       -0.0208293         143.403
0.61                    -2.67279         174.665         -42.9885        -129.348         -42.9888        -129.347       -0.0210759         143.323
0.611                   -2.72897         173.915         -42.8789        -131.151         -42.8791         -131.15       -0.0213266         143.243
0.612                    -2.7865         173.161         -42.7692        -132.953         -42.7694        -132.952       -0.0215814         143.164
0.613                    -2.8454         172.404         -42.6594        -134.753         -42.6595        -134.752       -0.0218402         143.083
0.614                   -2.90572         171.644         -42.5495        -136.553         -42.5495        -136.552       -0.0221031         143.003
0.615                    -2.9675         170.881         -42.4394        -138.352         -42.4394        -138.351         -0.02237         142.923
0.616                   -3.03077         170.114         -42.3292        -140.151         -42.3292         -140.15       -0.0226409         142.842
0.617                   -3.09557         169.345         -42.2188        -141.951         -42.2188         -141.95       -0.0229158         142.761
0.618                   -3.16195         168.573         -42.1083        -143.751         -42.1082         -143.75       -0.0231945          142.68
0.619                   -3.22994         167.799         -41.9976        -145.552         -41.9975        -145.552       -0.0234771         142.598
0.62                    -3.29957         167.022         -41.8868        -147.355         -41.8867        -147.354       -0.0237636         142.517
0.621                    -3.3709         166.243         -41.7758        -149.159         -41.7757        -149.159       -0.0240538         142.435
0.622                   -3.44395         165.462         -41.6647        -150.965         -41.6646        -150.965       -0.0243478         142.353
0.623                   -3.51877          164.68         -41.5536        -152.773         -41.5534        -152.773       -0.0246455          142.27
0.624                    -3.5954         163.896         -41.4423        -154.584         -41.4421        -154.584       -0.0249469         142.188
0.625                   -3.67387         163.111         -41.3311        -156.398         -41.3308        -156.398       -0.0252519         142.105
0.626                   -3.75422         162.325         -41.2198        -158.214         -41.2195        -158.215       -0.0255606         142.021
0.627                   -3.83649         161.539         -41.1085        -160.034         -41.1083        -160.035        -0.025873         141.938
0.628                   -3.92072         160.752         -40.9973        -161.857         -40.9971        -161.858       -0.0261889         141.854
0.629                   -4.00693         159.966         -40.8862        -163.683          -40.886        -163.684       -0.0265084          141.77
