! TOUCHSTONE file generated by CST MICROWAVE STUDIO
! Date and time: Fri Oct  2 16:35:25 2020
! Project name: Scenario_1_Free_Space_out_of_line.cst
! Parameters = {Lambda=346.42; Step_1=17.321; dy1=-224.613; dx1=520; L_HA=400; MT=2.54; Rad_Dielectric=30; Rad_Lower=7.3; Rad_Upper=30; a_HA=580; a_WG=246; b_HA=500; b_WG=121; c_HA=0; c_WG=187; d_feed=85; h_feed=15; h_lower=18; h_upper=40}
! Header version: 2018
! Port assignment regex: !\s*Touchstone port\s*([0-9]+)\s*=\s*(CST MWS port|CST DS port)\s*([0-9]+|Zmin|Zmax)\s*\(\"(.*)\"\)(\s*mode\s*([0-9]+))?.*
! Touchstone port assignment:
! Touchstone port 1 = CST MWS port 1 ("")
! Touchstone port 2 = CST MWS port 2 ("")
# GHz S DB R 50
0.5                    -0.149285          -122.5         -62.3676        -28.0185         -62.3676        -28.0185      -0.00663093         151.092
0.501                  -0.153443        -122.942         -62.2142        -29.9314         -62.2142        -29.9328        -0.006677         151.027
0.502                  -0.157816        -123.386         -62.0578        -31.8396         -62.0579        -31.8423      -0.00672415         150.961
0.503                  -0.162408        -123.833         -61.8988        -33.7427         -61.8988        -33.7468      -0.00677239         150.896
0.504                  -0.167224        -124.282         -61.7372        -35.6409         -61.7372        -35.6461      -0.00682172          150.83
0.505                  -0.172268        -124.733         -61.5731        -37.5338         -61.5731        -37.5402      -0.00687215         150.765
0.506                  -0.177545        -125.186         -61.4066        -39.4217         -61.4066        -39.4291      -0.00692369         150.699
0.507                  -0.183058        -125.642         -61.2379        -41.3044         -61.2379        -41.3128      -0.00697635         150.633
0.508                  -0.188814          -126.1         -61.0671        -43.1821          -61.067        -43.1913      -0.00703014         150.567
0.509                  -0.194815         -126.56         -60.8942        -45.0548         -60.8941        -45.0648      -0.00708507         150.501
0.51                   -0.201067        -127.022         -60.7194        -46.9226         -60.7193        -46.9335      -0.00714114         150.435
0.511                  -0.207574        -127.487         -60.5428        -48.7859         -60.5427        -48.7973      -0.00719836         150.369
0.512                  -0.214341        -127.954         -60.3646        -50.6446         -60.3644        -50.6567      -0.00725675         150.303
0.513                  -0.221372        -128.423         -60.1847        -52.4991         -60.1846        -52.5117      -0.00731631         150.236
0.514                  -0.228673        -128.895         -60.0034        -54.3496         -60.0032        -54.3627      -0.00737706          150.17
0.515                  -0.236248        -129.369         -59.8206        -56.1963         -59.8204        -56.2099      -0.00743899         150.104
0.516                  -0.244101        -129.845         -59.6366        -58.0397         -59.6364        -58.0535      -0.00750213         150.037
0.517                  -0.252237        -130.323         -59.4514        -59.8798         -59.4511        -59.8939      -0.00756648          149.97
0.518                  -0.260661        -130.804         -59.2651        -61.7171         -59.2648        -61.7315      -0.00763205         149.904
0.519                  -0.269379        -131.287         -59.0777         -63.552         -59.0774        -63.5665      -0.00769885         149.837
0.52                   -0.278394        -131.772         -58.8895        -65.3847         -58.8892        -65.3993      -0.00776689          149.77
0.521                  -0.287711         -132.26         -58.7004        -67.2155            -58.7        -67.2302      -0.00783619         149.703
0.522                  -0.297335        -132.749         -58.5105         -69.045         -58.5102        -69.0597      -0.00790674         149.636
0.523                  -0.307272        -133.241           -58.32        -70.8734         -58.3196        -70.8881      -0.00797857         149.569
0.524                  -0.317525        -133.736         -58.1288         -72.701         -58.1284        -72.7156      -0.00805168         149.502
0.525                    -0.3281        -134.232         -57.9372        -74.5284         -57.9368        -74.5429      -0.00812609         149.434
0.526                  -0.339001        -134.731         -57.7451        -76.3558         -57.7447        -76.3701       -0.0082018         149.367
0.527                  -0.350233        -135.232         -57.5526        -78.1836         -57.5522        -78.1977      -0.00827883         149.299
0.528                  -0.361802        -135.735         -57.3598        -80.0122         -57.3594        -80.0261      -0.00835718         149.232
0.529                  -0.373711         -136.24         -57.1668        -81.8419         -57.1663        -81.8556      -0.00843688         149.164
0.53                   -0.385965        -136.748         -56.9736        -83.6732         -56.9731        -83.6865      -0.00851792         149.096
0.531                   -0.39857        -137.258         -56.7803        -85.5063         -56.7798        -85.5194      -0.00860033         149.028
0.532                  -0.411529         -137.77          -56.587        -87.3417         -56.5865        -87.3544      -0.00868411          148.96
0.533                  -0.424848        -138.284         -56.3936        -89.1796         -56.3932        -89.1919      -0.00876927         148.892
0.534                  -0.438531        -138.801         -56.2004        -91.0205            -56.2        -91.0324      -0.00885584         148.824
0.535                  -0.452583        -139.319         -56.0074        -92.8645         -56.0069         -92.876      -0.00894381         148.756
0.536                  -0.467008         -139.84         -55.8145        -94.7121          -55.814        -94.7232      -0.00903321         148.688
0.537                  -0.481811        -140.363         -55.6219        -96.5636         -55.6214        -96.5742      -0.00912404         148.619
0.538                  -0.496995        -140.888         -55.4297        -98.4191         -55.4292        -98.4292      -0.00921632         148.551
0.539                  -0.512567        -141.415         -55.2378        -100.279         -55.2373        -100.289      -0.00931007         148.482
0.54                   -0.528529        -141.945         -55.0464        -102.144         -55.0459        -102.153      -0.00940528         148.413
0.541                  -0.544887        -142.476         -54.8555        -104.013          -54.855        -104.022      -0.00950198         148.344
0.542                  -0.561644         -143.01         -54.6651        -105.888         -54.6646        -105.896      -0.00960019         148.275
0.543                  -0.578805        -143.545         -54.4753        -107.768         -54.4749        -107.775      -0.00969991         148.206
0.544                  -0.596373        -144.083         -54.2862        -109.653         -54.2858         -109.66      -0.00980115         148.137
0.545                  -0.614353        -144.623         -54.0978        -111.544         -54.0974        -111.551      -0.00990394         148.068
0.546                  -0.632749        -145.165         -53.9102        -113.441         -53.9098        -113.447       -0.0100083         147.998
0.547                  -0.651564        -145.709         -53.7234        -115.344          -53.723         -115.35       -0.0101142         147.929
0.548                  -0.670803        -146.255         -53.5375        -117.253          -53.537        -117.258       -0.0102217         147.859
0.549                  -0.690468        -146.802         -53.3525        -119.168          -53.352        -119.173       -0.0103308         147.789
0.55                   -0.710564        -147.352         -53.1684         -121.09          -53.168        -121.094       -0.0104415          147.72
0.551                  -0.731094        -147.904         -52.9854        -123.018         -52.9849        -123.021       -0.0105539          147.65
0.552                  -0.752061        -148.458         -52.8034        -124.952         -52.8029        -124.955       -0.0106678          147.58
0.553                  -0.773469        -149.014         -52.6225        -126.893          -52.622        -126.895       -0.0107835         147.509
0.554                   -0.79532        -149.571         -52.4427         -128.84         -52.4423        -128.841       -0.0109008         147.439
0.555                  -0.817619        -150.131         -52.2642        -130.793         -52.2637        -130.794       -0.0110198         147.369
0.556                  -0.840367        -150.692         -52.0868        -132.752         -52.0864        -132.753       -0.0111405         147.298
0.557                  -0.863569        -151.255         -51.9108        -134.718         -51.9103        -134.719        -0.011263         147.228
0.558                  -0.887225        -151.821          -51.736         -136.69         -51.7355         -136.69       -0.0113872         147.157
0.559                   -0.91134        -152.388         -51.5625        -138.668         -51.5621        -138.668       -0.0115131         147.086
0.56                   -0.935916        -152.957         -51.3904        -140.652           -51.39        -140.651       -0.0116408         147.015
0.561                  -0.960955        -153.527         -51.2197        -142.642         -51.2193        -142.641       -0.0117703         146.944
0.562                  -0.986458          -154.1         -51.0504        -144.637           -51.05        -144.636       -0.0119016         146.873
0.563                   -1.01243        -154.674         -50.8826        -146.638         -50.8822        -146.636       -0.0120347         146.801
0.564                   -1.03887         -155.25         -50.7162        -148.644         -50.7158        -148.642       -0.0121697          146.73
0.565                   -1.06578        -155.828         -50.5513        -150.655         -50.5509        -150.652       -0.0123065         146.658
0.566                   -1.09317        -156.408         -50.3879        -152.671         -50.3875        -152.668       -0.0124452         146.586
0.567                   -1.12103        -156.989          -50.226        -154.691         -50.2256        -154.688       -0.0125857         146.514
0.568                   -1.14937        -157.573         -50.0656        -156.716         -50.0652        -156.713       -0.0127282         146.442
0.569                   -1.17819        -158.157         -49.9068        -158.745         -49.9064        -158.741       -0.0128727          146.37
0.57                    -1.20748        -158.744         -49.7495        -160.777         -49.7491        -160.774        -0.013019         146.298
0.571                   -1.23726        -159.333         -49.5937        -162.813         -49.5933         -162.81       -0.0131673         146.225
0.572                   -1.26752        -159.923         -49.4395        -164.853          -49.439        -164.849       -0.0133177         146.153
0.573                   -1.29826        -160.515         -49.2868        -166.895         -49.2863        -166.891         -0.01347          146.08
0.574                   -1.32949        -161.108         -49.1356         -168.94         -49.1351        -168.936       -0.0136243         146.007
0.575                   -1.36121        -161.704         -48.9859        -170.988         -48.9855        -170.984       -0.0137807         145.934
0.576                   -1.39341        -162.301         -48.8377        -173.037         -48.8373        -173.033       -0.0139391         145.861
0.577                    -1.4261          -162.9          -48.691        -175.088         -48.6905        -175.084       -0.0140996         145.788
0.578                   -1.45928          -163.5         -48.5457        -177.141         -48.5453        -177.137       -0.0142622         145.715
0.579                   -1.49294        -164.103         -48.4018        -179.195         -48.4014        -179.191        -0.014427         145.641
0.58                     -1.5271        -164.707         -48.2594          178.75          -48.259         178.754       -0.0145938         145.567
0.581                   -1.56175        -165.313         -48.1183         176.694          -48.118         176.698       -0.0147629         145.493
0.582                    -1.5969         -165.92         -47.9786         174.638         -47.9783         174.641       -0.0149341         145.419
0.583                   -1.63253         -166.53         -47.8402         172.581         -47.8399         172.585       -0.0151075         145.345
0.584                   -1.66866        -167.141         -47.7031         170.525         -47.7027         170.529       -0.0152831         145.271
0.585                   -1.70529        -167.754         -47.5671         168.469         -47.5668         168.473       -0.0154609         145.196
0.586                   -1.74241        -168.369         -47.4324         166.414         -47.4321         166.417        -0.015641         145.122
0.587                   -1.78004        -168.986         -47.2989         164.359         -47.2986         164.362       -0.0158234         145.047
0.588                   -1.81816        -169.605         -47.1664         162.305         -47.1661         162.308       -0.0160081         144.972
0.589                   -1.85679        -170.226          -47.035         160.253         -47.0348         160.255       -0.0161951         144.897
0.59                    -1.89592        -170.849         -46.9046         158.201         -46.9044         158.204       -0.0163845         144.821
0.591                   -1.93555        -171.474         -46.7752         156.151          -46.775         156.154       -0.0165762         144.746
0.592                   -1.97569        -172.101         -46.6467         154.103         -46.6465         154.105       -0.0167703          144.67
0.593                   -2.01635        -172.731          -46.519         152.056         -46.5189         152.058       -0.0169668         144.594
0.594                   -2.05752        -173.362         -46.3922         150.011         -46.3921         150.013       -0.0171657         144.519
0.595                   -2.09921        -173.996         -46.2662         147.968         -46.2661          147.97        -0.017367         144.442
0.596                   -2.14142        -174.632         -46.1408         145.927         -46.1408         145.929       -0.0175709         144.366
0.597                   -2.18416         -175.27         -46.0162         143.888         -46.0162         143.889       -0.0177772         144.289
0.598                   -2.22743        -175.911         -45.8921         141.852         -45.8922         141.852        -0.017986         144.213
0.599                   -2.27124        -176.554         -45.7686         139.817         -45.7688         139.817       -0.0181973         144.136
0.6                     -2.31559          -177.2         -45.6457         137.784         -45.6458         137.784       -0.0184112         144.059
0.601                   -2.36049        -177.849         -45.5232         135.753         -45.5234         135.753       -0.0186276         143.982
0.602                   -2.40595          -178.5         -45.4012         133.724         -45.4014         133.724       -0.0188466         143.904
0.603                   -2.45197        -179.155         -45.2795         131.698         -45.2798         131.697       -0.0190683         143.827
0.604                   -2.49858        -179.812         -45.1581         129.673         -45.1585         129.672       -0.0192925         143.749
0.605                   -2.54577         179.528         -45.0371          127.65         -45.0374         127.649       -0.0195195         143.671
0.606                   -2.59355         178.865         -44.9163         125.629         -44.9167         125.628        -0.019749         143.592
0.607                   -2.64195         178.199         -44.7957         123.609         -44.7961         123.608       -0.0199813         143.514
0.608                   -2.69097         177.529         -44.6753         121.591         -44.6758          121.59       -0.0202163         143.435
0.609                   -2.74063         176.856          -44.555         119.575         -44.5555         119.573        -0.020454         143.356
0.61                    -2.79094         176.179         -44.4348          117.56         -44.4354         117.558       -0.0206944         143.277
0.611                   -2.84192         175.499         -44.3147         115.546         -44.3153         115.544       -0.0209377         143.198
0.612                    -2.8936         174.815         -44.1946         113.533         -44.1953         113.531       -0.0211837         143.119
0.613                   -2.94598         174.127         -44.0745         111.521         -44.0752         111.519       -0.0214325         143.039
0.614                    -2.9991         173.435         -43.9544          109.51         -43.9552         109.508       -0.0216842         142.959
0.615                   -3.05298         172.739         -43.8343         107.499         -43.8351         107.497       -0.0219388         142.879
0.616                   -3.10763         172.039         -43.7141         105.489         -43.7149         105.487       -0.0221963         142.799
0.617                    -3.1631         171.335         -43.5938         103.479         -43.5947         103.476       -0.0224567         142.718
0.618                   -3.21941         170.626         -43.4734         101.469         -43.4743         101.466       -0.0227201         142.637
0.619                   -3.27659         169.912         -43.3529         99.4583         -43.3539         99.4557       -0.0229865         142.556
0.62                    -3.33468         169.194         -43.2323         97.4475         -43.2332         97.4449        -0.023256         142.475
0.621                    -3.3937         168.471         -43.1115          95.436         -43.1125         95.4334       -0.0235286         142.393
0.622                   -3.45371         167.743         -42.9906         93.4238         -42.9916         93.4212       -0.0238043         142.311
0.623                   -3.51475          167.01         -42.8695         91.4105         -42.8706         91.4079       -0.0240833         142.229
0.624                   -3.57685         166.271         -42.7483          89.396         -42.7494         89.3934       -0.0243656         142.147
0.625                   -3.64006         165.528         -42.6269           87.38          -42.628         87.3774       -0.0246513         142.064
0.626                   -3.70444         164.779         -42.5053         85.3623         -42.5065         85.3598       -0.0249405         141.982
0.627                   -3.77003         164.025         -42.3837         83.3428         -42.3848         83.3404       -0.0252334         141.898
0.628                   -3.83689         163.265         -42.2619         81.3213          -42.263         81.3189         -0.02553         141.815
0.629                   -3.90509         162.499         -42.1399         79.2975         -42.1411         79.2951       -0.0258306         141.731
