! TOUCHSTONE file generated by CST MICROWAVE STUDIO
! Date and time: Fri Oct  2 17:00:05 2020
! Project name: Scenario_1_Free_Space_out_of_line.cst
! Parameters = {Lambda=346.42; Step_1=17.321; dy1=-224.613; dx1=693; L_HA=400; MT=2.54; Rad_Dielectric=30; Rad_Lower=7.3; Rad_Upper=30; a_HA=580; a_WG=246; b_HA=500; b_WG=121; c_HA=0; c_WG=187; d_feed=85; h_feed=15; h_lower=18; h_upper=40}
! Header version: 2018
! Port assignment regex: !\s*Touchstone port\s*([0-9]+)\s*=\s*(CST MWS port|CST DS port)\s*([0-9]+|Zmin|Zmax)\s*\(\"(.*)\"\)(\s*mode\s*([0-9]+))?.*
! Touchstone port assignment:
! Touchstone port 1 = CST MWS port 1 ("")
! Touchstone port 2 = CST MWS port 2 ("")
# GHz S DB R 50
0.5                    -0.147321        -122.696         -63.5845        -123.375         -63.5845        -123.375      -0.00670036         151.083
0.501                  -0.152818        -123.124         -63.4594        -125.747         -63.4595        -125.747      -0.00675663         151.018
0.502                  -0.158487        -123.554         -63.3289        -128.113         -63.3292        -128.113      -0.00681376         150.952
0.503                  -0.164331        -123.986         -63.1932        -130.471         -63.1936        -130.472      -0.00687174         150.887
0.504                  -0.170354        -124.421         -63.0525        -132.821         -63.0529        -132.822       -0.0069306         150.821
0.505                  -0.176557        -124.858         -62.9069        -135.161         -62.9075        -135.163      -0.00699033         150.756
0.506                  -0.182945        -125.297         -62.7568        -137.491         -62.7574        -137.493      -0.00705095          150.69
0.507                   -0.18952        -125.739         -62.6022         -139.81         -62.6029        -139.812      -0.00711246         150.624
0.508                  -0.196285        -126.183         -62.4435        -142.117         -62.4443        -142.119      -0.00717487         150.558
0.509                  -0.203245        -126.629         -62.2808        -144.412         -62.2817        -144.414       -0.0072382         150.492
0.51                   -0.210402        -127.078         -62.1144        -146.694         -62.1153        -146.696      -0.00730245         150.426
0.511                  -0.217759        -127.529         -61.9445        -148.963         -61.9454        -148.965      -0.00736763          150.36
0.512                   -0.22532        -127.982         -61.7713        -151.218         -61.7723        -151.221      -0.00743375         150.294
0.513                  -0.233089        -128.438          -61.595         -153.46          -61.596        -153.463      -0.00750082         150.228
0.514                  -0.241069        -128.896         -61.4159        -155.688          -61.417        -155.692      -0.00756885         150.161
0.515                  -0.249263        -129.356         -61.2341        -157.903         -61.2352        -157.907      -0.00763785         150.095
0.516                  -0.257677        -129.819         -61.0499        -160.105          -61.051        -160.109      -0.00770782         150.028
0.517                  -0.266312        -130.284         -60.8634        -162.293         -60.8646        -162.298      -0.00777879         149.962
0.518                  -0.275174        -130.752         -60.6749        -164.469         -60.6761        -164.473      -0.00785075         149.895
0.519                  -0.284265        -131.222         -60.4845        -166.632         -60.4857        -166.637      -0.00792372         149.828
0.52                   -0.293591        -131.695         -60.2924        -168.783         -60.2936        -168.788      -0.00799771         149.761
0.521                  -0.303155         -132.17         -60.0988        -170.923            -60.1        -170.928      -0.00807273         149.694
0.522                  -0.312961        -132.648         -59.9038        -173.051          -59.905        -173.056      -0.00814879         149.627
0.523                  -0.323014        -133.128         -59.7076        -175.169         -59.7088        -175.174       -0.0082259          149.56
0.524                  -0.333318        -133.611         -59.5104        -177.277         -59.5115        -177.282      -0.00830408         149.493
0.525                  -0.343876        -134.097         -59.3122        -179.375         -59.3133         -179.38      -0.00838333         149.425
0.526                  -0.354695        -134.585         -59.1132         178.536         -59.1143         178.531      -0.00846366         149.358
0.527                  -0.365777        -135.075         -58.9135         176.456         -58.9147          176.45      -0.00854509          149.29
0.528                  -0.377128        -135.568         -58.7133         174.383         -58.7144         174.377      -0.00862764         149.223
0.529                  -0.388753        -136.064         -58.5126         172.317         -58.5137         172.312       -0.0087113         149.155
0.53                   -0.400656        -136.562         -58.3117         170.258         -58.3127         170.252      -0.00879609         149.087
0.531                  -0.412842        -137.063         -58.1104         168.205         -58.1115         168.199      -0.00888203         149.019
0.532                  -0.425316        -137.567         -57.9091         166.157         -57.9101         166.151      -0.00896913         148.951
0.533                  -0.438083        -138.073         -57.7077         164.113         -57.7087         164.108       -0.0090574         148.883
0.534                  -0.451148        -138.582         -57.5063         162.074         -57.5073         162.069      -0.00914685         148.814
0.535                  -0.464516        -139.093         -57.3051         160.038          -57.306         160.033       -0.0092375         148.746
0.536                  -0.478193        -139.608          -57.104         158.005         -57.1049             158      -0.00932936         148.678
0.537                  -0.492184        -140.125         -56.9032         155.974         -56.9041         155.969      -0.00942245         148.609
0.538                  -0.506495        -140.644         -56.7028         153.945         -56.7037          153.94      -0.00951677          148.54
0.539                   -0.52113        -141.167         -56.5028         151.917         -56.5036         151.913      -0.00961235         148.472
0.54                   -0.536096        -141.692         -56.3033          149.89         -56.3041         149.885      -0.00970919         148.403
0.541                  -0.551399        -142.219         -56.1042         147.863          -56.105         147.858      -0.00980731         148.334
0.542                  -0.567043         -142.75         -55.9058         145.835         -55.9066          145.83      -0.00990673         148.265
0.543                  -0.583036        -143.283         -55.7081         143.806         -55.7088         143.802       -0.0100075         148.195
0.544                  -0.599383        -143.819          -55.511         141.776         -55.5117         141.772       -0.0101095         148.126
0.545                   -0.61609        -144.358         -55.3147         139.744         -55.3153          139.74       -0.0102129         148.057
0.546                  -0.633163          -144.9         -55.1192          137.71         -55.1198         137.706       -0.0103177         147.987
0.547                  -0.650608        -145.444         -54.9245         135.673         -54.9251         135.669       -0.0104238         147.917
0.548                  -0.668433        -145.992         -54.7308         133.632         -54.7313         133.629       -0.0105313         147.848
0.549                  -0.686643        -146.542          -54.538         131.589         -54.5385         131.585       -0.0106403         147.778
0.55                   -0.705246        -147.094         -54.3461         129.541         -54.3466         129.538       -0.0107506         147.708
0.551                  -0.724246         -147.65         -54.1553         127.489         -54.1558         127.486       -0.0108624         147.638
0.552                  -0.743653        -148.209         -53.9656         125.433          -53.966          125.43       -0.0109757         147.567
0.553                  -0.763471         -148.77          -53.777         123.372         -53.7774         123.369       -0.0110904         147.497
0.554                  -0.783709        -149.334         -53.5895         121.305         -53.5899         121.303       -0.0112066         147.427
0.555                  -0.804373        -149.901         -53.4032         119.234         -53.4035         119.232       -0.0113244         147.356
0.556                   -0.82547        -150.471         -53.2182         117.157         -53.2184         117.155       -0.0114436         147.285
0.557                  -0.847008        -151.043         -53.0343         115.074         -53.0346         115.072       -0.0115645         147.214
0.558                  -0.868994        -151.619         -52.8518         112.986          -52.852         112.984       -0.0116869         147.143
0.559                  -0.891435        -152.197         -52.6706         110.891         -52.6708         110.889       -0.0118109         147.072
0.56                   -0.914339        -152.778         -52.4908         108.791         -52.4909         108.789       -0.0119365         147.001
0.561                  -0.937713        -153.362         -52.3123         106.684         -52.3124         106.682       -0.0120637          146.93
0.562                  -0.961565        -153.949         -52.1352          104.57         -52.1353         104.569       -0.0121926         146.858
0.563                  -0.985903        -154.539         -51.9596         102.451         -51.9597         102.449       -0.0123232         146.786
0.564                   -1.01074        -155.131         -51.7855         100.324         -51.7855         100.323       -0.0124554         146.715
0.565                   -1.03607        -155.727         -51.6128         98.1918         -51.6128         98.1909       -0.0125894         146.643
0.566                   -1.06191        -156.325         -51.4416         96.0528         -51.4416          96.052       -0.0127251         146.571
0.567                   -1.08827        -156.926          -51.272         93.9074          -51.272         93.9067       -0.0128626         146.499
0.568                   -1.11516         -157.53         -51.1039         91.7557         -51.1039         91.7551       -0.0130019         146.426
0.569                   -1.14258        -158.136         -50.9374         89.5977         -50.9373         89.5972        -0.013143         146.354
0.57                    -1.17054        -158.746         -50.7725         87.4334         -50.7724          87.433       -0.0132859         146.281
0.571                   -1.19906        -159.358         -50.6091         85.2631          -50.609         85.2628       -0.0134307         146.208
0.572                   -1.22813        -159.973         -50.4474         83.0869         -50.4472         83.0866       -0.0135774         146.136
0.573                   -1.25778        -160.591         -50.2873         80.9048         -50.2871         80.9046        -0.013726         146.063
0.574                     -1.288        -161.211         -50.1288          78.717         -50.1286          78.717       -0.0138766         145.989
0.575                    -1.3188        -161.835         -49.9719         76.5238         -49.9717         76.5238       -0.0140291         145.916
0.576                    -1.3502        -162.461         -49.8166         74.3253         -49.8164         74.3253       -0.0141836         145.843
0.577                   -1.38221         -163.09          -49.663         72.1217         -49.6628         72.1217       -0.0143401         145.769
0.578                   -1.41482        -163.721          -49.511         69.9131         -49.5108         69.9133       -0.0144987         145.695
0.579                   -1.44806        -164.356         -49.3606            67.7         -49.3603         67.7001       -0.0146594         145.621
0.58                    -1.48193        -164.993         -49.2118         65.4824         -49.2116         65.4826       -0.0148221         145.547
0.581                   -1.51644        -165.632         -49.0646         63.2606         -49.0644         63.2608       -0.0149871         145.473
0.582                   -1.55159        -166.275          -48.919         61.0348         -48.9187         61.0351       -0.0151541         145.399
0.583                   -1.58741        -166.919          -48.775         58.8054         -48.7747         58.8057       -0.0153234         145.324
0.584                   -1.62389        -167.567         -48.6325         56.5726         -48.6322         56.5728        -0.015495         145.249
0.585                   -1.66105        -168.217         -48.4915         54.3365         -48.4912         54.3368       -0.0156688         145.174
0.586                    -1.6989         -168.87         -48.3521         52.0976         -48.3518         52.0979       -0.0158449         145.099
0.587                   -1.73744        -169.525         -48.2141          49.856         -48.2138         49.8563       -0.0160234         145.024
0.588                   -1.77669        -170.183         -48.0775         47.6121         -48.0772         47.6123       -0.0162042         144.949
0.589                   -1.81665        -170.843         -47.9424          45.366         -47.9421         45.3662       -0.0163875         144.873
0.59                    -1.85734        -171.506         -47.8087         43.1181         -47.8084         43.1183       -0.0165732         144.797
0.591                   -1.89876        -172.171         -47.6763         40.8685          -47.676         40.8688       -0.0167614         144.721
0.592                   -1.94093        -172.839         -47.5452         38.6177         -47.5449         38.6179       -0.0169521         144.645
0.593                   -1.98385        -173.509         -47.4154         36.3657         -47.4151         36.3659       -0.0171454         144.569
0.594                   -2.02753        -174.181         -47.2869         34.1129         -47.2866          34.113       -0.0173413         144.492
0.595                   -2.07199        -174.856         -47.1595         31.8594         -47.1592         31.8595       -0.0175398         144.416
0.596                   -2.11723        -175.533         -47.0333         29.6055          -47.033         29.6056        -0.017741         144.339
0.597                   -2.16327        -176.212         -46.9081         27.3514         -46.9079         27.3515        -0.017945         144.262
0.598                    -2.2101        -176.894         -46.7841         25.0974         -46.7838         25.0974       -0.0181518         144.185
0.599                   -2.25775        -177.577          -46.661         22.8435         -46.6608         22.8436       -0.0183614         144.107
0.6                     -2.30623        -178.263         -46.5389         20.5901         -46.5387         20.5901       -0.0185738          144.03
0.601                   -2.35553        -178.951         -46.4177         18.3372         -46.4175         18.3371       -0.0187892         143.952
0.602                   -2.40568        -179.641         -46.2974          16.085         -46.2972         16.0849       -0.0190076         143.874
0.603                   -2.45669         179.667         -46.1779         13.8337         -46.1778         13.8336       -0.0192289         143.796
0.604                   -2.50855         178.973         -46.0592         11.5834          -46.059         11.5833       -0.0194534         143.717
0.605                   -2.56129         178.277         -45.9412          9.3342          -45.941         9.33406        -0.019681         143.639
0.606                   -2.61492         177.579         -45.8238         7.08626         -45.8237          7.0861       -0.0199118          143.56
0.607                   -2.66943         176.879         -45.7071         4.83966          -45.707         4.83947       -0.0201458         143.481
0.608                   -2.72485         176.177         -45.5909         2.59447         -45.5908         2.59427       -0.0203831         143.402
0.609                   -2.78119         175.474         -45.4753        0.350784         -45.4752        0.350563       -0.0206237         143.322
0.61                    -2.83845         174.769         -45.3601        -1.89135           -45.36        -1.89159       -0.0208678         143.242
0.611                   -2.89664         174.062         -45.2453        -4.13189         -45.2453        -4.13214       -0.0211154         143.163
0.612                   -2.95578         173.353         -45.1309        -6.37079         -45.1309        -6.37105       -0.0213665         143.082
0.613                   -3.01587         172.643         -45.0169        -8.60803         -45.0169        -8.60831       -0.0216212         143.002
0.614                   -3.07693         171.932         -44.9031        -10.8436         -44.9031        -10.8439       -0.0218795         142.921
0.615                   -3.13897         171.219         -44.7896        -13.0775         -44.7896        -13.0778       -0.0221417         142.841
0.616                   -3.20199         170.504         -44.6762        -15.3098         -44.6763        -15.3101       -0.0224076          142.76
0.617                   -3.26601         169.788         -44.5631        -17.5404         -44.5631        -17.5407       -0.0226775         142.678
0.618                   -3.33104         169.071           -44.45        -19.7694         -44.4501        -19.7697       -0.0229513         142.597
0.619                   -3.39709         168.353          -44.337        -21.9969         -44.3371        -21.9971       -0.0232291         142.515
0.62                    -3.46416         167.633         -44.2241        -24.2228         -44.2242        -24.2231       -0.0235111         142.433
0.621                   -3.53228         166.912         -44.1112        -26.4473         -44.1113        -26.4476       -0.0237972         142.351
0.622                   -3.60145          166.19         -43.9983        -28.6705         -43.9984        -28.6707       -0.0240877         142.268
0.623                   -3.67169         165.467         -43.8853        -30.8923         -43.8854        -30.8926       -0.0243825         142.185
0.624                     -3.743         164.743         -43.7722         -33.113         -43.7724        -33.1132       -0.0246818         142.102
0.625                    -3.8154         164.017          -43.659        -35.3325         -43.6592        -35.3327       -0.0249857         142.019
0.626                    -3.8889         163.291         -43.5457        -37.5511         -43.5459        -37.5513       -0.0252942         141.935
0.627                   -3.96351         162.565         -43.4323        -39.7688         -43.4325        -39.7689       -0.0256075         141.852
0.628                   -4.03924         161.837         -43.3186        -41.9856         -43.3188        -41.9858       -0.0259256         141.767
0.629                   -4.11611         161.109         -43.2048        -44.2019          -43.205         -44.202       -0.0262487         141.683
