! TOUCHSTONE file generated by CST MICROWAVE STUDIO
! Date and time: Fri Oct  2 19:16:04 2020
! Project name: Scenario_1_Free_Space_out_of_line.cst
! Parameters = {Lambda=346.42; Step_1=17.321; dy1=-224.613; dx1=866; L_HA=400; MT=2.54; Rad_Dielectric=30; Rad_Lower=7.3; Rad_Upper=30; a_HA=580; a_WG=246; b_HA=500; b_WG=121; c_HA=0; c_WG=187; d_feed=85; h_feed=15; h_lower=18; h_upper=40}
! Header version: 2018
! Port assignment regex: !\s*Touchstone port\s*([0-9]+)\s*=\s*(CST MWS port|CST DS port)\s*([0-9]+|Zmin|Zmax)\s*\(\"(.*)\"\)(\s*mode\s*([0-9]+))?.*
! Touchstone port assignment:
! Touchstone port 1 = CST MWS port 1 ("")
! Touchstone port 2 = CST MWS port 2 ("")
# GHz S DB R 50
0.5                    -0.148376        -122.579         -64.3135         138.826         -64.3135         138.826      -0.00663602         151.122
0.501                  -0.153558        -123.018         -64.1161         136.679         -64.1161         136.679      -0.00669446         151.056
0.502                  -0.158903        -123.459         -63.9184          134.53         -63.9184          134.53      -0.00675338         150.991
0.503                  -0.164414        -123.902         -63.7204         132.379         -63.7204         132.379      -0.00681281         150.925
0.504                  -0.170097        -124.347          -63.522         130.225          -63.522         130.225      -0.00687279          150.86
0.505                  -0.175958        -124.795         -63.3234         128.068         -63.3234         128.068      -0.00693336         150.794
0.506                  -0.182002        -125.245         -63.1245         125.908         -63.1245         125.908      -0.00699455         150.728
0.507                  -0.188235        -125.697         -62.9255         123.744         -62.9255         123.744      -0.00705641         150.663
0.508                  -0.194661        -126.152         -62.7264         121.576         -62.7264         121.576      -0.00711897         150.597
0.509                  -0.201289        -126.609         -62.5272         119.404         -62.5272         119.404      -0.00718229         150.531
0.51                   -0.208122        -127.068         -62.3279         117.228         -62.3279         117.228      -0.00724642         150.465
0.511                  -0.215168         -127.53         -62.1286         115.047         -62.1286         115.047       -0.0073114         150.398
0.512                  -0.222434        -127.994         -61.9294         112.861         -61.9294         112.861      -0.00737728         150.332
0.513                  -0.229924        -128.461         -61.7303          110.67         -61.7303          110.67      -0.00744412         150.266
0.514                  -0.237647        -128.929         -61.5313         108.473         -61.5313         108.473      -0.00751197         150.199
0.515                  -0.245609        -129.401         -61.3324          106.27         -61.3324          106.27      -0.00758088         150.133
0.516                  -0.253817        -129.875         -61.1338         104.062         -61.1338         104.062      -0.00765091         150.066
0.517                  -0.262278        -130.351         -60.9354         101.848         -60.9354         101.848      -0.00772212             150
0.518                  -0.270998         -130.83         -60.7372         99.6267         -60.7372         99.6267      -0.00779456         149.933
0.519                  -0.279986        -131.311         -60.5394         97.3995         -60.5394         97.3995      -0.00786828         149.866
0.52                   -0.289249        -131.794          -60.342         95.1656          -60.342         95.1656      -0.00794334         149.799
0.521                  -0.298793         -132.28         -60.1449         92.9249         -60.1449         92.9249      -0.00801979         149.732
0.522                  -0.308627        -132.769         -59.9483         90.6774         -59.9483         90.6774      -0.00809767         149.665
0.523                  -0.318757        -133.259         -59.7522         88.4228         -59.7522         88.4228      -0.00817704         149.598
0.524                  -0.329192        -133.753         -59.5566         86.1611         -59.5566         86.1611      -0.00825794          149.53
0.525                  -0.339938        -134.248         -59.3615         83.8922         -59.3615         83.8922       -0.0083404         149.463
0.526                  -0.351004        -134.746         -59.1671          81.616         -59.1671          81.616      -0.00842446         149.396
0.527                  -0.362397        -135.247         -58.9732         79.3325         -58.9732         79.3325      -0.00851016         149.328
0.528                  -0.374123         -135.75         -58.7801         77.0416         -58.7801         77.0416      -0.00859751          149.26
0.529                  -0.386191        -136.255         -58.5876         74.7434         -58.5876         74.7434      -0.00868655         149.193
0.53                   -0.398607        -136.762         -58.3959         72.4377         -58.3959         72.4377      -0.00877727         149.125
0.531                  -0.411378        -137.272         -58.2049         70.1247         -58.2049         70.1247       -0.0088697         149.057
0.532                  -0.424512        -137.784         -58.0148         67.8043         -58.0148         67.8043      -0.00896383         148.989
0.533                  -0.438014        -138.299         -57.8255         65.4766         -57.8255         65.4766      -0.00905966         148.921
0.534                  -0.451892        -138.815         -57.6371         63.1416         -57.6371         63.1416      -0.00915718         148.852
0.535                   -0.46615        -139.334         -57.4496         60.7995         -57.4496         60.7995      -0.00925637         148.784
0.536                  -0.480795        -139.855          -57.263         58.4502          -57.263         58.4502      -0.00935722         148.715
0.537                  -0.495833        -140.378         -57.0774          56.094         -57.0774          56.094      -0.00945969         148.647
0.538                  -0.511267        -140.903         -56.8929          53.731         -56.8929          53.731      -0.00956375         148.578
0.539                  -0.527103        -141.431         -56.7093         51.3612         -56.7093         51.3612      -0.00966938          148.51
0.54                   -0.543344         -141.96         -56.5268         48.9848         -56.5268         48.9848      -0.00977652         148.441
0.541                  -0.559995        -142.491         -56.3454          46.602         -56.3454          46.602      -0.00988514         148.372
0.542                  -0.577058        -143.024         -56.1652          44.213         -56.1652          44.213      -0.00999518         148.303
0.543                  -0.594534        -143.559          -55.986          41.818          -55.986          41.818       -0.0101066         148.234
0.544                  -0.612427        -144.096          -55.808         39.4171          -55.808         39.4171       -0.0102193         148.164
0.545                  -0.630738        -144.635         -55.6312         37.0106         -55.6312         37.0106       -0.0103334         148.095
0.546                  -0.649466        -145.175         -55.4556         34.5987         -55.4556         34.5987       -0.0104486         148.025
0.547                  -0.668611        -145.717         -55.2812         32.1816         -55.2812         32.1816       -0.0105651         147.956
0.548                  -0.688174        -146.261          -55.108         29.7596          -55.108         29.7596       -0.0106826         147.886
0.549                  -0.708151        -146.806          -54.936         27.3329          -54.936         27.3329       -0.0108012         147.816
0.55                   -0.728541        -147.353         -54.7653         24.9018         -54.7653         24.9018       -0.0109209         147.747
0.551                   -0.74934        -147.901         -54.5958         22.4666         -54.5958         22.4666       -0.0110416         147.677
0.552                  -0.770546        -148.451         -54.4276         20.0274         -54.4276         20.0274       -0.0111632         147.606
0.553                  -0.792152        -149.003         -54.2606         17.5847         -54.2606         17.5847       -0.0112857         147.536
0.554                  -0.814156        -149.556         -54.0949         15.1386         -54.0949         15.1386       -0.0114091         147.466
0.555                   -0.83655         -150.11         -53.9305         12.6895         -53.9305         12.6895       -0.0115334         147.395
0.556                  -0.859329        -150.666         -53.7672         10.2375         -53.7672         10.2375       -0.0116585         147.325
0.557                  -0.882485        -151.223         -53.6053         7.78311         -53.6053         7.78311       -0.0117845         147.254
0.558                  -0.906012        -151.782         -53.4445         5.32644         -53.4445         5.32644       -0.0119112         147.183
0.559                  -0.929902        -152.342          -53.285          2.8678          -53.285          2.8678       -0.0120388         147.112
0.56                   -0.954148        -152.903         -53.1267        0.407472         -53.1267        0.407472       -0.0121672         147.041
0.561                   -0.97874        -153.466         -52.9696        -2.05429         -52.9696         -2.0543       -0.0122964          146.97
0.562                   -1.00367        -154.031         -52.8137        -4.51724         -52.8137        -4.51724       -0.0124264         146.899
0.563                   -1.02893        -154.596         -52.6589        -6.98111         -52.6589        -6.98111       -0.0125573         146.827
0.564                   -1.05452        -155.164         -52.5053        -9.44567         -52.5053        -9.44567        -0.012689         146.756
0.565                   -1.08042        -155.733         -52.3527        -11.9107         -52.3527        -11.9107       -0.0128216         146.684
0.566                   -1.10663        -156.304         -52.2013        -14.3759         -52.2013        -14.3759       -0.0129552         146.612
0.567                   -1.13314        -156.876         -52.0509        -16.8412         -52.0509        -16.8412       -0.0130897          146.54
0.568                   -1.15994         -157.45         -51.9016        -19.3062         -51.9016        -19.3062       -0.0132252         146.468
0.569                   -1.18704        -158.027         -51.7532        -21.7709         -51.7532        -21.7709       -0.0133617         146.396
0.57                    -1.21441        -158.605         -51.6059         -24.235         -51.6059         -24.235       -0.0134993         146.323
0.571                   -1.24207        -159.185         -51.4595        -26.6984         -51.4595        -26.6984       -0.0136381         146.251
0.572                   -1.27001        -159.767          -51.314         -29.161          -51.314         -29.161       -0.0137781         146.178
0.573                   -1.29822        -160.352         -51.1693        -31.6224         -51.1693        -31.6224       -0.0139194         146.105
0.574                   -1.32672         -160.94         -51.0256        -34.0828         -51.0256        -34.0828        -0.014062         146.032
0.575                   -1.35549         -161.53         -50.8826        -36.5419         -50.8826        -36.5419        -0.014206         145.959
0.576                   -1.38454        -162.122         -50.7404        -38.9996         -50.7404        -38.9996       -0.0143516         145.886
0.577                   -1.41388        -162.718          -50.599        -41.4559          -50.599        -41.4559       -0.0144986         145.812
0.578                   -1.44352        -163.316         -50.4583        -43.9107         -50.4583        -43.9107       -0.0146474         145.739
0.579                   -1.47346        -163.918         -50.3182        -46.3639         -50.3182        -46.3639       -0.0147979         145.665
0.58                    -1.50371        -164.523         -50.1788        -48.8154         -50.1788        -48.8154       -0.0149502         145.591
0.581                   -1.53429        -165.131           -50.04        -51.2654           -50.04        -51.2654       -0.0151044         145.517
0.582                   -1.56522        -165.744         -49.9018        -53.7137         -49.9018        -53.7137       -0.0152606         145.443
0.583                   -1.59649        -166.359         -49.7641        -56.1603         -49.7641        -56.1603        -0.015419         145.368
0.584                   -1.62815        -166.979          -49.627        -58.6053          -49.627        -58.6053       -0.0155795         145.293
0.585                    -1.6602        -167.603         -49.4903        -61.0487         -49.4903        -61.0487       -0.0157424         145.219
0.586                   -1.69268        -168.231          -49.354        -63.4905          -49.354        -63.4905       -0.0159076         145.144
0.587                    -1.7256        -168.864         -49.2182        -65.9307         -49.2182        -65.9307       -0.0160754         145.069
0.588                   -1.75899        -169.501         -49.0828        -68.3695         -49.0828        -68.3695       -0.0162458         144.993
0.589                   -1.79288        -170.142         -48.9477         -70.807         -48.9477         -70.807       -0.0164189         144.918
0.59                     -1.8273        -170.789          -48.813        -73.2431          -48.813        -73.2431       -0.0165949         144.842
0.591                   -1.86229         -171.44         -48.6786        -75.6779         -48.6786        -75.6779       -0.0167738         144.766
0.592                   -1.89788        -172.096         -48.5444        -78.1117         -48.5444        -78.1117       -0.0169558          144.69
0.593                   -1.93411        -172.757         -48.4106        -80.5445         -48.4106        -80.5445       -0.0171409         144.614
0.594                     -1.971        -173.423         -48.2769        -82.9764         -48.2769        -82.9764       -0.0173293         144.538
0.595                   -2.00861        -174.095         -48.1436        -85.4075         -48.1436        -85.4075       -0.0175211         144.461
0.596                   -2.04698        -174.771         -48.0104        -87.8381         -48.0104        -87.8381       -0.0177163         144.385
0.597                   -2.08614        -175.453         -47.8774        -90.2681         -47.8774        -90.2681       -0.0179151         144.308
0.598                   -2.12614        -176.141         -47.7446        -92.6979         -47.7446        -92.6979       -0.0181175          144.23
0.599                   -2.16703        -176.833          -47.612        -95.1274          -47.612        -95.1274       -0.0183238         144.153
0.6                     -2.20885        -177.531         -47.4796         -97.557         -47.4796         -97.557       -0.0185339         144.076
0.601                   -2.25165        -178.234         -47.3473        -99.9867         -47.3473        -99.9867       -0.0187479         143.998
0.602                   -2.29547        -178.943         -47.2152        -102.417         -47.2152        -102.417        -0.018966          143.92
0.603                   -2.34037        -179.656         -47.0832        -104.847         -47.0832        -104.847       -0.0191881         143.842
0.604                   -2.38639         179.625         -46.9514        -107.278         -46.9514        -107.278       -0.0194145         143.764
0.605                   -2.43359         178.902         -46.8197         -109.71         -46.8197         -109.71       -0.0196451         143.685
0.606                     -2.482         178.173         -46.6882        -112.143         -46.6882        -112.143         -0.01988         143.606
0.607                   -2.53169          177.44         -46.5568        -114.577         -46.5568        -114.577       -0.0201192         143.527
0.608                    -2.5827         176.702         -46.4256        -117.012         -46.4256        -117.012       -0.0203629         143.448
0.609                   -2.63507         175.959         -46.2946        -119.448         -46.2946        -119.448        -0.020611         143.369
0.61                    -2.68887         175.213         -46.1638        -121.886         -46.1638        -121.886       -0.0208636         143.289
0.611                   -2.74413         174.462         -46.0331        -124.326         -46.0331        -124.326       -0.0211206         143.209
0.612                    -2.8009         173.707         -45.9027        -126.768         -45.9027        -126.768       -0.0213822         143.129
0.613                   -2.85923         172.949         -45.7725        -129.211         -45.7725        -129.211       -0.0216483         143.049
0.614                   -2.91917         172.188         -45.6426        -131.657         -45.6426        -131.657       -0.0219189         142.969
0.615                   -2.98075         171.423         -45.5129        -134.105         -45.5129        -134.105       -0.0221941         142.888
0.616                   -3.04402         170.656         -45.3836        -136.555         -45.3836        -136.555       -0.0224737         142.807
0.617                   -3.10901         169.886         -45.2545        -139.007         -45.2545        -139.007       -0.0227579         142.726
0.618                   -3.17576         169.115         -45.1258        -141.462         -45.1258        -141.462       -0.0230464         142.645
0.619                   -3.24431         168.342         -44.9974        -143.919         -44.9974        -143.919       -0.0233395         142.563
0.62                    -3.31469         167.567         -44.8694        -146.379         -44.8694        -146.379       -0.0236369         142.481
0.621                   -3.38693         166.792         -44.7419        -148.841         -44.7419        -148.841       -0.0239386         142.399
0.622                   -3.46104         166.016         -44.6148        -151.306         -44.6148        -151.306       -0.0242447         142.317
0.623                   -3.53706         165.241         -44.4881        -153.773         -44.4881        -153.773        -0.024555         142.234
0.624                   -3.61499         164.465         -44.3619        -156.243         -44.3619        -156.243       -0.0248696         142.151
0.625                   -3.69486         163.691         -44.2363        -158.716         -44.2363        -158.716       -0.0251883         142.068
0.626                   -3.77668         162.918         -44.1112        -161.191         -44.1112        -161.191       -0.0255112         141.985
0.627                   -3.86044         162.147         -43.9867        -163.668         -43.9867        -163.668       -0.0258381         141.902
0.628                   -3.94614         161.378         -43.8628        -166.148         -43.8628        -166.148       -0.0261691         141.818
0.629                    -4.0338         160.612         -43.7396        -168.629         -43.7396        -168.629       -0.0265042         141.734
