! TOUCHSTONE file generated by CST MICROWAVE STUDIO
! Date and time: Fri Oct  2 18:59:40 2020
! Project name: Scenario_1_Free_Space_out_of_line.cst
! Parameters = {Lambda=346.42; Step_1=17.321; dy1=-224.613; dx1=1039; L_HA=400; MT=2.54; Rad_Dielectric=30; Rad_Lower=7.3; Rad_Upper=30; a_HA=580; a_WG=246; b_HA=500; b_WG=121; c_HA=0; c_WG=187; d_feed=85; h_feed=15; h_lower=18; h_upper=40}
! Header version: 2018
! Port assignment regex: !\s*Touchstone port\s*([0-9]+)\s*=\s*(CST MWS port|CST DS port)\s*([0-9]+|Zmin|Zmax)\s*\(\"(.*)\"\)(\s*mode\s*([0-9]+))?.*
! Touchstone port assignment:
! Touchstone port 1 = CST MWS port 1 ("")
! Touchstone port 2 = CST MWS port 2 ("")
# GHz S DB R 50
0.5                    -0.148283        -122.576         -64.9226         42.8554         -64.9226         42.8554      -0.00670756         151.111
0.501                  -0.154662        -123.003         -64.7661         40.6729         -64.7661         40.6729      -0.00676466         151.046
0.502                  -0.161101        -123.433         -64.6077         38.4762         -64.6077         38.4762      -0.00682258          150.98
0.503                  -0.167607        -123.865         -64.4474         36.2653         -64.4474         36.2653      -0.00688133         150.914
0.504                  -0.174187        -124.299         -64.2852         34.0403         -64.2852         34.0403      -0.00694092         150.849
0.505                  -0.180848        -124.736         -64.1211         31.8011          -64.121         31.8012      -0.00700135         150.783
0.506                  -0.187597        -125.175         -63.9551         29.5479         -63.9551          29.548      -0.00706263         150.717
0.507                  -0.194443        -125.617         -63.7873         27.2806         -63.7872         27.2807      -0.00712477         150.652
0.508                  -0.201392        -126.061         -63.6176         24.9993         -63.6176         24.9994      -0.00718778         150.586
0.509                  -0.208452        -126.508         -63.4461         22.7041         -63.4461         22.7042      -0.00725166          150.52
0.51                   -0.215633        -126.957         -63.2729         20.3949         -63.2729          20.395      -0.00731642         150.454
0.511                  -0.222941        -127.409         -63.0979         18.0718         -63.0979          18.072      -0.00738207         150.387
0.512                  -0.230385        -127.864         -62.9213          15.735         -62.9212         15.7351      -0.00744862         150.321
0.513                  -0.237974        -128.321         -62.7429         13.3844         -62.7429         13.3845      -0.00751608         150.255
0.514                  -0.245716        -128.781         -62.5629         11.0201         -62.5629         11.0203      -0.00758445         150.188
0.515                  -0.253619        -129.243         -62.3813         8.64229         -62.3813         8.64243      -0.00765374         150.122
0.516                  -0.261693        -129.709         -62.1982          6.2509         -62.1982         6.25105      -0.00772397         150.055
0.517                  -0.269946        -130.177         -62.0137         3.84607         -62.0136         3.84622      -0.00779514         149.989
0.518                  -0.278387        -130.647         -61.8276         1.42787         -61.8276         1.42803      -0.00786726         149.922
0.519                  -0.287026        -131.121         -61.6402         -1.0036         -61.6402        -1.00344      -0.00794034         149.855
0.52                   -0.295871        -131.597         -61.4515        -3.44825         -61.4515        -3.44809      -0.00801439         149.788
0.521                  -0.304932        -132.076         -61.2616        -5.90598         -61.2616        -5.90581      -0.00808942         149.721
0.522                  -0.314217        -132.558         -61.0705        -8.37668         -61.0705        -8.37652      -0.00816544         149.654
0.523                  -0.323737        -133.042         -60.8783        -10.8602         -60.8783        -10.8601      -0.00824246         149.587
0.524                    -0.3335         -133.53          -60.685        -13.3566          -60.685        -13.3564      -0.00832049          149.52
0.525                  -0.343515         -134.02         -60.4908        -15.8655         -60.4908        -15.8653      -0.00839954         149.452
0.526                  -0.353793        -134.513         -60.2958        -18.3869         -60.2958        -18.3867      -0.00847963         149.385
0.527                  -0.364342        -135.008         -60.0999        -20.9206         -60.0999        -20.9205      -0.00856076         149.317
0.528                  -0.375171        -135.507         -59.9034        -23.4665         -59.9034        -23.4664      -0.00864294          149.25
0.529                  -0.386291        -136.008         -59.7062        -26.0245         -59.7062        -26.0243      -0.00872619         149.182
0.53                   -0.397709        -136.512         -59.5085        -28.5943         -59.5085        -28.5941      -0.00881052         149.114
0.531                  -0.409436        -137.019         -59.3104        -31.1757         -59.3104        -31.1756      -0.00889594         149.046
0.532                   -0.42148        -137.529          -59.112        -33.7687          -59.112        -33.7685      -0.00898246         148.978
0.533                   -0.43385        -138.041         -58.9133        -36.3729         -58.9133        -36.3727       -0.0090701          148.91
0.534                  -0.446556        -138.556         -58.7145        -38.9881         -58.7145        -38.9879      -0.00915886         148.842
0.535                  -0.459607        -139.074         -58.5156        -41.6141         -58.5156        -41.6139      -0.00924877         148.773
0.536                   -0.47301        -139.595         -58.3168        -44.2506         -58.3168        -44.2505      -0.00933983         148.705
0.537                  -0.486774        -140.118         -58.1182        -46.8974         -58.1182        -46.8973      -0.00943206         148.636
0.538                  -0.500909        -140.644         -57.9198        -49.5542         -57.9198        -49.5541      -0.00952547         148.568
0.539                  -0.515422        -141.173         -57.7218        -52.2207         -57.7218        -52.2205      -0.00962008         148.499
0.54                   -0.530322        -141.704         -57.5242        -54.8965         -57.5242        -54.8964       -0.0097159          148.43
0.541                  -0.545616        -142.238         -57.3272        -57.5813         -57.3272        -57.5812      -0.00981294         148.361
0.542                  -0.561312        -142.774         -57.1308        -60.2748         -57.1308        -60.2747      -0.00991122         148.292
0.543                  -0.577418        -143.313         -56.9352        -62.9766         -56.9352        -62.9765       -0.0100108         148.223
0.544                  -0.593942        -143.855         -56.7404        -65.6863         -56.7404        -65.6862       -0.0101116         148.154
0.545                   -0.61089        -144.399         -56.5465        -68.4035         -56.5465        -68.4034       -0.0102137         148.085
0.546                  -0.628269        -144.945         -56.3536        -71.1277         -56.3536        -71.1276       -0.0103171         148.015
0.547                  -0.646085        -145.494         -56.1619        -73.8586         -56.1618        -73.8585       -0.0104218         147.945
0.548                  -0.664347        -146.046         -55.9713        -76.5956         -55.9712        -76.5956       -0.0105279         147.876
0.549                  -0.683059        -146.599         -55.7819        -79.3384         -55.7819        -79.3383       -0.0106353         147.806
0.55                   -0.702227        -147.156         -55.5939        -82.0864         -55.5939        -82.0864       -0.0107441         147.736
0.551                  -0.721858        -147.714         -55.4073        -84.8391         -55.4073        -84.8391       -0.0108542         147.666
0.552                  -0.741956        -148.275         -55.2221        -87.5961         -55.2221        -87.5961       -0.0109658         147.596
0.553                  -0.762527        -148.838         -55.0384        -90.3568         -55.0384        -90.3568       -0.0110788         147.526
0.554                  -0.783575        -149.403         -54.8563        -93.1207         -54.8563        -93.1207       -0.0111933         147.455
0.555                  -0.805104         -149.97         -54.6758        -95.8874         -54.6758        -95.8873       -0.0113092         147.385
0.556                   -0.82712         -150.54          -54.497        -98.6561          -54.497        -98.6561       -0.0114266         147.314
0.557                  -0.849626        -151.111         -54.3199        -101.427         -54.3199        -101.427       -0.0115456         147.243
0.558                  -0.872626        -151.685         -54.1444        -104.198         -54.1444        -104.198        -0.011666         147.172
0.559                  -0.896122        -152.261         -53.9708         -106.97         -53.9708         -106.97        -0.011788         147.101
0.56                   -0.920118        -152.839         -53.7989        -109.743         -53.7989        -109.743       -0.0119116          147.03
0.561                  -0.944617        -153.419         -53.6287        -112.514         -53.6287        -112.514       -0.0120367         146.959
0.562                   -0.96962            -154         -53.4604        -115.285         -53.4604        -115.285       -0.0121635         146.887
0.563                  -0.995131        -154.584         -53.2938        -118.055         -53.2938        -118.055       -0.0122919         146.816
0.564                   -1.02115         -155.17         -53.1291        -120.823         -53.1291        -120.823        -0.012422         146.744
0.565                   -1.04768        -155.757         -52.9661        -123.589         -52.9661        -123.589       -0.0125537         146.672
0.566                   -1.07472        -156.346         -52.8048        -126.351         -52.8048        -126.351       -0.0126872         146.601
0.567                   -1.10228        -156.938         -52.6453        -129.111         -52.6453        -129.111       -0.0128224         146.528
0.568                   -1.13035        -157.531         -52.4875        -131.867         -52.4875        -131.867       -0.0129593         146.456
0.569                   -1.15893        -158.125         -52.3314         -134.62         -52.3314         -134.62       -0.0130981         146.384
0.57                    -1.18803        -158.722          -52.177        -137.368          -52.177        -137.368       -0.0132386         146.311
0.571                   -1.21764         -159.32         -52.0241        -140.112         -52.0241        -140.112        -0.013381         146.239
0.572                   -1.24777         -159.92         -51.8729        -142.851         -51.8729        -142.851       -0.0135253         146.166
0.573                   -1.27841        -160.522         -51.7231        -145.585         -51.7231        -145.585       -0.0136714         146.093
0.574                   -1.30956        -161.125         -51.5749        -148.314         -51.5749        -148.314       -0.0138195          146.02
0.575                   -1.34123         -161.73         -51.4281        -151.038         -51.4281        -151.038       -0.0139696         145.947
0.576                   -1.37341        -162.337         -51.2827        -153.755         -51.2827        -153.756       -0.0141216         145.874
0.577                   -1.40611        -162.946         -51.1386        -156.468         -51.1386        -156.468       -0.0142756           145.8
0.578                   -1.43931        -163.556         -50.9958        -159.174         -50.9958        -159.174       -0.0144317         145.726
0.579                   -1.47302        -164.168         -50.8542        -161.875         -50.8542        -161.875       -0.0145899         145.653
0.58                    -1.50725        -164.781         -50.7137        -164.569         -50.7137        -164.569       -0.0147501         145.579
0.581                   -1.54198        -165.397         -50.5744        -167.258         -50.5744        -167.258       -0.0149126         145.504
0.582                   -1.57722        -166.014         -50.4361         -169.94         -50.4361         -169.94       -0.0150772          145.43
0.583                   -1.61297        -166.633         -50.2988        -172.617         -50.2988        -172.617        -0.015244         145.356
0.584                   -1.64923        -167.254         -50.1625        -175.288         -50.1625        -175.288       -0.0154131         145.281
0.585                   -1.68599        -167.876          -50.027        -177.953          -50.027        -177.953       -0.0155845         145.206
0.586                   -1.72325        -168.501         -49.8923         179.388         -49.8923         179.388       -0.0157582         145.131
0.587                   -1.76103        -169.127         -49.7584         176.734         -49.7584         176.734       -0.0159342         145.056
0.588                   -1.79931        -169.755         -49.6252         174.085         -49.6252         174.085       -0.0161127         144.981
0.589                   -1.83809        -170.386         -49.4927         171.442         -49.4927         171.442       -0.0162936         144.906
0.59                    -1.87739        -171.018         -49.3608         168.804         -49.3608         168.804       -0.0164771          144.83
0.591                   -1.91719        -171.653         -49.2294          166.17         -49.2294          166.17        -0.016663         144.754
0.592                    -1.9575        -172.289         -49.0985         163.541         -49.0985         163.541       -0.0168515         144.678
0.593                   -1.99833        -172.928         -48.9681         160.917         -48.9681         160.917       -0.0170427         144.602
0.594                   -2.03968        -173.569         -48.8381         158.297         -48.8381         158.297       -0.0172365         144.526
0.595                   -2.08155        -174.213         -48.7084          155.68         -48.7084          155.68       -0.0174331         144.449
0.596                   -2.12394        -174.859         -48.5791         153.067         -48.5791         153.067       -0.0176324         144.372
0.597                   -2.16686        -175.508         -48.4501         150.458         -48.4501         150.458       -0.0178345         144.296
0.598                   -2.21032        -176.159         -48.3213         147.851         -48.3213         147.851       -0.0180395         144.218
0.599                   -2.25432        -176.813         -48.1928         145.248         -48.1928         145.247       -0.0182474         144.141
0.6                     -2.29887         -177.47         -48.0644         142.646         -48.0644         142.646       -0.0184582         144.064
0.601                   -2.34399         -178.13         -47.9362         140.047         -47.9362         140.047       -0.0186721         143.986
0.602                   -2.38968        -178.792         -47.8082         137.449         -47.8082         137.449       -0.0188891         143.908
0.603                   -2.43595        -179.459         -47.6803         134.854         -47.6803         134.854       -0.0191092          143.83
0.604                   -2.48281         179.872         -47.5524         132.259         -47.5524         132.259       -0.0193326         143.752
0.605                   -2.53029         179.199         -47.4247         129.665         -47.4247         129.665       -0.0195592         143.673
0.606                    -2.5784         178.523         -47.2969         127.072          -47.297         127.072       -0.0197891         143.595
0.607                   -2.62715         177.843         -47.1693         124.479         -47.1693         124.479       -0.0200225         143.516
0.608                   -2.67657          177.16         -47.0417         121.886         -47.0417         121.886       -0.0202593         143.437
0.609                   -2.72667         176.472         -46.9141         119.292         -46.9141         119.292       -0.0204996         143.357
0.61                    -2.77749          175.78         -46.7865         116.698         -46.7865         116.698       -0.0207436         143.278
0.611                   -2.82904         175.084         -46.6589         114.103         -46.6589         114.103       -0.0209912         143.198
0.612                   -2.88137         174.384         -46.5314         111.507         -46.5314         111.507       -0.0212426         143.118
0.613                   -2.93448         173.679         -46.4038          108.91         -46.4038          108.91       -0.0214979         143.038
0.614                   -2.98843          172.97         -46.2763          106.31         -46.2763          106.31       -0.0217571         142.957
0.615                   -3.04324         172.255         -46.1488         103.709         -46.1488         103.709       -0.0220203         142.876
0.616                   -3.09896         171.536         -46.0213         101.105         -46.0213         101.105       -0.0222877         142.796
0.617                   -3.15563         170.812         -45.8939         98.4989         -45.8939         98.4989       -0.0225593         142.714
0.618                   -3.21329         170.083         -45.7665           95.89         -45.7665           95.89       -0.0228352         142.633
0.619                     -3.272         169.348         -45.6392         93.2783         -45.6392         93.2783       -0.0231155         142.551
0.62                    -3.33179         168.608          -45.512         90.6633          -45.512         90.6633       -0.0234004         142.469
0.621                   -3.39274         167.863         -45.3848         88.0451         -45.3848         88.0451         -0.02369         142.387
0.622                    -3.4549         167.112         -45.2578         85.4234         -45.2578         85.4234       -0.0239843         142.305
0.623                   -3.51832         166.355         -45.1309         82.7981         -45.1309         82.7981       -0.0242836         142.222
0.624                   -3.58309         165.593         -45.0042         80.1689         -45.0042         80.1689       -0.0245879         142.139
0.625                   -3.64926         164.825         -44.8776         77.5359         -44.8776         77.5359       -0.0248975         142.056
0.626                   -3.71692         164.051         -44.7512         74.8989         -44.7512         74.8989       -0.0252125         141.973
0.627                   -3.78613         163.272         -44.6251         72.2577         -44.6251         72.2577       -0.0255331         141.889
0.628                   -3.85699         162.487         -44.4992         69.6124         -44.4992         69.6124       -0.0258594         141.805
0.629                   -3.92958         161.696         -44.3736         66.9629         -44.3736         66.9629       -0.0261916          141.72
