! TOUCHSTONE file generated by CST MICROWAVE STUDIO
! Date and time: Fri Oct  2 17:15:22 2020
! Project name: Scenario_1_Free_Space_out_of_line.cst
! Parameters = {Lambda=346.42; Step_1=17.321; dy1=-241.954; dx1=173; L_HA=400; MT=2.54; Rad_Dielectric=30; Rad_Lower=7.3; Rad_Upper=30; a_HA=580; a_WG=246; b_HA=500; b_WG=121; c_HA=0; c_WG=187; d_feed=85; h_feed=15; h_lower=18; h_upper=40}
! Header version: 2018
! Port assignment regex: !\s*Touchstone port\s*([0-9]+)\s*=\s*(CST MWS port|CST DS port)\s*([0-9]+|Zmin|Zmax)\s*\(\"(.*)\"\)(\s*mode\s*([0-9]+))?.*
! Touchstone port assignment:
! Touchstone port 1 = CST MWS port 1 ("")
! Touchstone port 2 = CST MWS port 2 ("")
# GHz S DB R 50
0.5                    -0.149463        -122.729         -60.2143         147.832         -60.2143         147.832      -0.00635469          151.12
0.501                  -0.154632        -123.172         -60.0329          146.48         -60.0328          146.48      -0.00638683         151.054
0.502                  -0.159981        -123.617         -59.8518         145.123         -59.8516         145.123       -0.0064202         150.989
0.503                  -0.165513        -124.063         -59.6709         143.763         -59.6707         143.762      -0.00645478         150.923
0.504                  -0.171231        -124.512         -59.4905         142.397         -59.4902         142.397      -0.00649061         150.858
0.505                  -0.177139        -124.963         -59.3103         141.028         -59.3099         141.027      -0.00652768         150.792
0.506                   -0.18324        -125.416         -59.1305         139.654         -59.1301         139.653      -0.00656602         150.726
0.507                  -0.189538        -125.871         -58.9511         138.275         -58.9506         138.274      -0.00660562         150.661
0.508                  -0.196036        -126.329          -58.772         136.892         -58.7715         136.891      -0.00664651         150.595
0.509                  -0.202738        -126.788         -58.5933         135.504         -58.5927         135.503      -0.00668869         150.529
0.51                   -0.209648         -127.25         -58.4151         134.112         -58.4144         134.111      -0.00673217         150.463
0.511                  -0.216769        -127.713         -58.2372         132.715         -58.2365         132.713      -0.00677697         150.396
0.512                  -0.224105        -128.179         -58.0597         131.313          -58.059         131.311      -0.00682308          150.33
0.513                   -0.23166        -128.647         -57.8827         129.906         -57.8819         129.905      -0.00687053         150.264
0.514                  -0.239438        -129.117         -57.7061         128.495         -57.7053         128.493      -0.00691932         150.198
0.515                  -0.247443         -129.59           -57.53         127.078         -57.5292         127.077      -0.00696945         150.131
0.516                  -0.255679        -130.064         -57.3544         125.657         -57.3535         125.656      -0.00702095         150.064
0.517                   -0.26415        -130.541         -57.1792         124.232         -57.1783          124.23      -0.00707381         149.998
0.518                  -0.272861         -131.02         -57.0046         122.801         -57.0036         122.799      -0.00712806         149.931
0.519                  -0.281815        -131.502         -56.8304         121.365         -56.8295         121.364      -0.00718368         149.864
0.52                   -0.291017        -131.985         -56.6568         119.925         -56.6558         119.923       -0.0072407         149.797
0.521                  -0.300472        -132.471         -56.4837          118.48         -56.4827         118.478      -0.00729912          149.73
0.522                  -0.310184        -132.959         -56.3112          117.03         -56.3102         117.028      -0.00735896         149.663
0.523                  -0.320158         -133.45         -56.1392         115.576         -56.1382         115.574      -0.00742021         149.596
0.524                  -0.330397        -133.942         -55.9678         114.116         -55.9668         114.114      -0.00748288         149.528
0.525                  -0.340907        -134.437          -55.797         112.652         -55.7959          112.65      -0.00754699         149.461
0.526                  -0.351693        -134.935         -55.6267         111.183         -55.6257         111.181      -0.00761254         149.393
0.527                   -0.36276        -135.434         -55.4571          109.71         -55.4561         109.708      -0.00767954         149.326
0.528                  -0.374112        -135.936         -55.2881         108.232         -55.2871          108.23        -0.007748         149.258
0.529                  -0.385754         -136.44         -55.1198         106.749         -55.1188         106.747      -0.00781792          149.19
0.53                   -0.397692        -136.947         -54.9521         105.262         -54.9511          105.26      -0.00788931         149.123
0.531                   -0.40993        -137.456         -54.7851          103.77          -54.784         103.768      -0.00796217         149.055
0.532                  -0.422475        -137.967         -54.6187         102.274         -54.6177         102.272      -0.00803653         148.986
0.533                   -0.43533        -138.481          -54.453         100.774          -54.452         100.772      -0.00811237         148.918
0.534                  -0.448502        -138.997          -54.288          99.269          -54.287          99.267      -0.00818971          148.85
0.535                  -0.461996        -139.516         -54.1237         97.7601         -54.1227         97.7581      -0.00826856         148.782
0.536                  -0.475817        -140.037         -53.9602          96.247         -53.9592         96.2451      -0.00834892         148.713
0.537                  -0.489971         -140.56         -53.7973         94.7299         -53.7963         94.7279      -0.00843081         148.644
0.538                  -0.504465        -141.086         -53.6352         93.2088         -53.6342         93.2068      -0.00851421         148.576
0.539                  -0.519302        -141.614         -53.4738         91.6837         -53.4729         91.6818      -0.00859915         148.507
0.54                    -0.53449        -142.145         -53.3132         90.1549         -53.3123          90.153      -0.00868563         148.438
0.541                  -0.550034        -142.678         -53.1534         88.6223         -53.1524         88.6204      -0.00877366         148.369
0.542                  -0.565941        -143.213         -52.9943          87.086         -52.9933         87.0842      -0.00886324           148.3
0.543                  -0.582215        -143.751         -52.8359         85.5463          -52.835         85.5445      -0.00895438         148.231
0.544                  -0.598864        -144.291         -52.6784          84.003         -52.6775         84.0013      -0.00904709         148.161
0.545                  -0.615893        -144.834         -52.5216         82.4565         -52.5208         82.4548      -0.00914137         148.092
0.546                   -0.63331        -145.379         -52.3657         80.9067         -52.3648          80.905      -0.00923724         148.022
0.547                  -0.651119        -145.927         -52.2105         79.3537         -52.2096         79.3521      -0.00933469         147.953
0.548                  -0.669328        -146.477         -52.0561         77.7977         -52.0553         77.7962      -0.00943374         147.883
0.549                  -0.687943        -147.029         -51.9026         76.2388         -51.9017         76.2373       -0.0095344         147.813
0.55                   -0.706971        -147.584         -51.7498         74.6771          -51.749         74.6757      -0.00963666         147.743
0.551                  -0.726418        -148.142         -51.5978         73.1127         -51.5971         73.1113      -0.00974055         147.673
0.552                  -0.746292        -148.702         -51.4467         71.5457         -51.4459         71.5444      -0.00984607         147.602
0.553                  -0.766598        -149.264         -51.2964         69.9762         -51.2956          69.975      -0.00995322         147.532
0.554                  -0.787343        -149.829         -51.1468         68.4044         -51.1461         68.4032        -0.010062         147.462
0.555                  -0.808535        -150.396         -50.9981         66.8303         -50.9974         66.8291       -0.0101725         147.391
0.556                  -0.830181        -150.966         -50.8502          65.254         -50.8495          65.253       -0.0102846          147.32
0.557                  -0.852287        -151.538         -50.7031         63.6758         -50.7025         63.6748       -0.0103984         147.249
0.558                  -0.874861        -152.113         -50.5568         62.0956         -50.5562         62.0947       -0.0105138         147.178
0.559                   -0.89791         -152.69         -50.4114         60.5137         -50.4107         60.5128        -0.010631         147.107
0.56                   -0.921441        -153.269         -50.2667           58.93          -50.266         58.9293       -0.0107499         147.036
0.561                  -0.945462        -153.851         -50.1228         57.3448         -50.1221         57.3441       -0.0108705         146.965
0.562                  -0.969979        -154.435         -49.9796         55.7581         -49.9791         55.7575       -0.0109928         146.893
0.563                  -0.995001        -155.022         -49.8373         54.1701         -49.8367         54.1696       -0.0111168         146.822
0.564                   -1.02053        -155.611         -49.6958         52.5808         -49.6952         52.5804       -0.0112426          146.75
0.565                   -1.04659        -156.202          -49.555         50.9904         -49.5544           50.99       -0.0113702         146.678
0.566                   -1.07317        -156.796          -49.415          49.399         -49.4144         49.3986       -0.0114995         146.606
0.567                   -1.10028        -157.392         -49.2757         47.8066         -49.2752         47.8063       -0.0116306         146.534
0.568                   -1.12794        -157.991         -49.1372         46.2134         -49.1367         46.2132       -0.0117636         146.461
0.569                   -1.15614        -158.592         -48.9994         44.6194         -48.9989         44.6193       -0.0118983         146.389
0.57                    -1.18491        -159.195         -48.8623         43.0248         -48.8618         43.0247       -0.0120349         146.316
0.571                   -1.21424        -159.801          -48.726         41.4296         -48.7255         41.4296       -0.0121734         146.244
0.572                   -1.24414        -160.408         -48.5903          39.834         -48.5899          39.834       -0.0123137         146.171
0.573                   -1.27462        -161.019         -48.4554         38.2379         -48.4549         38.2381       -0.0124559         146.098
0.574                    -1.3057        -161.631         -48.3211         36.6416         -48.3207         36.6418          -0.0126         146.025
0.575                   -1.33737        -162.246         -48.1875          35.045         -48.1871         35.0453       -0.0127461         145.951
0.576                   -1.36965        -162.863         -48.0546         33.4483         -48.0542         33.4486       -0.0128941         145.878
0.577                   -1.40254        -163.482         -47.9223         31.8515         -47.9219         31.8518        -0.013044         145.804
0.578                   -1.43605        -164.103         -47.7906         30.2546         -47.7902         30.2551        -0.013196          145.73
0.579                   -1.47019        -164.727         -47.6596         28.6578         -47.6592         28.6583         -0.01335         145.657
0.58                    -1.50497        -165.353         -47.5292         27.0611         -47.5288         27.0617       -0.0135061         145.582
0.581                   -1.54039        -165.981         -47.3993         25.4646          -47.399         25.4652       -0.0136642         145.508
0.582                   -1.57647        -166.611         -47.2701         23.8683         -47.2697         23.8689       -0.0138244         145.434
0.583                   -1.61321        -167.243         -47.1414         22.2722          -47.141         22.2729       -0.0139868         145.359
0.584                   -1.65062        -167.877         -47.0132         20.6764         -47.0129         20.6771       -0.0141513         145.285
0.585                   -1.68871        -168.514         -46.8856         19.0809         -46.8853         19.0817        -0.014318          145.21
0.586                   -1.72749        -169.152         -46.7585         17.4859         -46.7582         17.4866        -0.014487         145.135
0.587                   -1.76697        -169.792          -46.632         15.8912         -46.6316          15.892       -0.0146582         145.059
0.588                   -1.80714        -170.434         -46.5059         14.2969         -46.5056         14.2977       -0.0148317         144.984
0.589                   -1.84803        -171.079         -46.3803         12.7031           -46.38          12.704       -0.0150076         144.908
0.59                    -1.88964        -171.725         -46.2551         11.1097         -46.2548         11.1106       -0.0151858         144.833
0.591                   -1.93198        -172.373         -46.1304         9.51685         -46.1301         9.51776       -0.0153665         144.757
0.592                   -1.97505        -173.023         -46.0062         7.92446         -46.0059         7.92539       -0.0155497         144.681
0.593                   -2.01887        -173.675         -45.8824         6.33257         -45.8821         6.33351       -0.0157353         144.604
0.594                   -2.06344        -174.328         -45.7589         4.74116         -45.7586         4.74211       -0.0159236         144.528
0.595                   -2.10877        -174.983         -45.6359         3.15026         -45.6356         3.15122       -0.0161144         144.451
0.596                   -2.15487         -175.64         -45.5132         1.55984          -45.513          1.5608       -0.0163079         144.374
0.597                   -2.20176        -176.299          -45.391      -0.0301037         -45.3907      -0.0291353       -0.0165042         144.297
0.598                   -2.24942         -176.96          -45.269        -1.61958         -45.2687        -1.61861       -0.0167032          144.22
0.599                   -2.29788        -177.622         -45.1474         -3.2086         -45.1471        -3.20764       -0.0169051         144.143
0.6                     -2.34715        -178.285         -45.0262         -4.7972         -45.0259        -4.79623       -0.0171099         144.065
0.601                   -2.39722         -178.95         -44.9052        -6.38539         -44.9049        -6.38443       -0.0173177         143.987
0.602                   -2.44811        -179.617         -44.7845        -7.97319         -44.7843        -7.97225       -0.0175285         143.909
0.603                   -2.49983         179.715         -44.6642        -9.56065         -44.6639        -9.55972       -0.0177425         143.831
0.604                   -2.55239         179.045         -44.5441        -11.1478         -44.5438        -11.1469       -0.0179596         143.753
0.605                   -2.60579         178.374         -44.4243        -12.7347          -44.424        -12.7337         -0.01818         143.674
0.606                   -2.66004         177.702         -44.3047        -14.3213         -44.3044        -14.3204       -0.0184037         143.595
0.607                   -2.71515         177.028         -44.1854        -15.9077         -44.1851        -15.9068       -0.0186309         143.516
0.608                   -2.77113         176.353         -44.0663         -17.494          -44.066        -17.4931       -0.0188616         143.437
0.609                   -2.82799         175.677         -43.9474        -19.0801         -43.9472        -19.0793       -0.0190959         143.357
0.61                    -2.88573         174.999         -43.8288        -20.6662         -43.8285        -20.6654       -0.0193339         143.278
0.611                   -2.94436         174.321         -43.7104        -22.2523         -43.7101        -22.2515       -0.0195757         143.198
0.612                   -3.00389         173.641         -43.5921        -23.8384         -43.5919        -23.8377       -0.0198214         143.118
0.613                   -3.06433          172.96         -43.4741        -25.4247         -43.4738        -25.4239       -0.0200711         143.037
0.614                   -3.12569         172.279         -43.3562        -27.0111         -43.3559        -27.0104        -0.020325         142.957
0.615                   -3.18798         171.596         -43.2385        -28.5977         -43.2382         -28.597        -0.020583         142.876
0.616                    -3.2512         170.912         -43.1209        -30.1846         -43.1207         -30.184       -0.0208455         142.795
0.617                   -3.31536         170.227         -43.0036        -31.7719         -43.0033        -31.7713       -0.0211124         142.713
0.618                   -3.38047         169.542         -42.8863        -33.3596         -42.8861         -33.359       -0.0213839         142.632
0.619                   -3.44654         168.856         -42.7693        -34.9477          -42.769        -34.9472       -0.0216601          142.55
0.62                    -3.51358         168.169         -42.6523        -36.5365         -42.6521        -36.5359       -0.0219412         142.468
0.621                    -3.5816         167.481         -42.5356        -38.1258         -42.5353        -38.1253       -0.0222273         142.385
0.622                    -3.6506         166.792         -42.4189        -39.7158         -42.4187        -39.7154       -0.0225185         142.303
0.623                    -3.7206         166.103         -42.3024        -41.3066         -42.3022        -41.3062       -0.0228151          142.22
0.624                    -3.7916         165.413          -42.186        -42.8983         -42.1858        -42.8979       -0.0231171         142.137
0.625                   -3.86361         164.723         -42.0697        -44.4908         -42.0695        -44.4905       -0.0234246         142.053
0.626                   -3.93665         164.032         -41.9536        -46.0844         -41.9534         -46.084        -0.023738          141.97
0.627                   -4.01072         163.341         -41.8376         -47.679         -41.8374        -47.6787       -0.0240573         141.886
0.628                   -4.08583         162.649         -41.7217        -49.2747         -41.7215        -49.2745       -0.0243827         141.801
0.629                   -4.16199         161.957          -41.606        -50.8717         -41.6058        -50.8715       -0.0247144         141.717
