! TOUCHSTONE file generated by CST MICROWAVE STUDIO
! Date and time: Fri Oct  2 16:19:31 2020
! Project name: Scenario_1_Free_Space_out_of_line.cst
! Parameters = {Lambda=346.42; Step_1=17.321; dy1=-241.954; dx1=346; L_HA=400; MT=2.54; Rad_Dielectric=30; Rad_Lower=7.3; Rad_Upper=30; a_HA=580; a_WG=246; b_HA=500; b_WG=121; c_HA=0; c_WG=187; d_feed=85; h_feed=15; h_lower=18; h_upper=40}
! Header version: 2018
! Port assignment regex: !\s*Touchstone port\s*([0-9]+)\s*=\s*(CST MWS port|CST DS port)\s*([0-9]+|Zmin|Zmax)\s*\(\"(.*)\"\)(\s*mode\s*([0-9]+))?.*
! Touchstone port assignment:
! Touchstone port 1 = CST MWS port 1 ("")
! Touchstone port 2 = CST MWS port 2 ("")
# GHz S DB R 50
0.5                    -0.145892        -122.607         -61.3436         65.7697         -61.3438         65.7664      -0.00659385         151.151
0.501                  -0.151784         -123.05         -61.1105         64.3915         -61.1098         64.3889      -0.00667479         151.086
0.502                  -0.157877        -123.496         -60.8788           62.99         -60.8774         62.9879      -0.00675641         151.021
0.503                  -0.164173        -123.944         -60.6486          61.566         -60.6465         61.5642      -0.00683873         150.956
0.504                  -0.170676        -124.393         -60.4199         60.1201         -60.4172         60.1185      -0.00692172          150.89
0.505                  -0.177391        -124.845         -60.1927          58.653         -60.1895         58.6514      -0.00700539         150.825
0.506                   -0.18432        -125.298         -59.9671         57.1654         -59.9634         57.1638      -0.00708973         150.759
0.507                  -0.191468        -125.754         -59.7431         55.6581         -59.7389         55.6562      -0.00717473         150.693
0.508                  -0.198838        -126.211         -59.5206         54.1315          -59.516         54.1293      -0.00726039         150.628
0.509                  -0.206433         -126.67         -59.2997         52.5864         -59.2948         52.5839      -0.00734671         150.562
0.51                   -0.214259        -127.132         -59.0804         51.0234         -59.0752         51.0204      -0.00743367         150.496
0.511                  -0.222317        -127.595         -58.8627          49.443         -58.8573         49.4396      -0.00752129          150.43
0.512                  -0.230612         -128.06         -58.6466          47.846          -58.641         47.8421      -0.00760954         150.364
0.513                  -0.239148        -128.527         -58.4321         46.2328         -58.4264         46.2283      -0.00769843         150.298
0.514                  -0.247927        -128.996         -58.2193          44.604         -58.2134          44.599      -0.00778795         150.232
0.515                  -0.256953        -129.468         -58.0081         42.9602         -58.0021         42.9547      -0.00787809         150.165
0.516                  -0.266231        -129.941         -57.7985          41.302         -57.7925          41.296      -0.00796885         150.099
0.517                  -0.275762        -130.416         -57.5906         39.6298         -57.5846         39.6234      -0.00806024         150.033
0.518                   -0.28555        -130.892         -57.3843         37.9443         -57.3784         37.9374      -0.00815223         149.966
0.519                  -0.295598        -131.371         -57.1796          36.246         -57.1738         36.2386      -0.00824483           149.9
0.52                    -0.30591        -131.852         -56.9767         34.5353         -56.9709         34.5275      -0.00833803         149.833
0.521                  -0.316488        -132.335         -56.7753         32.8129         -56.7696         32.8047      -0.00843183         149.766
0.522                  -0.327335        -132.819         -56.5756         31.0791           -56.57         31.0706      -0.00852623         149.699
0.523                  -0.338453        -133.306         -56.3776         29.3345         -56.3721         29.3257      -0.00862121         149.632
0.524                  -0.349845        -133.794         -56.1812         27.5796         -56.1759         27.5706      -0.00871679         149.565
0.525                  -0.361514        -134.284         -55.9864         25.8149         -55.9813         25.8056      -0.00881294         149.498
0.526                  -0.373462        -134.776         -55.7932         24.0408         -55.7883         24.0314      -0.00890967         149.431
0.527                   -0.38569         -135.27         -55.6017         22.2578          -55.597         22.2482      -0.00900698         149.364
0.528                    -0.3982        -135.766         -55.4118         20.4663         -55.4073         20.4567      -0.00910487         149.297
0.529                  -0.410995        -136.264         -55.2235         18.6668         -55.2192         18.6572      -0.00920332         149.229
0.53                   -0.424075        -136.764         -55.0369         16.8598         -55.0327         16.8502      -0.00930234         149.162
0.531                  -0.437442        -137.265         -54.8518         15.0456         -54.8478         15.0361      -0.00940193         149.094
0.532                  -0.451098        -137.768         -54.6682         13.2246         -54.6645         13.2153      -0.00950208         149.026
0.533                  -0.465042        -138.273         -54.4863         11.3973         -54.4828         11.3882      -0.00960279         148.958
0.534                  -0.479276         -138.78         -54.3059         9.56413         -54.3026         9.55516      -0.00970407         148.891
0.535                    -0.4938        -139.289          -54.127         7.72537         -54.1239         7.71667      -0.00980591         148.823
0.536                  -0.508615        -139.799         -53.9496         5.88146         -53.9468         5.87304      -0.00990831         148.754
0.537                  -0.523721        -140.312         -53.7738         4.03273         -53.7711         4.02465       -0.0100113         148.686
0.538                  -0.539117        -140.826         -53.5994         2.17957          -53.597         2.17184       -0.0101148         148.618
0.539                  -0.554804        -141.342         -53.4265        0.322297         -53.4243        0.314959       -0.0102189          148.55
0.54                   -0.570781         -141.86          -53.255        -1.53874          -53.253        -1.54566       -0.0103236         148.481
0.541                  -0.587047        -142.379          -53.085        -3.40323         -53.0832        -3.40971       -0.0104288         148.413
0.542                  -0.603603        -142.901         -52.9163        -5.27085         -52.9147        -5.27687       -0.0105346         148.344
0.543                  -0.620447        -143.424         -52.7491        -7.14131         -52.7476        -7.14685        -0.010641         148.275
0.544                  -0.637577        -143.949         -52.5832        -9.01432         -52.5819        -9.01937        -0.010748         148.206
0.545                  -0.654995        -144.476         -52.4186        -10.8896         -52.4175        -10.8941       -0.0108556         148.137
0.546                  -0.672697        -145.005         -52.2554        -12.7669         -52.2544        -12.7709       -0.0109638         148.068
0.547                  -0.690684        -145.536         -52.0934         -14.646         -52.0926        -14.6495       -0.0110726         147.999
0.548                  -0.708954        -146.069         -51.9327        -16.5265          -51.932        -16.5295       -0.0111821          147.93
0.549                  -0.727507        -146.604         -51.7732        -18.4084         -51.7727        -18.4109       -0.0112922          147.86
0.55                   -0.746341        -147.141          -51.615        -20.2913         -51.6146        -20.2933       -0.0114029         147.791
0.551                  -0.765455        -147.679         -51.4579        -22.1751         -51.4576        -22.1766       -0.0115143         147.721
0.552                  -0.784849         -148.22          -51.302        -24.0596         -51.3018        -24.0606       -0.0116263         147.651
0.553                  -0.804523        -148.763         -51.1472        -25.9446         -51.1472         -25.945       -0.0117391         147.581
0.554                  -0.824476        -149.308         -50.9936        -27.8299         -50.9936        -27.8299       -0.0118526         147.511
0.555                  -0.844708        -149.856          -50.841        -29.7154         -50.8411        -29.7149       -0.0119669         147.441
0.556                   -0.86522        -150.405         -50.6894        -31.6009         -50.6896        -31.5999       -0.0120819         147.371
0.557                  -0.886013        -150.957         -50.5389        -33.4863         -50.5392        -33.4849       -0.0121977           147.3
0.558                  -0.907086        -151.511         -50.3894        -35.3715         -50.3898        -35.3696       -0.0123143          147.23
0.559                  -0.928444        -152.068         -50.2409        -37.2563         -50.2413         -37.254       -0.0124317         147.159
0.56                   -0.950086        -152.627         -50.0933        -39.1407         -50.0938         -39.138       -0.0125501         147.089
0.561                  -0.972017        -153.188         -49.9467        -41.0245         -49.9472        -41.0215       -0.0126693         147.018
0.562                  -0.994239        -153.752         -49.8009        -42.9076         -49.8015        -42.9043       -0.0127895         146.947
0.563                   -1.01676        -154.319         -49.6561        -44.7901         -49.6566        -44.7864       -0.0129107         146.876
0.564                   -1.03958        -154.889         -49.5121        -46.6718         -49.5127        -46.6678       -0.0130329         146.804
0.565                    -1.0627        -155.461         -49.3689        -48.5527         -49.3695        -48.5484       -0.0131561         146.733
0.566                   -1.08613        -156.036         -49.2265        -50.4326         -49.2271        -50.4282       -0.0132805         146.661
0.567                   -1.10989        -156.615         -49.0849        -52.3117         -49.0855         -52.307        -0.013406          146.59
0.568                   -1.13397        -157.196         -48.9441        -54.1898         -48.9447         -54.185       -0.0135328         146.518
0.569                   -1.15839         -157.78          -48.804         -56.067         -48.8046        -56.0619       -0.0136608         146.446
0.57                    -1.18315        -158.368         -48.6646        -57.9431         -48.6653         -57.938       -0.0137901         146.374
0.571                   -1.20827        -158.959         -48.5259        -59.8183         -48.5266         -59.813       -0.0139208         146.302
0.572                   -1.23376        -159.554          -48.388        -61.6924         -48.3886        -61.6871        -0.014053         146.229
0.573                   -1.25962        -160.152         -48.2506        -63.5656         -48.2512        -63.5602       -0.0141866         146.157
0.574                   -1.28588        -160.753         -48.1139        -65.4377         -48.1145        -65.4323       -0.0143218         146.084
0.575                   -1.31255        -161.358         -47.9779        -67.3089         -47.9785        -67.3035       -0.0144587         146.012
0.576                   -1.33964        -161.967         -47.8424        -69.1792          -47.843        -69.1737       -0.0145973         145.939
0.577                   -1.36718         -162.58         -47.7076        -71.0485         -47.7081         -71.043       -0.0147376         145.866
0.578                   -1.39517        -163.196         -47.5733        -72.9169         -47.5738        -72.9115       -0.0148798         145.792
0.579                   -1.42363        -163.816         -47.4396        -74.7844         -47.4401        -74.7791       -0.0150239         145.719
0.58                     -1.4526        -164.441         -47.3064        -76.6511         -47.3069        -76.6459         -0.01517         145.645
0.581                   -1.48207        -165.069         -47.1738         -78.517         -47.1742        -78.5119       -0.0153182         145.572
0.582                   -1.51209        -165.702         -47.0417        -80.3822         -47.0421        -80.3772       -0.0154685         145.498
0.583                   -1.54266        -166.339         -46.9101        -82.2467         -46.9105        -82.2418       -0.0156211         145.424
0.584                   -1.57382         -166.98          -46.779        -84.1105         -46.7794        -84.1058        -0.015776          145.35
0.585                   -1.60559        -167.625         -46.6485        -85.9738         -46.6488        -85.9692       -0.0159333         145.275
0.586                   -1.63798        -168.275         -46.5184        -87.8365         -46.5187        -87.8321       -0.0160931         145.201
0.587                   -1.67103        -168.929         -46.3888        -89.6987         -46.3891        -89.6945       -0.0162555         145.126
0.588                   -1.70477        -169.587         -46.2596        -91.5605         -46.2599        -91.5564       -0.0164205         145.051
0.589                   -1.73921         -170.25          -46.131        -93.4219         -46.1312        -93.4181       -0.0165883         144.976
0.59                    -1.77439        -170.917         -46.0028         -95.283          -46.003        -95.2794       -0.0167588         144.901
0.591                   -1.81033        -171.588          -45.875        -97.1438         -45.8752        -97.1404       -0.0169322         144.826
0.592                   -1.84707        -172.264         -45.7477        -99.0045         -45.7479        -99.0013       -0.0171086          144.75
0.593                   -1.88463        -172.945         -45.6209        -100.865         -45.6211        -100.862        -0.017288         144.674
0.594                   -1.92305         -173.63         -45.4945        -102.725         -45.4946        -102.723       -0.0174705         144.599
0.595                   -1.96234        -174.319         -45.3686        -104.586         -45.3687        -104.583       -0.0176562         144.522
0.596                   -2.00255        -175.012         -45.2431        -106.446         -45.2432        -106.444       -0.0178451         144.446
0.597                   -2.04371         -175.71          -45.118        -108.307         -45.1181        -108.305       -0.0180373          144.37
0.598                   -2.08583        -176.413         -44.9934        -110.167         -44.9935        -110.166       -0.0182328         144.293
0.599                   -2.12897        -177.119         -44.8692        -112.028         -44.8693        -112.027       -0.0184317         144.216
0.6                     -2.17314         -177.83         -44.7455        -113.889         -44.7456        -113.888        -0.018634         144.139
0.601                   -2.21838        -178.544         -44.6222        -115.751         -44.6223         -115.75       -0.0188398         144.062
0.602                   -2.26472        -179.263         -44.4994        -117.613         -44.4995        -117.612       -0.0190492         143.985
0.603                   -2.31219        -179.986         -44.3771        -119.475         -44.3771        -119.474        -0.019262         143.907
0.604                   -2.36083         179.287         -44.2552        -121.337         -44.2552        -121.337       -0.0194785          143.83
0.605                   -2.41066         178.557         -44.1338          -123.2         -44.1338          -123.2       -0.0196985         143.752
0.606                   -2.46172         177.823         -44.0128        -125.064         -44.0128        -125.063       -0.0199222         143.674
0.607                   -2.51404         177.086         -43.8923        -126.928         -43.8923        -126.928       -0.0201494         143.595
0.608                   -2.56766         176.345         -43.7723        -128.792         -43.7723        -128.792       -0.0203803         143.517
0.609                   -2.62259           175.6         -43.6528        -130.657         -43.6528        -130.658       -0.0206148         143.438
0.61                    -2.67888         174.853         -43.5338        -132.523         -43.5338        -132.523        -0.020853         143.359
0.611                   -2.73655         174.103         -43.4153        -134.389         -43.4152         -134.39       -0.0210948          143.28
0.612                   -2.79564          173.35         -43.2972        -136.256         -43.2972        -136.257       -0.0213402           143.2
0.613                   -2.85617         172.594         -43.1797        -138.124         -43.1797        -138.125       -0.0215892         143.121
0.614                   -2.91817         171.836         -43.0628        -139.992         -43.0627        -139.993       -0.0218419         143.041
0.615                   -2.98168         171.075         -42.9463        -141.861         -42.9463        -141.862       -0.0220981         142.961
0.616                   -3.04672         170.313         -42.8304         -143.73         -42.8304        -143.731       -0.0223578         142.881
0.617                   -3.11332         169.548          -42.715          -145.6          -42.715        -145.601       -0.0226211           142.8
0.618                    -3.1815         168.782         -42.6002        -147.471         -42.6002        -147.472        -0.022888          142.72
0.619                    -3.2513         168.014         -42.4859        -149.342         -42.4859        -149.343       -0.0231583         142.639
0.62                    -3.32274         167.246         -42.3722        -151.213         -42.3723        -151.215       -0.0234321         142.558
0.621                   -3.39585         166.476         -42.2591        -153.085         -42.2591        -153.087       -0.0237094         142.476
0.622                   -3.47065         165.705         -42.1466        -154.958         -42.1466         -154.96       -0.0239902         142.395
0.623                   -3.54716         164.934         -42.0347        -156.831         -42.0347        -156.833       -0.0242743         142.313
0.624                    -3.6254         164.163         -41.9233        -158.705         -41.9233        -158.706       -0.0245619         142.231
0.625                   -3.70541         163.392         -41.8126        -160.578         -41.8126         -160.58       -0.0248529         142.149
0.626                    -3.7872         162.621         -41.7024        -162.452         -41.7024        -162.454       -0.0251473         142.066
0.627                   -3.87078          161.85         -41.5929        -164.326         -41.5929        -164.328        -0.025445         141.983
0.628                   -3.95619         161.081          -41.484        -166.201          -41.484        -166.202       -0.0257462           141.9
0.629                   -4.04343         160.313         -41.3757        -168.075         -41.3758        -168.077       -0.0260507         141.817
