! TOUCHSTONE file generated by CST MICROWAVE STUDIO
! Date and time: Fri Oct  2 16:35:16 2020
! Project name: Scenario_1_Free_Space_out_of_line.cst
! Parameters = {Lambda=346.42; Step_1=17.321; dy1=-241.954; dx1=520; L_HA=400; MT=2.54; Rad_Dielectric=30; Rad_Lower=7.3; Rad_Upper=30; a_HA=580; a_WG=246; b_HA=500; b_WG=121; c_HA=0; c_WG=187; d_feed=85; h_feed=15; h_lower=18; h_upper=40}
! Header version: 2018
! Port assignment regex: !\s*Touchstone port\s*([0-9]+)\s*=\s*(CST MWS port|CST DS port)\s*([0-9]+|Zmin|Zmax)\s*\(\"(.*)\"\)(\s*mode\s*([0-9]+))?.*
! Touchstone port assignment:
! Touchstone port 1 = CST MWS port 1 ("")
! Touchstone port 2 = CST MWS port 2 ("")
# GHz S DB R 50
0.5                    -0.149918        -122.637         -62.8711        -30.6556         -62.6135        -30.1892      -0.00664804         151.109
0.501                  -0.153815         -123.09         -62.7277        -32.0372         -62.5245        -31.5461      -0.00669833         151.043
0.502                  -0.157971        -123.544         -62.5817        -33.4401         -62.4314        -32.9249      -0.00674961         150.978
0.503                  -0.162388            -124          -62.433        -34.8645         -62.3342        -34.3257      -0.00680189         150.912
0.504                  -0.167069        -124.458         -62.2817          -36.31         -62.2328        -35.7484      -0.00685518         150.846
0.505                  -0.172018        -124.918         -62.1277        -37.7766         -62.1271        -37.1928      -0.00690947         150.781
0.506                  -0.177236         -125.38         -61.9711        -39.2641         -62.0171        -38.6588      -0.00696479         150.715
0.507                  -0.182728        -125.843          -61.812        -40.7724         -61.9028        -40.1463      -0.00702113         150.649
0.508                  -0.188495        -126.309         -61.6502        -42.3014          -61.784        -41.6551      -0.00707851         150.583
0.509                  -0.194541        -126.777         -61.4859        -43.8508         -61.6609        -43.1851      -0.00713693         150.517
0.51                   -0.200869        -127.246         -61.3192        -45.4205         -61.5333        -44.7359       -0.0071964         150.451
0.511                  -0.207481        -127.717         -61.1499        -47.0103         -61.4012        -46.3074      -0.00725694         150.385
0.512                  -0.214381        -128.191         -60.9782          -48.62         -61.2648        -47.8994      -0.00731855         150.318
0.513                   -0.22157        -128.666         -60.8042        -50.2495         -61.1238        -49.5117      -0.00738123         150.252
0.514                  -0.229053        -129.143         -60.6278        -51.8984         -60.9785        -51.1439        -0.007445         150.185
0.515                  -0.236832        -129.622         -60.4491        -53.5665         -60.8287        -52.7958      -0.00750987         150.119
0.516                   -0.24491        -130.103         -60.2683        -55.2538         -60.6746        -54.4671      -0.00757584         150.052
0.517                   -0.25329        -130.586         -60.0853        -56.9598         -60.5162        -56.1576      -0.00764293         149.986
0.518                  -0.261974        -131.071         -59.9002        -58.6844         -60.3536        -57.8671      -0.00771115         149.919
0.519                  -0.270966        -131.557         -59.7132        -60.4274         -60.1867        -59.5952       -0.0077805         149.852
0.52                   -0.280269        -132.046         -59.5242        -62.1884         -60.0158        -61.3416      -0.00785099         149.785
0.521                  -0.289884        -132.536         -59.3334        -63.9673         -59.8408        -63.1062      -0.00792264         149.718
0.522                  -0.299816        -133.028         -59.1409        -65.7637         -59.6619        -64.8887      -0.00799546         149.651
0.523                  -0.310067        -133.523         -58.9467        -67.5774         -59.4792        -66.6888      -0.00806945         149.583
0.524                  -0.320639        -134.019          -58.751        -69.4082         -59.2928        -68.5063      -0.00814463         149.516
0.525                  -0.331536        -134.517         -58.5538        -71.2557         -59.1029        -70.3409      -0.00822101         149.449
0.526                   -0.34276        -135.017         -58.3553        -73.1197         -58.9095        -72.1925       -0.0082986         149.381
0.527                  -0.354315        -135.518         -58.1556        -74.9998         -58.7129        -74.0608      -0.00837741         149.314
0.528                  -0.366203        -136.022         -57.9548        -76.8958         -58.5132        -75.9457      -0.00845745         149.246
0.529                  -0.378427        -136.527         -57.7529        -78.8074         -58.3105        -77.8468      -0.00853874         149.178
0.53                   -0.390989        -137.035         -57.5502        -80.7342         -58.1051        -79.7641      -0.00862128          149.11
0.531                  -0.403893        -137.544         -57.3468        -82.6758         -57.8971        -81.6973      -0.00870509         149.042
0.532                  -0.417141        -138.055         -57.1426         -84.632         -57.6867        -83.6463      -0.00879019         148.974
0.533                  -0.430736        -138.568          -56.938        -86.6024         -57.4741        -85.6108      -0.00887657         148.906
0.534                  -0.444681        -139.083          -56.733        -88.5866         -57.2595        -87.5907      -0.00896427         148.838
0.535                  -0.458979          -139.6         -56.5277        -90.5842         -57.0432        -89.5858      -0.00905328         148.769
0.536                  -0.473632        -140.119         -56.3223        -92.5949         -56.8253        -91.5957      -0.00914363         148.701
0.537                  -0.488643        -140.639         -56.1169        -94.6181         -56.6061        -93.6204      -0.00923532         148.632
0.538                  -0.504015        -141.162         -55.9116        -96.6536         -56.3857        -95.6596      -0.00932838         148.564
0.539                   -0.51975        -141.686         -55.7066        -98.7008         -56.1644        -97.7129      -0.00942281         148.495
0.54                   -0.535852        -142.212         -55.5019        -100.759         -55.9425        -99.7802      -0.00951863         148.426
0.541                  -0.552324         -142.74         -55.2978        -102.829         -55.7202        -101.861      -0.00961586         148.357
0.542                  -0.569167         -143.27         -55.0942        -104.908         -55.4976        -103.955      -0.00971451         148.288
0.543                  -0.586384        -143.802         -54.8914        -106.997         -55.2751        -106.062      -0.00981459         148.219
0.544                  -0.603979        -144.335         -54.6895        -109.096         -55.0528        -108.181      -0.00991612         148.149
0.545                  -0.621954        -144.871         -54.4885        -111.203         -54.8309        -110.313       -0.0100191          148.08
0.546                  -0.640312        -145.408         -54.2886        -113.319         -54.6098        -112.456       -0.0101236          148.01
0.547                  -0.659056        -145.947         -54.0898        -115.442         -54.3895        -114.609       -0.0102296         147.941
0.548                  -0.678188        -146.488         -53.8924        -117.571         -54.1704        -116.774       -0.0103371         147.871
0.549                  -0.697711        -147.031         -53.6963        -119.708         -53.9525        -118.947       -0.0104461         147.801
0.55                   -0.717628        -147.576         -53.5016         -121.85         -53.7362         -121.13       -0.0105567         147.731
0.551                  -0.737942        -148.123         -53.3085        -123.997         -53.5216        -123.321       -0.0106689         147.661
0.552                  -0.758655        -148.672          -53.117        -126.149         -53.3088         -125.52       -0.0107826         147.591
0.553                  -0.779771        -149.222         -52.9272        -128.304          -53.098        -127.725       -0.0108979          147.52
0.554                  -0.801292        -149.774         -52.7392        -130.463         -52.8894        -129.937       -0.0110149          147.45
0.555                  -0.823221        -150.329         -52.5529        -132.624         -52.6832        -132.153       -0.0111335         147.379
0.556                   -0.84556        -150.885         -52.3685        -134.787         -52.4794        -134.373       -0.0112538         147.309
0.557                  -0.868314        -151.443         -52.1859        -136.951         -52.2781        -136.597       -0.0113758         147.238
0.558                  -0.891484        -152.003         -52.0053        -139.116         -52.0795        -138.823       -0.0114995         147.167
0.559                  -0.915074        -152.565         -51.8267        -141.282         -51.8836         -141.05       -0.0116249         147.096
0.56                   -0.939087        -153.128         -51.6499        -143.446         -51.6906        -143.278        -0.011752         147.025
0.561                  -0.963525        -153.694         -51.4752         -145.61         -51.5004        -145.505       -0.0118809         146.953
0.562                  -0.988392        -154.262         -51.3025        -147.771         -51.3131        -147.731       -0.0120116         146.882
0.563                   -1.01369        -154.831         -51.1317        -149.931         -51.1288        -149.954       -0.0121441          146.81
0.564                   -1.03942        -155.403         -50.9629        -152.087         -50.9474        -152.174       -0.0122785         146.739
0.565                    -1.0656        -155.976          -50.796        -154.241         -50.7689         -154.39       -0.0124147         146.667
0.566                   -1.09221        -156.552         -50.6311         -156.39         -50.5934        -156.601       -0.0125528         146.595
0.567                   -1.11927        -157.129         -50.4681        -158.536         -50.4208        -158.805       -0.0126928         146.523
0.568                   -1.14677        -157.708          -50.307        -160.676         -50.2511        -161.004       -0.0128348          146.45
0.569                   -1.17473         -158.29         -50.1477        -162.812         -50.0841        -163.194       -0.0129787         146.378
0.57                    -1.20315        -158.873         -49.9903        -164.942           -49.92        -165.377       -0.0131246         146.306
0.571                   -1.23202        -159.458         -49.8345        -167.066         -49.7585        -167.551       -0.0132725         146.233
0.572                   -1.26135        -160.046         -49.6805        -169.185         -49.5996        -169.717       -0.0134225          146.16
0.573                   -1.29116        -160.635         -49.5281        -171.297         -49.4432        -171.872       -0.0135745         146.087
0.574                   -1.32143        -161.227         -49.3774        -173.402         -49.2893        -174.018       -0.0137286         146.014
0.575                   -1.35217         -161.82         -49.2281        -175.501         -49.1377        -176.153       -0.0138849         145.941
0.576                    -1.3834        -162.416         -49.0804        -177.593         -48.9883        -178.277       -0.0140433         145.867
0.577                   -1.41511        -163.014         -48.9341        -179.678          -48.841          179.61       -0.0142039         145.794
0.578                    -1.4473        -163.614         -48.7891         178.244         -48.6958         177.508       -0.0143667          145.72
0.579                   -1.47999        -164.216         -48.6454         176.173         -48.5524         175.417       -0.0145318         145.646
0.58                    -1.51318         -164.82         -48.5029          174.11         -48.4109         173.337       -0.0146991         145.572
0.581                   -1.54686        -165.427         -48.3616         172.053          -48.271         171.269       -0.0148688         145.498
0.582                   -1.58105        -166.035         -48.2214         170.004         -48.1326         169.212       -0.0150408         145.424
0.583                   -1.61576        -166.646         -48.0822         167.961         -47.9957         167.166       -0.0152152         145.349
0.584                   -1.65098        -167.259          -47.944         165.926         -47.8602         165.131        -0.015392         145.275
0.585                   -1.68673        -167.875         -47.8067         163.897         -47.7259         163.106       -0.0155713           145.2
0.586                     -1.723        -168.492         -47.6702         161.875         -47.5927         161.093       -0.0157531         145.125
0.587                   -1.75981        -169.113         -47.5345          159.86         -47.4605         159.089       -0.0159374          145.05
0.588                   -1.79716        -169.735         -47.3995         157.851         -47.3293         157.096       -0.0161243         144.975
0.589                   -1.83506         -170.36         -47.2652         155.848         -47.1988         155.112       -0.0163138         144.899
0.59                    -1.87351        -170.987         -47.1315         153.851         -47.0691         153.137       -0.0165059         144.823
0.591                   -1.91253        -171.617         -46.9983         151.859         -46.9401         151.171       -0.0167008         144.748
0.592                   -1.95212        -172.249         -46.8656         149.873         -46.8116         149.213       -0.0168983         144.672
0.593                   -1.99228        -172.884         -46.7334         147.892         -46.6836         147.264       -0.0170987         144.595
0.594                   -2.03303        -173.522         -46.6016         145.915         -46.5559         145.321       -0.0173019         144.519
0.595                   -2.07438        -174.162         -46.4701         143.944         -46.4287         143.386       -0.0175079         144.443
0.596                   -2.11633        -174.805         -46.3389         141.976         -46.3016         141.457       -0.0177169         144.366
0.597                   -2.15889         -175.45          -46.208         140.012         -46.1748         139.533       -0.0179288         144.289
0.598                   -2.20208        -176.098         -46.0774         138.051         -46.0481         137.615       -0.0181437         144.212
0.599                    -2.2459        -176.749         -45.9469         136.094         -45.9215         135.702       -0.0183617         144.135
0.6                     -2.29037        -177.403         -45.8166         134.139         -45.7949         133.793       -0.0185828         144.057
0.601                   -2.33549        -178.059         -45.6864         132.187         -45.6684         131.888       -0.0188071         143.979
0.602                   -2.38128        -178.719         -45.5563         130.236         -45.5417         129.986       -0.0190346         143.902
0.603                   -2.42775        -179.381         -45.4263         128.288          -45.415         128.086       -0.0192653         143.824
0.604                   -2.47491         179.953         -45.2964          126.34         -45.2882         126.188       -0.0194994         143.745
0.605                   -2.52278         179.285         -45.1665         124.394         -45.1612         124.292       -0.0197369         143.667
0.606                   -2.57137         178.613         -45.0366         122.448         -45.0341         122.397       -0.0199779         143.588
0.607                    -2.6207         177.938         -44.9067         120.502         -44.9067         120.502       -0.0202223         143.509
0.608                   -2.67078          177.26         -44.7768         118.556         -44.7792         118.607       -0.0204703          143.43
0.609                   -2.72163         176.579         -44.6469          116.61         -44.6514         116.711        -0.020722         143.351
0.61                    -2.77327         175.894          -44.517         114.662         -44.5234         114.814       -0.0209773         143.271
0.611                   -2.82572         175.206          -44.387         112.713         -44.3951         112.915       -0.0212364         143.192
0.612                   -2.87899         174.515          -44.257         110.763         -44.2666         111.014       -0.0214994         143.112
0.613                    -2.9331          173.82          -44.127          108.81         -44.1379         109.111       -0.0217662         143.031
0.614                   -2.98808         173.121         -43.9969         106.856         -44.0089         107.204       -0.0220371         142.951
0.615                   -3.04395         172.419         -43.8669         104.898         -43.8797         105.293        -0.022312          142.87
0.616                   -3.10074         171.713         -43.7368         102.938         -43.7503         103.378        -0.022591         142.789
0.617                   -3.15846         171.004         -43.6067         100.974         -43.6207         101.459       -0.0228742         142.708
0.618                   -3.21715         170.291         -43.4766         99.0067         -43.4909         99.5343       -0.0231617         142.627
0.619                   -3.27683         169.574         -43.3465         97.0353          -43.361         97.6044       -0.0234536         142.545
0.62                    -3.33752         168.853         -43.2165         95.0598         -43.2309         95.6688         -0.02375         142.464
0.621                   -3.39927         168.128         -43.0866         93.0797         -43.1007         93.7269       -0.0240509         142.381
0.622                   -3.46211         167.399         -42.9567         91.0949         -42.9704         91.7785       -0.0243564         142.299
0.623                   -3.52605         166.666          -42.827          89.105         -42.8401         89.8232       -0.0246667         142.217
0.624                   -3.59115         165.929         -42.6973         87.1099         -42.7098         87.8607       -0.0249818         142.134
0.625                   -3.65744         165.188         -42.5679         85.1093         -42.5795         85.8907       -0.0253018         142.051
0.626                   -3.72495         164.442         -42.4386         83.1031         -42.4492         83.9129       -0.0256268         141.967
0.627                   -3.79374         163.693         -42.3095          81.091         -42.3191         81.9272        -0.025957         141.884
0.628                   -3.86383         162.939         -42.1807         79.0728         -42.1891         79.9331       -0.0262924           141.8
0.629                   -3.93528         162.181         -42.0522         77.0484         -42.0593         77.9306       -0.0266331         141.716
