! TOUCHSTONE file generated by CST MICROWAVE STUDIO
! Date and time: Fri Oct  2 17:00:15 2020
! Project name: Scenario_1_Free_Space_out_of_line.cst
! Parameters = {Lambda=346.42; Step_1=17.321; dy1=-241.954; dx1=693; L_HA=400; MT=2.54; Rad_Dielectric=30; Rad_Lower=7.3; Rad_Upper=30; a_HA=580; a_WG=246; b_HA=500; b_WG=121; c_HA=0; c_WG=187; d_feed=85; h_feed=15; h_lower=18; h_upper=40}
! Header version: 2018
! Port assignment regex: !\s*Touchstone port\s*([0-9]+)\s*=\s*(CST MWS port|CST DS port)\s*([0-9]+|Zmin|Zmax)\s*\(\"(.*)\"\)(\s*mode\s*([0-9]+))?.*
! Touchstone port assignment:
! Touchstone port 1 = CST MWS port 1 ("")
! Touchstone port 2 = CST MWS port 2 ("")
# GHz S DB R 50
0.5                    -0.147421        -122.583         -63.7796        -124.971         -63.7796        -124.971      -0.00667873         151.118
0.501                  -0.153374        -123.015         -63.6791         -127.05         -63.6794         -127.05      -0.00673641         151.053
0.502                  -0.159469        -123.449         -63.5741         -129.14         -63.5746         -129.14      -0.00679495         150.987
0.503                  -0.165707        -123.885         -63.4646         -131.24         -63.4654         -131.24      -0.00685434         150.922
0.504                  -0.172093        -124.323         -63.3505        -133.349         -63.3516         -133.35       -0.0069146         150.856
0.505                   -0.17863        -124.763          -63.232        -135.467         -63.2333        -135.467      -0.00697572         150.791
0.506                  -0.185322        -125.206         -63.1091        -137.591         -63.1106        -137.592      -0.00703773         150.725
0.507                  -0.192171         -125.65         -62.9817        -139.722         -62.9834        -139.724      -0.00710061         150.659
0.508                  -0.199183        -126.097         -62.8499        -141.859         -62.8518        -141.861      -0.00716439         150.593
0.509                   -0.20636        -126.545         -62.7138            -144         -62.7159        -144.002      -0.00722907         150.527
0.51                   -0.213707        -126.996         -62.5735        -146.144         -62.5757        -146.147      -0.00729465         150.461
0.511                  -0.221227        -127.449         -62.4289        -148.291         -62.4314        -148.295      -0.00736115         150.395
0.512                  -0.228925        -127.905         -62.2803        -150.441         -62.2829        -150.445      -0.00742856         150.329
0.513                  -0.236804        -128.362         -62.1277        -152.592         -62.1305        -152.596      -0.00749691         150.263
0.514                   -0.24487        -128.822         -61.9712        -154.743         -61.9741        -154.748      -0.00756619         150.196
0.515                  -0.253126        -129.284         -61.8109        -156.895         -61.8139          -156.9      -0.00763641          150.13
0.516                  -0.261576        -129.748          -61.647        -159.046         -61.6501        -159.051      -0.00770758         150.063
0.517                  -0.270226        -130.215         -61.4795        -161.196         -61.4827        -161.202      -0.00777972         149.997
0.518                   -0.27908        -130.684         -61.3086        -163.344         -61.3118        -163.351      -0.00785283          149.93
0.519                  -0.288142        -131.155         -61.1344        -165.491         -61.1377        -165.498      -0.00792691         149.863
0.52                   -0.297417        -131.629          -60.957        -167.635         -60.9604        -167.643      -0.00800198         149.797
0.521                  -0.306911        -132.105         -60.7766        -169.777         -60.7801        -169.785      -0.00807804          149.73
0.522                  -0.316628        -132.584         -60.5934        -171.917         -60.5969        -171.925      -0.00815511         149.663
0.523                  -0.326574        -133.064         -60.4074        -174.053         -60.4109        -174.062      -0.00823319         149.595
0.524                  -0.336752        -133.548         -60.2188        -176.186         -60.2223        -176.195       -0.0083123         149.528
0.525                   -0.34717        -134.033         -60.0277        -178.317         -60.0313        -178.326      -0.00839244         149.461
0.526                  -0.357832        -134.522         -59.8344         179.556         -59.8379         179.547      -0.00847363         149.393
0.527                  -0.368743        -135.012         -59.6388         177.432         -59.6423         177.422      -0.00855587         149.326
0.528                   -0.37991        -135.505         -59.4413          175.31         -59.4448         175.301      -0.00863917         149.258
0.529                  -0.391337        -136.001         -59.2418         173.192         -59.2453         173.182      -0.00872354         149.191
0.53                   -0.403031        -136.499         -59.0406         171.076          -59.044         171.066      -0.00880901         149.123
0.531                  -0.414997            -137         -58.8377         168.963         -58.8411         168.953      -0.00889557         149.055
0.532                  -0.427242        -137.503         -58.6334         166.852         -58.6368         166.842      -0.00898323         148.987
0.533                  -0.439772        -138.009         -58.4278         164.743          -58.431         164.733      -0.00907202         148.919
0.534                  -0.452592        -138.517         -58.2209         162.636         -58.2241         162.626      -0.00916193         148.851
0.535                  -0.465709        -139.028         -58.0129          160.53          -58.016          160.52      -0.00925299         148.782
0.536                   -0.47913        -139.542         -57.8039         158.426          -57.807         158.416      -0.00934521         148.714
0.537                   -0.49286        -140.058         -57.5941         156.322         -57.5971         156.312      -0.00943859         148.646
0.538                  -0.506906        -140.576         -57.3836         154.219         -57.3865         154.209      -0.00953315         148.577
0.539                  -0.521276        -141.098         -57.1725         152.116         -57.1753         152.106       -0.0096289         148.508
0.54                   -0.535975        -141.622         -56.9609         150.012         -56.9636         150.003      -0.00972586          148.44
0.541                  -0.551011        -142.149         -56.7489         147.908         -56.7516         147.899      -0.00982404         148.371
0.542                   -0.56639        -142.678         -56.5366         145.803         -56.5392         145.794      -0.00992346         148.302
0.543                   -0.58212         -143.21         -56.3242         143.697         -56.3267         143.688       -0.0100241         148.233
0.544                  -0.598207        -143.744         -56.1118         141.589         -56.1142          141.58        -0.010126         148.163
0.545                   -0.61466        -144.282         -55.8994         139.479         -55.9017         139.471       -0.0102292         148.094
0.546                  -0.631484        -144.822         -55.6872         137.366         -55.6894         137.358       -0.0103337         148.025
0.547                  -0.648688        -145.365         -55.4753          135.25         -55.4774         135.243       -0.0104395         147.955
0.548                  -0.666279         -145.91         -55.2637         133.132         -55.2657         133.125       -0.0105466         147.885
0.549                  -0.684264        -146.458         -55.0526          131.01         -55.0544         131.003       -0.0106551         147.816
0.55                   -0.702652        -147.009          -54.842         128.883         -54.8438         128.877       -0.0107649         147.746
0.551                   -0.72145        -147.562         -54.6321         126.753         -54.6338         126.747       -0.0108761         147.676
0.552                  -0.740665        -148.119         -54.4229         124.619         -54.4245         124.613       -0.0109887         147.605
0.553                  -0.760306        -148.678         -54.2146         122.479         -54.2161         122.474       -0.0111026         147.535
0.554                   -0.78038        -149.239         -54.0072         120.335         -54.0086          120.33        -0.011218         147.465
0.555                  -0.800896        -149.804         -53.8009         118.186         -53.8021         118.181       -0.0113348         147.394
0.556                  -0.821861        -150.371         -53.5956         116.031         -53.5967         116.027       -0.0114531         147.324
0.557                  -0.843284        -150.941         -53.3915         113.871         -53.3925         113.867       -0.0115729         147.253
0.558                  -0.865173        -151.513         -53.1887         111.705         -53.1896         111.701       -0.0116942         147.182
0.559                  -0.887535        -152.088         -52.9872         109.533          -52.988          109.53       -0.0118169         147.111
0.56                   -0.910381        -152.666         -52.7871         107.355         -52.7878         107.353       -0.0119413          147.04
0.561                  -0.933717        -153.247         -52.5886         105.171         -52.5891         105.169       -0.0120671         146.969
0.562                  -0.957553         -153.83         -52.3916         102.981          -52.392          102.98       -0.0121946         146.897
0.563                  -0.981896        -154.416         -52.1962         100.786         -52.1966         100.784       -0.0123236         146.826
0.564                   -1.00676        -155.005         -52.0025         98.5836         -52.0028         98.5828       -0.0124543         146.754
0.565                   -1.03214        -155.596         -51.8106         96.3757         -51.8108         96.3752       -0.0125866         146.682
0.566                   -1.05806         -156.19         -51.6206         94.1618         -51.6206         94.1616       -0.0127205         146.611
0.567                   -1.08452        -156.786         -51.4324          91.942         -51.4324         91.9422       -0.0128562         146.539
0.568                   -1.11153        -157.385         -51.2462         89.7165          -51.246          89.717       -0.0129935         146.466
0.569                   -1.13909        -157.987         -51.0619         87.4854         -51.0617         87.4861       -0.0131326         146.394
0.57                    -1.16723        -158.592         -50.8797         85.2488         -50.8794         85.2498       -0.0132735         146.322
0.571                   -1.19594        -159.199         -50.6996          83.007         -50.6992         83.0082       -0.0134161         146.249
0.572                   -1.22524        -159.808         -50.5216         80.7601         -50.5211         80.7616       -0.0135605         146.176
0.573                   -1.25513         -160.42         -50.3458         78.5085         -50.3452         78.5101       -0.0137068         146.103
0.574                   -1.28563        -161.035         -50.1721         76.2523         -50.1714         76.2541        -0.013855          146.03
0.575                   -1.31674        -161.652         -50.0006         73.9918         -49.9999         73.9938        -0.014005         145.957
0.576                   -1.34846        -162.272         -49.8314         71.7274         -49.8306         71.7295       -0.0141569         145.884
0.577                   -1.38082        -162.894         -49.6644         69.4593         -49.6635         69.4615       -0.0143108          145.81
0.578                   -1.41381        -163.518         -49.4997         67.1878         -49.4988         67.1902       -0.0144667         145.737
0.579                   -1.44745        -164.145         -49.3373         64.9133         -49.3362         64.9158       -0.0146245         145.663
0.58                    -1.48174        -164.775         -49.1771         62.6362          -49.176         62.6387       -0.0147844         145.589
0.581                    -1.5167        -165.406         -49.0192         60.3568          -49.018         60.3593       -0.0149464         145.515
0.582                   -1.55232        -166.041         -48.8635         58.0754         -48.8623         58.0779       -0.0151105          145.44
0.583                   -1.58863        -166.677         -48.7101         55.7923         -48.7088         55.7949       -0.0152767         145.366
0.584                   -1.62563        -167.316         -48.5588         53.5081         -48.5575         53.5107        -0.015445         145.291
0.585                   -1.66332        -167.957         -48.4098         51.2229         -48.4085         51.2255       -0.0156156         145.217
0.586                   -1.70172          -168.6          -48.263         48.9372         -48.2616         48.9398       -0.0157884         145.142
0.587                   -1.74083        -169.246         -48.1183         46.6513         -48.1169         46.6538       -0.0159635         145.067
0.588                   -1.78067        -169.893         -47.9757         44.3656         -47.9743          44.368       -0.0161408         144.991
0.589                   -1.82123        -170.543         -47.8351         42.0803         -47.8337         42.0827       -0.0163206         144.916
0.59                    -1.86254        -171.195         -47.6966         39.7959         -47.6952         39.7982       -0.0165027          144.84
0.591                   -1.90459        -171.849         -47.5601         37.5125         -47.5586         37.5147       -0.0166872         144.764
0.592                    -1.9474        -172.506         -47.4254         35.2306         -47.4239         35.2327       -0.0168742         144.688
0.593                   -1.99097        -173.164         -47.2926         32.9503         -47.2912         32.9524       -0.0170637         144.612
0.594                   -2.03531        -173.824         -47.1617          30.672         -47.1602          30.674       -0.0172557         144.536
0.595                   -2.08043        -174.486         -47.0324         28.3959          -47.031         28.3977       -0.0174504         144.459
0.596                   -2.12633         -175.15         -46.9049         26.1222         -46.9034         26.1239       -0.0176476         144.383
0.597                   -2.17304        -175.816         -46.7789         23.8511         -46.7775         23.8527       -0.0178476         144.306
0.598                   -2.22054        -176.484         -46.6546         21.5829         -46.6531         21.5844       -0.0180503         144.229
0.599                   -2.26885        -177.154         -46.5316         19.3176         -46.5302          19.319       -0.0182558         144.151
0.6                     -2.31799        -177.826         -46.4101         17.0555         -46.4087         17.0567       -0.0184641         144.074
0.601                   -2.36794        -178.499           -46.29         14.7966         -46.2886         14.7977       -0.0186752         143.996
0.602                   -2.41873        -179.174         -46.1711         12.5411         -46.1697         12.5421       -0.0188893         143.918
0.603                   -2.47037        -179.851         -46.0533          10.289          -46.052         10.2899       -0.0191064          143.84
0.604                   -2.52285         179.471         -45.9368          8.0404         -45.9355         8.04122       -0.0193266         143.762
0.605                   -2.57618         178.791         -45.8212         5.79539           -45.82          5.7961       -0.0195498         143.684
0.606                   -2.63038         178.109         -45.7066         3.55395         -45.7054         3.55456       -0.0197762         143.605
0.607                   -2.68545         177.426          -45.593          1.3161         -45.5918          1.3166       -0.0200058         143.526
0.608                    -2.7414         176.741         -45.4801       -0.918192          -45.479        -0.91778       -0.0202387         143.447
0.609                   -2.79823         176.054         -45.3681        -3.14895          -45.367        -3.14862        -0.020475         143.367
0.61                    -2.85596         175.367         -45.2567        -5.37622         -45.2557        -5.37598       -0.0207146         143.288
0.611                   -2.91458         174.677         -45.1459        -7.60008          -45.145        -7.59991       -0.0209578         143.208
0.612                   -2.97412         173.987         -45.0358         -9.8206         -45.0348         -9.8205       -0.0212044         143.128
0.613                   -3.03457         173.295         -44.9261        -12.0379         -44.9252        -12.0379       -0.0214547         143.048
0.614                   -3.09595         172.601         -44.8168        -14.2521          -44.816        -14.2521       -0.0217087         142.967
0.615                   -3.15826         171.906         -44.7079        -16.4632         -44.7071        -16.4633       -0.0219664         142.887
0.616                   -3.22151          171.21         -44.5993        -18.6716         -44.5986        -18.6717        -0.022228         142.806
0.617                    -3.2857         170.513          -44.491        -20.8772         -44.4903        -20.8774       -0.0224935         142.725
0.618                   -3.35086         169.814         -44.3828        -23.0803         -44.3822        -23.0805        -0.022763         142.643
0.619                   -3.41697         169.114         -44.2749         -25.281         -44.2743        -25.2812       -0.0230366         142.561
0.62                    -3.48407         168.413          -44.167        -27.4795         -44.1665        -27.4798       -0.0233143          142.48
0.621                   -3.55214         167.711         -44.0591        -29.6761         -44.0587        -29.6763       -0.0235963         142.397
0.622                   -3.62121         167.007         -43.9513        -31.8708         -43.9509        -31.8711       -0.0238827         142.315
0.623                   -3.69127         166.302         -43.8434         -34.064         -43.8431        -34.0643       -0.0241736         142.232
0.624                   -3.76235         165.596         -43.7355        -36.2558         -43.7351        -36.2561        -0.024469         142.149
0.625                   -3.83445         164.889         -43.6274        -38.4464         -43.6271        -38.4467        -0.024769         142.066
0.626                   -3.90758         164.181         -43.5191        -40.6361         -43.5189        -40.6363       -0.0250738         141.983
0.627                   -3.98176         163.472         -43.4107        -42.8251         -43.4106        -42.8253       -0.0253835         141.899
0.628                   -4.05698         162.761         -43.3021        -45.0136          -43.302        -45.0138       -0.0256982         141.815
0.629                   -4.13328          162.05         -43.1932        -47.2018         -43.1932        -47.2019       -0.0260179         141.731
