! TOUCHSTONE file generated by CST MICROWAVE STUDIO
! Date and time: Fri Oct  2 19:16:15 2020
! Project name: Scenario_1_Free_Space_out_of_line.cst
! Parameters = {Lambda=346.42; Step_1=17.321; dy1=-241.954; dx1=866; L_HA=400; MT=2.54; Rad_Dielectric=30; Rad_Lower=7.3; Rad_Upper=30; a_HA=580; a_WG=246; b_HA=500; b_WG=121; c_HA=0; c_WG=187; d_feed=85; h_feed=15; h_lower=18; h_upper=40}
! Header version: 2018
! Port assignment regex: !\s*Touchstone port\s*([0-9]+)\s*=\s*(CST MWS port|CST DS port)\s*([0-9]+|Zmin|Zmax)\s*\(\"(.*)\"\)(\s*mode\s*([0-9]+))?.*
! Touchstone port assignment:
! Touchstone port 1 = CST MWS port 1 ("")
! Touchstone port 2 = CST MWS port 2 ("")
# GHz S DB R 50
0.5                    -0.148283        -122.552         -64.5018         137.417         -64.5018         137.417      -0.00663694         151.092
0.501                  -0.153159        -122.989         -64.3077         135.286         -64.3076         135.287      -0.00669279         151.027
0.502                  -0.158226        -123.429         -64.1127         133.151         -64.1125         133.153      -0.00674955         150.961
0.503                  -0.163488        -123.872         -63.9167         131.011         -63.9165         131.014      -0.00680726         150.896
0.504                  -0.168952        -124.317           -63.72         128.867         -63.7197          128.87      -0.00686591          150.83
0.505                  -0.174622        -124.764         -63.5226         126.717         -63.5222         126.721      -0.00692552         150.764
0.506                  -0.180506        -125.213         -63.3245         124.563          -63.324         124.567      -0.00698612         150.698
0.507                  -0.186608        -125.666         -63.1258         122.403         -63.1252         122.408       -0.0070477         150.633
0.508                  -0.192935         -126.12         -62.9265         120.237          -62.926         120.243       -0.0071103         150.567
0.509                  -0.199492        -126.577         -62.7269         118.066         -62.7263         118.072      -0.00717391         150.501
0.51                   -0.206285        -127.037         -62.5268         115.889         -62.5262         115.895      -0.00723857         150.434
0.511                  -0.213321        -127.499         -62.3265         113.706         -62.3258         113.712      -0.00730427         150.368
0.512                  -0.220605        -127.963         -62.1259         111.517         -62.1251         111.523      -0.00737105         150.302
0.513                  -0.228142         -128.43         -61.9251         109.321         -61.9243         109.327      -0.00743891         150.236
0.514                  -0.235939        -128.899         -61.7242         107.119         -61.7234         107.125      -0.00750787         150.169
0.515                  -0.244001        -129.371         -61.5232          104.91         -61.5224         104.916      -0.00757794         150.103
0.516                  -0.252334        -129.845         -61.3223         102.694         -61.3215           102.7      -0.00764915         150.036
0.517                  -0.260945        -130.321         -61.1215         100.472         -61.1206         100.478       -0.0077215         149.969
0.518                  -0.269837          -130.8         -60.9208          98.242         -60.9199         98.2476      -0.00779502         149.902
0.519                  -0.279018        -131.281         -60.7203         96.0051         -60.7194         96.0104      -0.00786972         149.836
0.52                   -0.288493        -131.764         -60.5201         93.7609         -60.5192         93.7659      -0.00794562         149.769
0.521                  -0.298266         -132.25         -60.3202         91.5093         -60.3193          91.514      -0.00802273         149.702
0.522                  -0.308344        -132.738         -60.1207         89.2503         -60.1198         89.2546      -0.00810108         149.634
0.523                  -0.318732        -133.229         -59.9217         86.9838         -59.9208         86.9877      -0.00818067         149.567
0.524                  -0.329435        -133.722         -59.7232         84.7098         -59.7223         84.7133      -0.00826152           149.5
0.525                  -0.340458        -134.217         -59.5253         82.4283         -59.5243         82.4314      -0.00834365         149.432
0.526                  -0.351805        -134.714          -59.328         80.1392          -59.327         80.1418      -0.00842709         149.365
0.527                  -0.363483        -135.214         -59.1314         77.8425         -59.1304         77.8447      -0.00851183         149.297
0.528                  -0.375495        -135.716         -58.9355         75.5384         -58.9346         75.5401      -0.00859791          149.23
0.529                  -0.387846         -136.22         -58.7404         73.2267         -58.7395          73.228      -0.00868533         149.162
0.53                   -0.400541        -136.726         -58.5462         70.9076         -58.5453         70.9085      -0.00877412         149.094
0.531                  -0.413583        -137.235         -58.3529         68.5812          -58.352         68.5816      -0.00886428         149.026
0.532                  -0.426977        -137.745         -58.1605         66.2475         -58.1596         66.2474      -0.00895584         148.958
0.533                  -0.440726        -138.258         -57.9691         63.9066         -57.9682         63.9061       -0.0090488          148.89
0.534                  -0.454835        -138.773         -57.7787         61.5587         -57.7779         61.5578      -0.00914319         148.821
0.535                  -0.469306         -139.29         -57.5894         59.2039         -57.5886         59.2026      -0.00923902         148.753
0.536                  -0.484143        -139.809         -57.4012         56.8424         -57.4004         56.8407       -0.0093363         148.684
0.537                  -0.499348         -140.33         -57.2142         54.4743         -57.2134         54.4722      -0.00943504         148.616
0.538                  -0.514926        -140.853         -57.0283         52.0998         -57.0276         52.0974      -0.00953526         148.547
0.539                  -0.530877        -141.378         -56.8437         49.7191          -56.843         49.7163      -0.00963696         148.478
0.54                   -0.547204        -141.905         -56.6603         47.3324         -56.6596         47.3294      -0.00974016         148.409
0.541                   -0.56391        -142.433         -56.4782           44.94         -56.4776         44.9367      -0.00984486          148.34
0.542                  -0.580996        -142.964         -56.2974          42.542         -56.2968         42.5385      -0.00995107         148.271
0.543                  -0.598463        -143.497         -56.1179         40.1388         -56.1173          40.135       -0.0100588         148.202
0.544                  -0.616313        -144.032         -55.9397         37.7305         -55.9392         37.7265       -0.0101681         148.133
0.545                  -0.634546        -144.568         -55.7629         35.3174         -55.7624         35.3133       -0.0102788         148.063
0.546                  -0.653163        -145.106         -55.5875         32.8999          -55.587         32.8956       -0.0103911         147.994
0.547                  -0.672165        -145.646         -55.4134         30.4781         -55.4129         30.4737        -0.010505         147.924
0.548                  -0.691551        -146.188         -55.2407         28.0524         -55.2402         28.0479       -0.0106203         147.854
0.549                   -0.71132        -146.732         -55.0693         25.6229         -55.0689         25.6185       -0.0107371         147.785
0.55                   -0.731474        -147.277         -54.8994         23.1901          -54.899         23.1857       -0.0108555         147.715
0.551                  -0.752009        -147.825         -54.7308         20.7542         -54.7304         20.7498       -0.0109753         147.645
0.552                  -0.772926        -148.373         -54.5636         18.3154         -54.5632          18.311       -0.0110966         147.574
0.553                  -0.794223        -148.924         -54.3977         15.8741         -54.3974         15.8698       -0.0112194         147.504
0.554                  -0.815899        -149.476         -54.2332         13.4305         -54.2329         13.4263       -0.0113435         147.434
0.555                   -0.83795         -150.03           -54.07         10.9848         -54.0697         10.9808       -0.0114691         147.363
0.556                  -0.860376        -150.586         -53.9081         8.53746         -53.9078          8.5336        -0.011596         147.292
0.557                  -0.883173        -151.144         -53.7475         6.08859         -53.7473         6.08492       -0.0117243         147.222
0.558                   -0.90634        -151.703         -53.5881         3.63847         -53.5879         3.63502       -0.0118538         147.151
0.559                  -0.929872        -152.264           -53.43         1.18734         -53.4299         1.18413       -0.0119846          147.08
0.56                   -0.953768        -152.826         -53.2732        -1.26456          -53.273        -1.26752       -0.0121166         147.009
0.561                  -0.978025        -153.391         -53.1175        -3.71702         -53.1173        -3.71971       -0.0122497         146.937
0.562                   -1.00264        -153.957         -52.9629        -6.16984         -52.9627        -6.17224       -0.0123839         146.866
0.563                   -1.02761        -154.525         -52.8095        -8.62282         -52.8093        -8.62491       -0.0125191         146.794
0.564                   -1.05292        -155.095         -52.6571        -11.0758          -52.657        -11.0775       -0.0126554         146.723
0.565                   -1.07859        -155.666         -52.5058        -13.5285         -52.5057          -13.53       -0.0127925         146.651
0.566                    -1.1046         -156.24         -52.3555         -15.981         -52.3554        -15.9821       -0.0129305         146.579
0.567                   -1.13095        -156.815         -52.2062        -18.4329         -52.2061        -18.4337       -0.0130694         146.507
0.568                   -1.15764        -157.393         -52.0579        -20.8843         -52.0577        -20.8847        -0.013209         146.435
0.569                   -1.18467        -157.972         -51.9104        -23.3349         -51.9102        -23.3349       -0.0133493         146.363
0.57                    -1.21203        -158.554         -51.7638        -25.7847         -51.7636        -25.7844       -0.0134903          146.29
0.571                   -1.23972        -159.137          -51.618        -28.2336         -51.6178         -28.233        -0.013632         146.218
0.572                   -1.26774        -159.723          -51.473        -30.6816         -51.4728        -30.6806       -0.0137743         146.145
0.573                    -1.2961        -160.312         -51.3287        -33.1285         -51.3285        -33.1272       -0.0139173         146.072
0.574                   -1.32478        -160.902         -51.1851        -35.5745         -51.1849        -35.5728        -0.014061         145.999
0.575                    -1.3538        -161.496         -51.0422        -38.0193          -51.042        -38.0173       -0.0142054         145.926
0.576                   -1.38314        -162.091         -50.8999        -40.4631         -50.8997        -40.4608       -0.0143506         145.852
0.577                   -1.41282         -162.69         -50.7582        -42.9058          -50.758        -42.9032       -0.0144967         145.779
0.578                   -1.44284        -163.291         -50.6171        -45.3475         -50.6168        -45.3446       -0.0146437         145.705
0.579                   -1.47321        -163.895         -50.4765        -47.7881         -50.4762        -47.7849       -0.0147919         145.631
0.58                    -1.50392        -164.502         -50.3364        -50.2278          -50.336        -50.2243       -0.0149414         145.557
0.581                   -1.53499        -165.113         -50.1967        -52.6665         -50.1964        -52.6628       -0.0150923         145.483
0.582                   -1.56642        -165.726         -50.0575        -55.1044         -50.0571        -55.1005       -0.0152449         145.409
0.583                   -1.59822        -166.344         -49.9186        -57.5415         -49.9182        -57.5373       -0.0153993         145.335
0.584                   -1.63042        -166.964         -49.7801        -59.9779         -49.7797        -59.9735       -0.0155558          145.26
0.585                   -1.66301        -167.588          -49.642        -62.4136         -49.6416        -62.4091       -0.0157146         145.185
0.586                   -1.69602        -168.217         -49.5042        -64.8489         -49.5037        -64.8442        -0.015876          145.11
0.587                   -1.72947        -168.849         -49.3667        -67.2837         -49.3662        -67.2789       -0.0160401         145.035
0.588                   -1.76337        -169.485         -49.2294        -69.7183         -49.2289        -69.7134       -0.0162072          144.96
0.589                   -1.79775        -170.126         -49.0924        -72.1526         -49.0919        -72.1476       -0.0163775         144.884
0.59                    -1.83262         -170.77         -48.9557         -74.587         -48.9551        -74.5819       -0.0165512         144.808
0.591                   -1.86803         -171.42         -48.8191        -77.0213         -48.8186        -77.0162       -0.0167285         144.732
0.592                   -1.90399        -172.074         -48.6828        -79.4559         -48.6822        -79.4508       -0.0169096         144.656
0.593                   -1.94054        -172.733         -48.5467        -81.8908         -48.5461        -81.8857       -0.0170946          144.58
0.594                   -1.97771        -173.397         -48.4108        -84.3262         -48.4102         -84.321       -0.0172836         144.503
0.595                   -2.01554        -174.066          -48.275        -86.7622         -48.2744        -86.7571       -0.0174768         144.427
0.596                   -2.05407         -174.74         -48.1395        -89.1989         -48.1389        -89.1938       -0.0176743          144.35
0.597                   -2.09334        -175.419         -48.0041        -91.6365         -48.0035        -91.6315       -0.0178761         144.273
0.598                   -2.13339        -176.104         -47.8689        -94.0751         -47.8683        -94.0701       -0.0180823         144.196
0.599                   -2.17428        -176.794         -47.7338        -96.5149         -47.7332          -96.51       -0.0182929         144.118
0.6                     -2.21604        -177.489          -47.599        -98.9558         -47.5984         -98.951        -0.018508         144.041
0.601                   -2.25873         -178.19         -47.4643        -101.398         -47.4638        -101.394       -0.0187275         143.963
0.602                    -2.3024        -178.896         -47.3299        -103.842         -47.3293        -103.837       -0.0189515         143.885
0.603                   -2.34711        -179.608         -47.1956        -106.287          -47.195        -106.283       -0.0191799         143.807
0.604                    -2.3929         179.675         -47.0616        -108.735          -47.061         -108.73       -0.0194127         143.728
0.605                   -2.43984         178.953         -46.9277        -111.184         -46.9272         -111.18         -0.01965          143.65
0.606                   -2.48799         178.225         -46.7941        -113.635         -46.7936        -113.631       -0.0198915         143.571
0.607                    -2.5374         177.493         -46.6608        -116.087         -46.6603        -116.084       -0.0201375         143.492
0.608                   -2.58812         176.755         -46.5277        -118.542         -46.5272        -118.539       -0.0203877         143.413
0.609                   -2.64023         176.013         -46.3949        -120.999         -46.3944        -120.996       -0.0206422         143.333
0.61                    -2.69376         175.266         -46.2624        -123.459         -46.2619        -123.456       -0.0209009         143.254
0.611                   -2.74879         174.515         -46.1302         -125.92         -46.1298        -125.917       -0.0211637         143.174
0.612                   -2.80536         173.759         -45.9984        -128.384          -45.998        -128.381       -0.0214307         143.094
0.613                   -2.86353             173         -45.8669         -130.85         -45.8665        -130.848       -0.0217018         143.014
0.614                   -2.92334         172.238         -45.7358        -133.319         -45.7354        -133.316        -0.021977         142.933
0.615                   -2.98485         171.472         -45.6051        -135.789         -45.6048        -135.787       -0.0222562         142.852
0.616                    -3.0481         170.704         -45.4748        -138.262         -45.4745         -138.26       -0.0225394         142.772
0.617                   -3.11313         169.933          -45.345        -140.738         -45.3447        -140.736       -0.0228265          142.69
0.618                   -3.17997          169.16         -45.2156        -143.216         -45.2154        -143.214       -0.0231176         142.609
0.619                   -3.24866         168.386         -45.0868        -145.696         -45.0865        -145.694       -0.0234126         142.527
0.62                    -3.31924         167.611         -44.9584        -148.178         -44.9582        -148.176       -0.0237115         142.446
0.621                   -3.39171         166.836         -44.8306        -150.662         -44.8304        -150.661       -0.0240143         142.363
0.622                    -3.4661          166.06         -44.7033        -153.148         -44.7032        -153.147       -0.0243209         142.281
0.623                   -3.54243         165.285         -44.5766        -155.637         -44.5765        -155.636       -0.0246314         142.198
0.624                    -3.6207         164.511         -44.4505        -158.127         -44.4504        -158.126       -0.0249457         142.116
0.625                   -3.70091         163.738          -44.325        -160.619          -44.325        -160.618       -0.0252639         142.033
0.626                   -3.78306         162.967         -44.2002        -163.112         -44.2001        -163.112       -0.0255858         141.949
0.627                   -3.86714         162.199          -44.076        -165.607          -44.076        -165.607       -0.0259116         141.866
0.628                   -3.95313         161.434         -43.9525        -168.104         -43.9524        -168.104       -0.0262413         141.782
0.629                   -4.04103         160.672         -43.8296        -170.602         -43.8296        -170.601       -0.0265748         141.698
