! TOUCHSTONE file generated by CST MICROWAVE STUDIO
! Date and time: Fri Oct  2 18:59:53 2020
! Project name: Scenario_1_Free_Space_out_of_line.cst
! Parameters = {Lambda=346.42; Step_1=17.321; dy1=-241.954; dx1=1039; L_HA=400; MT=2.54; Rad_Dielectric=30; Rad_Lower=7.3; Rad_Upper=30; a_HA=580; a_WG=246; b_HA=500; b_WG=121; c_HA=0; c_WG=187; d_feed=85; h_feed=15; h_lower=18; h_upper=40}
! Header version: 2018
! Port assignment regex: !\s*Touchstone port\s*([0-9]+)\s*=\s*(CST MWS port|CST DS port)\s*([0-9]+|Zmin|Zmax)\s*\(\"(.*)\"\)(\s*mode\s*([0-9]+))?.*
! Touchstone port assignment:
! Touchstone port 1 = CST MWS port 1 ("")
! Touchstone port 2 = CST MWS port 2 ("")
# GHz S DB R 50
0.5                    -0.147057        -122.337         -65.1948          41.645         -65.1948          41.645      -0.00665432         151.099
0.501                  -0.150643        -122.758         -65.1043         39.1901         -65.1041         39.1882      -0.00670687         151.034
0.502                  -0.154409        -123.181          -65.008          36.721         -65.0077         36.7174      -0.00676042         150.968
0.503                  -0.158362        -123.608          -64.906          34.239         -64.9055         34.2338      -0.00681497         150.903
0.504                  -0.162511        -124.038         -64.7983         31.7456         -64.7976         31.7388      -0.00687052         150.838
0.505                  -0.166863        -124.471         -64.6849         29.2421          -64.684         29.2339      -0.00692708         150.772
0.506                  -0.171428        -124.908         -64.5658         26.7297         -64.5648         26.7202      -0.00698465         150.706
0.507                  -0.176211        -125.347         -64.4412         24.2098           -64.44         24.1991      -0.00704325          150.64
0.508                  -0.181223         -125.79         -64.3112         21.6836         -64.3098         21.6718      -0.00710287         150.575
0.509                   -0.18647        -126.235         -64.1757         19.1523         -64.1742         19.1395      -0.00716351         150.509
0.51                    -0.19196        -126.684          -64.035          16.617         -64.0333         16.6033       -0.0072252         150.443
0.511                  -0.197701        -127.136         -63.8891         14.0787         -63.8873         14.0642      -0.00728792         150.377
0.512                  -0.203701        -127.591         -63.7383         11.5384         -63.7363         11.5232      -0.00735169         150.311
0.513                  -0.209967        -128.049         -63.5826         8.99695         -63.5804          8.9811      -0.00741651         150.244
0.514                  -0.216507        -128.511         -63.4222         6.45514         -63.4199         6.43878      -0.00748239         150.178
0.515                  -0.223329        -128.975         -63.2574         3.91368         -63.2549         3.89691      -0.00754932         150.112
0.516                  -0.230439        -129.442         -63.0882         1.37318         -63.0856         1.35608      -0.00761733         150.045
0.517                  -0.237845        -129.912         -62.9149        -1.16583         -62.9122        -1.18319      -0.00768641         149.979
0.518                  -0.245553        -130.385         -62.7376        -3.70293         -62.7348        -3.72048      -0.00775657         149.912
0.519                  -0.253572        -130.861         -62.5566        -6.23779         -62.5537        -6.25544      -0.00782782         149.845
0.52                   -0.261908         -131.34          -62.372        -8.77014          -62.369        -8.78784      -0.00790016         149.779
0.521                  -0.270567        -131.822         -62.1841        -11.2998          -62.181        -11.3175       -0.0079736         149.712
0.522                  -0.279557        -132.306          -61.993        -13.8267         -61.9899        -13.8443      -0.00804815         149.645
0.523                  -0.288884        -132.794         -61.7989        -16.3508         -61.7958        -16.3683      -0.00812381         149.578
0.524                  -0.298554        -133.284         -61.6021        -18.8723         -61.5989        -18.8896      -0.00820058          149.51
0.525                  -0.308574        -133.777         -61.4027        -21.3911         -61.3995        -21.4082      -0.00827848         149.443
0.526                  -0.318949        -134.273          -61.201        -23.9075         -61.1977        -23.9243      -0.00835752         149.376
0.527                  -0.329686        -134.772          -60.997        -26.4217         -60.9938        -26.4383      -0.00843769         149.308
0.528                  -0.340791        -135.273         -60.7911         -28.934         -60.7879        -28.9503      -0.00851901         149.241
0.529                  -0.352268        -135.777         -60.5834        -31.4448         -60.5802        -31.4607      -0.00860148         149.173
0.53                   -0.364125        -136.283          -60.374        -33.9544         -60.3708        -33.9699      -0.00868512         149.106
0.531                  -0.376365        -136.792         -60.1632        -36.4632         -60.1601        -36.4784      -0.00876992         149.038
0.532                  -0.388994        -137.304         -59.9512        -38.9716          -59.948        -38.9864      -0.00885591          148.97
0.533                  -0.402017        -137.818          -59.738        -41.4802         -59.7349        -41.4946      -0.00894307         148.902
0.534                  -0.415439        -138.335         -59.5239        -43.9894         -59.5209        -44.0033      -0.00903143         148.834
0.535                  -0.429265        -138.854          -59.309        -46.4997         -59.3061        -46.5131      -0.00912099         148.766
0.536                  -0.443498        -139.375         -59.0935        -49.0115         -59.0907        -49.0245      -0.00921176         148.698
0.537                  -0.458144        -139.899         -58.8776        -51.5254         -58.8748        -51.5379      -0.00930375         148.629
0.538                  -0.473206        -140.426         -58.6614        -54.0418         -58.6587        -54.0538      -0.00939696         148.561
0.539                  -0.488687        -140.954          -58.445        -56.5613         -58.4424        -56.5729      -0.00949141         148.492
0.54                   -0.504593        -141.485         -58.2286        -59.0843         -58.2261        -59.0954       -0.0095871         148.423
0.541                  -0.520925        -142.019         -58.0123        -61.6114         -58.0099        -61.6219      -0.00968405         148.355
0.542                  -0.537688        -142.554         -57.7963        -64.1428          -57.794        -64.1529      -0.00978226         148.286
0.543                  -0.554884        -143.092         -57.5807        -66.6792         -57.5785        -66.6887      -0.00988174         148.217
0.544                  -0.572517        -143.632         -57.3656        -69.2209         -57.3636        -69.2299      -0.00998251         148.148
0.545                  -0.590589        -144.174         -57.1512        -71.7682         -57.1493        -71.7766       -0.0100846         148.079
0.546                  -0.609102        -144.718         -56.9376        -74.3216         -56.9358        -74.3295       -0.0101879         148.009
0.547                  -0.628059        -145.264         -56.7249        -76.8812         -56.7232        -76.8886       -0.0102926          147.94
0.548                  -0.647463        -145.812         -56.5132        -79.4476         -56.5117        -79.4544       -0.0103986          147.87
0.549                  -0.667313        -146.363         -56.3027        -82.0208         -56.3013        -82.0271       -0.0105059         147.801
0.55                   -0.687614        -146.915         -56.0934        -84.6011         -56.0922        -84.6068       -0.0106146         147.731
0.551                  -0.708365        -147.469         -55.8855        -87.1886         -55.8844        -87.1938       -0.0107247         147.661
0.552                  -0.729569        -148.025         -55.6791        -89.7836         -55.6781        -89.7882       -0.0108361         147.591
0.553                  -0.751227        -148.584         -55.4743        -92.3861         -55.4734        -92.3901       -0.0109489         147.521
0.554                  -0.773339        -149.144         -55.2711        -94.9961         -55.2703        -94.9996       -0.0110631         147.451
0.555                  -0.795906        -149.705         -55.0696        -97.6136          -55.069        -97.6166       -0.0111787         147.381
0.556                   -0.81893        -150.269         -54.8701        -100.239         -54.8696        -100.241       -0.0112957          147.31
0.557                   -0.84241        -150.835         -54.6724        -102.871          -54.672        -102.873       -0.0114141          147.24
0.558                  -0.866347        -151.402         -54.4768        -105.511         -54.4765        -105.512        -0.011534         147.169
0.559                  -0.890741        -151.971         -54.2832        -108.158         -54.2831        -108.159       -0.0116554         147.098
0.56                   -0.915593        -152.542         -54.0918        -110.812         -54.0918        -110.812       -0.0117782         147.027
0.561                  -0.940902        -153.115         -53.9026        -113.473         -53.9027        -113.472       -0.0119026         146.956
0.562                  -0.966668        -153.689         -53.7157         -116.14         -53.7159        -116.139       -0.0120284         146.885
0.563                  -0.992891        -154.266         -53.5311        -118.813         -53.5313        -118.811       -0.0121558         146.814
0.564                   -1.01957        -154.843         -53.3488        -121.492         -53.3492         -121.49       -0.0122847         146.742
0.565                   -1.04671        -155.423          -53.169        -124.176         -53.1694        -124.174       -0.0124151         146.671
0.566                    -1.0743        -156.004         -52.9915        -126.866          -52.992        -126.863       -0.0125472         146.599
0.567                   -1.10234        -156.588         -52.8165         -129.56         -52.8171        -129.556       -0.0126808         146.527
0.568                   -1.13084        -157.172         -52.6439        -132.258         -52.6446        -132.254        -0.012816         146.455
0.569                    -1.1598        -157.759         -52.4738         -134.96         -52.4746        -134.955       -0.0129529         146.383
0.57                    -1.18921        -158.347         -52.3062        -137.665          -52.307         -137.66       -0.0130914         146.311
0.571                   -1.21907        -158.937          -52.141        -140.372         -52.1418        -140.367       -0.0132316         146.239
0.572                   -1.24938        -159.529         -51.9783        -143.082         -51.9791        -143.076       -0.0133734         146.166
0.573                   -1.28014        -160.122         -51.8179        -145.794         -51.8188        -145.788        -0.013517         146.093
0.574                   -1.31136        -160.717           -51.66        -148.507         -51.6609          -148.5       -0.0136623         146.021
0.575                   -1.34303        -161.314         -51.5043        -151.221         -51.5053        -151.213       -0.0138094         145.948
0.576                   -1.37514        -161.913          -51.351        -153.934          -51.352        -153.927       -0.0139583         145.875
0.577                   -1.40771        -162.513            -51.2        -156.648          -51.201         -156.64       -0.0141089         145.801
0.578                   -1.44073        -163.116         -51.0511        -159.361         -51.0521        -159.353       -0.0142614         145.728
0.579                    -1.4742         -163.72         -50.9044        -162.073         -50.9054        -162.065       -0.0144158         145.655
0.58                    -1.50811        -164.326         -50.7597        -164.784         -50.7607        -164.775        -0.014572         145.581
0.581                   -1.54248        -164.935          -50.617        -167.492         -50.6181        -167.483       -0.0147302         145.507
0.582                   -1.57731        -165.545         -50.4763        -170.198         -50.4773        -170.189       -0.0148903         145.433
0.583                   -1.61258        -166.157         -50.3374        -172.902         -50.3384        -172.893       -0.0150524         145.359
0.584                   -1.64832        -166.771         -50.2003        -175.603         -50.2013        -175.593       -0.0152164         145.285
0.585                    -1.6845        -167.387         -50.0648          -178.3         -50.0658        -178.291       -0.0153826          145.21
0.586                   -1.72115        -168.006          -49.931         179.006         -49.9319         179.015       -0.0155508         145.136
0.587                   -1.75826        -168.627         -49.7986         176.316         -49.7995         176.325       -0.0157211         145.061
0.588                   -1.79584         -169.25         -49.6676          173.63         -49.6686         173.639       -0.0158936         144.986
0.589                   -1.83388        -169.875          -49.538         170.947         -49.5389         170.957       -0.0160683         144.911
0.59                    -1.87239        -170.503         -49.4096         168.269         -49.4105         168.279       -0.0162453         144.836
0.591                   -1.91139        -171.133         -49.2823         165.595         -49.2832         165.605       -0.0164245          144.76
0.592                   -1.95087        -171.766         -49.1561         162.926         -49.1569         162.935        -0.016606         144.685
0.593                   -1.99083        -172.402         -49.0308         160.261         -49.0316          160.27       -0.0167899         144.609
0.594                    -2.0313         -173.04         -48.9064           157.6         -48.9072         157.609       -0.0169763         144.533
0.595                   -2.07227        -173.681         -48.7828         154.944         -48.7835         154.953       -0.0171651         144.457
0.596                   -2.11375        -174.324         -48.6598         152.292         -48.6605         152.301       -0.0173564          144.38
0.597                   -2.15575        -174.971         -48.5375         149.645         -48.5381         149.653       -0.0175504         144.304
0.598                   -2.19829        -175.621         -48.4156         147.001         -48.4163         147.009        -0.017747         144.227
0.599                   -2.24137        -176.274         -48.2943         144.361         -48.2948         144.369       -0.0179463          144.15
0.6                       -2.285         -176.93         -48.1733         141.726         -48.1738         141.733       -0.0181484         144.073
0.601                   -2.32921         -177.59         -48.0525         139.094         -48.0531         139.101       -0.0183534         143.996
0.602                   -2.37401        -178.253         -47.9321         136.465         -47.9325         136.472       -0.0185613         143.918
0.603                    -2.4194         -178.92         -47.8118          133.84         -47.8122         133.846       -0.0187721         143.841
0.604                   -2.46542         -179.59         -47.6916         131.217          -47.692         131.224       -0.0189861         143.763
0.605                   -2.51208         179.736         -47.5714         128.598         -47.5718         128.604       -0.0192032         143.685
0.606                    -2.5594         179.058         -47.4512          125.98         -47.4516         125.986       -0.0194236         143.607
0.607                    -2.6074         178.376          -47.331         123.365         -47.3313         123.371       -0.0196473         143.528
0.608                   -2.65611          177.69         -47.2107         120.752          -47.211         120.758       -0.0198744         143.449
0.609                   -2.70556             177         -47.0902         118.141         -47.0905         118.146       -0.0201051          143.37
0.61                    -2.75576         176.305         -46.9696         115.531         -46.9698         115.536       -0.0203394         143.291
0.611                   -2.80676         175.606         -46.8487         112.922          -46.849         112.926       -0.0205775         143.212
0.612                   -2.85858         174.903         -46.7277         110.313         -46.7279         110.318       -0.0208194         143.132
0.613                   -2.91126         174.194         -46.6063         107.706         -46.6065         107.709       -0.0210654         143.053
0.614                   -2.96484         173.481         -46.4847         105.098         -46.4849         105.101       -0.0213154         142.973
0.615                   -3.01935         172.764         -46.3628         102.489          -46.363         102.493       -0.0215696         142.892
0.616                   -3.07484         172.041         -46.2406         99.8807         -46.2407         99.8835       -0.0218282         142.812
0.617                   -3.13135         171.313         -46.1181          97.271         -46.1182         97.2736       -0.0220913         142.731
0.618                   -3.18893         170.581         -45.9953         94.6602         -45.9954         94.6624        -0.022359          142.65
0.619                   -3.24762         169.843         -45.8722         92.0478         -45.8723         92.0498       -0.0226315         142.569
0.62                    -3.30748           169.1         -45.7488         89.4337         -45.7489         89.4354        -0.022909         142.488
0.621                   -3.36857         168.351         -45.6251         86.8174         -45.6252         86.8189       -0.0231915         142.406
0.622                   -3.43094         167.598         -45.5012         84.1988         -45.5012            84.2       -0.0234792         142.324
0.623                   -3.49465         166.839         -45.3769         81.5775          -45.377         81.5785       -0.0237723         142.242
0.624                   -3.55976         166.075         -45.2525         78.9533         -45.2525         78.9541       -0.0240709          142.16
0.625                   -3.62635         165.305         -45.1278         76.3259         -45.1278         76.3265       -0.0243752         142.077
0.626                   -3.69448         164.531          -45.003         73.6952          -45.003         73.6956       -0.0246853         141.994
0.627                   -3.76423         163.751          -44.878         71.0609          -44.878         71.0611       -0.0250014         141.911
0.628                   -3.83566         162.967         -44.7529         68.4227         -44.7529         68.4228       -0.0253236         141.828
0.629                   -3.90885         162.177         -44.6277         65.7807         -44.6277         65.7805       -0.0256521         141.744
