! TOUCHSTONE file generated by CST MICROWAVE STUDIO
! Date and time: Fri Oct  2 17:15:08 2020
! Project name: Scenario_1_Free_Space_out_of_line.cst
! Parameters = {Lambda=346.42; Step_1=17.321; dy1=-259.295; dx1=173; L_HA=400; MT=2.54; Rad_Dielectric=30; Rad_Lower=7.3; Rad_Upper=30; a_HA=580; a_WG=246; b_HA=500; b_WG=121; c_HA=0; c_WG=187; d_feed=85; h_feed=15; h_lower=18; h_upper=40}
! Header version: 2018
! Port assignment regex: !\s*Touchstone port\s*([0-9]+)\s*=\s*(CST MWS port|CST DS port)\s*([0-9]+|Zmin|Zmax)\s*\(\"(.*)\"\)(\s*mode\s*([0-9]+))?.*
! Touchstone port assignment:
! Touchstone port 1 = CST MWS port 1 ("")
! Touchstone port 2 = CST MWS port 2 ("")
# GHz S DB R 50
0.5                    -0.148484        -122.644          -60.788         144.506          -60.788         144.506      -0.00636273         151.141
0.501                  -0.154032        -123.088         -60.6171         143.086         -60.6171         143.086      -0.00640466         151.075
0.502                  -0.159754        -123.534         -60.4459         141.664         -60.4458         141.664      -0.00644763          151.01
0.503                  -0.165653        -123.982         -60.2744         140.242         -60.2744         140.242      -0.00649165         150.944
0.504                  -0.171733        -124.431         -60.1028         138.819         -60.1028         138.819       -0.0065367         150.879
0.505                  -0.177997        -124.883          -59.931         137.394          -59.931         137.394      -0.00658281         150.813
0.506                  -0.184449        -125.337          -59.759         135.968          -59.759         135.968      -0.00662997         150.747
0.507                  -0.191092        -125.793         -59.5869          134.54         -59.5869          134.54      -0.00667818         150.681
0.508                  -0.197931        -126.251         -59.4147         133.111         -59.4147         133.111      -0.00672745         150.615
0.509                  -0.204967        -126.711         -59.2425          131.68         -59.2425          131.68      -0.00677778         150.549
0.51                   -0.212206        -127.173         -59.0702         130.247         -59.0702         130.247      -0.00682917         150.483
0.511                  -0.219651        -127.637         -58.8979         128.812         -58.8979         128.811      -0.00688164         150.417
0.512                  -0.227306        -128.103         -58.7256         127.375         -58.7256         127.374      -0.00693518         150.351
0.513                  -0.235175        -128.571         -58.5534         125.935         -58.5533         125.935      -0.00698979         150.284
0.514                  -0.243262        -129.042         -58.3812         124.493         -58.3811         124.493      -0.00704549         150.218
0.515                  -0.251571        -129.514          -58.209         123.049          -58.209         123.049      -0.00710228         150.152
0.516                  -0.260106        -129.989          -58.037         121.602          -58.037         121.602      -0.00716015         150.085
0.517                   -0.26887        -130.466         -57.8651         120.152         -57.8651         120.152      -0.00721913         150.018
0.518                   -0.27787        -130.945         -57.6934           118.7         -57.6934           118.7      -0.00727921         149.951
0.519                  -0.287107        -131.426         -57.5219         117.245         -57.5219         117.244      -0.00734039         149.885
0.52                   -0.296588        -131.909         -57.3506         115.786         -57.3506         115.786      -0.00740269         149.818
0.521                  -0.306316        -132.395         -57.1795         114.325         -57.1795         114.325      -0.00746611         149.751
0.522                  -0.316296        -132.883         -57.0086         112.861         -57.0086          112.86      -0.00753066         149.684
0.523                  -0.326532        -133.373          -56.838         111.393          -56.838         111.392      -0.00759634         149.616
0.524                   -0.33703        -133.865         -56.6678         109.922         -56.6678         109.921      -0.00766316         149.549
0.525                  -0.347792         -134.36         -56.4978         108.447         -56.4978         108.447      -0.00773112         149.482
0.526                  -0.358826        -134.856         -56.3282         106.969         -56.3282         106.969      -0.00780024         149.414
0.527                  -0.370134        -135.355          -56.159         105.488          -56.159         105.488      -0.00787052         149.347
0.528                  -0.381722        -135.856         -55.9902         104.003         -55.9902         104.003      -0.00794197         149.279
0.529                  -0.393595         -136.36         -55.8218         102.515         -55.8218         102.514       -0.0080146         149.211
0.53                   -0.405757        -136.866         -55.6538         101.023         -55.6538         101.022      -0.00808841         149.143
0.531                  -0.418215        -137.374         -55.4863         99.5269         -55.4862         99.5265      -0.00816341         149.075
0.532                  -0.430972        -137.884         -55.3192         98.0275         -55.3192         98.0271      -0.00823962         149.007
0.533                  -0.444034        -138.397         -55.1527         96.5244         -55.1527         96.5239      -0.00831703         148.939
0.534                  -0.457406        -138.912         -54.9867         95.0175         -54.9867         95.0171      -0.00839567         148.871
0.535                  -0.471094        -139.429         -54.8212         93.5069         -54.8212         93.5065      -0.00847554         148.803
0.536                  -0.485103        -139.949         -54.6563         91.9926         -54.6563         91.9922      -0.00855665         148.734
0.537                  -0.499437         -140.47          -54.492         90.4745          -54.492         90.4741      -0.00863901         148.666
0.538                  -0.514104        -140.995         -54.3282         88.9526         -54.3282         88.9523      -0.00872263         148.597
0.539                  -0.529107        -141.521         -54.1651         87.4271         -54.1651         87.4267      -0.00880753         148.528
0.54                   -0.544453         -142.05         -54.0027         85.8978         -54.0027         85.8975      -0.00889371         148.459
0.541                  -0.560147        -142.581         -53.8409         84.3649         -53.8409         84.3646      -0.00898119          148.39
0.542                  -0.576195        -143.115         -53.6798         82.8283         -53.6798          82.828      -0.00906997         148.321
0.543                  -0.592602        -143.651         -53.5194         81.2882         -53.5194         81.2878      -0.00916008         148.252
0.544                  -0.609375        -144.189         -53.3597         79.7444         -53.3597         79.7441      -0.00925152         148.183
0.545                  -0.626519         -144.73         -53.2007         78.1971         -53.2007         78.1968      -0.00934431         148.113
0.546                  -0.644041        -145.273         -53.0424         76.6464         -53.0424         76.6461      -0.00943846         148.044
0.547                  -0.661945        -145.819          -52.885         75.0922          -52.885          75.092      -0.00953399         147.974
0.548                  -0.680239        -146.366         -52.7283         73.5348         -52.7283         73.5345      -0.00963091         147.905
0.549                  -0.698927        -146.917         -52.5723          71.974         -52.5723         71.9737      -0.00972923         147.835
0.55                   -0.718017        -147.469         -52.4172           70.41         -52.4172         70.4098      -0.00982898         147.765
0.551                  -0.737514        -148.024         -52.2629         68.8429         -52.2629         68.8427      -0.00993016         147.695
0.552                  -0.757425        -148.581         -52.1094         67.2728         -52.1094         67.2726       -0.0100328         147.624
0.553                  -0.777756        -149.141         -51.9567         65.6997         -51.9567         65.6995       -0.0101369         147.554
0.554                  -0.798512        -149.703         -51.8049         64.1238         -51.8049         64.1236       -0.0102425         147.484
0.555                  -0.819702        -150.267         -51.6539         62.5451         -51.6539         62.5449       -0.0103496         147.413
0.556                   -0.84133        -150.834         -51.5038         60.9637         -51.5038         60.9635       -0.0104582         147.342
0.557                  -0.863404        -151.403         -51.3545         59.3798         -51.3545         59.3796       -0.0105684         147.272
0.558                   -0.88593        -151.975         -51.2061         57.7934         -51.2061         57.7933       -0.0106802         147.201
0.559                  -0.908914        -152.549         -51.0585         56.2047         -51.0585         56.2045       -0.0107935          147.13
0.56                   -0.932364        -153.125         -50.9119         54.6137         -50.9119         54.6136       -0.0109084         147.058
0.561                  -0.956285        -153.703         -50.7661         53.0206         -50.7661         53.0205        -0.011025         146.987
0.562                  -0.980685        -154.284         -50.6212         51.4254         -50.6212         51.4254       -0.0111432         146.916
0.563                   -1.00557        -154.867         -50.4771         49.8284         -50.4771         49.8283       -0.0112631         146.844
0.564                   -1.03095        -155.453          -50.334         48.2296          -50.334         48.2295       -0.0113847         146.772
0.565                   -1.05682        -156.041         -50.1917         46.6291         -50.1917         46.6291        -0.011508         146.701
0.566                    -1.0832        -156.631         -50.0503         45.0271         -50.0503         45.0271       -0.0116331         146.629
0.567                    -1.1101        -157.224         -49.9097         43.4237         -49.9097         43.4236         -0.01176         146.556
0.568                   -1.13751        -157.819           -49.77         41.8189         -49.7701         41.8188       -0.0118886         146.484
0.569                   -1.16545        -158.416         -49.6312         40.2129         -49.6312         40.2129       -0.0120191         146.412
0.57                    -1.19393        -159.015         -49.4933         38.6058         -49.4933         38.6058       -0.0121515         146.339
0.571                   -1.22294        -159.617         -49.3561         36.9978         -49.3561         36.9978       -0.0122857         146.267
0.572                   -1.25251        -160.221         -49.2199         35.3889         -49.2199         35.3889       -0.0124219         146.194
0.573                   -1.28263        -160.827         -49.0844         33.7792         -49.0844         33.7792         -0.01256         146.121
0.574                   -1.31331        -161.436         -48.9498         32.1689         -48.9498         32.1689       -0.0127001         146.048
0.575                   -1.34456        -162.047         -48.8159         30.5581         -48.8159         30.5581       -0.0128422         145.974
0.576                   -1.37638         -162.66         -48.6829         28.9468         -48.6829         28.9468       -0.0129863         145.901
0.577                    -1.4088        -163.275         -48.5507         27.3351         -48.5507         27.3352       -0.0131326         145.827
0.578                    -1.4418        -163.892         -48.4192         25.7233         -48.4192         25.7233        -0.013281         145.754
0.579                    -1.4754        -164.512         -48.2884         24.1112         -48.2884         24.1113       -0.0134315          145.68
0.58                    -1.50961        -165.134         -48.1585         22.4991         -48.1585         22.4992       -0.0135843         145.606
0.581                   -1.54444        -165.758         -48.0292         20.8871         -48.0292         20.8871       -0.0137393         145.531
0.582                   -1.57989        -166.384         -47.9007         19.2751         -47.9007         19.2751       -0.0138965         145.457
0.583                   -1.61596        -167.013         -47.7728         17.6633         -47.7728         17.6633       -0.0140561         145.383
0.584                   -1.65268        -167.643         -47.6456         16.0517         -47.6456         16.0517       -0.0142181         145.308
0.585                   -1.69004        -168.276         -47.5191         14.4404         -47.5191         14.4405       -0.0143825         145.233
0.586                   -1.72805        -168.911         -47.3932         12.8295         -47.3932         12.8295       -0.0145493         145.158
0.587                   -1.76672        -169.548          -47.268          11.219          -47.268         11.2191       -0.0147187         145.083
0.588                   -1.80606        -170.187         -47.1433         9.60897         -47.1433         9.60903       -0.0148906         145.007
0.589                   -1.84608        -170.828         -47.0193         7.99945         -47.0193         7.99951       -0.0150651         144.932
0.59                    -1.88678        -171.471         -46.8958         6.39048         -46.8958         6.39054       -0.0152423         144.856
0.591                   -1.92818        -172.116         -46.7728         4.78209         -46.7728         4.78215       -0.0154222          144.78
0.592                   -1.97028        -172.763         -46.6504         3.17431         -46.6504         3.17437       -0.0156049         144.704
0.593                   -2.01309        -173.412         -46.5285         1.56716         -46.5285         1.56722       -0.0157904         144.628
0.594                   -2.05661        -174.063         -46.4071      -0.0393392         -46.4071      -0.0392875       -0.0159788         144.551
0.595                   -2.10087        -174.716         -46.2861        -1.64519         -46.2861        -1.64514       -0.0161702         144.475
0.596                   -2.14585        -175.371         -46.1656        -3.25037         -46.1656        -3.25032       -0.0163645         144.398
0.597                   -2.19158        -176.028         -46.0456        -4.85489         -46.0456        -4.85485        -0.016562         144.321
0.598                   -2.23807        -176.686         -45.9259        -6.45876         -45.9259        -6.45872       -0.0167625         144.244
0.599                   -2.28531        -177.347         -45.8067        -8.06199         -45.8067        -8.06194       -0.0169663         144.166
0.6                     -2.33333         -178.01         -45.6878        -9.66458         -45.6878        -9.66454       -0.0171734         144.089
0.601                   -2.38212        -178.674         -45.5693        -11.2666         -45.5693        -11.2665       -0.0173839         144.011
0.602                   -2.43171         -179.34         -45.4511         -12.868         -45.4511         -12.868       -0.0175977         143.933
0.603                   -2.48209         179.992         -45.3332        -14.4689         -45.3332        -14.4688       -0.0178151         143.855
0.604                   -2.53328         179.322         -45.2157        -16.0692         -45.2157        -16.0692       -0.0180361         143.776
0.605                   -2.58528         178.651         -45.0984        -17.6691         -45.0984        -17.6691       -0.0182607         143.698
0.606                   -2.63811         177.977         -44.9814        -19.2686         -44.9814        -19.2686       -0.0184891         143.619
0.607                   -2.69178         177.302         -44.8647        -20.8677         -44.8647        -20.8677       -0.0187213          143.54
0.608                    -2.7463         176.626         -44.7482        -22.4665         -44.7482        -22.4665       -0.0189575          143.46
0.609                   -2.80167         175.947         -44.6319        -24.0651         -44.6319        -24.0651       -0.0191977         143.381
0.61                    -2.85791         175.267         -44.5158        -25.6634         -44.5158        -25.6634        -0.019442         143.301
0.611                   -2.91503         174.586            -44.4        -27.2617         -44.3999        -27.2617       -0.0196905         143.221
0.612                   -2.97303         173.903         -44.2843        -28.8599         -44.2843        -28.8599       -0.0199433         143.141
0.613                   -3.03194         173.218         -44.1687        -30.4581         -44.1687        -30.4581       -0.0202005         143.061
0.614                   -3.09176         172.532         -44.0534        -32.0565         -44.0534        -32.0565       -0.0204623          142.98
0.615                    -3.1525         171.844         -43.9382         -33.655         -43.9382         -33.655       -0.0207287         142.899
0.616                   -3.21417         171.154         -43.8231        -35.2538         -43.8231        -35.2539       -0.0209999         142.818
0.617                   -3.27679         170.464         -43.7081         -36.853         -43.7081         -36.853       -0.0212758         142.737
0.618                   -3.34037         169.771         -43.5933        -38.4527         -43.5933        -38.4527       -0.0215568         142.655
0.619                   -3.40492         169.078         -43.4786        -40.0529         -43.4786        -40.0529       -0.0218429         142.573
0.62                    -3.47045         168.383          -43.364        -41.6537          -43.364        -41.6538       -0.0221342         142.491
0.621                   -3.53698         167.687         -43.2494        -43.2553         -43.2494        -43.2554       -0.0224308         142.409
0.622                   -3.60452         166.989          -43.135        -44.8578          -43.135        -44.8578       -0.0227329         142.326
0.623                   -3.67309          166.29         -43.0207        -46.4612         -43.0207        -46.4612       -0.0230407         142.243
0.624                   -3.74269          165.59         -42.9064        -48.0656         -42.9064        -48.0656       -0.0233541          142.16
0.625                   -3.81335         164.889         -42.7922        -49.6712         -42.7922        -49.6712       -0.0236735         142.077
0.626                   -3.88508         164.186         -42.6781         -51.278         -42.6781        -51.2781       -0.0239989         141.993
0.627                   -3.95789         163.482         -42.5641        -52.8863         -42.5641        -52.8863       -0.0243305         141.909
0.628                   -4.03179         162.777         -42.4501        -54.4959         -42.4501         -54.496       -0.0246684         141.825
0.629                   -4.10682         162.072         -42.3363        -56.1072         -42.3363        -56.1072       -0.0250128         141.741
