! TOUCHSTONE file generated by CST MICROWAVE STUDIO
! Date and time: Fri Oct  2 16:19:23 2020
! Project name: Scenario_1_Free_Space_out_of_line.cst
! Parameters = {Lambda=346.42; Step_1=17.321; dy1=-259.295; dx1=346; L_HA=400; MT=2.54; Rad_Dielectric=30; Rad_Lower=7.3; Rad_Upper=30; a_HA=580; a_WG=246; b_HA=500; b_WG=121; c_HA=0; c_WG=187; d_feed=85; h_feed=15; h_lower=18; h_upper=40}
! Header version: 2018
! Port assignment regex: !\s*Touchstone port\s*([0-9]+)\s*=\s*(CST MWS port|CST DS port)\s*([0-9]+|Zmin|Zmax)\s*\(\"(.*)\"\)(\s*mode\s*([0-9]+))?.*
! Touchstone port assignment:
! Touchstone port 1 = CST MWS port 1 ("")
! Touchstone port 2 = CST MWS port 2 ("")
# GHz S DB R 50
0.5                    -0.146565        -122.542          -61.717         62.9043         -61.6718         62.6601       -0.0066354         151.163
0.501                  -0.153829        -122.987         -61.4748         60.2031         -61.4149         59.9837      -0.00671941         151.098
0.502                  -0.161267        -123.434         -61.2306         57.5904         -61.1582         57.3996      -0.00680384         151.033
0.503                  -0.168879        -123.883         -60.9853         55.0615         -60.9023         54.9016       -0.0068887         150.967
0.504                  -0.176667        -124.333         -60.7398         52.6115         -60.6479         52.4836      -0.00697397         150.902
0.505                  -0.184631        -124.785         -60.4947         50.2354         -60.3956         50.1399      -0.00705967         150.837
0.506                  -0.192774        -125.238         -60.2506         47.9285         -60.1457         47.8648      -0.00714578         150.771
0.507                  -0.201096        -125.693         -60.0079          45.686         -59.8985          45.653       -0.0072323         150.705
0.508                  -0.209598         -126.15         -59.7669         43.5035         -59.6544         43.4997      -0.00731924          150.64
0.509                  -0.218281        -126.608         -59.5281         41.3765         -59.4134         41.4001      -0.00740659         150.574
0.51                   -0.227148        -127.067         -59.2917          39.301         -59.1758           39.35      -0.00749435         150.508
0.511                  -0.236198        -127.529         -59.0578         37.2731         -58.9415         37.3452      -0.00758252         150.442
0.512                  -0.245434        -127.992         -58.8266         35.2891         -58.7107         35.3821       -0.0076711         150.376
0.513                  -0.254857        -128.456         -58.5983         33.3456         -58.4833         33.4571      -0.00776009          150.31
0.514                  -0.264468        -128.922         -58.3728         31.4393         -58.2594         31.5671      -0.00784949         150.244
0.515                  -0.274268         -129.39         -58.1502         29.5672          -58.039          29.709       -0.0079393         150.178
0.516                   -0.28426         -129.86         -57.9306         27.7265         -57.8219         27.8801      -0.00802953         150.111
0.517                  -0.294444        -130.331         -57.7139         25.9146         -57.6082         26.0778      -0.00812016         150.045
0.518                  -0.304821        -130.804         -57.5002         24.1289         -57.3977         24.2996      -0.00821122         149.979
0.519                  -0.315394        -131.279         -57.2894         22.3672         -57.1905         22.5435      -0.00830268         149.912
0.52                   -0.326165        -131.755         -57.0815         20.6274         -56.9864         20.8074      -0.00839457         149.845
0.521                  -0.337134        -132.234         -56.8765         18.9074         -56.7853         19.0893      -0.00848687         149.779
0.522                  -0.348303        -132.714         -56.6742         17.2054         -56.5872         17.3876       -0.0085796         149.712
0.523                  -0.359675        -133.196         -56.4747         15.5196          -56.392         15.7005      -0.00867276         149.645
0.524                  -0.371251        -133.679         -56.2779         13.8484         -56.1995         14.0265      -0.00876635         149.578
0.525                  -0.383033        -134.165         -56.0837         12.1903         -56.0098         12.3644      -0.00886037         149.511
0.526                  -0.395023        -134.652          -55.892         10.5439         -55.8226         10.7126      -0.00895484         149.444
0.527                  -0.407223        -135.142         -55.7028         8.90786          -55.638         9.07002      -0.00904975         149.376
0.528                  -0.419634        -135.633          -55.516         7.28092         -55.4558          7.4355      -0.00914511         149.309
0.529                   -0.43226        -136.126         -55.3316         5.66193         -55.2759         5.80798      -0.00924093         149.242
0.53                   -0.445103        -136.621         -55.1494          4.0498         -55.0983         4.18644      -0.00933722         149.174
0.531                  -0.458163        -137.118         -54.9695         2.44352         -54.9229         2.56996      -0.00943398         149.107
0.532                  -0.471445        -137.617         -54.7916        0.842141         -54.7496        0.957673      -0.00953123         149.039
0.533                  -0.484951        -138.118         -54.6158        -0.75524         -54.5783       -0.651243      -0.00962897         148.971
0.534                  -0.498683        -138.621          -54.442        -2.34946         -54.4089        -2.25755      -0.00972721         148.903
0.535                  -0.512643        -139.126         -54.2702        -3.94131         -54.2414        -3.86196      -0.00982596         148.835
0.536                  -0.526835        -139.633         -54.1002        -5.53152         -54.0756        -5.46514      -0.00992523         148.767
0.537                  -0.541262        -140.142          -53.932         -7.1208         -53.9116        -7.06773        -0.010025         148.699
0.538                  -0.555926        -140.654         -53.7655        -8.70979         -53.7492        -8.67031       -0.0101254         148.631
0.539                   -0.57083        -141.167         -53.6007        -10.2991         -53.5884        -10.2734       -0.0102263         148.562
0.54                   -0.585978        -141.683         -53.4375        -11.8893         -53.4291        -11.8776       -0.0103278         148.494
0.541                  -0.601373        -142.201         -53.2758         -13.481         -53.2712        -13.4834       -0.0104299         148.425
0.542                  -0.617019        -142.721         -53.1156        -15.0747         -53.1148        -15.0911       -0.0105327         148.356
0.543                  -0.632919        -143.243         -52.9569        -16.6707         -52.9596        -16.7013        -0.010636         148.288
0.544                  -0.649077        -143.768         -52.7996        -18.2697         -52.8057        -18.3143         -0.01074         148.219
0.545                  -0.665497        -144.295         -52.6436        -19.8719         -52.6531        -19.9305       -0.0108446          148.15
0.546                  -0.682182        -144.824         -52.4888        -21.4779         -52.5016        -21.5502         -0.01095          148.08
0.547                  -0.699138        -145.356         -52.3353        -23.0879         -52.3512        -23.1739        -0.011056         148.011
0.548                  -0.716369         -145.89          -52.183        -24.7024         -52.2018        -24.8017       -0.0111628         147.942
0.549                  -0.733878        -146.427         -52.0318        -26.3216         -52.0535         -26.434       -0.0112704         147.872
0.55                   -0.751671        -146.966         -51.8817        -27.9458         -51.9061        -28.0711       -0.0113787         147.803
0.551                  -0.769753        -147.508         -51.7327        -29.5754         -51.7597        -29.7131       -0.0114879         147.733
0.552                  -0.788129        -148.052         -51.5846        -31.2105         -51.6141        -31.3604       -0.0115979         147.663
0.553                  -0.806805        -148.599         -51.4375        -32.8515         -51.4693        -33.0131       -0.0117087         147.593
0.554                  -0.825785        -149.148         -51.2914        -34.4985         -51.3254        -34.6714       -0.0118205         147.523
0.555                  -0.845076          -149.7         -51.1461        -36.1517         -51.1822        -36.3356       -0.0119332         147.453
0.556                  -0.864684        -150.255         -51.0017        -37.8115         -51.0398        -38.0056       -0.0120468         147.383
0.557                  -0.884614        -150.812         -50.8582        -39.4778          -50.898        -39.6818       -0.0121615         147.313
0.558                  -0.904874        -151.372         -50.7154        -41.1508         -50.7569        -41.3643       -0.0122772         147.242
0.559                  -0.925471        -151.935         -50.5733        -42.8308         -50.6165        -43.0531       -0.0123939         147.171
0.56                   -0.946411        -152.501          -50.432        -44.5178         -50.4766        -44.7484       -0.0125118         147.101
0.561                  -0.967701        -153.069         -50.2914         -46.212         -50.3373        -46.4502       -0.0126308          147.03
0.562                   -0.98935        -153.641         -50.1515        -47.9133         -50.1986        -48.1587        -0.012751         146.959
0.563                   -1.01136        -154.215         -50.0122         -49.622         -50.0604        -49.8739       -0.0128725         146.887
0.564                   -1.03375        -154.793         -49.8736         -51.338         -49.9227        -51.5958       -0.0129952         146.816
0.565                   -1.05653        -155.373         -49.7355        -53.0614         -49.7855        -53.3246       -0.0131193         146.745
0.566                   -1.07969        -155.957         -49.5981        -54.7923         -49.6487        -55.0602       -0.0132447         146.673
0.567                   -1.10326        -156.543         -49.4612        -56.5306         -49.5125        -56.8026       -0.0133715         146.602
0.568                   -1.12723        -157.133         -49.3248        -58.2765         -49.3766        -58.5519       -0.0134998          146.53
0.569                   -1.15163        -157.726          -49.189        -60.0298         -49.2412         -60.308       -0.0136296         146.458
0.57                    -1.17646        -158.322         -49.0537        -61.7906         -49.1062         -62.071        -0.013761         146.386
0.571                   -1.20173        -158.921         -48.9189        -63.5588         -48.9715        -63.8408        -0.013894         146.313
0.572                   -1.22745        -159.524         -48.7846        -65.3344         -48.8373        -65.6174       -0.0140287         146.241
0.573                   -1.25364        -160.129         -48.6508        -67.1174         -48.7035        -67.4007       -0.0141651         146.168
0.574                    -1.2803        -160.739         -48.5175        -68.9076           -48.57        -69.1907       -0.0143032         146.096
0.575                   -1.30746        -161.351         -48.3846        -70.7051         -48.4369        -70.9873       -0.0144432         146.023
0.576                   -1.33511        -161.967         -48.2521        -72.5097         -48.3042        -72.7904       -0.0145851          145.95
0.577                   -1.36328        -162.587         -48.1202        -74.3213         -48.1718           -74.6       -0.0147289         145.877
0.578                   -1.39198         -163.21         -47.9886        -76.1398         -48.0398         -76.416       -0.0148747         145.804
0.579                   -1.42123        -163.836         -47.8575        -77.9651         -47.9081        -78.2382       -0.0150226          145.73
0.58                    -1.45103        -164.466         -47.7269        -79.7972         -47.7768        -80.0666       -0.0151725         145.657
0.581                    -1.4814          -165.1         -47.5966        -81.6357         -47.6459         -81.901       -0.0153247         145.583
0.582                   -1.51236        -165.737         -47.4669        -83.4807         -47.5153        -83.7414        -0.015479         145.509
0.583                   -1.54393        -166.378         -47.3375         -85.332         -47.3851        -85.5875       -0.0156356         145.435
0.584                   -1.57613        -167.022         -47.2086        -87.1893         -47.2553        -87.4392       -0.0157946         145.361
0.585                   -1.60896        -167.671         -47.0801        -89.0525         -47.1259        -89.2965       -0.0159559         145.286
0.586                   -1.64245        -168.323         -46.9521        -90.9215         -46.9968         -91.159       -0.0161197         145.212
0.587                   -1.67662        -168.978         -46.8245         -92.796         -46.8682        -93.0268       -0.0162859         145.137
0.588                   -1.71148        -169.638         -46.6974        -94.6758         -46.7399        -94.8995       -0.0164547         145.062
0.589                   -1.74706        -170.301         -46.5707        -96.5609         -46.6121        -96.7771       -0.0166261         144.987
0.59                    -1.78337        -170.968         -46.4445        -98.4509         -46.4847        -98.6593       -0.0168001         144.912
0.591                   -1.82045        -171.639         -46.3188        -100.346         -46.3577        -100.546       -0.0169769         144.837
0.592                    -1.8583        -172.313         -46.1935        -102.245         -46.2312        -102.437       -0.0171563         144.761
0.593                   -1.89695        -172.992         -46.0687        -104.148         -46.1051        -104.332       -0.0173386         144.685
0.594                   -1.93643        -173.674         -45.9445        -106.056         -45.9794        -106.231       -0.0175236         144.609
0.595                   -1.97675         -174.36         -45.8207        -107.967         -45.8543        -108.134       -0.0177115         144.533
0.596                   -2.01794        -175.049         -45.6974        -109.882         -45.7296         -110.04       -0.0179024         144.457
0.597                   -2.06003        -175.743         -45.5746        -111.801         -45.6055        -111.949       -0.0180961         144.381
0.598                   -2.10304         -176.44         -45.4524        -113.722         -45.4818        -113.861       -0.0182929         144.304
0.599                     -2.147        -177.141         -45.3307        -115.647         -45.3587        -115.776       -0.0184926         144.227
0.6                     -2.19192        -177.846         -45.2095        -117.574         -45.2361        -117.694       -0.0186954          144.15
0.601                   -2.23785        -178.554         -45.0889        -119.503         -45.1141        -119.614       -0.0189013         144.073
0.602                    -2.2848        -179.266         -44.9689        -121.435         -44.9926        -121.537       -0.0191102         143.996
0.603                   -2.33281        -179.982         -44.8494        -123.368         -44.8717        -123.461       -0.0193223         143.918
0.604                    -2.3819         179.299         -44.7305        -125.303         -44.7514        -125.387       -0.0195375         143.841
0.605                    -2.4321         178.577         -44.6122         -127.24         -44.6316        -127.314       -0.0197559         143.763
0.606                   -2.48344         177.851         -44.4944        -129.177         -44.5125        -129.243       -0.0199775         143.684
0.607                   -2.53596         177.122         -44.3773        -131.115          -44.394        -131.172       -0.0202022         143.606
0.608                   -2.58967         176.389         -44.2607        -133.054         -44.2761        -133.103       -0.0204302         143.528
0.609                   -2.64461         175.654         -44.1448        -134.994         -44.1588        -135.034       -0.0206614         143.449
0.61                    -2.70081         174.915         -44.0295        -136.933         -44.0421        -136.965       -0.0208959          143.37
0.611                    -2.7583         174.173         -43.9148        -138.873         -43.9261        -138.897       -0.0211336         143.291
0.612                   -2.81712         173.429         -43.8007        -140.812         -43.8108        -140.828       -0.0213745         143.211
0.613                   -2.87729         172.682         -43.6872        -142.751         -43.6961        -142.759       -0.0216188         143.132
0.614                   -2.93884         171.932         -43.5744        -144.688          -43.582         -144.69       -0.0218663         143.052
0.615                   -3.00181          171.18         -43.4622        -146.625         -43.4687         -146.62       -0.0221171         142.972
0.616                   -3.06622         170.426         -43.3506        -148.561         -43.3559        -148.549       -0.0223712         142.892
0.617                   -3.13211          169.67         -43.2397        -150.495         -43.2439        -150.477       -0.0226285         142.811
0.618                   -3.19951         168.912         -43.1294        -152.427         -43.1325        -152.403       -0.0228892          142.73
0.619                   -3.26844         168.152         -43.0197        -154.358         -43.0218        -154.328       -0.0231533          142.65
0.62                    -3.33894         167.391         -42.9106        -156.286         -42.9118        -156.251       -0.0234206         142.568
0.621                   -3.41104         166.628         -42.8022        -158.213         -42.8024        -158.173       -0.0236913         142.487
0.622                   -3.48477         165.865         -42.6944        -160.137         -42.6937        -160.092       -0.0239653         142.405
0.623                   -3.56014           165.1         -42.5872        -162.058         -42.5856        -162.009       -0.0242427         142.323
0.624                    -3.6372         164.335         -42.4806        -163.977         -42.4782        -163.923       -0.0245235         142.241
0.625                   -3.71596          163.57         -42.3746        -165.893         -42.3715        -165.836       -0.0248077         142.159
0.626                   -3.79645         162.805         -42.2692        -167.805         -42.2654        -167.745       -0.0250953         142.076
0.627                    -3.8787         162.039         -42.1644        -169.715         -42.1599        -169.652       -0.0253863         141.993
0.628                   -3.96273         161.275         -42.0602        -171.621         -42.0551        -171.555       -0.0256808          141.91
0.629                   -4.04856         160.511         -41.9565        -173.524         -41.9509        -173.456       -0.0259789         141.827
