! TOUCHSTONE file generated by CST MICROWAVE STUDIO
! Date and time: Fri Oct  2 16:35:07 2020
! Project name: Scenario_1_Free_Space_out_of_line.cst
! Parameters = {Lambda=346.42; Step_1=17.321; dy1=-259.295; dx1=520; L_HA=400; MT=2.54; Rad_Dielectric=30; Rad_Lower=7.3; Rad_Upper=30; a_HA=580; a_WG=246; b_HA=500; b_WG=121; c_HA=0; c_WG=187; d_feed=85; h_feed=15; h_lower=18; h_upper=40}
! Header version: 2018
! Port assignment regex: !\s*Touchstone port\s*([0-9]+)\s*=\s*(CST MWS port|CST DS port)\s*([0-9]+|Zmin|Zmax)\s*\(\"(.*)\"\)(\s*mode\s*([0-9]+))?.*
! Touchstone port assignment:
! Touchstone port 1 = CST MWS port 1 ("")
! Touchstone port 2 = CST MWS port 2 ("")
# GHz S DB R 50
0.5                    -0.148329        -122.439          -62.847        -32.9839          -62.847        -32.9839      -0.00656839         151.144
0.501                  -0.153119         -122.89         -62.6558        -34.8973         -62.6559        -34.8926      -0.00662111         151.079
0.502                  -0.158146        -123.343          -62.464        -36.8025         -62.4643        -36.7934      -0.00667476         151.013
0.503                  -0.163413        -123.798         -62.2717        -38.7002         -62.2721        -38.6869      -0.00672937         150.948
0.504                  -0.168923        -124.255         -62.0789        -40.5907         -62.0794        -40.5736      -0.00678492         150.882
0.505                  -0.174678        -124.713         -61.8857        -42.4746         -61.8864        -42.4539      -0.00684143         150.817
0.506                  -0.180681        -125.174         -61.6922        -44.3523          -61.693        -44.3284      -0.00689891         150.751
0.507                  -0.186933        -125.636         -61.4985        -46.2245         -61.4994        -46.1975      -0.00695735         150.685
0.508                  -0.193438          -126.1         -61.3046        -48.0915         -61.3056        -48.0617      -0.00701676         150.619
0.509                  -0.200198        -126.566         -61.1105        -49.9539         -61.1117        -49.9216      -0.00707714         150.554
0.51                   -0.207216        -127.034         -60.9164        -51.8122         -60.9177        -51.7775      -0.00713851         150.488
0.511                  -0.214494        -127.504         -60.7223        -53.6668         -60.7237          -53.63      -0.00720087         150.422
0.512                  -0.222035        -127.976         -60.5283        -55.5182         -60.5298        -55.4796      -0.00726423         150.355
0.513                  -0.229841        -128.449         -60.3344        -57.3669          -60.336        -57.3266      -0.00732859         150.289
0.514                  -0.237915        -128.924         -60.1406        -59.2133         -60.1423        -59.1715      -0.00739395         150.223
0.515                  -0.246259        -129.402          -59.947        -61.0579         -59.9488        -61.0148      -0.00746033         150.156
0.516                  -0.254876        -129.881         -59.7537        -62.9011         -59.7555        -62.8569      -0.00752772          150.09
0.517                  -0.263769        -130.362         -59.5606        -64.7433         -59.5625        -64.6981      -0.00759615         150.023
0.518                  -0.272939        -130.845         -59.3679        -66.5849         -59.3698         -66.539      -0.00766561         149.957
0.519                   -0.28239        -131.329         -59.1755        -68.4263         -59.1775        -68.3798      -0.00773611          149.89
0.52                   -0.292124        -131.816         -58.9835        -70.2679         -58.9855        -70.2209      -0.00780766         149.823
0.521                  -0.302143        -132.304         -58.7919        -72.1101          -58.794        -72.0628      -0.00788027         149.756
0.522                  -0.312451        -132.795         -58.6007        -73.9532         -58.6029        -73.9057      -0.00795394         149.689
0.523                  -0.323049        -133.287         -58.4101        -75.7975         -58.4122          -75.75      -0.00802869         149.622
0.524                   -0.33394        -133.781           -58.22        -77.6434         -58.2221         -77.596      -0.00810451         149.555
0.525                  -0.345127        -134.277         -58.0304        -79.4912         -58.0325         -79.444      -0.00818142         149.488
0.526                  -0.356612        -134.775         -57.8413        -81.3412         -57.8435        -81.2943      -0.00825943         149.421
0.527                  -0.368397        -135.275         -57.6529        -83.1936          -57.655        -83.1471      -0.00833855         149.353
0.528                  -0.380486        -135.777         -57.4651        -85.0488         -57.4672        -85.0028      -0.00841878         149.286
0.529                  -0.392881         -136.28         -57.2779        -86.9069           -57.28        -86.8615      -0.00850014         149.218
0.53                   -0.405584        -136.786         -57.0914        -88.7682         -57.0934        -88.7236      -0.00858263          149.15
0.531                  -0.418597        -137.293         -56.9056        -90.6329         -56.9076        -90.5892      -0.00866626         149.083
0.532                  -0.431924        -137.802         -56.7205        -92.5013         -56.7224        -92.4585      -0.00875105         149.015
0.533                  -0.445568        -138.313         -56.5361        -94.3735          -56.538        -94.3317        -0.008837         148.947
0.534                  -0.459529        -138.826         -56.3525        -96.2498         -56.3543        -96.2089      -0.00892413         148.879
0.535                  -0.473812        -139.341         -56.1696        -98.1302         -56.1714        -98.0904      -0.00901244          148.81
0.536                  -0.488418        -139.858         -55.9875        -100.015         -55.9893        -99.9763      -0.00910195         148.742
0.537                  -0.503351        -140.377         -55.8063        -101.904         -55.8079        -101.867      -0.00919267         148.674
0.538                  -0.518613        -140.898         -55.6259        -103.798         -55.6274        -103.762      -0.00928461         148.605
0.539                  -0.534206         -141.42         -55.4463        -105.696         -55.4478        -105.662      -0.00937778         148.537
0.54                   -0.550133        -141.945         -55.2676        -107.599          -55.269        -107.566       -0.0094722         148.468
0.541                  -0.566396        -142.472         -55.0898        -109.507         -55.0911        -109.476      -0.00956787         148.399
0.542                  -0.582999            -143         -54.9128         -111.42         -54.9141         -111.39      -0.00966481          148.33
0.543                  -0.599944         -143.53         -54.7368        -113.338          -54.738        -113.309      -0.00976304         148.261
0.544                  -0.617234        -144.063         -54.5617        -115.261         -54.5628        -115.234      -0.00986256         148.192
0.545                  -0.634871        -144.597         -54.3875        -117.189         -54.3885        -117.163       -0.0099634         148.123
0.546                  -0.652859        -145.133         -54.2143        -119.121         -54.2153        -119.098       -0.0100656         148.054
0.547                  -0.671199        -145.672         -54.0421        -121.059         -54.0429        -121.037       -0.0101691         147.984
0.548                  -0.689895        -146.212         -53.8708        -123.002         -53.8716        -122.981       -0.0102739         147.915
0.549                  -0.708949        -146.754         -53.7005         -124.95         -53.7012        -124.931       -0.0103802         147.845
0.55                   -0.728365        -147.298         -53.5313        -126.903         -53.5318        -126.885       -0.0104878         147.775
0.551                  -0.748145        -147.844          -53.363         -128.86         -53.3635        -128.845       -0.0105968         147.705
0.552                  -0.768292        -148.393         -53.1957        -130.823         -53.1961        -130.809       -0.0107073         147.636
0.553                   -0.78881        -148.943         -53.0294         -132.79         -53.0298        -132.777       -0.0108192         147.565
0.554                    -0.8097        -149.495         -52.8642        -134.761         -52.8645        -134.751       -0.0109326         147.495
0.555                  -0.830967         -150.05            -52.7        -136.738         -52.7002        -136.729       -0.0110474         147.425
0.556                  -0.852614        -150.606         -52.5368        -138.718         -52.5369        -138.711       -0.0111637         147.354
0.557                  -0.874642        -151.164         -52.3747        -140.704         -52.3747        -140.698       -0.0112816         147.284
0.558                  -0.897057        -151.725         -52.2136        -142.693         -52.2135        -142.689        -0.011401         147.213
0.559                  -0.919861        -152.287         -52.0535        -144.686         -52.0534        -144.684        -0.011522         147.142
0.56                   -0.943058        -152.852         -51.8944        -146.684         -51.8943        -146.683       -0.0116445         147.071
0.561                   -0.96665        -153.419         -51.7364        -148.685         -51.7362        -148.686       -0.0117686             147
0.562                  -0.990642        -153.988         -51.5794         -150.69         -51.5792        -150.692       -0.0118944         146.929
0.563                   -1.01504        -154.559         -51.4235        -152.699         -51.4232        -152.703       -0.0120218         146.858
0.564                   -1.03984        -155.132         -51.2685        -154.711         -51.2682        -154.716        -0.012151         146.786
0.565                   -1.06505        -155.708         -51.1146        -156.726         -51.1142        -156.733       -0.0122818         146.715
0.566                   -1.09068        -156.285         -50.9617        -158.744         -50.9613        -158.752       -0.0124143         146.643
0.567                   -1.11673        -156.865         -50.8097        -160.765         -50.8093        -160.775       -0.0125486         146.571
0.568                    -1.1432        -157.447         -50.6587         -162.79         -50.6583          -162.8       -0.0126846         146.499
0.569                   -1.17009        -158.031         -50.5087        -164.816         -50.5083        -164.828       -0.0128225         146.427
0.57                    -1.19742        -158.618         -50.3597        -166.845         -50.3592        -166.858       -0.0129622         146.355
0.571                   -1.22519        -159.207         -50.2116        -168.877         -50.2111        -168.891       -0.0131038         146.282
0.572                   -1.25339        -159.798         -50.0644         -170.91         -50.0639        -170.926       -0.0132473          146.21
0.573                   -1.28204        -160.391         -49.9182        -172.946         -49.9177        -172.962       -0.0133928         146.137
0.574                   -1.31115        -160.987         -49.7728        -174.983         -49.7723        -175.001       -0.0135401         146.064
0.575                    -1.3407        -161.585         -49.6283        -177.022         -49.6278        -177.041       -0.0136895         145.991
0.576                   -1.37073        -162.186         -49.4847        -179.063         -49.4842        -179.082        -0.013841         145.918
0.577                   -1.40121        -162.789         -49.3419         178.895         -49.3414         178.875       -0.0139944         145.845
0.578                   -1.43217        -163.395         -49.1999         176.852         -49.1994         176.831       -0.0141501         145.772
0.579                   -1.46361        -164.003         -49.0587         174.807         -49.0582         174.785       -0.0143078         145.698
0.58                    -1.49554        -164.613         -48.9183         172.762         -48.9178         172.739       -0.0144677         145.624
0.581                   -1.52796        -165.226         -48.7786         170.715         -48.7782         170.692       -0.0146299          145.55
0.582                   -1.56087        -165.842         -48.6397         168.668         -48.6393         168.645       -0.0147943         145.476
0.583                   -1.59429         -166.46         -48.5015          166.62         -48.5011         166.596        -0.014961         145.402
0.584                   -1.62823        -167.081         -48.3639         164.572         -48.3636         164.548       -0.0151301         145.328
0.585                   -1.66269        -167.705          -48.227         162.523         -48.2267         162.499       -0.0153016         145.253
0.586                   -1.69767        -168.331         -48.0908         160.474         -48.0905         160.449       -0.0154756         145.179
0.587                   -1.73319         -168.96         -47.9552         158.425         -47.9549         158.399        -0.015652         145.104
0.588                   -1.76926        -169.592         -47.8201         156.375         -47.8199         156.349        -0.015831         145.029
0.589                   -1.80589        -170.226         -47.6856         154.325         -47.6854         154.299       -0.0160125         144.954
0.59                    -1.84308        -170.864         -47.5517         152.275         -47.5515         152.249       -0.0161968         144.878
0.591                   -1.88084        -171.504         -47.4183         150.225         -47.4181         150.199       -0.0163837         144.803
0.592                   -1.91919        -172.147         -47.2853         148.175         -47.2852         148.149       -0.0165733         144.727
0.593                   -1.95813        -172.793         -47.1529         146.125         -47.1528         146.099       -0.0167658         144.651
0.594                   -1.99768        -173.443         -47.0209         144.075         -47.0209         144.049       -0.0169612         144.575
0.595                   -2.03785        -174.095         -46.8893         142.025         -46.8893         141.999       -0.0171595         144.499
0.596                   -2.07865         -174.75         -46.7581         139.975         -46.7582          139.95       -0.0173608         144.423
0.597                   -2.12009        -175.409         -46.6273         137.926         -46.6274           137.9       -0.0175651         144.346
0.598                   -2.16219         -176.07         -46.4969         135.876          -46.497         135.851       -0.0177726         144.269
0.599                   -2.20496        -176.735         -46.3668         133.826          -46.367         133.801       -0.0179833         144.193
0.6                     -2.24842        -177.403         -46.2371         131.776         -46.2373         131.752       -0.0181972         144.115
0.601                   -2.29258        -178.074         -46.1076         129.727         -46.1079         129.702       -0.0184145         144.038
0.602                   -2.33746        -178.749         -45.9785         127.677         -45.9788         127.653       -0.0186351         143.961
0.603                   -2.38306        -179.427         -45.8496         125.627         -45.8499         125.604       -0.0188593         143.883
0.604                   -2.42942         179.891          -45.721         123.577         -45.7214         123.554        -0.019087         143.805
0.605                   -2.47655         179.206         -45.5927         121.527          -45.593         121.505       -0.0193183         143.727
0.606                   -2.52447         178.518         -45.4646         119.477          -45.465         119.455       -0.0195533         143.648
0.607                   -2.57319         177.826         -45.3367         117.426         -45.3371         117.404       -0.0197921          143.57
0.608                   -2.62275          177.13          -45.209         115.375         -45.2095         115.354       -0.0200348         143.491
0.609                   -2.67315         176.431         -45.0816         113.323          -45.082         113.303       -0.0202815         143.412
0.61                    -2.72443         175.728         -44.9543         111.271         -44.9548         111.251       -0.0205322         143.333
0.611                    -2.7766         175.022         -44.8273         109.219         -44.8278         109.199       -0.0207871         143.254
0.612                    -2.8297         174.311         -44.7004         107.165         -44.7009         107.147       -0.0210461         143.174
0.613                   -2.88374         173.597         -44.5737         105.111         -44.5743         105.093       -0.0213095         143.094
0.614                   -2.93876          172.88         -44.4472         103.056         -44.4478         103.039       -0.0215773         143.014
0.615                   -2.99478         172.158         -44.3209             101         -44.3215         100.983       -0.0218496         142.934
0.616                   -3.05183         171.432         -44.1948         98.9429         -44.1954         98.9269       -0.0221265         142.854
0.617                   -3.10994         170.703         -44.0689         96.8847         -44.0695         96.8693       -0.0224081         142.773
0.618                   -3.16914          169.97         -43.9431         94.8253         -43.9437         94.8106       -0.0226945         142.692
0.619                   -3.22947         169.232         -43.8176         92.7645         -43.8182         92.7504       -0.0229858         142.611
0.62                    -3.29097         168.491         -43.6922         90.7023         -43.6928         90.6889       -0.0232821         142.529
0.621                   -3.35365         167.746          -43.567         88.6386         -43.5676         88.6258       -0.0235835         142.448
0.622                   -3.41758         166.997         -43.4421         86.5733         -43.4427         86.5611       -0.0238901         142.366
0.623                   -3.48277         166.244         -43.3174         84.5062          -43.318         84.4946        -0.024202         142.284
0.624                   -3.54928         165.488         -43.1929         82.4374         -43.1935         82.4264       -0.0245193         142.201
0.625                   -3.61714         164.727         -43.0687         80.3666         -43.0693         80.3563       -0.0248421         142.119
0.626                    -3.6864         163.962         -42.9447          78.294         -42.9453         78.2842       -0.0251705         142.036
0.627                    -3.7571         163.194          -42.821         76.2192         -42.8215         76.2101       -0.0255047         141.953
0.628                   -3.82929         162.422         -42.6975         74.1424         -42.6981         74.1339       -0.0258447         141.869
0.629                   -3.90302         161.646         -42.5744         72.0634          -42.575         72.0555       -0.0261905         141.786
