! TOUCHSTONE file generated by CST MICROWAVE STUDIO
! Date and time: Fri Oct  2 17:00:26 2020
! Project name: Scenario_1_Free_Space_out_of_line.cst
! Parameters = {Lambda=346.42; Step_1=17.321; dy1=-259.295; dx1=693; L_HA=400; MT=2.54; Rad_Dielectric=30; Rad_Lower=7.3; Rad_Upper=30; a_HA=580; a_WG=246; b_HA=500; b_WG=121; c_HA=0; c_WG=187; d_feed=85; h_feed=15; h_lower=18; h_upper=40}
! Header version: 2018
! Port assignment regex: !\s*Touchstone port\s*([0-9]+)\s*=\s*(CST MWS port|CST DS port)\s*([0-9]+|Zmin|Zmax)\s*\(\"(.*)\"\)(\s*mode\s*([0-9]+))?.*
! Touchstone port assignment:
! Touchstone port 1 = CST MWS port 1 ("")
! Touchstone port 2 = CST MWS port 2 ("")
# GHz S DB R 50
0.5                    -0.147991        -122.647         -63.9072        -127.396         -63.9072        -127.396      -0.00668322         151.141
0.501                  -0.153521        -123.075         -63.7702        -129.674         -63.7706        -129.674      -0.00674587         151.076
0.502                   -0.15921        -123.506         -63.6286        -131.947         -63.6294        -131.948      -0.00680927          151.01
0.503                  -0.165063        -123.939         -63.4825        -134.215         -63.4837        -134.216      -0.00687342         150.945
0.504                  -0.171083        -124.375         -63.3321        -136.476         -63.3337        -136.477      -0.00693833         150.879
0.505                  -0.177275        -124.812         -63.1775         -138.73         -63.1794        -138.731      -0.00700402         150.814
0.506                  -0.183644        -125.253          -63.019        -140.976         -63.0212        -140.978      -0.00707048         150.748
0.507                  -0.190194        -125.696         -62.8566        -143.213         -62.8591        -143.216      -0.00713772         150.682
0.508                  -0.196929        -126.141         -62.6906        -145.442         -62.6934        -145.445      -0.00720576         150.617
0.509                  -0.203854        -126.589         -62.5212        -147.662         -62.5242        -147.665       -0.0072746         150.551
0.51                   -0.210975        -127.039         -62.3485        -149.872         -62.3517        -149.876      -0.00734425         150.485
0.511                  -0.218294        -127.492         -62.1727        -152.073         -62.1761        -152.077      -0.00741472         150.419
0.512                  -0.225818        -127.947          -61.994        -154.264         -61.9975        -154.269      -0.00748602         150.352
0.513                  -0.233551        -128.405         -61.8125        -156.445         -61.8162        -156.451      -0.00755814         150.286
0.514                  -0.241498        -128.865         -61.6285        -158.616         -61.6323        -158.623      -0.00763111          150.22
0.515                  -0.249663        -129.328         -61.4421        -160.778          -61.446        -160.785      -0.00770494         150.154
0.516                  -0.258053        -129.793         -61.2534         -162.93         -61.2574        -162.938      -0.00777962         150.087
0.517                  -0.266672        -130.261         -61.0627        -165.074         -61.0668        -165.082      -0.00785518          150.02
0.518                  -0.275524        -130.731         -60.8701        -167.208         -60.8742        -167.216      -0.00793161         149.954
0.519                  -0.284616        -131.204         -60.6756        -169.334         -60.6798        -169.342      -0.00800894         149.887
0.52                   -0.293952         -131.68         -60.4796        -171.451         -60.4837         -171.46      -0.00808716          149.82
0.521                  -0.303538        -132.158         -60.2821         -173.56         -60.2862         -173.57      -0.00816629         149.753
0.522                  -0.313379        -132.639         -60.0832        -175.662         -60.0874        -175.672      -0.00824634         149.686
0.523                   -0.32348        -133.122         -59.8832        -177.757         -59.8872        -177.767      -0.00832732         149.619
0.524                  -0.333847        -133.608          -59.682        -179.845          -59.686        -179.856      -0.00840924         149.552
0.525                  -0.344486        -134.097         -59.4799         178.072         -59.4839         178.062       -0.0084921         149.485
0.526                  -0.355401        -134.588         -59.2769         175.996         -59.2808         175.985      -0.00857593         149.417
0.527                  -0.366599        -135.081         -59.0732         173.924          -59.077         173.914      -0.00866072          149.35
0.528                  -0.378085        -135.578         -58.8688         171.857         -58.8726         171.846       -0.0087465         149.282
0.529                  -0.389865        -136.077         -58.6639         169.794         -58.6676         169.783      -0.00883327         149.215
0.53                   -0.401944        -136.578         -58.4586         167.734         -58.4622         167.724      -0.00892105         149.147
0.531                  -0.414328        -137.082          -58.253         165.678         -58.2565         165.667      -0.00900984         149.079
0.532                  -0.427024        -137.589         -58.0471         163.623         -58.0505         163.613      -0.00909966         149.011
0.533                  -0.440036        -138.099          -57.841         161.571         -57.8443         161.561      -0.00919051         148.943
0.534                  -0.453371        -138.611         -57.6349         159.519          -57.638          159.51      -0.00928242         148.875
0.535                  -0.467035        -139.125         -57.4288         157.469         -57.4318          157.46      -0.00937539         148.807
0.536                  -0.481033        -139.643         -57.2228         155.419         -57.2256          155.41      -0.00946944         148.738
0.537                  -0.495372        -140.163         -57.0169         153.368         -57.0196         153.359      -0.00956458          148.67
0.538                  -0.510058        -140.685         -56.8113         151.317         -56.8138         151.308      -0.00966082         148.601
0.539                  -0.525097         -141.21         -56.6059         149.264         -56.6084         149.256      -0.00975818         148.533
0.54                   -0.540494        -141.738          -56.401         147.209         -56.4033         147.202      -0.00985667         148.464
0.541                  -0.556256        -142.268         -56.1965         145.153         -56.1986         145.146       -0.0099563         148.395
0.542                   -0.57239        -142.801         -55.9925         143.093         -55.9945         143.087       -0.0100571         148.326
0.543                    -0.5889        -143.337          -55.789         141.031         -55.7909         141.025        -0.010159         148.257
0.544                  -0.605795        -143.875         -55.5862         138.965         -55.5879         138.959       -0.0102622         148.188
0.545                  -0.623079        -144.416         -55.3841         136.894         -55.3857         136.889       -0.0103665         148.118
0.546                  -0.640759        -144.959         -55.1828          134.82         -55.1842         134.815       -0.0104721         148.049
0.547                  -0.658841        -145.505         -54.9823         132.741         -54.9835         132.737       -0.0105789         147.979
0.548                  -0.677331        -146.054         -54.7827         130.657         -54.7837         130.653       -0.0106869          147.91
0.549                  -0.696237        -146.605         -54.5839         128.567         -54.5849         128.564       -0.0107962          147.84
0.55                   -0.715563        -147.158         -54.3862         126.472          -54.387         126.469       -0.0109068          147.77
0.551                  -0.735317        -147.715         -54.1895          124.37         -54.1902         124.368       -0.0110187           147.7
0.552                  -0.755504        -148.273          -53.994         122.263         -53.9944         122.262       -0.0111319          147.63
0.553                  -0.776132        -148.835         -53.7995         120.149         -53.7999         120.148       -0.0112464          147.56
0.554                  -0.797206        -149.398         -53.6063         118.029         -53.6065         118.028       -0.0113623         147.489
0.555                  -0.818732        -149.965         -53.4144         115.901         -53.4144         115.901       -0.0114795         147.419
0.556                  -0.840718        -150.534         -53.2237         113.767         -53.2236         113.768       -0.0115981         147.348
0.557                  -0.863169        -151.105         -53.0344         111.626         -53.0341         111.627       -0.0117182         147.278
0.558                  -0.886091        -151.679         -52.8465         109.477         -52.8461         109.478       -0.0118396         147.207
0.559                  -0.909492        -152.255         -52.6601         107.321         -52.6595         107.323       -0.0119625         147.136
0.56                   -0.933377        -152.834         -52.4751         105.158         -52.4744          105.16       -0.0120868         147.065
0.561                  -0.957753        -153.415         -52.2917         102.988         -52.2909          102.99       -0.0122127         146.993
0.562                  -0.982625        -153.999         -52.1099          100.81          -52.109         100.813         -0.01234         146.922
0.563                     -1.008        -154.585         -51.9297         98.6245         -51.9287         98.6276       -0.0124689         146.851
0.564                   -1.03389        -155.173         -51.7512          96.432           -51.75         96.4354       -0.0125993         146.779
0.565                   -1.06029        -155.764         -51.5744         94.2323         -51.5731          94.236       -0.0127312         146.707
0.566                   -1.08721        -156.358         -51.3993         92.0255         -51.3979         92.0294       -0.0128648         146.635
0.567                   -1.11466        -156.953          -51.226         89.8117         -51.2244         89.8158           -0.013         146.563
0.568                   -1.14265        -157.551         -51.0544         87.5911         -51.0528         87.5954       -0.0131368         146.491
0.569                   -1.17117        -158.152         -50.8847         85.3637          -50.883         85.3683       -0.0132752         146.419
0.57                    -1.20025        -158.754         -50.7169           83.13         -50.7151         83.1346       -0.0134154         146.346
0.571                   -1.22988        -159.359         -50.5509         80.8899          -50.549         80.8947       -0.0135572         146.274
0.572                   -1.26006        -159.966         -50.3868         78.6438         -50.3848         78.6487       -0.0137008         146.201
0.573                   -1.29081        -160.576         -50.2247          76.392         -50.2226          76.397       -0.0138462         146.128
0.574                   -1.32214        -161.188         -50.0644         74.1346         -50.0622         74.1396       -0.0139933         146.055
0.575                   -1.35404        -161.802         -49.9061          71.872         -49.9039         71.8771       -0.0141423         145.982
0.576                   -1.38652        -162.418         -49.7497         69.6044         -49.7474         69.6095       -0.0142931         145.908
0.577                    -1.4196        -163.036         -49.5952         67.3322         -49.5929         67.3373       -0.0144457         145.835
0.578                   -1.45327        -163.657         -49.4427         65.0557         -49.4403         65.0608       -0.0146003         145.761
0.579                   -1.48754         -164.28         -49.2921         62.7752         -49.2897         62.7802       -0.0147568         145.687
0.58                    -1.52242        -164.905         -49.1434         60.4911          -49.141          60.496       -0.0149153         145.613
0.581                   -1.55792        -165.532         -48.9967         58.2036         -48.9942         58.2085       -0.0150757         145.539
0.582                   -1.59403        -166.161         -48.8518         55.9132         -48.8493         55.9179       -0.0152382         145.465
0.583                   -1.63077        -166.792         -48.7088         53.6202         -48.7063         53.6248       -0.0154027         145.391
0.584                   -1.66815        -167.426         -48.5677         51.3249         -48.5651         51.3293       -0.0155693         145.316
0.585                   -1.70616        -168.061         -48.4284         49.0276         -48.4258          49.032       -0.0157381         145.241
0.586                   -1.74481        -168.698         -48.2909         46.7288         -48.2883          46.733        -0.015909         145.166
0.587                   -1.78412        -169.338         -48.1551         44.4288         -48.1525         44.4328       -0.0160821         145.091
0.588                   -1.82408         -169.98         -48.0211         42.1279         -48.0185         42.1317       -0.0162575         145.016
0.589                   -1.86471        -170.623         -47.8887         39.8263         -47.8862           39.83       -0.0164351          144.94
0.59                    -1.90601        -171.269          -47.758         37.5246         -47.7555         37.5281        -0.016615         144.865
0.591                   -1.94798        -171.916         -47.6289         35.2229         -47.6264         35.2262       -0.0167973         144.789
0.592                   -1.99063        -172.566         -47.5014         32.9215         -47.4989         32.9246        -0.016982         144.713
0.593                   -2.03397        -173.217         -47.3753         30.6208         -47.3729         30.6237       -0.0171691         144.637
0.594                     -2.078         -173.87         -47.2507          28.321         -47.2483         28.3237       -0.0173588          144.56
0.595                   -2.12273        -174.525         -47.1275         26.0223         -47.1251         26.0249       -0.0175509         144.484
0.596                   -2.16817        -175.183         -47.0056         23.7251         -47.0033         23.7274       -0.0177456         144.407
0.597                   -2.21433        -175.842          -46.885         21.4295         -46.8828         21.4317       -0.0179429          144.33
0.598                    -2.2612        -176.502         -46.7657         19.1358         -46.7635         19.1377        -0.018143         144.253
0.599                    -2.3088        -177.165         -46.6475         16.8441         -46.6453         16.8459       -0.0183457         144.176
0.6                     -2.35713         -177.83         -46.5304         14.5546         -46.5283         14.5562       -0.0185512         144.098
0.601                    -2.4062        -178.496         -46.4143         12.2675         -46.4123          12.269       -0.0187595         144.021
0.602                   -2.45602        -179.164         -46.2993         9.98295         -46.2973         9.98424       -0.0189707         143.943
0.603                    -2.5066        -179.834         -46.1851         7.70104         -46.1832         7.70217       -0.0191849         143.865
0.604                   -2.55794         179.494         -46.0718         5.42188           -46.07         5.42287        -0.019402         143.786
0.605                   -2.61005          178.82         -45.9593         3.14558         -45.9576         3.14642       -0.0196223         143.708
0.606                   -2.66293         178.145         -45.8476         0.87219         -45.8459        0.872896       -0.0198456         143.629
0.607                    -2.7166         177.467         -45.7365        -1.39822         -45.7349        -1.39764       -0.0200721          143.55
0.608                   -2.77107         176.788          -45.626        -3.66562         -45.6245        -3.66516       -0.0203019         143.471
0.609                   -2.82633         176.107         -45.5161        -5.92998         -45.5146        -5.92963        -0.020535         143.392
0.61                    -2.88241         175.425         -45.4067        -8.19129         -45.4053        -8.19104       -0.0207715         143.312
0.611                   -2.93931          174.74         -45.2978        -10.4496         -45.2964        -10.4494       -0.0210114         143.232
0.612                   -2.99704         174.054         -45.1892        -12.7048         -45.1879        -12.7048       -0.0212549         143.152
0.613                    -3.0556         173.366         -45.0809        -14.9571         -45.0797        -14.9571        -0.021502         143.072
0.614                   -3.11502         172.676         -44.9729        -17.2065         -44.9718        -17.2066       -0.0217528         142.991
0.615                   -3.17529         171.985         -44.8652         -19.453         -44.8641        -19.4532       -0.0220073         142.911
0.616                   -3.23644         171.291         -44.7576        -21.6967         -44.7566        -21.6969       -0.0222657          142.83
0.617                   -3.29847         170.596         -44.6502        -23.9378         -44.6493         -23.938       -0.0225281         142.748
0.618                   -3.36139         169.899         -44.5429        -26.1762          -44.542        -26.1765       -0.0227946         142.667
0.619                   -3.42521         169.201         -44.4356        -28.4122         -44.4348        -28.4125       -0.0230651         142.585
0.62                    -3.48996           168.5         -44.3283        -30.6458         -44.3275        -30.6462       -0.0233399         142.503
0.621                   -3.55564         167.798         -44.2209        -32.8772         -44.2202        -32.8776        -0.023619         142.421
0.622                   -3.62226         167.094         -44.1135        -35.1065         -44.1129        -35.1069       -0.0239026         142.338
0.623                   -3.68984         166.388          -44.006        -37.3339         -44.0054        -37.3343       -0.0241907         142.256
0.624                    -3.7584          165.68         -43.8983        -39.5595         -43.8978        -39.5599       -0.0244835         142.173
0.625                   -3.82795          164.97         -43.7905        -41.7834         -43.7901        -41.7838       -0.0247811         142.089
0.626                   -3.89851         164.259         -43.6825        -44.0059         -43.6821        -44.0063       -0.0250836         142.006
0.627                    -3.9701         163.545         -43.5742        -46.2271         -43.5739        -46.2275       -0.0253911         141.922
0.628                   -4.04273          162.83         -43.4657        -48.4473         -43.4654        -48.4476       -0.0257037         141.838
0.629                   -4.11642         162.113          -43.357        -50.6664         -43.3567        -50.6668       -0.0260217         141.754
