! TOUCHSTONE file generated by CST MICROWAVE STUDIO
! Date and time: Fri Oct  2 19:16:24 2020
! Project name: Scenario_1_Free_Space_out_of_line.cst
! Parameters = {Lambda=346.42; Step_1=17.321; dy1=-259.295; dx1=866; L_HA=400; MT=2.54; Rad_Dielectric=30; Rad_Lower=7.3; Rad_Upper=30; a_HA=580; a_WG=246; b_HA=500; b_WG=121; c_HA=0; c_WG=187; d_feed=85; h_feed=15; h_lower=18; h_upper=40}
! Header version: 2018
! Port assignment regex: !\s*Touchstone port\s*([0-9]+)\s*=\s*(CST MWS port|CST DS port)\s*([0-9]+|Zmin|Zmax)\s*\(\"(.*)\"\)(\s*mode\s*([0-9]+))?.*
! Touchstone port assignment:
! Touchstone port 1 = CST MWS port 1 ("")
! Touchstone port 2 = CST MWS port 2 ("")
# GHz S DB R 50
0.5                    -0.146943        -122.349         -64.7091          135.09         -64.7091          135.09      -0.00654179          151.16
0.501                  -0.153245        -122.798         -64.5381         133.152         -64.5381          133.15      -0.00660326         151.095
0.502                  -0.159726        -123.247         -64.3652         131.199         -64.3652         131.195      -0.00666569         151.029
0.503                   -0.16639        -123.699         -64.1904         129.231         -64.1905         129.226      -0.00672907         150.964
0.504                  -0.173238        -124.153         -64.0138         127.249         -64.0139         127.241      -0.00679341         150.898
0.505                  -0.180275        -124.608         -63.8354         125.252         -63.8356         125.243      -0.00685869         150.833
0.506                  -0.187503        -125.065         -63.6554          123.24         -63.6555         123.229      -0.00692493         150.767
0.507                  -0.194924        -125.523         -63.4736         121.213         -63.4738         121.201      -0.00699211         150.702
0.508                  -0.202542        -125.984         -63.2903         119.172         -63.2905         119.158      -0.00706024         150.636
0.509                  -0.210358        -126.446         -63.1055         117.115         -63.1057         117.101      -0.00712932          150.57
0.51                   -0.218377         -126.91         -62.9191         115.045         -62.9194         115.029      -0.00719934         150.504
0.511                  -0.226601        -127.376         -62.7313         112.959         -62.7316         112.942      -0.00727031         150.438
0.512                  -0.235033        -127.843         -62.5422         110.859         -62.5425         110.841      -0.00734222         150.372
0.513                  -0.243676        -128.313         -62.3518         108.744         -62.3521         108.725      -0.00741507         150.306
0.514                  -0.252533        -128.784         -62.1603         106.615         -62.1606         106.595      -0.00748887          150.24
0.515                  -0.261607        -129.257         -61.9675         104.471         -61.9679         104.451       -0.0075636         150.173
0.516                  -0.270901        -129.732         -61.7738         102.312         -61.7741         102.292      -0.00763928         150.107
0.517                  -0.280418        -130.209         -61.5791         100.139         -61.5794         100.118       -0.0077159          150.04
0.518                  -0.290161        -130.688         -61.3835         97.9523         -61.3839         97.9308      -0.00779346         149.974
0.519                  -0.300134        -131.168         -61.1871         95.7507         -61.1875          95.729      -0.00787196         149.907
0.52                    -0.31034        -131.651           -60.99          93.535         -60.9904         93.5131       -0.0079514          149.84
0.521                  -0.320782        -132.135         -60.7923         91.3052         -60.7927         91.2831      -0.00803178         149.774
0.522                  -0.331462        -132.621         -60.5941         89.0613         -60.5945         89.0392      -0.00811311         149.707
0.523                  -0.342385        -133.109         -60.3955         86.8036         -60.3959         86.7814      -0.00819538          149.64
0.524                  -0.353553        -133.599         -60.1966         84.5321          -60.197           84.51      -0.00827859         149.573
0.525                  -0.364971        -134.091         -59.9974         82.2471         -59.9978         82.2251      -0.00836275         149.506
0.526                   -0.37664        -134.585         -59.7981         79.9486         -59.7985         79.9269      -0.00844785         149.438
0.527                  -0.388565         -135.08         -59.5987         77.6369         -59.5992         77.6154       -0.0085339         149.371
0.528                  -0.400749        -135.578         -59.3995         75.3121         -59.3999         75.2911      -0.00862089         149.304
0.529                  -0.413196        -136.078         -59.2004         72.9746         -59.2008         72.9539      -0.00870884         149.236
0.53                   -0.425907        -136.579         -59.0016         70.6246          -59.002         70.6043      -0.00879775         149.168
0.531                  -0.438888        -137.083         -58.8031         68.2622         -58.8036         68.2425       -0.0088876         149.101
0.532                  -0.452142        -137.588         -58.6051          65.888         -58.6056         65.8688      -0.00897842         149.033
0.533                  -0.465671        -138.096         -58.4077          63.502         -58.4081         63.4835       -0.0090702         148.965
0.534                   -0.47948        -138.605         -58.2109         61.1048         -58.2113         61.0869      -0.00916294         148.897
0.535                  -0.493572        -139.117         -58.0149         58.6966         -58.0153         58.6794      -0.00925665         148.829
0.536                  -0.507951         -139.63         -57.8197         56.2778         -57.8201         56.2613      -0.00935134         148.761
0.537                  -0.522619        -140.146         -57.6254         53.8489         -57.6258         53.8331        -0.009447         148.693
0.538                  -0.537581        -140.664         -57.4321         51.4102         -57.4325         51.3952      -0.00954365         148.624
0.539                  -0.552839        -141.183         -57.2399         48.9623         -57.2403          48.948      -0.00964128         148.556
0.54                   -0.568399        -141.705         -57.0489         46.5055         -57.0492         46.4921      -0.00973991         148.487
0.541                  -0.584262        -142.228         -56.8591         44.0404         -56.8594         44.0278      -0.00983954         148.418
0.542                  -0.600434        -142.754         -56.6706         41.5674         -56.6709         41.5556      -0.00994017          148.35
0.543                  -0.616916        -143.282         -56.4834         39.0871         -56.4837         39.0762       -0.0100418         148.281
0.544                  -0.633714        -143.812         -56.2977            36.6          -56.298         36.5899       -0.0101445         148.212
0.545                   -0.65083        -144.344         -56.1135         34.1067         -56.1137         34.0974       -0.0102482         148.143
0.546                  -0.668268        -144.878         -55.9307         31.6077         -55.9309         31.5992       -0.0103529         148.074
0.547                  -0.686032        -145.414         -55.7496         29.1035         -55.7497         29.0958       -0.0104587         148.004
0.548                  -0.704126        -145.952           -55.57         26.5947         -55.5701         26.5878       -0.0105656         147.935
0.549                  -0.722553        -146.492          -55.392         24.0818         -55.3921         24.0758       -0.0106735         147.865
0.55                   -0.741317        -147.035         -55.2157         21.5655         -55.2158         21.5602       -0.0107825         147.796
0.551                  -0.760422        -147.579          -55.041         19.0462         -55.0411         19.0417       -0.0108926         147.726
0.552                  -0.779871        -148.126         -54.8681         16.5246          -54.868         16.5208       -0.0110038         147.656
0.553                  -0.799668        -148.675         -54.6967         14.0011         -54.6967          13.998       -0.0111162         147.586
0.554                  -0.819817        -149.226         -54.5271         11.4764          -54.527         11.4739       -0.0112297         147.516
0.555                  -0.840321        -149.779         -54.3591         8.95077          -54.359         8.94898       -0.0113443         147.446
0.556                  -0.861185        -150.335         -54.1928         6.42488         -54.1926          6.4237       -0.0114601         147.376
0.557                  -0.882413        -150.892         -54.0281         3.89916         -54.0279         3.89857       -0.0115771         147.305
0.558                  -0.904007        -151.452          -53.865         1.37407         -53.8647         1.37403       -0.0116953         147.235
0.559                  -0.925973        -152.014         -53.7035        -1.14996         -53.7032        -1.14949       -0.0118148         147.164
0.56                   -0.948314        -152.579         -53.5436        -3.67253         -53.5432        -3.67157       -0.0119355         147.093
0.561                  -0.971035        -153.145         -53.3852        -6.19324         -53.3847        -6.19183       -0.0120575         147.022
0.562                  -0.994138        -153.714         -53.2282        -8.71174         -53.2278        -8.70992       -0.0121807         146.951
0.563                   -1.01763        -154.286         -53.0727        -11.2277         -53.0722        -11.2255       -0.0123054          146.88
0.564                   -1.04151        -154.859         -52.9186        -13.7409          -52.918        -13.7383       -0.0124313         146.809
0.565                   -1.06579        -155.435         -52.7658        -16.2509         -52.7652         -16.248       -0.0125587         146.737
0.566                   -1.09047        -156.013         -52.6143        -18.7576         -52.6137        -18.7545       -0.0126875         146.665
0.567                   -1.11555        -156.594          -52.464        -21.2608         -52.4634        -21.2574       -0.0128177         146.594
0.568                   -1.14104        -157.177         -52.3149        -23.7602         -52.3142        -23.7566       -0.0129494         146.522
0.569                   -1.16695        -157.763          -52.167        -26.2559         -52.1663        -26.2521       -0.0130826          146.45
0.57                    -1.19327        -158.351         -52.0201        -28.7475         -52.0193        -28.7436       -0.0132174         146.378
0.571                   -1.22002        -158.941         -51.8742        -31.2351         -51.8734         -31.231       -0.0133538         146.306
0.572                    -1.2472        -159.534         -51.7292        -33.7186         -51.7284        -33.7145       -0.0134918         146.233
0.573                   -1.27481         -160.13         -51.5852         -36.198         -51.5844        -36.1938       -0.0136315         146.161
0.574                   -1.30286        -160.728          -51.442        -38.6733         -51.4411         -38.669       -0.0137729         146.088
0.575                   -1.33135        -161.329         -51.2995        -41.1446         -51.2987        -41.1402       -0.0139161         146.015
0.576                    -1.3603        -161.933         -51.1578        -43.6118          -51.157        -43.6074       -0.0140611         145.942
0.577                    -1.3897        -162.539         -51.0168         -46.075          -51.016        -46.0707       -0.0142079         145.869
0.578                   -1.41957        -163.148         -50.8764        -48.5344         -50.8756        -48.5301       -0.0143567         145.796
0.579                   -1.44991         -163.76         -50.7366        -50.9902         -50.7357        -50.9859       -0.0145075         145.722
0.58                    -1.48073        -164.374         -50.5973        -53.4423         -50.5964        -53.4381       -0.0146603         145.649
0.581                   -1.51203        -164.992         -50.4585        -55.8911         -50.4576         -55.887       -0.0148152         145.575
0.582                   -1.54383        -165.612         -50.3201        -58.3366         -50.3192        -58.3326       -0.0149722         145.501
0.583                   -1.57613        -166.236         -50.1821        -60.7792         -50.1813        -60.7753       -0.0151314         145.427
0.584                   -1.60895        -166.862         -50.0445        -63.2189         -50.0437        -63.2151        -0.015293         145.353
0.585                   -1.64228        -167.492         -49.9072        -65.6561         -49.9064        -65.6524       -0.0154568         145.278
0.586                   -1.67615        -168.124         -49.7702         -68.091         -49.7694        -68.0874       -0.0156231         145.204
0.587                   -1.71056         -168.76         -49.6335        -70.5237         -49.6327        -70.5202       -0.0157918         145.129
0.588                   -1.74553          -169.4          -49.497        -72.9546         -49.4962        -72.9513       -0.0159631         145.054
0.589                   -1.78106        -170.042         -49.3607        -75.3839         -49.3599        -75.3807       -0.0161371         144.979
0.59                    -1.81718        -170.689         -49.2246        -77.8119         -49.2239        -77.8088       -0.0163137         144.904
0.591                    -1.8539        -171.338         -49.0887        -80.2388          -49.088        -80.2359       -0.0164931         144.829
0.592                   -1.89123        -171.991         -48.9529         -82.665         -48.9523        -82.6622       -0.0166753         144.753
0.593                   -1.92919        -172.648         -48.8173        -85.0906         -48.8167        -85.0879       -0.0168604         144.677
0.594                    -1.9678        -173.309         -48.6819         -87.516         -48.6813        -87.5135       -0.0170485         144.601
0.595                   -2.00709        -173.973         -48.5466        -89.9414          -48.546         -89.939       -0.0172397         144.525
0.596                   -2.04706        -174.642         -48.4114         -92.367         -48.4108        -92.3647        -0.017434         144.449
0.597                   -2.08775        -175.314         -48.2764        -94.7932         -48.2758         -94.791       -0.0176315         144.373
0.598                   -2.12918         -175.99         -48.1415        -97.2201          -48.141        -97.2181       -0.0178323         144.296
0.599                   -2.17138        -176.671         -48.0067        -99.6481         -48.0062        -99.6462       -0.0180365         144.219
0.6                     -2.21437        -177.356         -47.8721        -102.077         -47.8717        -102.075       -0.0182441         144.142
0.601                   -2.25819        -178.045         -47.7377        -104.508         -47.7373        -104.506       -0.0184551         144.065
0.602                   -2.30287        -178.738         -47.6034         -106.94          -47.603        -106.939       -0.0186697         143.987
0.603                   -2.34845        -179.436         -47.4694        -109.374          -47.469        -109.373       -0.0188879          143.91
0.604                   -2.39496         179.862         -47.3355        -111.811         -47.3352        -111.809       -0.0191098         143.832
0.605                   -2.44245         179.155         -47.2019        -114.249         -47.2016        -114.248       -0.0193353         143.754
0.606                   -2.49095         178.444         -47.0685         -116.69         -47.0682        -116.689       -0.0195646         143.676
0.607                   -2.54052         177.728         -46.9354        -119.134         -46.9352        -119.132       -0.0197978         143.598
0.608                    -2.5912         177.008         -46.8026         -121.58         -46.8024        -121.578       -0.0200347         143.519
0.609                   -2.64305         176.283         -46.6701        -124.028         -46.6699        -124.027       -0.0202756          143.44
0.61                    -2.69611         175.554         -46.5379         -126.48         -46.5378        -126.479       -0.0205203         143.361
0.611                   -2.75044          174.82         -46.4062        -128.935          -46.406        -128.934       -0.0207689         143.282
0.612                   -2.80611         174.081         -46.2748        -131.392         -46.2747        -131.391       -0.0210215         143.203
0.613                   -2.86316         173.339         -46.1439        -133.853         -46.1438        -133.852       -0.0212781         143.123
0.614                   -2.92166         172.592         -46.0134        -136.317         -46.0134        -136.316       -0.0215385         143.043
0.615                   -2.98168         171.842         -45.8834        -138.784         -45.8834        -138.783       -0.0218029         142.963
0.616                   -3.04328         171.087          -45.754        -141.253         -45.7539        -141.253       -0.0220713         142.883
0.617                   -3.10651          170.33         -45.6251        -143.726          -45.625        -143.726       -0.0223436         142.802
0.618                   -3.17145         169.569         -45.4967        -146.202         -45.4967        -146.201       -0.0226198         142.722
0.619                   -3.23815         168.805          -45.369        -148.681          -45.369         -148.68       -0.0228999         142.641
0.62                    -3.30668          168.04         -45.2419        -151.162         -45.2419        -151.162       -0.0231839         142.559
0.621                   -3.37708         167.272         -45.1154        -153.646         -45.1155        -153.646       -0.0234717         142.478
0.622                   -3.44941         166.502         -44.9896        -156.133         -44.9897        -156.133       -0.0237633         142.396
0.623                   -3.52372         165.732         -44.8646        -158.623         -44.8646        -158.622       -0.0240587         142.314
0.624                   -3.60005         164.962         -44.7402        -161.114         -44.7403        -161.113       -0.0243578         142.232
0.625                   -3.67843         164.192         -44.6166        -163.608         -44.6167        -163.607       -0.0246607          142.15
0.626                   -3.75888         163.422         -44.4937        -166.104         -44.4938        -166.103       -0.0249673         142.067
0.627                   -3.84142         162.655         -44.3717        -168.601         -44.3717          -168.6       -0.0252776         141.984
0.628                   -3.92606         161.889         -44.2504          -171.1         -44.2505        -171.099       -0.0255915         141.901
0.629                   -4.01278         161.127         -44.1299        -173.601           -44.13          -173.6        -0.025909         141.818
