! TOUCHSTONE file generated by CST MICROWAVE STUDIO
! Date and time: Fri Oct  2 19:00:03 2020
! Project name: Scenario_1_Free_Space_out_of_line.cst
! Parameters = {Lambda=346.42; Step_1=17.321; dy1=-259.295; dx1=1039; L_HA=400; MT=2.54; Rad_Dielectric=30; Rad_Lower=7.3; Rad_Upper=30; a_HA=580; a_WG=246; b_HA=500; b_WG=121; c_HA=0; c_WG=187; d_feed=85; h_feed=15; h_lower=18; h_upper=40}
! Header version: 2018
! Port assignment regex: !\s*Touchstone port\s*([0-9]+)\s*=\s*(CST MWS port|CST DS port)\s*([0-9]+|Zmin|Zmax)\s*\(\"(.*)\"\)(\s*mode\s*([0-9]+))?.*
! Touchstone port assignment:
! Touchstone port 1 = CST MWS port 1 ("")
! Touchstone port 2 = CST MWS port 2 ("")
# GHz S DB R 50
0.5                    -0.148518        -122.581         -65.1888         39.3113         -65.1888         39.3113      -0.00668148         151.145
0.501                  -0.152046        -123.031         -65.0817         37.1593         -65.0805         37.1599      -0.00673899          151.08
0.502                  -0.155849        -123.482         -64.9708         34.9866         -64.9685          34.988      -0.00679734         151.014
0.503                  -0.159929        -123.935          -64.856         32.7936         -64.8527         32.7959      -0.00685654         150.949
0.504                  -0.164289         -124.39         -64.7375         30.5808         -64.7331         30.5842      -0.00691659         150.883
0.505                  -0.168929        -124.847          -64.615         28.3486         -64.6096         28.3533       -0.0069775         150.817
0.506                  -0.173854        -125.306         -64.4887         26.0977         -64.4823         26.1037      -0.00703928         150.752
0.507                  -0.179064        -125.767         -64.3584         23.8284         -64.3511         23.8359      -0.00710194         150.686
0.508                  -0.184563        -126.229         -64.2242         21.5413          -64.216         21.5504      -0.00716547          150.62
0.509                  -0.190351        -126.694          -64.086         19.2369          -64.077         19.2477       -0.0072299         150.554
0.51                   -0.196432         -127.16          -63.944         16.9158         -63.9341         16.9284      -0.00729521         150.488
0.511                  -0.202808        -127.628          -63.798         14.5784         -63.7874         14.5928      -0.00736144         150.422
0.512                   -0.20948        -128.098         -63.6481         12.2254         -63.6368         12.2416      -0.00742857         150.356
0.513                  -0.216452         -128.57         -63.4944         9.85716         -63.4825         9.87523      -0.00749662          150.29
0.514                  -0.223724        -129.044         -63.3369         7.47425         -63.3244         7.49419      -0.00756559         150.223
0.515                    -0.2313        -129.519         -63.1757         5.07715         -63.1626         5.09895       -0.0076355         150.157
0.516                  -0.239181        -129.997         -63.0107         2.66634         -62.9971         2.68997      -0.00770635          150.09
0.517                  -0.247369        -130.476         -62.8422        0.242276         -62.8281        0.267706      -0.00777815         150.024
0.518                  -0.255868        -130.957         -62.6701        -2.19461         -62.6556        -2.16744       -0.0078509         149.957
0.519                  -0.264678         -131.44         -62.4946        -4.64389         -62.4798        -4.61505      -0.00792463          149.89
0.52                   -0.273802        -131.925         -62.3157         -7.1052         -62.3006        -7.07477      -0.00799933         149.823
0.521                  -0.283243        -132.411         -62.1336        -9.57816         -62.1182        -9.54624      -0.00807501         149.757
0.522                  -0.293002          -132.9         -61.9483        -12.0625         -61.9327        -12.0291      -0.00815168         149.689
0.523                  -0.303081         -133.39           -61.76        -14.5578         -61.7443        -14.5232      -0.00822936         149.622
0.524                  -0.313483        -133.883         -61.5689        -17.0638          -61.553        -17.0281      -0.00830805         149.555
0.525                   -0.32421        -134.377          -61.375        -19.5804         -61.3591        -19.5436      -0.00838777         149.488
0.526                  -0.335264        -134.873         -61.1784        -22.1072         -61.1625        -22.0696      -0.00846851          149.42
0.527                  -0.346647        -135.371         -60.9794        -24.6441         -60.9635        -24.6058      -0.00855029         149.353
0.528                  -0.358361        -135.871         -60.7781         -27.191         -60.7622        -27.1521      -0.00863313         149.285
0.529                  -0.370409        -136.372         -60.5746        -29.7476         -60.5588        -29.7083      -0.00871703         149.218
0.53                   -0.382792        -136.876         -60.3691        -32.3139         -60.3534        -32.2743        -0.008802          149.15
0.531                  -0.395513        -137.381         -60.1617        -34.8897         -60.1462        -34.8501      -0.00888806         149.082
0.532                  -0.408574        -137.889         -59.9526        -37.4751         -59.9374        -37.4355      -0.00897521         149.014
0.533                  -0.421978        -138.398          -59.742        -40.0698          -59.727        -40.0304      -0.00906346         148.946
0.534                  -0.435725        -138.909         -59.5301         -42.674         -59.5153        -42.6349      -0.00915283         148.878
0.535                   -0.44982        -139.422         -59.3169        -45.2874         -59.3025        -45.2489      -0.00924334          148.81
0.536                  -0.464263        -139.937         -59.1028        -47.9102         -59.0887        -47.8723      -0.00933498         148.741
0.537                  -0.479057        -140.454         -58.8878        -50.5422          -58.874        -50.5051      -0.00942778         148.673
0.538                  -0.494204        -140.973         -58.6722        -53.1835         -58.6588        -53.1473      -0.00952175         148.604
0.539                  -0.509707        -141.493         -58.4561        -55.8339         -58.4431        -55.7988      -0.00961689         148.536
0.54                   -0.525568        -142.016         -58.2397        -58.4935         -58.2271        -58.4595      -0.00971323         148.467
0.541                  -0.541789         -142.54         -58.0231        -61.1621          -58.011        -61.1294      -0.00981077         148.398
0.542                  -0.558372        -143.067         -57.8066        -63.8398          -57.795        -63.8084      -0.00990953         148.329
0.543                   -0.57532        -143.595         -57.5904        -66.5264         -57.5793        -66.4964       -0.0100095          148.26
0.544                  -0.592634        -144.125         -57.3745        -69.2218         -57.3639        -69.1933       -0.0101108         148.191
0.545                  -0.610319        -144.658         -57.1592        -71.9258         -57.1492         -71.899       -0.0102133         148.121
0.546                  -0.628375        -145.192         -56.9447        -74.6384         -56.9351        -74.6132       -0.0103171         148.052
0.547                  -0.646805        -145.728          -56.731        -77.3593          -56.722        -77.3357       -0.0104221         147.982
0.548                  -0.665612        -146.266         -56.5184        -80.0882           -56.51        -80.0664       -0.0105285         147.913
0.549                  -0.684798        -146.807         -56.3071        -82.8251         -56.2992        -82.8049       -0.0106362         147.843
0.55                   -0.704366        -147.349         -56.0971        -85.5694         -56.0898         -85.551       -0.0107453         147.773
0.551                  -0.724319        -147.893         -55.8886         -88.321         -55.8819        -88.3042       -0.0108557         147.703
0.552                  -0.744658        -148.439         -55.6817        -91.0794         -55.6756        -91.0643       -0.0109675         147.633
0.553                  -0.765386        -148.987         -55.4767        -93.8443         -55.4711        -93.8309       -0.0110806         147.563
0.554                  -0.786507        -149.537         -55.2735        -96.6152         -55.2686        -96.6034       -0.0111952         147.492
0.555                  -0.808024         -150.09         -55.0724        -99.3916          -55.068        -99.3815       -0.0113112         147.422
0.556                  -0.829937        -150.644         -54.8734        -102.173         -54.8696        -102.165       -0.0114287         147.351
0.557                  -0.852252          -151.2         -54.6766        -104.959         -54.6734        -104.952       -0.0115476         147.281
0.558                  -0.874971        -151.759         -54.4821        -107.749         -54.4796        -107.744        -0.011668          147.21
0.559                  -0.898096        -152.319         -54.2901        -110.543         -54.2881        -110.538       -0.0117899         147.139
0.56                    -0.92163        -152.882         -54.1005        -113.339         -54.0991        -113.336       -0.0119133         147.068
0.561                  -0.945578        -153.446         -53.9134        -116.137         -53.9126        -116.135       -0.0120383         146.997
0.562                  -0.969942        -154.013          -53.729        -118.937         -53.7286        -118.936       -0.0121649         146.925
0.563                  -0.994725        -154.582         -53.5471        -121.738         -53.5473        -121.738        -0.012293         146.854
0.564                   -1.01993        -155.153         -53.3679        -124.539         -53.3686         -124.54       -0.0124228         146.782
0.565                   -1.04556        -155.726         -53.1914         -127.34         -53.1926        -127.342       -0.0125542          146.71
0.566                   -1.07163        -156.302         -53.0175         -130.14         -53.0192        -130.142       -0.0126872         146.639
0.567                   -1.09812         -156.88         -52.8463        -132.938         -52.8484         -132.94       -0.0128219         146.566
0.568                   -1.12506         -157.46         -52.6778        -135.733         -52.6803        -135.736       -0.0129584         146.494
0.569                   -1.15243        -158.042         -52.5118        -138.526         -52.5148         -138.53       -0.0130966         146.422
0.57                    -1.18025        -158.626         -52.3485        -141.315         -52.3519        -141.319       -0.0132365          146.35
0.571                   -1.20853        -159.213         -52.1878          -144.1         -52.1915        -144.104       -0.0133782         146.277
0.572                   -1.23725        -159.802         -52.0295         -146.88         -52.0336        -146.885       -0.0135218         146.204
0.573                   -1.26644        -160.393         -51.8737        -149.656         -51.8781         -149.66       -0.0136672         146.131
0.574                   -1.29608        -160.987         -51.7203        -152.425          -51.725        -152.429       -0.0138144         146.058
0.575                    -1.3262        -161.583         -51.5692        -155.189         -51.5742        -155.193       -0.0139636         145.985
0.576                   -1.35679        -162.182         -51.4203        -157.946         -51.4255         -157.95       -0.0141147         145.912
0.577                   -1.38786        -162.783         -51.2736        -160.696          -51.279          -160.7       -0.0142678         145.839
0.578                   -1.41941        -163.386         -51.1289        -163.439         -51.1346        -163.443       -0.0144228         145.765
0.579                   -1.45146        -163.992         -50.9862        -166.175          -50.992        -166.178         -0.01458         145.691
0.58                      -1.484          -164.6         -50.8453        -168.903         -50.8513        -168.906       -0.0147391         145.617
0.581                   -1.51704        -165.211         -50.7063        -171.623         -50.7124        -171.626       -0.0149004         145.543
0.582                   -1.55059        -165.825         -50.5689        -174.335         -50.5751        -174.338       -0.0150638         145.469
0.583                   -1.58466        -166.441          -50.433         -177.04         -50.4393        -177.042       -0.0152294         145.394
0.584                   -1.61925         -167.06         -50.2986        -179.736          -50.305        -179.737       -0.0153972          145.32
0.585                   -1.65436        -167.681         -50.1656         177.576          -50.172         177.575       -0.0155673         145.245
0.586                   -1.69002        -168.305         -50.0339         174.896         -50.0402         174.895       -0.0157396          145.17
0.587                   -1.72622        -168.932         -49.9033         172.224         -49.9096         172.223       -0.0159143         145.095
0.588                   -1.76298        -169.562         -49.7737         169.559           -49.78         169.559       -0.0160914          145.02
0.589                   -1.80029        -170.194         -49.6451         166.903         -49.6514         166.903       -0.0162709         144.945
0.59                    -1.83818         -170.83         -49.5174         164.254         -49.5236         164.254       -0.0164529         144.869
0.591                   -1.87665        -171.468         -49.3904         161.612         -49.3965         161.613       -0.0166374         144.793
0.592                   -1.91571        -172.109         -49.2641         158.977         -49.2701         158.978       -0.0168245         144.717
0.593                   -1.95538        -172.754         -49.1384         156.349         -49.1443         156.351       -0.0170142         144.641
0.594                   -1.99565        -173.401         -49.0132         153.727         -49.0189         153.729       -0.0172066         144.565
0.595                   -2.03655        -174.051         -48.8884         151.112          -48.894         151.114       -0.0174017         144.488
0.596                   -2.07809        -174.705         -48.7639         148.502         -48.7693         148.505       -0.0175996         144.412
0.597                   -2.12028        -175.361         -48.6397         145.898         -48.6449           145.9       -0.0178003         144.335
0.598                   -2.16312        -176.021         -48.5157         143.299         -48.5207         143.301       -0.0180039         144.258
0.599                   -2.20665        -176.684         -48.3918         140.704         -48.3967         140.707       -0.0182105         144.181
0.6                     -2.25087        -177.351          -48.268         138.113         -48.2727         138.116       -0.0184202         144.103
0.601                   -2.29579         -178.02         -48.1442         135.527         -48.1487          135.53       -0.0186329         144.025
0.602                   -2.34143        -178.694         -48.0203         132.943         -48.0246         132.947       -0.0188488         143.948
0.603                   -2.38782         -179.37         -47.8964         130.363         -47.9005         130.366       -0.0190679          143.87
0.604                   -2.43496          179.95         -47.7723         127.785         -47.7762         127.788       -0.0192903         143.791
0.605                   -2.48288         179.266         -47.6481         125.209         -47.6517         125.212       -0.0195161         143.713
0.606                    -2.5316         178.579         -47.5237         122.635         -47.5271         122.638       -0.0197453         143.634
0.607                   -2.58113         177.888          -47.399         120.061         -47.4022         120.064       -0.0199781         143.555
0.608                    -2.6315         177.193         -47.2741         117.489          -47.277         117.492       -0.0202145         143.476
0.609                   -2.68274         176.495         -47.1489         114.916         -47.1516         114.919       -0.0204546         143.397
0.61                    -2.73486         175.792         -47.0234         112.344         -47.0259         112.346       -0.0206985         143.317
0.611                   -2.78789         175.086         -46.8976         109.771         -46.8999         109.773       -0.0209463         143.238
0.612                   -2.84187         174.376         -46.7715         107.196         -46.7736         107.198        -0.021198         143.158
0.613                    -2.8968         173.662         -46.6451          104.62          -46.647         104.622       -0.0214539         143.077
0.614                   -2.95274         172.945         -46.5184         102.042           -46.52         102.044       -0.0217139         142.997
0.615                    -3.0097         172.223         -46.3914         99.4623         -46.3928         99.4632       -0.0219782         142.916
0.616                   -3.06772         171.497         -46.2641         96.8795         -46.2653           96.88       -0.0222469         142.835
0.617                   -3.12684         170.767         -46.1365         94.2936         -46.1375         94.2938         -0.02252         142.754
0.618                   -3.18709         170.033         -46.0086         91.7043         -46.0095         91.7041       -0.0227978         142.673
0.619                    -3.2485         169.294         -45.8805         89.1112         -45.8812         89.1107       -0.0230804         142.591
0.62                    -3.31113         168.552         -45.7522         86.5141         -45.7527         86.5131       -0.0233677         142.509
0.621                     -3.375         167.806         -45.6237         83.9126          -45.624         83.9112       -0.0236601         142.427
0.622                   -3.44017         167.055          -45.495         81.3064         -45.4952         81.3047       -0.0239576         142.345
0.623                   -3.50667           166.3         -45.3663         78.6953         -45.3662         78.6932       -0.0242602         142.262
0.624                   -3.57457         165.541         -45.2374         76.0791         -45.2372         76.0766       -0.0245683         142.179
0.625                    -3.6439         164.778         -45.1085         73.4576         -45.1082         73.4546       -0.0248818         142.096
0.626                   -3.71472         164.011         -44.9796         70.8305         -44.9791         70.8271        -0.025201         142.013
0.627                   -3.78709         163.241         -44.8507         68.1977         -44.8501         68.1939       -0.0255259         141.929
0.628                   -3.86106         162.466         -44.7219          65.559         -44.7212         65.5548       -0.0258568         141.845
0.629                   -3.93669         161.687         -44.5932         62.9144         -44.5924         62.9099       -0.0261937         141.761
