! TOUCHSTONE file generated by CST MICROWAVE STUDIO
! Date and time: Fri Oct  2 16:19:15 2020
! Project name: Scenario_1_Free_Space_out_of_line.cst
! Parameters = {Lambda=346.42; Step_1=17.321; dy1=-276.636; dx1=346; L_HA=400; MT=2.54; Rad_Dielectric=30; Rad_Lower=7.3; Rad_Upper=30; a_HA=580; a_WG=246; b_HA=500; b_WG=121; c_HA=0; c_WG=187; d_feed=85; h_feed=15; h_lower=18; h_upper=40}
! Header version: 2018
! Port assignment regex: !\s*Touchstone port\s*([0-9]+)\s*=\s*(CST MWS port|CST DS port)\s*([0-9]+|Zmin|Zmax)\s*\(\"(.*)\"\)(\s*mode\s*([0-9]+))?.*
! Touchstone port assignment:
! Touchstone port 1 = CST MWS port 1 ("")
! Touchstone port 2 = CST MWS port 2 ("")
# GHz S DB R 50
0.5                    -0.148413        -122.722         -61.9388         58.8533         -61.9388         58.8533      -0.00673577          151.11
0.501                  -0.155209        -123.176         -61.7069         56.9707         -61.7061         56.9735       -0.0068212         151.045
0.502                  -0.162201        -123.632         -61.4771         55.1037         -61.4756          55.109      -0.00690667         150.979
0.503                  -0.169388        -124.088         -61.2493          53.251         -61.2472         53.2587       -0.0069922         150.914
0.504                  -0.176769        -124.546         -61.0236         51.4116          -61.021         51.4215      -0.00707781         150.848
0.505                  -0.184346        -125.005         -60.7999         49.5844         -60.7968         49.5963      -0.00716351         150.783
0.506                  -0.192117        -125.465         -60.5783         47.7685         -60.5747         47.7821      -0.00724934         150.717
0.507                  -0.200082        -125.927         -60.3587          45.963         -60.3547         45.9782      -0.00733531         150.651
0.508                  -0.208243         -126.39          -60.141         44.1669         -60.1367         44.1835      -0.00742144         150.586
0.509                  -0.216599        -126.854         -59.9254         42.3795         -59.9207         42.3974      -0.00750775          150.52
0.51                    -0.22515         -127.32         -59.7117         40.5999         -59.7068          40.619      -0.00759427         150.454
0.511                  -0.233896        -127.786         -59.4999         38.8276         -59.4948         38.8476      -0.00768102         150.388
0.512                  -0.242839        -128.254           -59.29         37.0617         -59.2847         37.0825      -0.00776802         150.321
0.513                  -0.251977        -128.724         -59.0821         35.3017         -59.0766         35.3232       -0.0078553         150.255
0.514                  -0.261312        -129.195         -58.8759         33.5469         -58.8703         33.5689      -0.00794286         150.189
0.515                  -0.270844        -129.667         -58.6716         31.7967         -58.6659         31.8192      -0.00803074         150.122
0.516                  -0.280574        -130.141         -58.4691         30.0507         -58.4633         30.0734      -0.00811896         150.056
0.517                  -0.290502        -130.616         -58.2683         28.3082         -58.2625         28.3312      -0.00820753         149.989
0.518                  -0.300629        -131.093         -58.0693         26.5689         -58.0635         26.5919      -0.00829649         149.923
0.519                  -0.310955        -131.571          -57.872         24.8322         -57.8662         24.8552      -0.00838585         149.856
0.52                   -0.321483         -132.05         -57.6764         23.0977         -57.6706         23.1206      -0.00847564         149.789
0.521                  -0.332211        -132.532         -57.4824         21.3651         -57.4766         21.3878      -0.00856587         149.722
0.522                  -0.343143        -133.014         -57.2901         19.6339         -57.2843         19.6563      -0.00865658         149.655
0.523                  -0.354278        -133.499         -57.0993         17.9038         -57.0937         17.9258      -0.00874778         149.588
0.524                  -0.365619        -133.985         -56.9102         16.1744         -56.9046          16.196      -0.00883949         149.521
0.525                  -0.377165        -134.472         -56.7225         14.4455          -56.717         14.4666      -0.00893175         149.454
0.526                   -0.38892        -134.962         -56.5364         12.7166          -56.531         12.7372      -0.00902456         149.386
0.527                  -0.400884        -135.453         -56.3517         10.9876         -56.3465         11.0076      -0.00911796         149.319
0.528                  -0.413059        -135.945         -56.1685          9.2582         -56.1634         9.27751      -0.00921196         149.251
0.529                  -0.425448         -136.44         -55.9868         7.52807         -55.9818          7.5467      -0.00930659         149.183
0.53                   -0.438051        -136.936         -55.8064         5.79702         -55.8016         5.81492      -0.00940188         149.116
0.531                  -0.450871        -137.434         -55.6274         4.06482         -55.6228         4.08197      -0.00949784         149.048
0.532                   -0.46391        -137.934         -55.4498         2.33127         -55.4454         2.34763       -0.0095945          148.98
0.533                  -0.477171        -138.436         -55.2735         0.59616         -55.2693        0.611724      -0.00969188         148.912
0.534                  -0.490656         -138.94         -55.0985        -1.14068         -55.0945        -1.12594         -0.00979         148.844
0.535                  -0.504368        -139.446         -54.9248        -2.87944          -54.921        -2.86553       -0.0098889         148.775
0.536                   -0.51831        -139.953         -54.7524        -4.62026         -54.7488         -4.6072      -0.00998858         148.707
0.537                  -0.532483        -140.463         -54.5812        -6.36331         -54.5778         -6.3511       -0.0100891         148.639
0.538                  -0.546893        -140.975         -54.4112        -8.10871          -54.408        -8.09736       -0.0101904          148.57
0.539                  -0.561542        -141.489         -54.2424        -9.85661         -54.2394        -9.84611       -0.0102926         148.501
0.54                   -0.576433        -142.005         -54.0748        -11.6071          -54.072        -11.5975       -0.0103957         148.433
0.541                   -0.59157        -142.523         -53.9084        -13.3604         -53.9058        -13.3516       -0.0104997         148.364
0.542                  -0.606957        -143.043          -53.743        -15.1164         -53.7407        -15.1085       -0.0106046         148.295
0.543                  -0.622599        -143.565         -53.5788        -16.8754         -53.5767        -16.8683       -0.0107105         148.226
0.544                  -0.638499         -144.09         -53.4157        -18.6374         -53.4138        -18.6311       -0.0108173         148.156
0.545                  -0.654662        -144.617         -53.2537        -20.4026          -53.252         -20.397       -0.0109252         148.087
0.546                  -0.671092        -145.147         -53.0927        -22.1708         -53.0912        -22.1661       -0.0110341         148.018
0.547                  -0.687795        -145.679         -52.9327        -23.9423         -52.9315        -23.9383        -0.011144         147.948
0.548                  -0.704776        -146.213         -52.7738        -25.7172         -52.7728        -25.7139        -0.011255         147.878
0.549                  -0.722041         -146.75         -52.6159        -27.4953         -52.6151        -27.4927       -0.0113671         147.809
0.55                   -0.739594        -147.289          -52.459        -29.2769         -52.4584         -29.275       -0.0114803         147.739
0.551                  -0.757442        -147.831          -52.303        -31.0619         -52.3026        -31.0606       -0.0115947         147.669
0.552                   -0.77559        -148.375         -52.1481        -32.8504         -52.1479        -32.8498       -0.0117102         147.599
0.553                  -0.794047        -148.922          -51.994        -34.6423          -51.994        -34.6423        -0.011827         147.528
0.554                  -0.812817        -149.471         -51.8409        -36.4378         -51.8411        -36.4384       -0.0119449         147.458
0.555                  -0.831908        -150.024         -51.6887        -38.2369         -51.6891         -38.238       -0.0120641         147.388
0.556                  -0.851328        -150.579         -51.5374        -40.0395          -51.538        -40.0412       -0.0121846         147.317
0.557                  -0.871084        -151.136          -51.387        -41.8457         -51.3878        -41.8478       -0.0123063         147.246
0.558                  -0.891183        -151.697         -51.2375        -43.6555         -51.2384        -43.6581       -0.0124294         147.175
0.559                  -0.911635         -152.26         -51.0889        -45.4689         -51.0899        -45.4719       -0.0125538         147.104
0.56                   -0.932447        -152.827         -50.9411        -47.2858         -50.9423        -47.2892       -0.0126796         147.033
0.561                  -0.953629        -153.396         -50.7941        -49.1063         -50.7955          -49.11       -0.0128068         146.962
0.562                  -0.975189        -153.968          -50.648        -50.9304         -50.6495        -50.9344       -0.0129354         146.891
0.563                  -0.997137        -154.544         -50.5027         -52.758         -50.5043        -52.7623       -0.0130654         146.819
0.564                   -1.01948        -155.122         -50.3582        -54.5892           -50.36        -54.5937       -0.0131969         146.748
0.565                   -1.04224        -155.703         -50.2145        -56.4238         -50.2164        -56.4286       -0.0133299         146.676
0.566                   -1.06541        -156.288         -50.0716        -58.2619         -50.0736        -58.2668       -0.0134644         146.604
0.567                   -1.08901        -156.876         -49.9295        -60.1034         -49.9316        -60.1085       -0.0136005         146.532
0.568                   -1.11305        -157.467         -49.7881        -61.9483         -49.7904        -61.9536       -0.0137381          146.46
0.569                   -1.13755        -158.061         -49.6475        -63.7966         -49.6499         -63.802       -0.0138773         146.388
0.57                    -1.16251        -158.658         -49.5077        -65.6482         -49.5102        -65.6537       -0.0140181         146.315
0.571                   -1.18795        -159.259         -49.3687        -67.5031         -49.3712        -67.5086       -0.0141606         146.243
0.572                   -1.21387        -159.863         -49.2304        -69.3611          -49.233        -69.3667       -0.0143047          146.17
0.573                    -1.2403         -160.47         -49.0928        -71.2224         -49.0955         -71.228       -0.0144506         146.097
0.574                   -1.26725        -161.081         -48.9559        -73.0868         -48.9587        -73.0923       -0.0145982         146.024
0.575                   -1.29473        -161.695         -48.8198        -74.9542         -48.8226        -74.9597       -0.0147475         145.951
0.576                   -1.32275        -162.313         -48.6844        -76.8246         -48.6873        -76.8301       -0.0148986         145.878
0.577                   -1.35133        -162.934         -48.5498         -78.698         -48.5526        -78.7033       -0.0150515         145.804
0.578                   -1.38049        -163.559         -48.4158        -80.5742         -48.4187        -80.5795       -0.0152062         145.731
0.579                   -1.41024        -164.187         -48.2825        -82.4532         -48.2855        -82.4583       -0.0153628         145.657
0.58                     -1.4406        -164.819           -48.15        -84.3349         -48.1529        -84.3399       -0.0155213         145.583
0.581                   -1.47158        -165.454         -48.0181        -86.2192         -48.0211        -86.2241       -0.0156817         145.509
0.582                    -1.5032        -166.093          -47.887        -88.1062         -47.8899        -88.1109        -0.015844         145.435
0.583                   -1.53548        -166.735         -47.7565        -89.9955         -47.7594        -90.0001       -0.0160083          145.36
0.584                   -1.56843        -167.382         -47.6267        -91.8873         -47.6296        -91.8917       -0.0161746         145.286
0.585                   -1.60208        -168.031         -47.4976        -93.7814         -47.5005        -93.7856        -0.016343         145.211
0.586                   -1.63644        -168.684         -47.3692        -95.6777         -47.3721        -95.6817       -0.0165134         145.136
0.587                   -1.67154        -169.341         -47.2415        -97.5762         -47.2443          -97.58       -0.0166859         145.061
0.588                   -1.70738        -170.002         -47.1144        -99.4767         -47.1172        -99.4803       -0.0168605         144.986
0.589                     -1.744        -170.666         -46.9881        -101.379         -46.9908        -101.382       -0.0170372         144.911
0.59                    -1.78141        -171.334         -46.8623        -103.283          -46.865        -103.287       -0.0172162         144.835
0.591                   -1.81963        -172.005         -46.7373        -105.189         -46.7399        -105.192       -0.0173973         144.759
0.592                   -1.85868         -172.68         -46.6129        -107.097         -46.6155          -107.1       -0.0175807         144.683
0.593                   -1.89859        -173.358         -46.4892        -109.006         -46.4917        -109.009       -0.0177663         144.607
0.594                   -1.93938         -174.04         -46.3662        -110.917         -46.3686        -110.919       -0.0179543         144.531
0.595                   -1.98106        -174.726         -46.2438        -112.829         -46.2461        -112.831       -0.0181446         144.455
0.596                   -2.02366        -175.414         -46.1221        -114.742         -46.1243        -114.744       -0.0183373         144.378
0.597                   -2.06721        -176.107          -46.001        -116.656         -46.0032        -116.658       -0.0185323         144.301
0.598                   -2.11172        -176.802         -45.8806        -118.572         -45.8827        -118.573       -0.0187299         144.224
0.599                   -2.15722        -177.501         -45.7608        -120.488         -45.7628        -120.489       -0.0189299         144.147
0.6                     -2.20373        -178.204         -45.6417        -122.405         -45.6436        -122.406       -0.0191324          144.07
0.601                   -2.25128        -178.909         -45.5232        -124.322         -45.5251        -124.323       -0.0193374         143.992
0.602                   -2.29989        -179.618         -45.4054        -126.241         -45.4071        -126.241       -0.0195451         143.914
0.603                   -2.34958         179.671         -45.2882        -128.159         -45.2899         -128.16       -0.0197553         143.837
0.604                   -2.40038         178.956         -45.1717        -130.078         -45.1732        -130.079       -0.0199683         143.758
0.605                   -2.45231         178.238         -45.0558        -131.997         -45.0572        -131.998       -0.0201839          143.68
0.606                    -2.5054         177.518         -44.9405        -133.917         -44.9419        -133.917       -0.0204023         143.601
0.607                   -2.55966         176.794         -44.8259        -135.836         -44.8271        -135.836       -0.0206234         143.523
0.608                   -2.61513         176.069         -44.7119        -137.755          -44.713        -137.755       -0.0208474         143.444
0.609                   -2.67183          175.34         -44.5985        -139.674         -44.5995        -139.674       -0.0210743         143.365
0.61                    -2.72978         174.609         -44.4857        -141.592         -44.4866        -141.592        -0.021304         143.285
0.611                   -2.78901         173.876         -44.3735         -143.51         -44.3744         -143.51       -0.0215368         143.205
0.612                   -2.84954         173.141          -44.262        -145.428         -44.2627        -145.428       -0.0217725         143.126
0.613                   -2.91139         172.403          -44.151        -147.344         -44.1517        -147.344       -0.0220113         143.046
0.614                   -2.97458         171.664         -44.0407         -149.26         -44.0412         -149.26       -0.0222532         142.965
0.615                   -3.03915         170.923         -43.9309        -151.175         -43.9314        -151.175       -0.0224982         142.885
0.616                   -3.10511         170.181         -43.8218        -153.089         -43.8221        -153.089       -0.0227465         142.804
0.617                   -3.17248         169.436         -43.7132        -155.002         -43.7134        -155.002        -0.022998         142.723
0.618                   -3.24129         168.691         -43.6052        -156.914         -43.6053        -156.914       -0.0232528         142.642
0.619                   -3.31155         167.945         -43.4977        -158.824         -43.4978        -158.824        -0.023511          142.56
0.62                     -3.3833         167.197         -43.3908        -160.733         -43.3908        -160.733       -0.0237727         142.478
0.621                   -3.45654         166.449         -43.2845         -162.64         -43.2844         -162.64       -0.0240378         142.397
0.622                    -3.5313         165.701         -43.1787        -164.546         -43.1785        -164.546       -0.0243065         142.314
0.623                    -3.6076         164.952         -43.0734         -166.45         -43.0732         -166.45       -0.0245788         142.232
0.624                   -3.68546         164.202         -42.9687        -168.352         -42.9684        -168.352       -0.0248548         142.149
0.625                   -3.76488         163.453         -42.8645        -170.252         -42.8641        -170.252       -0.0251345         142.066
0.626                    -3.8459         162.705         -42.7608         -172.15         -42.7603        -172.151        -0.025418         141.983
0.627                   -3.92853         161.957         -42.6576        -174.046         -42.6571        -174.047       -0.0257055         141.899
0.628                   -4.01277         161.209         -42.5548         -175.94         -42.5543        -175.941       -0.0259969         141.815
0.629                   -4.09865         160.463         -42.4526        -177.832          -42.452        -177.833       -0.0262924         141.731
