! TOUCHSTONE file generated by CST MICROWAVE STUDIO
! Date and time: Fri Oct  2 16:34:59 2020
! Project name: Scenario_1_Free_Space_out_of_line.cst
! Parameters = {Lambda=346.42; Step_1=17.321; dy1=-276.636; dx1=520; L_HA=400; MT=2.54; Rad_Dielectric=30; Rad_Lower=7.3; Rad_Upper=30; a_HA=580; a_WG=246; b_HA=500; b_WG=121; c_HA=0; c_WG=187; d_feed=85; h_feed=15; h_lower=18; h_upper=40}
! Header version: 2018
! Port assignment regex: !\s*Touchstone port\s*([0-9]+)\s*=\s*(CST MWS port|CST DS port)\s*([0-9]+|Zmin|Zmax)\s*\(\"(.*)\"\)(\s*mode\s*([0-9]+))?.*
! Touchstone port assignment:
! Touchstone port 1 = CST MWS port 1 ("")
! Touchstone port 2 = CST MWS port 2 ("")
# GHz S DB R 50
0.5                    -0.148569        -122.578         -63.0454        -36.1694         -63.0454        -36.1694      -0.00660445         151.156
0.501                  -0.153387        -123.032         -62.9124        -37.6347         -62.9124        -37.6346      -0.00665739          151.09
0.502                  -0.158449        -123.489         -62.7766        -39.1173         -62.7766        -39.1171      -0.00671134         151.025
0.503                  -0.163758        -123.947          -62.638        -40.6171         -62.6379        -40.6168      -0.00676629         150.959
0.504                  -0.169315        -124.406         -62.4965        -42.1339         -62.4965        -42.1336      -0.00682227         150.894
0.505                  -0.175123        -124.868         -62.3522        -43.6678         -62.3522        -43.6674      -0.00687926         150.828
0.506                  -0.181184        -125.331         -62.2052        -45.2186         -62.2051        -45.2181      -0.00693727         150.762
0.507                  -0.187501        -125.796         -62.0553        -46.7861         -62.0552        -46.7856      -0.00699632         150.696
0.508                  -0.194077        -126.263         -61.9027        -48.3704         -61.9026        -48.3699       -0.0070564         150.631
0.509                  -0.200912        -126.731         -61.7473        -49.9714         -61.7472        -49.9707      -0.00711752         150.565
0.51                   -0.208011        -127.202         -61.5893        -51.5888         -61.5892        -51.5881      -0.00717969         150.499
0.511                  -0.215375        -127.674         -61.4286        -53.2226         -61.4285        -53.2219      -0.00724292         150.432
0.512                  -0.223006        -128.148         -61.2653        -54.8728         -61.2652         -54.872       -0.0073072         150.366
0.513                  -0.230907        -128.623         -61.0994        -56.5391         -61.0993        -56.5383      -0.00737256           150.3
0.514                   -0.23908        -129.101          -60.931        -58.2215         -60.9309        -58.2207      -0.00743898         150.233
0.515                  -0.247528         -129.58         -60.7601          -59.92           -60.76        -59.9191      -0.00750648         150.167
0.516                  -0.256253        -130.061         -60.5869        -61.6342         -60.5867        -61.6333      -0.00757508           150.1
0.517                  -0.265257        -130.544         -60.4113        -63.3643         -60.4111        -63.3634      -0.00764476         150.034
0.518                  -0.274542        -131.028         -60.2334          -65.11         -60.2333         -65.109      -0.00771555         149.967
0.519                  -0.284112        -131.515         -60.0534        -66.8712         -60.0532        -66.8703      -0.00778744           149.9
0.52                   -0.293967        -132.003         -59.8712        -68.6479          -59.871         -68.647      -0.00786045         149.833
0.521                  -0.304112        -132.493          -59.687        -70.4399         -59.6869         -70.439      -0.00793458         149.766
0.522                  -0.314547        -132.985         -59.5009        -72.2472         -59.5007        -72.2462      -0.00800984         149.699
0.523                  -0.325275        -133.478          -59.313        -74.0695         -59.3128        -74.0685      -0.00808625         149.632
0.524                  -0.336299        -133.973         -59.1233        -75.9068         -59.1231        -75.9058       -0.0081638         149.565
0.525                   -0.34762         -134.47         -58.9319         -77.759         -58.9317         -77.758      -0.00824251         149.497
0.526                  -0.359242        -134.969          -58.739         -79.626         -58.7389         -79.625      -0.00832238          149.43
0.527                  -0.371166         -135.47         -58.5447        -81.5075         -58.5446        -81.5065      -0.00840342         149.362
0.528                  -0.383395        -135.973         -58.3491        -83.4035          -58.349        -83.4026      -0.00848565         149.295
0.529                  -0.395932        -136.477         -58.1523        -85.3139         -58.1521         -85.313      -0.00856908         149.227
0.53                   -0.408777        -136.983         -57.9544        -87.2385         -57.9542        -87.2375       -0.0086537         149.159
0.531                  -0.421935        -137.491         -57.7556         -89.177         -57.7554        -89.1761      -0.00873954         149.091
0.532                  -0.435406            -138         -57.5559        -91.1295         -57.5557        -91.1286      -0.00882659         149.023
0.533                  -0.449194        -138.512         -57.3555        -93.0955         -57.3553        -93.0947      -0.00891489         148.955
0.534                  -0.463301        -139.025         -57.1545        -95.0751         -57.1544        -95.0743      -0.00900442         148.887
0.535                  -0.477729         -139.54         -56.9531        -97.0679         -56.9529        -97.0671      -0.00909521         148.819
0.536                   -0.49248        -140.057         -56.7514        -99.0737         -56.7512        -99.0729      -0.00918726          148.75
0.537                  -0.507557        -140.576         -56.5495        -101.092         -56.5493        -101.091      -0.00928059         148.682
0.538                  -0.522963        -141.097         -56.3475        -103.123         -56.3473        -103.123      -0.00937521         148.613
0.539                  -0.538699        -141.619         -56.1456        -105.166         -56.1454        -105.166      -0.00947113         148.544
0.54                   -0.554768        -142.143         -55.9439        -107.222         -55.9438        -107.221      -0.00956836         148.476
0.541                  -0.571172        -142.669         -55.7426        -109.288         -55.7424        -109.288      -0.00966692         148.407
0.542                  -0.587914        -143.197         -55.5417        -111.366         -55.5415        -111.365      -0.00976682         148.338
0.543                  -0.604997        -143.727         -55.3414        -113.454         -55.3413        -113.454      -0.00986807         148.268
0.544                  -0.622422        -144.259         -55.1418        -115.553         -55.1417        -115.553      -0.00997068         148.199
0.545                  -0.640193        -144.792         -54.9431        -117.662          -54.943        -117.662       -0.0100747          148.13
0.546                  -0.658311        -145.328         -54.7454        -119.781         -54.7453         -119.78       -0.0101801          148.06
0.547                   -0.67678        -145.865         -54.5487        -121.908         -54.5486        -121.907       -0.0102869         147.991
0.548                  -0.695601        -146.404         -54.3532        -124.044         -54.3531        -124.043       -0.0103951         147.921
0.549                  -0.714778        -146.945          -54.159        -126.187         -54.1589        -126.187       -0.0105048         147.851
0.55                   -0.734314        -147.488         -53.9662        -128.338         -53.9661        -128.338       -0.0106159         147.781
0.551                   -0.75421        -148.033         -53.7748        -130.496         -53.7748        -130.496       -0.0107285         147.711
0.552                  -0.774469         -148.58         -53.5851         -132.66          -53.585         -132.66       -0.0108426         147.641
0.553                  -0.795095        -149.129          -53.397         -134.83         -53.3969         -134.83       -0.0109581         147.571
0.554                   -0.81609        -149.679         -53.2106        -137.004         -53.2105        -137.004       -0.0110753         147.501
0.555                  -0.837458        -150.232          -53.026        -139.183         -53.0259        -139.183       -0.0111939          147.43
0.556                    -0.8592        -150.786         -52.8432        -141.366         -52.8432        -141.366       -0.0113141         147.359
0.557                   -0.88132        -151.343         -52.6624        -143.552         -52.6624        -143.552       -0.0114359         147.289
0.558                  -0.903821        -151.902         -52.4835         -145.74         -52.4835         -145.74       -0.0115593         147.218
0.559                  -0.926706        -152.462         -52.3066         -147.93         -52.3066         -147.93       -0.0116844         147.147
0.56                   -0.949978        -153.025         -52.1318        -150.121         -52.1318        -150.121        -0.011811         147.076
0.561                  -0.973641        -153.589         -51.9589        -152.312         -51.9589        -152.312       -0.0119394         147.004
0.562                  -0.997698        -154.156         -51.7881        -154.503         -51.7881        -154.503       -0.0120694         146.933
0.563                   -1.02215        -154.725         -51.6194        -156.694         -51.6194        -156.694       -0.0122011         146.862
0.564                   -1.04701        -155.296         -51.4527        -158.883         -51.4528        -158.883       -0.0123346          146.79
0.565                   -1.07227        -155.869         -51.2881         -161.07         -51.2881         -161.07       -0.0124698         146.718
0.566                   -1.09794        -156.444         -51.1255        -163.255         -51.1255        -163.255       -0.0126068         146.646
0.567                   -1.12402        -157.021         -50.9649        -165.436          -50.965        -165.436       -0.0127456         146.574
0.568                   -1.15051          -157.6         -50.8063        -167.614         -50.8064        -167.614       -0.0128863         146.502
0.569                   -1.17743        -158.182         -50.6497        -169.788         -50.6497        -169.788       -0.0130288          146.43
0.57                    -1.20477        -158.765         -50.4949        -171.957         -50.4949        -171.957       -0.0131732         146.357
0.571                   -1.23254        -159.351          -50.342        -174.122          -50.342        -174.122       -0.0133195         146.285
0.572                   -1.26075         -159.94         -50.1909        -176.281         -50.1909        -176.281       -0.0134678         146.212
0.573                   -1.28939         -160.53         -50.0416        -178.434         -50.0416        -178.434        -0.013618         146.139
0.574                   -1.31848        -161.123         -49.8939         179.418          -49.894         179.418       -0.0137703         146.066
0.575                   -1.34802        -161.718         -49.7479         177.277         -49.7479         177.277       -0.0139245         145.993
0.576                     -1.378        -162.315         -49.6034         175.142         -49.6035         175.142       -0.0140809         145.919
0.577                   -1.40845        -162.915         -49.4605         173.014         -49.4606         173.014       -0.0142394         145.846
0.578                   -1.43937        -163.517          -49.319         170.892         -49.3191         170.892          -0.0144         145.772
0.579                   -1.47075        -164.122         -49.1789         168.778         -49.1789         168.778       -0.0145628         145.698
0.58                    -1.50261        -164.729           -49.04          166.67         -49.0401         166.671       -0.0147278         145.624
0.581                   -1.53496        -165.339         -48.9024          164.57         -48.9025          164.57       -0.0148951          145.55
0.582                   -1.56779        -165.951         -48.7659         162.477          -48.766         162.477       -0.0150646         145.476
0.583                   -1.60112        -166.566         -48.6305         160.391         -48.6306         160.391       -0.0152365         145.402
0.584                   -1.63496        -167.183         -48.4961         158.312         -48.4962         158.312       -0.0154108         145.327
0.585                   -1.66931        -167.803         -48.3627          156.24         -48.3628          156.24       -0.0155875         145.252
0.586                   -1.70418        -168.425         -48.2301         154.175         -48.2302         154.175       -0.0157666         145.177
0.587                   -1.73958        -169.051         -48.0983         152.116         -48.0984         152.116       -0.0159483         145.102
0.588                   -1.77551        -169.679         -47.9673         150.064         -47.9674         150.064       -0.0161325         145.027
0.589                     -1.812        -170.309         -47.8369         148.019          -47.837         148.019       -0.0163193         144.952
0.59                    -1.84903        -170.943         -47.7072          145.98         -47.7072          145.98       -0.0165088         144.876
0.591                   -1.88664         -171.58          -47.578         143.946          -47.578         143.946        -0.016701           144.8
0.592                   -1.92481        -172.219         -47.4493         141.919         -47.4493         141.919       -0.0168959         144.724
0.593                   -1.96358        -172.861          -47.321         139.896          -47.321         139.897       -0.0170937         144.648
0.594                   -2.00294        -173.507         -47.1931         137.879         -47.1931          137.88       -0.0172943         144.572
0.595                   -2.04291        -174.155         -47.0655         135.867         -47.0656         135.867       -0.0174978         144.495
0.596                   -2.08351        -174.807         -46.9383          133.86         -46.9383          133.86       -0.0177043         144.419
0.597                   -2.12474        -175.461         -46.8112         131.856         -46.8113         131.856       -0.0179139         144.342
0.598                   -2.16661        -176.119         -46.6844         129.857         -46.6844         129.857       -0.0181265         144.265
0.599                   -2.20915         -176.78         -46.5577         127.861         -46.5578         127.861       -0.0183424         144.187
0.6                     -2.25237        -177.444         -46.4312         125.868         -46.4313         125.868       -0.0185614          144.11
0.601                   -2.29628        -178.112         -46.3048         123.878         -46.3048         123.879       -0.0187838         144.032
0.602                   -2.34089        -178.782         -46.1784         121.891         -46.1785         121.891       -0.0190095         143.954
0.603                   -2.38624        -179.457         -46.0521         119.906         -46.0521         119.906       -0.0192387         143.876
0.604                   -2.43232         179.866         -45.9258         117.922         -45.9258         117.922       -0.0194714         143.798
0.605                   -2.47917         179.184         -45.7995          115.94         -45.7995          115.94       -0.0197077          143.72
0.606                    -2.5268           178.5         -45.6732         113.959         -45.6732         113.959       -0.0199477         143.641
0.607                   -2.57523         177.811         -45.5469         111.979         -45.5469         111.979       -0.0201914         143.562
0.608                   -2.62448         177.119         -45.4205         109.999         -45.4205         109.999        -0.020439         143.483
0.609                   -2.67457         176.424          -45.294         108.019          -45.294         108.019       -0.0206904         143.404
0.61                    -2.72554         175.724         -45.1675         106.038         -45.1675         106.038       -0.0209459         143.324
0.611                   -2.77739         175.021          -45.041         104.057          -45.041         104.057       -0.0212055         143.244
0.612                   -2.83016         174.314         -44.9144         102.075         -44.9144         102.075       -0.0214692         143.164
0.613                   -2.88387         173.604         -44.7877         100.091         -44.7877         100.091       -0.0217373         143.084
0.614                   -2.93856         172.889          -44.661          98.105          -44.661          98.105       -0.0220097         143.004
0.615                   -2.99424          172.17         -44.5343         96.1172         -44.5343         96.1173       -0.0222866         142.923
0.616                   -3.05095         171.448         -44.4075          94.127         -44.4075          94.127        -0.022568         142.842
0.617                   -3.10872         170.722         -44.2807         92.1341         -44.2807         92.1341       -0.0228541         142.761
0.618                   -3.16758         169.991         -44.1539         90.1381         -44.1539         90.1382        -0.023145          142.68
0.619                   -3.22757         169.257         -44.0271         88.1389         -44.0271         88.1389       -0.0234408         142.598
0.62                    -3.28872         168.518         -43.9004         86.1361         -43.9004         86.1361       -0.0237415         142.516
0.621                   -3.35107         167.776         -43.7737         84.1294         -43.7737         84.1294       -0.0240474         142.434
0.622                   -3.41466         167.029         -43.6471         82.1187         -43.6471         82.1187       -0.0243584         142.352
0.623                   -3.47953         166.279         -43.5206         80.1037         -43.5206         80.1036       -0.0246748         142.269
0.624                   -3.54571         165.524         -43.3943         78.0841         -43.3943         78.0841       -0.0249966         142.186
0.625                   -3.61326         164.765         -43.2681         76.0599         -43.2681         76.0599        -0.025324         142.103
0.626                   -3.68221         164.003         -43.1421         74.0308         -43.1421         74.0308        -0.025657          142.02
0.627                   -3.75262         163.236         -43.0164         71.9966         -43.0164         71.9966       -0.0259958         141.936
0.628                   -3.82453         162.466          -42.891         69.9573         -42.8909         69.9573       -0.0263405         141.852
0.629                     -3.898         161.691         -42.7658         67.9127         -42.7658         67.9126       -0.0266913         141.768
