! TOUCHSTONE file generated by CST MICROWAVE STUDIO
! Date and time: Fri Oct  2 17:00:37 2020
! Project name: Scenario_1_Free_Space_out_of_line.cst
! Parameters = {Lambda=346.42; Step_1=17.321; dy1=-276.636; dx1=693; L_HA=400; MT=2.54; Rad_Dielectric=30; Rad_Lower=7.3; Rad_Upper=30; a_HA=580; a_WG=246; b_HA=500; b_WG=121; c_HA=0; c_WG=187; d_feed=85; h_feed=15; h_lower=18; h_upper=40}
! Header version: 2018
! Port assignment regex: !\s*Touchstone port\s*([0-9]+)\s*=\s*(CST MWS port|CST DS port)\s*([0-9]+|Zmin|Zmax)\s*\(\"(.*)\"\)(\s*mode\s*([0-9]+))?.*
! Touchstone port assignment:
! Touchstone port 1 = CST MWS port 1 ("")
! Touchstone port 2 = CST MWS port 2 ("")
# GHz S DB R 50
0.5                    -0.148098        -122.556         -64.0835         -129.93         -64.0835         -129.93      -0.00667638         151.158
0.501                  -0.153632        -122.992         -63.9666         -132.14         -63.9662         -132.14      -0.00674176         151.093
0.502                  -0.159338         -123.43         -63.8446        -134.353         -63.8438        -134.354      -0.00680779         151.027
0.503                  -0.165219         -123.87         -63.7175        -136.568         -63.7164        -136.569      -0.00687449         150.962
0.504                  -0.171279        -124.312         -63.5854        -138.784         -63.5839        -138.784      -0.00694186         150.896
0.505                  -0.177521        -124.756         -63.4484            -141         -63.4467            -141       -0.0070099         150.831
0.506                   -0.18395        -125.203         -63.3067        -143.214         -63.3047        -143.214      -0.00707863         150.765
0.507                  -0.190568        -125.651         -63.1603        -145.426          -63.158        -145.426      -0.00714805           150.7
0.508                   -0.19738        -126.102         -63.0094        -147.636         -63.0069        -147.635      -0.00721816         150.634
0.509                   -0.20439        -126.555         -62.8542        -149.841         -62.8514         -149.84      -0.00728898         150.568
0.51                   -0.211602         -127.01         -62.6947        -152.042         -62.6917         -152.04      -0.00736051         150.502
0.511                  -0.219018        -127.467         -62.5312        -154.238         -62.5279        -154.236      -0.00743276         150.436
0.512                  -0.226645        -127.926         -62.3637        -156.428         -62.3602        -156.426      -0.00750574          150.37
0.513                  -0.234484        -128.388         -62.1925        -158.613         -62.1888        -158.609      -0.00757945         150.304
0.514                  -0.242542        -128.852         -62.0176        -160.791         -62.0139        -160.787      -0.00765391         150.237
0.515                  -0.250822        -129.318         -61.8394        -162.962         -61.8355        -162.957      -0.00772911         150.171
0.516                  -0.259327        -129.786         -61.6578        -165.126         -61.6538        -165.121      -0.00780508         150.105
0.517                  -0.268064        -130.257         -61.4732        -167.283         -61.4691        -167.278      -0.00788181         150.038
0.518                  -0.277035         -130.73         -61.2856        -169.433         -61.2814        -169.427      -0.00795931         149.971
0.519                  -0.286245        -131.205         -61.0953        -171.576          -61.091         -171.57       -0.0080376         149.905
0.52                     -0.2957        -131.682         -60.9023        -173.712          -60.898        -173.705      -0.00811669         149.838
0.521                  -0.305402        -132.162         -60.7069         -175.84         -60.7026        -175.833      -0.00819657         149.771
0.522                  -0.315358        -132.644         -60.5092        -177.962         -60.5049        -177.955      -0.00827727         149.704
0.523                  -0.325571        -133.128         -60.3094         179.922          -60.305          179.93      -0.00835879         149.637
0.524                  -0.336046        -133.615         -60.1076         177.813         -60.1032         177.822      -0.00844114          149.57
0.525                  -0.346788        -134.104         -59.9039          175.71         -59.8996         175.719      -0.00852433         149.503
0.526                  -0.357803        -134.595         -59.6985         173.613         -59.6942         173.622      -0.00860837         149.435
0.527                  -0.369093        -135.089         -59.4916         171.521         -59.4874          171.53      -0.00869327         149.368
0.528                  -0.380666        -135.585         -59.2833         169.434         -59.2791         169.443      -0.00877905           149.3
0.529                  -0.392525        -136.083         -59.0736         167.351         -59.0695          167.36       -0.0088657         149.233
0.53                   -0.404675        -136.584         -58.8628         165.272         -58.8588         165.282      -0.00895325         149.165
0.531                  -0.417122        -137.087          -58.651         163.197          -58.647         163.206      -0.00904171         149.097
0.532                  -0.429871        -137.592         -58.4382         161.124         -58.4344         161.134      -0.00913107         149.029
0.533                  -0.442926          -138.1         -58.2246         159.054         -58.2209         159.064      -0.00922137         148.961
0.534                  -0.456293         -138.61         -58.0104         156.986         -58.0067         156.995      -0.00931261         148.893
0.535                  -0.469978        -139.122         -57.7955         154.919          -57.792         154.928      -0.00940479         148.825
0.536                  -0.483985        -139.637         -57.5802         152.853         -57.5768         152.862      -0.00949794         148.757
0.537                   -0.49832        -140.155         -57.3645         150.787         -57.3613         150.796      -0.00959207         148.688
0.538                  -0.512988        -140.674         -57.1485         148.721         -57.1454          148.73      -0.00968718          148.62
0.539                  -0.527995        -141.196         -56.9324         146.654         -56.9294         146.662       -0.0097833         148.551
0.54                   -0.543346         -141.72         -56.7162         144.586         -56.7134         144.594      -0.00988043         148.482
0.541                  -0.559046        -142.247            -56.5         142.516         -56.4974         142.523      -0.00997859         148.414
0.542                  -0.575101        -142.776         -56.2839         140.443         -56.2814          140.45       -0.0100778         148.345
0.543                  -0.591517        -143.308         -56.0681         138.367         -56.0657         138.374       -0.0101781         148.276
0.544                  -0.608298        -143.842         -55.8525         136.288         -55.8503         136.294       -0.0102794         148.207
0.545                  -0.625452        -144.378         -55.6373         134.205         -55.6353         134.211       -0.0103818         148.137
0.546                  -0.642983        -144.917         -55.4225         132.117         -55.4208         132.122       -0.0104853         148.068
0.547                  -0.660897        -145.458         -55.2084         130.024         -55.2068         130.029         -0.01059         147.998
0.548                    -0.6792        -146.001         -54.9948         127.926         -54.9934         127.931       -0.0106958         147.929
0.549                  -0.697897        -146.547          -54.782         125.823         -54.7808         125.827       -0.0108027         147.859
0.55                   -0.716994        -147.096           -54.57         123.713          -54.569         123.716       -0.0109108         147.789
0.551                  -0.736497        -147.646         -54.3589         121.596          -54.358         121.599       -0.0110201         147.719
0.552                  -0.756412        -148.199         -54.1487         119.473         -54.1481         119.475       -0.0111306         147.649
0.553                  -0.776745        -148.755         -53.9396         117.342         -53.9392         117.344       -0.0112423         147.579
0.554                  -0.797501        -149.312         -53.7316         115.204         -53.7314         115.206       -0.0113552         147.509
0.555                  -0.818686        -149.872         -53.5248         113.058         -53.5248         113.059       -0.0114694         147.438
0.556                  -0.840306        -150.435         -53.3194         110.904         -53.3196         110.905       -0.0115849         147.368
0.557                  -0.862368            -151         -53.1153         108.742         -53.1157         108.742       -0.0117016         147.297
0.558                  -0.884876        -151.567         -52.9126         106.571         -52.9132         106.571       -0.0118197         147.226
0.559                  -0.907837        -152.137         -52.7115         104.392         -52.7123         104.391       -0.0119391         147.156
0.56                   -0.931256        -152.708         -52.5119         102.204          -52.513         102.203       -0.0120599         147.084
0.561                   -0.95514        -153.283         -52.3141         100.008         -52.3153         100.006       -0.0121821         147.013
0.562                  -0.979495        -153.859         -52.1179         97.8023         -52.1194         97.8001       -0.0123056         146.942
0.563                   -1.00433        -154.438         -51.9236         95.5881         -51.9253         95.5855       -0.0124306         146.871
0.564                   -1.02964        -155.019         -51.7312         93.3651          -51.733         93.3622        -0.012557         146.799
0.565                   -1.05544        -155.603         -51.5407         91.1333         -51.5428         91.1302       -0.0126849         146.727
0.566                   -1.08174        -156.189         -51.3522          88.893         -51.3545         88.8895       -0.0128143         146.655
0.567                   -1.10853        -156.777         -51.1658         86.6441         -51.1683         86.6404       -0.0129451         146.583
0.568                   -1.13584        -157.367         -50.9816          84.387         -50.9842         84.3831       -0.0130776         146.511
0.569                   -1.16365         -157.96         -50.7995         82.1217         -50.8023         82.1176       -0.0132116         146.439
0.57                    -1.19198        -158.555         -50.6197         79.8485         -50.6227         79.8442       -0.0133472         146.367
0.571                   -1.22084        -159.152         -50.4421         77.5676         -50.4453         77.5633       -0.0134844         146.294
0.572                   -1.25023        -159.751         -50.2669         75.2795         -50.2703         75.2751       -0.0136232         146.221
0.573                   -1.28015        -160.353         -50.0941         72.9843         -50.0976         72.9798       -0.0137638         146.149
0.574                   -1.31062        -160.957         -49.9236         70.6824         -49.9273          70.678        -0.013906         146.076
0.575                   -1.34163        -161.563         -49.7556         68.3743         -49.7595         68.3699         -0.01405         146.002
0.576                    -1.3732        -162.172         -49.5901         66.0602         -49.5941         66.0559       -0.0141957         145.929
0.577                   -1.40532        -162.782         -49.4271         63.7407         -49.4312         63.7365       -0.0143433         145.856
0.578                   -1.43802        -163.395         -49.2665         61.4161         -49.2708          61.412       -0.0144926         145.782
0.579                   -1.47128         -164.01         -49.1085          59.087         -49.1129          59.083       -0.0146438         145.708
0.58                    -1.50513        -164.627         -48.9529         56.7537         -48.9575           56.75        -0.014797         145.635
0.581                   -1.53956        -165.247         -48.7999         54.4168         -48.8046         54.4133        -0.014952          145.56
0.582                   -1.57457        -165.868         -48.6494         52.0768         -48.6542         52.0735        -0.015109         145.486
0.583                   -1.61019        -166.492         -48.5014         49.7341         -48.5063         49.7311       -0.0152681         145.412
0.584                   -1.64641        -167.118         -48.3558         47.3892         -48.3608         47.3865       -0.0154291         145.337
0.585                   -1.68324        -167.746         -48.2127         45.0426         -48.2178         45.0402       -0.0155923         145.263
0.586                   -1.72068        -168.376         -48.0721         42.6949         -48.0772         42.6929       -0.0157575         145.188
0.587                   -1.75874        -169.008         -47.9338         40.3465          -47.939         40.3448        -0.015925         145.113
0.588                   -1.79744        -169.643         -47.7978         37.9978         -47.8031         37.9965       -0.0160946         145.037
0.589                   -1.83676        -170.279         -47.6642         35.6494         -47.6695         35.6485       -0.0162665         144.962
0.59                    -1.87673        -170.918         -47.5327         33.3017         -47.5381         33.3012       -0.0164406         144.886
0.591                   -1.91735        -171.558         -47.4035         30.9552         -47.4089         30.9551       -0.0166171         144.811
0.592                   -1.95862        -172.201         -47.2764         28.6102         -47.2818         28.6105        -0.016796         144.735
0.593                   -2.00055        -172.846         -47.1514         26.2672         -47.1568          26.268       -0.0169773         144.659
0.594                   -2.04315        -173.493         -47.0284         23.9266         -47.0338         23.9277       -0.0171611         144.582
0.595                   -2.08643        -174.143         -46.9074         21.5886         -46.9128         21.5902       -0.0173474         144.506
0.596                   -2.13038        -174.794         -46.7882         19.2537         -46.7935         19.2557       -0.0175364         144.429
0.597                   -2.17503        -175.447         -46.6707         16.9222         -46.6761         16.9246       -0.0177279         144.352
0.598                   -2.22037        -176.103          -46.555         14.5943         -46.5604         14.5971       -0.0179222         144.275
0.599                   -2.26642         -176.76         -46.4409         12.2703         -46.4463         12.2735       -0.0181192         144.198
0.6                     -2.31318         -177.42         -46.3284         9.95044         -46.3337         9.95405        -0.018319         144.121
0.601                   -2.36066        -178.082         -46.2174         7.63493         -46.2226         7.63892       -0.0185217         144.043
0.602                   -2.40887        -178.746         -46.1077         5.32395         -46.1128          5.3283       -0.0187273         143.965
0.603                   -2.45782        -179.412         -45.9993         3.01765         -46.0044         3.02235        -0.018936         143.887
0.604                   -2.50751          179.92         -45.8922        0.716156         -45.8972        0.721184       -0.0191477         143.809
0.605                   -2.55796          179.25         -45.7861        -1.58043         -45.7911        -1.57509       -0.0193625          143.73
0.606                   -2.60918         178.577         -45.6812        -3.87204          -45.686        -3.86639       -0.0195806         143.652
0.607                   -2.66116         177.903         -45.5772        -6.15862         -45.5819        -6.15269       -0.0198019         143.573
0.608                   -2.71393         177.226          -45.474        -8.44014         -45.4787        -8.43394       -0.0200266         143.494
0.609                    -2.7675         176.547         -45.3717        -10.7166         -45.3763        -10.7102       -0.0202548         143.414
0.61                    -2.82187         175.866         -45.2701         -12.988         -45.2746        -12.9814       -0.0204865         143.335
0.611                   -2.87705         175.183         -45.1692        -15.2544         -45.1736        -15.2476       -0.0207217         143.255
0.612                   -2.93307         174.497         -45.0688        -17.5159         -45.0731        -17.5089       -0.0209607         143.175
0.613                   -2.98992          173.81          -44.969        -19.7726         -44.9732        -19.7653       -0.0212034         143.095
0.614                   -3.04763          173.12         -44.8695        -22.0244         -44.8736        -22.0171       -0.0214501         143.014
0.615                    -3.1062         172.428         -44.7705        -24.2717         -44.7744        -24.2642       -0.0217007         142.934
0.616                   -3.16566         171.733         -44.6717        -26.5145         -44.6755        -26.5069       -0.0219553         142.853
0.617                     -3.226         171.037         -44.5731        -28.7529         -44.5768        -28.7452       -0.0222141         142.771
0.618                   -3.28726         170.338         -44.4747        -30.9871         -44.4783        -30.9793       -0.0224772          142.69
0.619                   -3.34944         169.637         -44.3764        -33.2173         -44.3799        -33.2095       -0.0227447         142.608
0.62                    -3.41257         168.933         -44.2782        -35.4437         -44.2816        -35.4359       -0.0230167         142.526
0.621                   -3.47665         168.227         -44.1799        -37.6665         -44.1832        -37.6586       -0.0232932         142.444
0.622                   -3.54171         167.519         -44.0817        -39.8858         -44.0848         -39.878       -0.0235745         142.362
0.623                   -3.60776         166.808         -43.9833         -42.102         -43.9863        -42.0942       -0.0238607         142.279
0.624                   -3.67484         166.095         -43.8847        -44.3153         -43.8876        -44.3075       -0.0241518         142.196
0.625                   -3.74294         165.379          -43.786        -46.5257         -43.7888         -46.518        -0.024448         142.113
0.626                   -3.81211         164.661          -43.687        -48.7337         -43.6897        -48.7261       -0.0247495         142.029
0.627                   -3.88236         163.941         -43.5878        -50.9395         -43.5903        -50.9319       -0.0250563         141.945
0.628                   -3.95372         163.218         -43.4883        -53.1433         -43.4907        -53.1358       -0.0253687         141.861
0.629                    -4.0262         162.492         -43.3884        -55.3453         -43.3907        -55.3379       -0.0256867         141.777
