! TOUCHSTONE file generated by CST MICROWAVE STUDIO
! Date and time: Fri Oct  2 19:16:34 2020
! Project name: Scenario_1_Free_Space_out_of_line.cst
! Parameters = {Lambda=346.42; Step_1=17.321; dy1=-276.636; dx1=866; L_HA=400; MT=2.54; Rad_Dielectric=30; Rad_Lower=7.3; Rad_Upper=30; a_HA=580; a_WG=246; b_HA=500; b_WG=121; c_HA=0; c_WG=187; d_feed=85; h_feed=15; h_lower=18; h_upper=40}
! Header version: 2018
! Port assignment regex: !\s*Touchstone port\s*([0-9]+)\s*=\s*(CST MWS port|CST DS port)\s*([0-9]+|Zmin|Zmax)\s*\(\"(.*)\"\)(\s*mode\s*([0-9]+))?.*
! Touchstone port assignment:
! Touchstone port 1 = CST MWS port 1 ("")
! Touchstone port 2 = CST MWS port 2 ("")
# GHz S DB R 50
0.5                    -0.148099        -122.626         -64.7283         132.424         -64.7283         132.424      -0.00662372         151.141
0.501                   -0.15385         -123.08         -64.4997         130.906         -64.4979         130.877      -0.00668987         151.076
0.502                  -0.159839        -123.537         -64.2718         129.345         -64.2684         129.289       -0.0067568          151.01
0.503                  -0.166065        -123.995         -64.0445         127.742         -64.0397          127.66      -0.00682452         150.945
0.504                  -0.172532        -124.455         -63.8181         126.097         -63.8121         125.992      -0.00689304         150.879
0.505                  -0.179241        -124.916         -63.5924         124.411         -63.5854         124.283      -0.00696235         150.813
0.506                  -0.186194        -125.379         -63.3675         122.685         -63.3597         122.536      -0.00703246         150.748
0.507                  -0.193391        -125.844         -63.1436          120.92         -63.1351         120.751      -0.00710336         150.682
0.508                  -0.200836         -126.31         -62.9207         119.115         -62.9116         118.929      -0.00717508         150.616
0.509                   -0.20853        -126.778         -62.6987         117.272         -62.6892          117.07       -0.0072476          150.55
0.51                   -0.216474        -127.247         -62.4778         115.392          -62.468         115.174      -0.00732094         150.484
0.511                   -0.22467        -127.719          -62.258         113.474          -62.248         113.243      -0.00739509         150.418
0.512                  -0.233119        -128.191         -62.0393         111.521         -62.0293         111.277      -0.00747007         150.351
0.513                  -0.241824        -128.666         -61.8219         109.532         -61.8119         109.278      -0.00754587         150.285
0.514                  -0.250786        -129.142         -61.6057         107.508         -61.5958         107.245       -0.0076225         150.219
0.515                  -0.260006         -129.62         -61.3908          105.45         -61.3811         105.179      -0.00769997         150.152
0.516                  -0.269486        -130.099         -61.1772          103.36         -61.1678         103.082      -0.00777828         150.086
0.517                  -0.279227         -130.58         -60.9651         101.237         -60.9559         100.953      -0.00785743         150.019
0.518                  -0.289232        -131.063         -60.7544         99.0827         -60.7456         98.7945      -0.00793743         149.952
0.519                  -0.299501        -131.547         -60.5452          96.898         -60.5369         96.6065      -0.00801828         149.885
0.52                   -0.310036        -132.033         -60.3376         94.6838         -60.3297         94.3901          -0.0081         149.818
0.521                  -0.320838        -132.521         -60.1315         92.4409         -60.1241         92.1462      -0.00818259         149.751
0.522                  -0.331909         -133.01         -59.9271         90.1704         -59.9202         89.8756      -0.00826604         149.684
0.523                  -0.343251        -133.501         -59.7244         87.8732          -59.718         87.5793      -0.00835038         149.617
0.524                  -0.354864        -133.994         -59.5234         85.5504         -59.5176         85.2583       -0.0084356          149.55
0.525                   -0.36675        -134.488         -59.3241          83.203         -59.3189         82.9135      -0.00852171         149.482
0.526                  -0.378911        -134.984         -59.1266         80.8321          -59.122          80.546      -0.00860872         149.415
0.527                  -0.391347        -135.482          -58.931         78.4388         -58.9269         78.1569      -0.00869664         149.348
0.528                  -0.404061        -135.981         -58.7372          76.024         -58.7337         75.7471      -0.00878547          149.28
0.529                  -0.417053        -136.482         -58.5453         73.5891         -58.5423         73.3178      -0.00887522         149.212
0.53                   -0.430326        -136.985         -58.3553         71.1351         -58.3529           70.87       -0.0089659         149.144
0.531                  -0.443879        -137.489         -58.1672         68.6631         -58.1653         68.4047      -0.00905752         149.076
0.532                  -0.457715        -137.996         -57.9811         66.1744         -57.9796         65.9232      -0.00915009         149.008
0.533                  -0.471835        -138.504         -57.7968           63.67         -57.7959         63.4265       -0.0092436          148.94
0.534                   -0.48624        -139.013         -57.6146         61.1511          -57.614         60.9156      -0.00933808         148.872
0.535                  -0.500931        -139.525         -57.4342         58.6189         -57.4341         58.3918      -0.00943354         148.804
0.536                   -0.51591        -140.038         -57.2558         56.0744          -57.256          55.856      -0.00952998         148.735
0.537                  -0.531178        -140.553         -57.0793         53.5189         -57.0799         53.3094      -0.00962741         148.667
0.538                  -0.546737        -141.069         -56.9047         50.9535         -56.9056         50.7531      -0.00972584         148.598
0.539                  -0.562588        -141.588          -56.732         48.3792         -56.7332          48.188      -0.00982529          148.53
0.54                   -0.578731        -142.108         -56.5611         45.7971         -56.5626         45.6152      -0.00992576         148.461
0.541                  -0.595169         -142.63         -56.3921         43.2083         -56.3938         43.0357       -0.0100273         148.392
0.542                  -0.611903        -143.154         -56.2248         40.6138         -56.2267         40.4506       -0.0101298         148.323
0.543                  -0.628935         -143.68         -56.0593         38.0146         -56.0614         37.8606       -0.0102335         148.254
0.544                  -0.646265        -144.208         -55.8955         35.4116         -55.8977         35.2668       -0.0103382         148.184
0.545                  -0.663895        -144.737         -55.7334         32.8058         -55.7356         32.6701       -0.0104439         148.115
0.546                  -0.681827        -145.268         -55.5729          30.198         -55.5752         30.0712       -0.0105508         148.046
0.547                  -0.700063        -145.802         -55.4139          27.589         -55.4162          27.471       -0.0106589         147.976
0.548                  -0.718603        -146.337         -55.2564         24.9797         -55.2588         24.8703        -0.010768         147.906
0.549                   -0.73745        -146.874         -55.1004         22.3708         -55.1027         22.2697       -0.0108783         147.837
0.55                   -0.756606        -147.413         -54.9457          19.763         -54.9481         19.6699       -0.0109898         147.767
0.551                  -0.776072        -147.955         -54.7924         17.1569         -54.7947         17.0716       -0.0111024         147.697
0.552                   -0.79585        -148.498         -54.6403         14.5531         -54.6425         14.4754       -0.0112163         147.626
0.553                  -0.815943        -149.043         -54.4895         11.9522         -54.4916         11.8818       -0.0113313         147.556
0.554                  -0.836352         -149.59         -54.3397         9.35475         -54.3417         9.29122       -0.0114476         147.486
0.555                  -0.857079         -150.14          -54.191         6.76111         -54.1929          6.7042       -0.0115652         147.415
0.556                  -0.878128        -150.691         -54.0433         4.17174         -54.0451         4.12111       -0.0116841         147.345
0.557                    -0.8995        -151.245         -53.8966         1.58697         -53.8982         1.54232       -0.0118042         147.274
0.558                  -0.921198        -151.801         -53.7507       -0.992852         -53.7522        -1.03187       -0.0119257         147.203
0.559                  -0.943225        -152.359         -53.6056        -3.56747          -53.607        -3.60119       -0.0120485         147.132
0.56                   -0.965585         -152.92         -53.4613        -6.13667         -53.4625         -6.1654       -0.0121727         147.061
0.561                  -0.988279        -153.482         -53.3177        -8.70024         -53.3187        -8.72431       -0.0122983          146.99
0.562                   -1.01131        -154.047         -53.1747        -11.2581         -53.1755        -11.2778       -0.0124254         146.918
0.563                   -1.03469        -154.615         -53.0323          -13.81          -53.033        -13.8257       -0.0125538         146.847
0.564                   -1.05841        -155.185         -52.8904         -16.356         -52.8909         -16.368       -0.0126838         146.775
0.565                   -1.08248        -155.757         -52.7489         -18.896         -52.7493        -18.9046       -0.0128153         146.703
0.566                   -1.10691        -156.332         -52.6079        -21.4301         -52.6082        -21.4356       -0.0129483         146.631
0.567                    -1.1317         -156.91         -52.4673        -23.9582         -52.4674        -23.9608       -0.0130829         146.559
0.568                   -1.15685         -157.49          -52.327        -26.4805          -52.327        -26.4805       -0.0132191         146.487
0.569                   -1.18237        -158.073          -52.187        -28.9969         -52.1869        -28.9946        -0.013357         146.415
0.57                    -1.20827        -158.658         -52.0473        -31.5077          -52.047        -31.5034       -0.0134965         146.342
0.571                   -1.23455        -159.246         -51.9078        -34.0129         -51.9074        -34.0068       -0.0136378          146.27
0.572                   -1.26122        -159.838         -51.7685        -36.5128          -51.768         -36.505       -0.0137809         146.197
0.573                   -1.28829        -160.432         -51.6293        -39.0074         -51.6287        -38.9982       -0.0139257         146.124
0.574                   -1.31576        -161.029         -51.4902        -41.4971         -51.4895        -41.4867       -0.0140724         146.051
0.575                   -1.34364        -161.629         -51.3513        -43.9819         -51.3505        -43.9705       -0.0142209         145.978
0.576                   -1.37195        -162.232         -51.2124        -46.4622         -51.2116        -46.4499       -0.0143715         145.904
0.577                   -1.40069        -162.838         -51.0736        -48.9381         -51.0727        -48.9252       -0.0145239         145.831
0.578                   -1.42987        -163.447         -50.9348          -51.41         -50.9339        -51.3965       -0.0146785         145.757
0.579                    -1.4595         -164.06         -50.7961         -53.878         -50.7951        -53.8642       -0.0148351         145.683
0.58                     -1.4896        -164.676         -50.6574        -56.3425         -50.6564        -56.3284       -0.0149939         145.609
0.581                   -1.52017        -165.296         -50.5187        -58.8037         -50.5176        -58.7895       -0.0151548         145.535
0.582                   -1.55124        -165.919         -50.3801        -61.2619         -50.3789        -61.2477        -0.015318         145.461
0.583                   -1.58281        -166.545         -50.2414        -63.7174         -50.2402        -63.7033       -0.0154836         145.386
0.584                    -1.6149        -167.176         -50.1027        -66.1704         -50.1016        -66.1565       -0.0156515         145.312
0.585                   -1.64753         -167.81          -49.964        -68.6213         -49.9629        -68.6076       -0.0158218         145.237
0.586                   -1.68071        -168.447         -49.8254        -71.0704         -49.8242         -71.057       -0.0159947         145.162
0.587                   -1.71447        -169.089         -49.6867        -73.5179         -49.6856        -73.5049       -0.0161701         145.087
0.588                   -1.74882        -169.734         -49.5481        -75.9641          -49.547        -75.9515       -0.0163481         145.011
0.589                   -1.78379        -170.384         -49.4095        -78.4092         -49.4084        -78.3971       -0.0165289         144.936
0.59                    -1.81939        -171.037         -49.2709        -80.8536         -49.2698         -80.842       -0.0167124          144.86
0.591                   -1.85565        -171.695         -49.1324        -83.2976         -49.1314        -83.2865       -0.0168988         144.784
0.592                    -1.8926        -172.357          -48.994        -85.7413          -48.993        -85.7308       -0.0170881         144.708
0.593                   -1.93026        -173.023         -48.8557        -88.1851         -48.8547        -88.1751       -0.0172804         144.632
0.594                   -1.96866        -173.693         -48.7174        -90.6291         -48.7165        -90.6197       -0.0174758         144.556
0.595                   -2.00782        -174.368         -48.5793        -93.0736         -48.5784        -93.0648       -0.0176744         144.479
0.596                   -2.04779        -175.047         -48.4414        -95.5189         -48.4405        -95.5107       -0.0178761         144.402
0.597                    -2.0886         -175.73         -48.3036        -97.9651         -48.3027        -97.9575       -0.0180812         144.325
0.598                   -2.13027        -176.418          -48.166        -100.412         -48.1652        -100.405       -0.0182896         144.248
0.599                   -2.17284        -177.111         -48.0286        -102.861         -48.0278        -102.855       -0.0185015         144.171
0.6                     -2.21635        -177.807         -47.8914        -105.311         -47.8907        -105.305        -0.018717         144.093
0.601                   -2.26084        -178.509         -47.7545        -107.763         -47.7539        -107.758        -0.018936         144.016
0.602                   -2.30635        -179.214          -47.618        -110.217         -47.6174        -110.212       -0.0191586         143.938
0.603                   -2.35291        -179.924         -47.4817        -112.673         -47.4812        -112.668        -0.019385          143.86
0.604                   -2.40058         179.361         -47.3458         -115.13         -47.3453        -115.126       -0.0196152         143.781
0.605                    -2.4494         178.643         -47.2103         -117.59         -47.2098        -117.587       -0.0198492         143.703
0.606                    -2.4994          177.92         -47.0751        -120.053         -47.0747        -120.049       -0.0200871         143.624
0.607                   -2.55064         177.193         -46.9404        -122.517         -46.9401        -122.514       -0.0203289         143.545
0.608                   -2.60316         176.462         -46.8062        -124.984         -46.8059        -124.982       -0.0205748         143.466
0.609                     -2.657         175.727         -46.6725        -127.454         -46.6722        -127.451       -0.0208246         143.386
0.61                    -2.71222         174.989         -46.5392        -129.925          -46.539        -129.924       -0.0210785         143.307
0.611                   -2.76886         174.247         -46.4066          -132.4         -46.4064        -132.398       -0.0213364         143.227
0.612                   -2.82696         173.502         -46.2745        -134.877         -46.2743        -134.875       -0.0215984         143.147
0.613                   -2.88657         172.754          -46.143        -137.356         -46.1428        -137.355       -0.0218645         143.067
0.614                   -2.94772         172.003         -46.0121        -139.838          -46.012        -139.837       -0.0221347         142.986
0.615                   -3.01048          171.25         -45.8818        -142.322         -45.8817        -142.321       -0.0224089         142.906
0.616                   -3.07486         170.495         -45.7522        -144.808         -45.7522        -144.808       -0.0226872         142.825
0.617                   -3.14091         169.738         -45.6233        -147.297         -45.6233        -147.297       -0.0229695         142.744
0.618                   -3.20865          168.98         -45.4952        -149.788         -45.4951        -149.788       -0.0232558         142.662
0.619                   -3.27813          168.22         -45.3677        -152.281         -45.3677        -152.281       -0.0235461         142.581
0.62                    -3.34937         167.461          -45.241        -154.776          -45.241        -154.776       -0.0238404         142.499
0.621                   -3.42238         166.701          -45.115        -157.273          -45.115        -157.272       -0.0241385         142.417
0.622                   -3.49718         165.941         -44.9898        -159.771         -44.9898        -159.771       -0.0244404         142.334
0.623                   -3.57378         165.182         -44.8654        -162.271         -44.8654        -162.271       -0.0247462         142.252
0.624                    -3.6522         164.424         -44.7418        -164.772         -44.7418        -164.772       -0.0250557         142.169
0.625                   -3.73242         163.668          -44.619        -167.275          -44.619        -167.275       -0.0253689         142.086
0.626                   -3.81444         162.915         -44.4969        -169.779         -44.4969        -169.779       -0.0256858         142.002
0.627                   -3.89825         162.163         -44.3757        -172.283         -44.3757        -172.283       -0.0260064         141.919
0.628                   -3.98383         161.415         -44.2553        -174.789         -44.2553        -174.789       -0.0263306         141.835
0.629                   -4.07115         160.671         -44.1357        -177.295         -44.1356        -177.295       -0.0266584         141.751
