! TOUCHSTONE file generated by CST MICROWAVE STUDIO
! Date and time: Fri Oct  2 19:02:30 2020
! Project name: Scenario_1_Free_Space_out_of_line.cst
! Parameters = {Lambda=346.42; Step_1=17.321; dy1=-276.636; dx1=1039; L_HA=400; MT=2.54; Rad_Dielectric=30; Rad_Lower=7.3; Rad_Upper=30; a_HA=580; a_WG=246; b_HA=500; b_WG=121; c_HA=0; c_WG=187; d_feed=85; h_feed=15; h_lower=18; h_upper=40}
! Header version: 2018
! Port assignment regex: !\s*Touchstone port\s*([0-9]+)\s*=\s*(CST MWS port|CST DS port)\s*([0-9]+|Zmin|Zmax)\s*\(\"(.*)\"\)(\s*mode\s*([0-9]+))?.*
! Touchstone port assignment:
! Touchstone port 1 = CST MWS port 1 ("")
! Touchstone port 2 = CST MWS port 2 ("")
# GHz S DB R 50
0.5                    -0.149008        -122.572         -65.2627         36.9457         -65.2627         36.9457      -0.00668349         151.147
0.501                  -0.153944        -123.012         -65.1364          34.616         -65.1365         34.6174       -0.0067411         151.081
0.502                  -0.159066        -123.454         -65.0063         32.2734         -65.0065         32.2761      -0.00679955         151.016
0.503                  -0.164378        -123.898         -64.8724         29.9185         -64.8728         29.9224      -0.00685885          150.95
0.504                  -0.169885        -124.345         -64.7348         27.5519         -64.7352          27.557        -0.006919         150.885
0.505                   -0.17559        -124.793         -64.5935         25.1742          -64.594         25.1803      -0.00698001         150.819
0.506                  -0.181497        -125.244         -64.4485         22.7858         -64.4491         22.7929      -0.00704189         150.754
0.507                   -0.18761        -125.696         -64.2998         20.3874         -64.3006         20.3954      -0.00710463         150.688
0.508                  -0.193934        -126.151         -64.1477         17.9794         -64.1485         17.9883      -0.00716825         150.622
0.509                  -0.200471        -126.608          -63.992         15.5622          -63.993          15.572      -0.00723276         150.556
0.51                   -0.207227        -127.067          -63.833         13.1365          -63.834         13.1469      -0.00729816          150.49
0.511                  -0.214205        -127.529         -63.6707         10.7025         -63.6718         10.7136      -0.00736446         150.424
0.512                   -0.22141        -127.992         -63.5051         8.26072         -63.5064         8.27241      -0.00743167         150.358
0.513                  -0.228846        -128.458         -63.3365         5.81145         -63.3378         5.82367      -0.00749979         150.291
0.514                  -0.236517        -128.926         -63.1648         3.35504         -63.1662         3.36773      -0.00756883         150.225
0.515                  -0.244428        -129.396         -62.9902        0.891788         -62.9917        0.904883       -0.0076388         150.159
0.516                  -0.252582        -129.868         -62.8129        -1.57805         -62.8144        -1.56461      -0.00770971         150.092
0.517                  -0.260985        -130.343         -62.6328        -4.05425         -62.6344        -4.04051      -0.00778157         150.026
0.518                  -0.269641         -130.82         -62.4502        -6.53661         -62.4518        -6.52263      -0.00785438         149.959
0.519                  -0.278554        -131.299         -62.2651        -9.02497         -62.2668         -9.0108      -0.00792815         149.892
0.52                   -0.287728         -131.78         -62.0778        -11.5192         -62.0795        -11.5049       -0.0080029         149.825
0.521                  -0.297169        -132.263         -61.8882        -14.0192         -61.8899        -14.0048      -0.00807863         149.758
0.522                  -0.306881        -132.749         -61.6966        -16.5249         -61.6984        -16.5104      -0.00815534         149.691
0.523                  -0.316868        -133.237         -61.5031        -19.0362         -61.5049        -19.0218      -0.00823306         149.624
0.524                  -0.327135        -133.727         -61.3078        -21.5532         -61.3096        -21.5388      -0.00831178         149.557
0.525                  -0.337687         -134.22         -61.1108        -24.0758         -61.1126        -24.0614      -0.00839153          149.49
0.526                  -0.348529        -134.715         -60.9123         -26.604         -60.9141        -26.5898       -0.0084723         149.422
0.527                  -0.359665        -135.212         -60.7125         -29.138         -60.7143        -29.1238      -0.00855411         149.355
0.528                    -0.3711        -135.711         -60.5114        -31.6776         -60.5131        -31.6637      -0.00863696         149.287
0.529                  -0.382839        -136.213         -60.3092        -34.2231         -60.3109        -34.2093      -0.00872088          149.22
0.53                   -0.394886        -136.716          -60.106        -36.7745         -60.1077        -36.7609      -0.00880587         149.152
0.531                  -0.407247        -137.223          -59.902        -39.3318         -59.9037        -39.3185      -0.00889194         149.084
0.532                  -0.419926        -137.731         -59.6973        -41.8952          -59.699        -41.8822       -0.0089791         149.016
0.533                  -0.432928        -138.242          -59.492        -44.4648         -59.4937         -44.452      -0.00906736         148.948
0.534                  -0.446258        -138.754         -59.2864        -47.0406         -59.2879        -47.0281      -0.00915674          148.88
0.535                   -0.45992         -139.27         -59.0804        -49.6227         -59.0819        -49.6106      -0.00924725         148.812
0.536                   -0.47392        -139.787         -58.8743        -52.2112         -58.8757        -52.1994       -0.0093389         148.743
0.537                  -0.488263        -140.307         -58.6681        -54.8062         -58.6695        -54.7948       -0.0094317         148.675
0.538                  -0.502953        -140.829          -58.462        -57.4078         -58.4634        -57.3968      -0.00952566         148.606
0.539                  -0.517996        -141.353         -58.2562         -60.016         -58.2575        -60.0053      -0.00962081         148.538
0.54                   -0.533395        -141.879         -58.0507        -62.6308          -58.052        -62.6206      -0.00971714         148.469
0.541                  -0.549156        -142.408         -57.8457        -65.2523         -57.8469        -65.2424      -0.00981468           148.4
0.542                  -0.565285        -142.939         -57.6413        -67.8804         -57.6424         -67.871      -0.00991344         148.331
0.543                  -0.581785        -143.473         -57.4376        -70.5152         -57.4386        -70.5062       -0.0100134         148.262
0.544                  -0.598661        -144.008         -57.2347        -73.1565         -57.2356         -73.148       -0.0101147         148.193
0.545                  -0.615919        -144.546         -57.0328        -75.8044         -57.0336        -75.7964       -0.0102172         148.123
0.546                  -0.633562        -145.086         -56.8318        -78.4588         -56.8326        -78.4512        -0.010321         148.054
0.547                  -0.651597        -145.628         -56.6321        -81.1195         -56.6327        -81.1123        -0.010426         147.984
0.548                  -0.670028        -146.172         -56.4335        -83.7863         -56.4341        -83.7796       -0.0105324         147.915
0.549                  -0.688858        -146.719         -56.2363        -86.4592         -56.2368         -86.453       -0.0106401         147.845
0.55                   -0.708094        -147.268         -56.0405         -89.138          -56.041        -89.1322       -0.0107492         147.775
0.551                   -0.72774        -147.819         -55.8462        -91.8223         -55.8466        -91.8171       -0.0108596         147.705
0.552                  -0.747799        -148.372         -55.6535        -94.5121         -55.6538        -94.5073       -0.0109714         147.635
0.553                  -0.768278        -148.928         -55.4625         -97.207         -55.4627        -97.2027       -0.0110845         147.565
0.554                   -0.78918        -149.486         -55.2731        -99.9067         -55.2733        -99.9029       -0.0111991         147.495
0.555                  -0.810511        -150.046         -55.0856        -102.611         -55.0857        -102.608       -0.0113152         147.424
0.556                  -0.832273        -150.608         -54.8999        -105.319         -54.8999        -105.317       -0.0114326         147.354
0.557                  -0.854473        -151.172         -54.7161        -108.032          -54.716        -108.029       -0.0115516         147.283
0.558                  -0.877114        -151.738         -54.5342        -110.748         -54.5341        -110.746        -0.011672         147.212
0.559                    -0.9002        -152.307         -54.3543        -113.467         -54.3541        -113.465       -0.0117939         147.141
0.56                   -0.923736        -152.878         -54.1764        -116.188         -54.1762        -116.187       -0.0119174          147.07
0.561                  -0.947726        -153.451         -54.0005        -118.912         -54.0002        -118.912       -0.0120424         146.999
0.562                  -0.972175        -154.026         -53.8267        -121.638         -53.8264        -121.638        -0.012169         146.927
0.563                  -0.997085        -154.603         -53.6549        -124.366         -53.6545        -124.366       -0.0122972         146.856
0.564                   -1.02246        -155.182         -53.4852        -127.094         -53.4847        -127.095        -0.012427         146.784
0.565                   -1.04831        -155.764         -53.3175        -129.824          -53.317        -129.825       -0.0125584         146.713
0.566                   -1.07463        -156.347         -53.1519        -132.553         -53.1514        -132.554       -0.0126916         146.641
0.567                   -1.10143        -156.933         -52.9883        -135.283         -52.9877        -135.284       -0.0128264         146.569
0.568                   -1.12871        -157.521         -52.8267        -138.011         -52.8261        -138.013       -0.0129629         146.497
0.569                   -1.15648        -158.111         -52.6671        -140.739         -52.6665        -140.742       -0.0131011         146.424
0.57                    -1.18473        -158.703         -52.5094        -143.466         -52.5088        -143.469       -0.0132411         146.352
0.571                   -1.21348        -159.297         -52.3536        -146.191          -52.353        -146.194        -0.013383         146.279
0.572                   -1.24272        -159.893         -52.1997        -148.914         -52.1991        -148.918       -0.0135266         146.207
0.573                   -1.27247        -160.492         -52.0477        -151.635          -52.047        -151.639       -0.0136721         146.134
0.574                   -1.30271        -161.092         -51.8974        -154.353         -51.8967        -154.357       -0.0138195         146.061
0.575                   -1.33347        -161.695         -51.7488        -157.069         -51.7481        -157.073       -0.0139687         145.988
0.576                   -1.36473          -162.3         -51.6019        -159.781         -51.6012        -159.785         -0.01412         145.914
0.577                   -1.39651        -162.906         -51.4566         -162.49         -51.4558        -162.494       -0.0142731         145.841
0.578                    -1.4288        -163.515         -51.3128        -165.195         -51.3121        -165.199       -0.0144283         145.767
0.579                   -1.46161        -164.127         -51.1704        -167.896         -51.1697        -167.901       -0.0145856         145.693
0.58                    -1.49495         -164.74         -51.0295        -170.594         -51.0288        -170.598       -0.0147449          145.62
0.581                   -1.52881        -165.355         -50.8899        -173.287         -50.8892        -173.292       -0.0149063         145.546
0.582                   -1.56321        -165.973         -50.7515        -175.977         -50.7509        -175.981       -0.0150699         145.471
0.583                   -1.59813        -166.593         -50.6144        -178.662         -50.6137        -178.667       -0.0152356         145.397
0.584                    -1.6336        -167.214         -50.4783         178.657         -50.4777         178.653       -0.0154036         145.322
0.585                    -1.6696        -167.839         -50.3433         175.981         -50.3427         175.976       -0.0155738         145.248
0.586                   -1.70614        -168.465         -50.2092         173.308         -50.2086         173.304       -0.0157463         145.173
0.587                   -1.74324        -169.094         -50.0761          170.64         -50.0755         170.636       -0.0159212         145.098
0.588                   -1.78088        -169.725         -49.9438         167.977         -49.9432         167.972       -0.0160984         145.022
0.589                   -1.81908        -170.358         -49.8122         165.317         -49.8116         165.312       -0.0162781         144.947
0.59                    -1.85783        -170.994         -49.6813         162.661         -49.6808         162.657       -0.0164602         144.871
0.591                   -1.89715        -171.632         -49.5511         160.009         -49.5505         160.005       -0.0166449         144.796
0.592                   -1.93704        -172.272         -49.4214         157.361         -49.4209         157.357       -0.0168321          144.72
0.593                    -1.9775        -172.915         -49.2922         154.717         -49.2917         154.713        -0.017022         144.644
0.594                   -2.01853         -173.56         -49.1634         152.076          -49.163         152.072       -0.0172145         144.567
0.595                   -2.06015        -174.208          -49.035         149.438         -49.0346         149.434       -0.0174098         144.491
0.596                   -2.10236        -174.859          -48.907         146.804         -48.9066           146.8       -0.0176079         144.414
0.597                   -2.14517        -175.512         -48.7792         144.172         -48.7788         144.168       -0.0178087         144.337
0.598                   -2.18858        -176.169         -48.6517         141.542         -48.6513         141.539       -0.0180125          144.26
0.599                   -2.23259        -176.827         -48.5243         138.915          -48.524         138.912       -0.0182193         144.183
0.6                     -2.27723        -177.489         -48.3971         136.291         -48.3968         136.287        -0.018429         144.106
0.601                   -2.32249        -178.154           -48.27         133.667         -48.2697         133.665       -0.0186419         144.028
0.602                    -2.3684        -178.822          -48.143         131.046         -48.1427         131.043       -0.0188579          143.95
0.603                   -2.41495        -179.493         -48.0159         128.426         -48.0157         128.423       -0.0190772         143.872
0.604                   -2.46216         179.833         -47.8889         125.806         -47.8887         125.804       -0.0192997         143.794
0.605                   -2.51005         179.155         -47.7619         123.188         -47.7617         123.185       -0.0195257         143.715
0.606                   -2.55863         178.474         -47.6348         120.569         -47.6346         120.567       -0.0197551         143.637
0.607                   -2.60791          177.79         -47.5077         117.951         -47.5075         117.949        -0.019988         143.558
0.608                   -2.65792         177.101         -47.3804         115.333         -47.3803         115.331       -0.0202246         143.479
0.609                   -2.70867         176.409         -47.2531         112.714          -47.253         112.713       -0.0204648           143.4
0.61                    -2.76018         175.713         -47.1257         110.095         -47.1256         110.093       -0.0207089          143.32
0.611                   -2.81248         175.013         -46.9982         107.474          -46.998         107.473       -0.0209569          143.24
0.612                    -2.8656         174.309         -46.8705         104.852         -46.8704         104.851        -0.021209          143.16
0.613                   -2.91955         173.601         -46.7428         102.229         -46.7427         102.228       -0.0214651          143.08
0.614                   -2.97438         172.888          -46.615         99.6037         -46.6148          99.603       -0.0217254             143
0.615                   -3.03012          172.17          -46.487         96.9763         -46.4869         96.9757       -0.0219901         142.919
0.616                    -3.0868         171.448          -46.359         94.3465         -46.3589         94.3461       -0.0222593         142.838
0.617                   -3.14446         170.721         -46.2309         91.7142         -46.2308         91.7139       -0.0225331         142.757
0.618                   -3.20315         169.989         -46.1027         89.0791         -46.1026         89.0789       -0.0228115         142.676
0.619                   -3.26292         169.252         -45.9745         86.4409         -45.9744         86.4409       -0.0230948         142.594
0.62                    -3.32382         168.509         -45.8462         83.7995         -45.8462         83.7996       -0.0233832         142.512
0.621                   -3.38589         167.762          -45.718         81.1547         -45.7179         81.1549       -0.0236766          142.43
0.622                   -3.44922         167.009         -45.5898         78.5062         -45.5897         78.5065       -0.0239754         142.348
0.623                   -3.51384          166.25         -45.4616         75.8541         -45.4616         75.8545       -0.0242796         142.265
0.624                   -3.57985         165.486         -45.3335          73.198         -45.3335         73.1985       -0.0245894         142.182
0.625                   -3.64731         164.716         -45.2056         70.5379         -45.2055         70.5385        -0.024905         142.099
0.626                    -3.7163         163.941         -45.0778         67.8737         -45.0777         67.8743       -0.0252265         142.015
0.627                   -3.78691         163.159         -44.9502         65.2053         -44.9501          65.206       -0.0255542         141.932
0.628                   -3.85922         162.373         -44.8228         62.5326         -44.8227         62.5333       -0.0258881         141.848
0.629                   -3.93332         161.581         -44.6956         59.8556         -44.6956         59.8563       -0.0262286         141.764
