! TOUCHSTONE file generated by CST MICROWAVE STUDIO
! Date and time: Fri Oct  2 17:14:45 2020
! Project name: Scenario_1_Free_Space_out_of_line.cst
! Parameters = {Lambda=346.42; Step_1=17.321; dy1=-293.977; dx1=173; L_HA=400; MT=2.54; Rad_Dielectric=30; Rad_Lower=7.3; Rad_Upper=30; a_HA=580; a_WG=246; b_HA=500; b_WG=121; c_HA=0; c_WG=187; d_feed=85; h_feed=15; h_lower=18; h_upper=40}
! Header version: 2018
! Port assignment regex: !\s*Touchstone port\s*([0-9]+)\s*=\s*(CST MWS port|CST DS port)\s*([0-9]+|Zmin|Zmax)\s*\(\"(.*)\"\)(\s*mode\s*([0-9]+))?.*
! Touchstone port assignment:
! Touchstone port 1 = CST MWS port 1 ("")
! Touchstone port 2 = CST MWS port 2 ("")
# GHz S DB R 50
0.5                     -0.14757        -122.765         -62.0126         136.302           -62.03         136.795      -0.00633484         151.126
0.501                  -0.152708        -123.213         -61.8349         134.838         -61.8639         135.345      -0.00637806         151.061
0.502                  -0.158066        -123.663         -61.6573         133.374         -61.6974         133.894      -0.00642242         150.995
0.503                  -0.163646        -124.115           -61.48          131.91         -61.5304         132.442      -0.00646794          150.93
0.504                   -0.16945        -124.569         -61.3028         130.446         -61.3629         130.988       -0.0065146         150.864
0.505                  -0.175481        -125.025         -61.1259         128.983         -61.1951         129.533      -0.00656241         150.798
0.506                  -0.181743        -125.482         -60.9492         127.518         -61.0268         128.076      -0.00661138         150.733
0.507                  -0.188237        -125.942         -60.7728         126.054         -60.8583         126.618       -0.0066615         150.667
0.508                  -0.194968        -126.404         -60.5967         124.588         -60.6894         125.157      -0.00671277         150.601
0.509                  -0.201937        -126.868         -60.4209         123.122         -60.5203         123.695       -0.0067652         150.535
0.51                   -0.209147        -127.334         -60.2454         121.654         -60.3509          122.23      -0.00681879         150.469
0.511                  -0.216602        -127.802         -60.0702         120.185         -60.1814         120.763      -0.00687353         150.403
0.512                  -0.224304        -128.271         -59.8954         118.714         -60.0116         119.293      -0.00692944         150.336
0.513                  -0.232256        -128.743         -59.7209         117.242         -59.8418         117.822      -0.00698651          150.27
0.514                  -0.240462        -129.217         -59.5469         115.768         -59.6718         116.347      -0.00704474         150.204
0.515                  -0.248923        -129.693         -59.3732         114.291         -59.5017          114.87      -0.00710414         150.137
0.516                  -0.257644        -130.171            -59.2         112.813         -59.3316          113.39       -0.0071647          150.07
0.517                  -0.266627        -130.651         -59.0271         111.332         -59.1615         111.907      -0.00722644         150.004
0.518                  -0.275875        -131.133         -58.8548         109.849         -58.9914          110.42      -0.00728935         149.937
0.519                  -0.285392        -131.617         -58.6828         108.363         -58.8213         108.931      -0.00735343          149.87
0.52                    -0.29518        -132.102         -58.5114         106.874         -58.6513         107.439      -0.00741869         149.803
0.521                  -0.305242         -132.59         -58.3405         105.382         -58.4815         105.943      -0.00748514         149.736
0.522                  -0.315583        -133.081           -58.17         103.888         -58.3117         104.443      -0.00755276         149.669
0.523                  -0.326204        -133.573         -58.0001          102.39         -58.1422         102.941      -0.00762157         149.602
0.524                   -0.33711        -134.067         -57.8307         100.889         -57.9728         101.434      -0.00769157         149.535
0.525                  -0.348303        -134.563         -57.6619          99.385         -57.8037         99.9243      -0.00776277         149.467
0.526                  -0.359787        -135.061         -57.4936         97.8775         -57.6348         98.4105      -0.00783516           149.4
0.527                  -0.371565        -135.562         -57.3259         96.3664         -57.4662         96.8929      -0.00790875         149.332
0.528                  -0.383641        -136.064         -57.1588         94.8519         -57.2979         95.3715      -0.00798355         149.264
0.529                  -0.396017        -136.568         -56.9923         93.3338           -57.13         93.8462      -0.00805955         149.197
0.53                   -0.408698        -137.075         -56.8264         91.8121         -56.9624         92.3169      -0.00813677         149.129
0.531                  -0.421686        -137.584         -56.6612         90.2866         -56.7953         90.7836      -0.00821521         149.061
0.532                  -0.434986        -138.094         -56.4966         88.7575         -56.6285         89.2463      -0.00829487         148.993
0.533                    -0.4486        -138.607         -56.3327         87.2246         -56.4623         87.7049      -0.00837577         148.925
0.534                  -0.462533        -139.122         -56.1694         85.6878         -56.2965         86.1594      -0.00845789         148.856
0.535                  -0.476788        -139.639         -56.0069         84.1473         -56.1312         84.6099      -0.00854126         148.788
0.536                  -0.491368        -140.158          -55.845          82.603         -55.9665         83.0563      -0.00862588          148.72
0.537                  -0.506277         -140.68         -55.6839         81.0548         -55.8023         81.4985      -0.00871175         148.651
0.538                   -0.52152        -141.203         -55.5235         79.5028         -55.6388         79.9367      -0.00879889         148.582
0.539                  -0.537099        -141.728         -55.3638          77.947         -55.4758         78.3707      -0.00888729         148.514
0.54                   -0.553019        -142.256         -55.2049         76.3873         -55.3135         76.8007      -0.00897697         148.445
0.541                  -0.569283        -142.786         -55.0467         74.8239         -55.1519         75.2267      -0.00906794         148.376
0.542                  -0.585895        -143.318         -54.8893         73.2567         -54.9909         73.6486       -0.0091602         148.307
0.543                   -0.60286        -143.852         -54.7327         71.6858         -54.8307         72.0666      -0.00925377         148.238
0.544                  -0.620181        -144.388         -54.5769         70.1112         -54.6711         70.4807      -0.00934865         148.168
0.545                  -0.637863        -144.926         -54.4219         68.5329         -54.5124         68.8909      -0.00944486         148.099
0.546                  -0.655908        -145.467         -54.2677          66.951         -54.3544         67.2973       -0.0095424         148.029
0.547                  -0.674323        -146.009         -54.1143         65.3656         -54.1972         65.6999      -0.00964129          147.96
0.548                   -0.69311        -146.554         -53.9618         63.7767         -54.0408         64.0989      -0.00974154          147.89
0.549                  -0.712275        -147.101         -53.8101         62.1844         -53.8853         62.4943      -0.00984316          147.82
0.55                   -0.731821        -147.651         -53.6592         60.5888         -53.7306         60.8862      -0.00994617          147.75
0.551                  -0.751753        -148.202         -53.5092         58.9899         -53.5768         59.2746       -0.0100506          147.68
0.552                  -0.772075        -148.755         -53.3601         57.3878         -53.4238         57.6598       -0.0101564          147.61
0.553                  -0.792792        -149.311         -53.2118         55.7826         -53.2718         56.0417       -0.0102636          147.54
0.554                  -0.813909        -149.869         -53.0644         54.1744         -53.1206         54.4205       -0.0103723         147.469
0.555                   -0.83543        -150.429         -52.9178         52.5632         -52.9704         52.7964       -0.0104825         147.399
0.556                  -0.857359        -150.992         -52.7722         50.9493         -52.8211         51.1693       -0.0105941         147.328
0.557                  -0.879703        -151.556         -52.6274         49.3326         -52.6728         49.5395       -0.0107073         147.257
0.558                  -0.902465        -152.123         -52.4834         47.7133         -52.5254          47.907       -0.0108219         147.186
0.559                  -0.925651        -152.692         -52.3404         46.0915         -52.3789         46.2721       -0.0109381         147.115
0.56                   -0.949265        -153.264         -52.1982         44.4672         -52.2334         44.6347       -0.0110559         147.044
0.561                  -0.973313        -153.837         -52.0569         42.8407         -52.0889         42.9951       -0.0111752         146.973
0.562                    -0.9978        -154.413         -51.9165          41.212         -51.9454         41.3533       -0.0112961         146.901
0.563                   -1.02273        -154.991          -51.777         39.5811         -51.8028         39.7096       -0.0114187          146.83
0.564                   -1.04811        -155.571         -51.6383         37.9483         -51.6612          38.064       -0.0115429         146.758
0.565                   -1.07395        -156.154         -51.5005         36.3137         -51.5205         36.4168       -0.0116688         146.686
0.566                   -1.10025        -156.739         -51.3635         34.6773         -51.3809         34.7679       -0.0117964         146.614
0.567                   -1.12701        -157.326         -51.2274         33.0393         -51.2422         33.1176       -0.0119257         146.542
0.568                   -1.15425        -157.916         -51.0921         31.3997         -51.1044          31.466       -0.0120568          146.47
0.569                   -1.18197        -158.507         -50.9577         29.7588         -50.9676         29.8132       -0.0121897         146.398
0.57                    -1.21017        -159.101         -50.8241         28.1165         -50.8318         28.1594       -0.0123244         146.325
0.571                   -1.23886        -159.698         -50.6913          26.473         -50.6969         26.5048       -0.0124609         146.252
0.572                   -1.26805        -160.296         -50.5594         24.8285          -50.563         24.8493       -0.0125994          146.18
0.573                   -1.29774        -160.897         -50.4282          23.183           -50.43         23.1932       -0.0127398         146.107
0.574                   -1.32794        -161.501         -50.2979         21.5366         -50.2979         21.5366       -0.0128822         146.033
0.575                   -1.35866        -162.106         -50.1683         19.8894         -50.1667         19.8796       -0.0130265          145.96
0.576                    -1.3899        -162.714         -50.0394         18.2416         -50.0363         18.2223       -0.0131729         145.887
0.577                   -1.42167        -163.325         -49.9114         16.5931         -49.9069         16.5649       -0.0133214         145.813
0.578                   -1.45398        -163.937          -49.784         14.9442         -49.7783         14.9074        -0.013472          145.74
0.579                   -1.48684        -164.553         -49.6574         13.2949         -49.6506           13.25       -0.0136248         145.666
0.58                    -1.52024         -165.17         -49.5315         11.6452         -49.5237         11.5927       -0.0137798         145.592
0.581                   -1.55421         -165.79         -49.4063         9.99528         -49.3976         9.93567       -0.0139371         145.517
0.582                   -1.58875        -166.412         -49.2818         8.34519         -49.2723         8.27898       -0.0140967         145.443
0.583                   -1.62386        -167.037          -49.158         6.69501         -49.1477         6.62271       -0.0142587         145.369
0.584                   -1.65956        -167.664         -49.0348         5.04479          -49.024         4.96694       -0.0144231         145.294
0.585                   -1.69584        -168.293         -48.9122          3.3946         -48.9009         3.31173         -0.01459         145.219
0.586                   -1.73273        -168.925         -48.7903         1.74449         -48.7786         1.65716       -0.0147594         145.144
0.587                   -1.77023        -169.559         -48.6689       0.0945155          -48.657      0.00328304       -0.0149313         145.069
0.588                   -1.80835        -170.195         -48.5482        -1.55527          -48.536        -1.64985        -0.015106         144.993
0.589                   -1.84709        -170.834         -48.4279        -3.20484         -48.4157        -3.30219       -0.0152833         144.918
0.59                    -1.88647        -171.476         -48.3083        -4.85415         -48.2961        -4.95371       -0.0154635         144.842
0.591                    -1.9265         -172.12         -48.1892        -6.50316          -48.177        -6.60436       -0.0156464         144.766
0.592                   -1.96718        -172.766         -48.0706        -8.15186         -48.0585        -8.25413       -0.0158323          144.69
0.593                   -2.00853        -173.415         -47.9525        -9.80022         -47.9406        -9.90299       -0.0160212         144.614
0.594                   -2.05056        -174.066         -47.8348        -11.4482         -47.8232        -11.5509       -0.0162131         144.538
0.595                   -2.09327         -174.72         -47.7177        -13.0959         -47.7064         -13.198       -0.0164082         144.461
0.596                   -2.13669        -175.376         -47.6009        -14.7431           -47.59        -14.8441       -0.0166064         144.384
0.597                   -2.18081        -176.034         -47.4846          -16.39         -47.4742        -16.4892       -0.0168079         144.307
0.598                   -2.22565        -176.695         -47.3688        -18.0366         -47.3588        -18.1335       -0.0170128          144.23
0.599                   -2.27122        -177.358         -47.2533        -19.6828         -47.2438         -19.777       -0.0172211         144.153
0.6                     -2.31754        -178.024         -47.1382        -21.3286         -47.1292        -21.4195        -0.017433         144.075
0.601                   -2.36461        -178.693         -47.0234        -22.9742         -47.0151        -23.0613       -0.0176484         143.997
0.602                   -2.41245        -179.363          -46.909        -24.6194         -46.9013        -24.7022       -0.0178676         143.919
0.603                   -2.46107         179.964          -46.795        -26.2644         -46.7879        -26.3424       -0.0180905         143.841
0.604                   -2.51049         179.288         -46.6813        -27.9091         -46.6748         -27.982       -0.0183173         143.763
0.605                   -2.56071          178.61         -46.5678        -29.5537          -46.562        -29.6209       -0.0185481         143.684
0.606                   -2.61176         177.929         -46.4547        -31.1981         -46.4495        -31.2592        -0.018783         143.605
0.607                   -2.66364         177.247         -46.3419        -32.8423         -46.3374        -32.8971        -0.019022         143.526
0.608                   -2.71637         176.561         -46.2293        -34.4866         -46.2255        -34.5345       -0.0192653         143.447
0.609                   -2.76997         175.874          -46.117        -36.1308         -46.1138        -36.1715       -0.0195129         143.368
0.61                    -2.82445         175.184         -46.0049        -37.7751         -46.0024        -37.8083        -0.019765         143.288
0.611                   -2.87982         174.491         -45.8931        -39.4196         -45.8912        -39.4448       -0.0200216         143.208
0.612                   -2.93611         173.796         -45.7815        -41.0642         -45.7802        -41.0813        -0.020283         143.128
0.613                   -2.99332         173.099         -45.6701         -42.709         -45.6695        -42.7177       -0.0205491         143.048
0.614                   -3.05148         172.399         -45.5589        -44.3542         -45.5589        -44.3542         -0.02082         142.967
0.615                   -3.11061         171.698         -45.4479        -45.9998         -45.4485        -45.9909        -0.021096         142.886
0.616                   -3.17071         170.993         -45.3372        -47.6459         -45.3383        -47.6279       -0.0213771         142.805
0.617                   -3.23181         170.287         -45.2266        -49.2925         -45.2282        -49.2652       -0.0216634         142.724
0.618                   -3.29393         169.578         -45.1162        -50.9397         -45.1183         -50.903       -0.0219549         142.643
0.619                   -3.35709         168.867          -45.006        -52.5876         -45.0086        -52.5414        -0.022252         142.561
0.62                     -3.4213         168.154          -44.896        -54.2364         -44.8989        -54.1804       -0.0225545         142.479
0.621                   -3.48659         167.439         -44.7862         -55.886         -44.7895        -55.8203       -0.0228628         142.397
0.622                   -3.55298         166.721         -44.6765        -57.5365         -44.6801        -57.4611       -0.0231768         142.314
0.623                   -3.62048         166.002          -44.567        -59.1881         -44.5709        -59.1029       -0.0234966         142.231
0.624                   -3.68912          165.28         -44.4577        -60.8408         -44.4619        -60.7458       -0.0238225         142.148
0.625                   -3.75893         164.556         -44.3486        -62.4948         -44.3529        -62.3899       -0.0241545         142.065
0.626                   -3.82992         163.831         -44.2397          -64.15         -44.2441        -64.0355       -0.0244927         141.982
0.627                   -3.90212         163.103         -44.1309        -65.8066         -44.1355        -65.6824       -0.0248372         141.898
0.628                   -3.97555         162.374         -44.0223        -67.4647         -44.0269        -67.3309       -0.0251882         141.814
0.629                   -4.05023         161.643          -43.914        -69.1243         -43.9186        -68.9811       -0.0255458         141.729
