! TOUCHSTONE file generated by CST MICROWAVE STUDIO
! Date and time: Fri Oct  2 16:19:07 2020
! Project name: Scenario_1_Free_Space_out_of_line.cst
! Parameters = {Lambda=346.42; Step_1=17.321; dy1=-293.977; dx1=346; L_HA=400; MT=2.54; Rad_Dielectric=30; Rad_Lower=7.3; Rad_Upper=30; a_HA=580; a_WG=246; b_HA=500; b_WG=121; c_HA=0; c_WG=187; d_feed=85; h_feed=15; h_lower=18; h_upper=40}
! Header version: 2018
! Port assignment regex: !\s*Touchstone port\s*([0-9]+)\s*=\s*(CST MWS port|CST DS port)\s*([0-9]+|Zmin|Zmax)\s*\(\"(.*)\"\)(\s*mode\s*([0-9]+))?.*
! Touchstone port assignment:
! Touchstone port 1 = CST MWS port 1 ("")
! Touchstone port 2 = CST MWS port 2 ("")
# GHz S DB R 50
0.5                    -0.148736        -122.685         -62.2863         55.2797         -62.2863         55.2797      -0.00675192         151.146
0.501                  -0.156205         -123.13         -62.1442         53.1775         -62.1445         53.1717      -0.00681992         151.081
0.502                  -0.163822        -123.577          -61.998         51.0885         -61.9985         51.0772       -0.0068887         151.016
0.503                  -0.171587        -124.025         -61.8479         49.0134         -61.8486         48.9968      -0.00695829          150.95
0.504                  -0.179501        -124.475         -61.6941         46.9527          -61.695         46.9309      -0.00702868         150.885
0.505                  -0.187567        -124.927         -61.5369         44.9067         -61.5379         44.8801      -0.00709988         150.819
0.506                  -0.195784         -125.38         -61.3765         42.8757         -61.3776         42.8445       -0.0071719         150.754
0.507                  -0.204156        -125.834          -61.213         40.8599         -61.2142         40.8244      -0.00724473         150.688
0.508                  -0.212683         -126.29         -61.0467         38.8595          -61.048           38.82      -0.00731839         150.622
0.509                  -0.221366        -126.748         -60.8778         36.8745         -60.8791         36.8312      -0.00739288         150.557
0.51                   -0.230208        -127.207         -60.7064         34.9048         -60.7077          34.858      -0.00746821         150.491
0.511                   -0.23921        -127.668         -60.5329         32.9503         -60.5341         32.9003      -0.00754438         150.425
0.512                  -0.248374        -128.131         -60.3572         31.0108         -60.3585         30.9578       -0.0076214         150.359
0.513                  -0.257701        -128.595         -60.1797         29.0861         -60.1809         29.0304      -0.00769928         150.292
0.514                  -0.267194        -129.061         -60.0005         27.1758         -60.0016         27.1177      -0.00777802         150.226
0.515                  -0.276855        -129.529         -59.8197         25.2796         -59.8208         25.2193      -0.00785762          150.16
0.516                  -0.286685        -129.998         -59.6376         23.3971         -59.6386         23.3348       -0.0079381         150.093
0.517                  -0.296687         -130.47         -59.4542         21.5278         -59.4551         21.4639      -0.00801946         150.027
0.518                  -0.306863        -130.943         -59.2697         19.6714         -59.2705         19.6059      -0.00810171          149.96
0.519                  -0.317215        -131.417         -59.0843         17.8272          -59.085         17.7605      -0.00818485         149.894
0.52                   -0.327746        -131.894          -58.898         15.9949         -58.8986         15.9272       -0.0082689         149.827
0.521                  -0.338458        -132.373          -58.711         14.1738         -58.7115         14.1052      -0.00835385          149.76
0.522                  -0.349353        -132.853         -58.5234         12.3634         -58.5238         12.2942      -0.00843973         149.693
0.523                  -0.360435        -133.335         -58.3353         10.5632         -58.3357         10.4935      -0.00852653         149.626
0.524                  -0.371706        -133.819         -58.1468          8.7725         -58.1471          8.7026      -0.00861426         149.559
0.525                  -0.383169        -134.305         -57.9581         6.99084         -57.9583         6.92085      -0.00870293         149.491
0.526                  -0.394827        -134.793         -57.7691         5.21761         -57.7692         5.14769      -0.00879255         149.424
0.527                  -0.406683        -135.284           -57.58         3.45223           -57.58         3.38254      -0.00888314         149.357
0.528                   -0.41874        -135.776         -57.3909         1.69412         -57.3909         1.62481      -0.00897468         149.289
0.529                  -0.431001         -136.27         -57.2018      -0.0572828         -57.2017       -0.126084       -0.0090672         149.222
0.53                   -0.443471        -136.766         -57.0128        -1.80255         -57.0127        -1.87071      -0.00916071         149.154
0.531                  -0.456152        -137.264          -56.824        -3.54225         -56.8238        -3.60963      -0.00925521         149.086
0.532                  -0.469048        -137.765         -56.6355        -5.27692         -56.6352        -5.34342      -0.00935071         149.018
0.533                  -0.482163        -138.267         -56.4472        -7.00711         -56.4469        -7.07262      -0.00944723          148.95
0.534                    -0.4955        -138.772         -56.2593        -8.73336          -56.259        -8.79777      -0.00954477         148.882
0.535                  -0.509065        -139.279         -56.0719        -10.4562         -56.0715        -10.5194      -0.00964334         148.814
0.536                  -0.522861        -139.788         -55.8849        -12.1761         -55.8845         -12.238      -0.00974295         148.746
0.537                  -0.536892        -140.299         -55.6984        -13.8936          -55.698        -13.9542      -0.00984362         148.677
0.538                  -0.551163        -140.813         -55.5124        -15.6091         -55.5121        -15.6683      -0.00994535         148.609
0.539                  -0.565679        -141.329         -55.3271        -17.3232         -55.3267        -17.3809       -0.0100482          148.54
0.54                   -0.580444        -141.847         -55.1424        -19.0363          -55.142        -19.0924       -0.0101521         148.471
0.541                  -0.595464        -142.368         -54.9585        -20.7489         -54.9581        -20.8033        -0.010257         148.402
0.542                  -0.610742        -142.891         -54.7752        -22.4612         -54.7748         -22.514       -0.0103631         148.334
0.543                  -0.626286        -143.417         -54.5927        -24.1739         -54.5923        -24.2249       -0.0104704         148.264
0.544                    -0.6421        -143.944          -54.411        -25.8872         -54.4106        -25.9365       -0.0105787         148.195
0.545                  -0.658189        -144.475         -54.2301        -27.6016         -54.2297         -27.649       -0.0106882         148.126
0.546                  -0.674561        -145.008         -54.0501        -29.3174         -54.0498         -29.363       -0.0107989         148.057
0.547                  -0.691219        -145.543          -53.871         -31.035         -53.8707        -31.0787       -0.0109107         147.987
0.548                  -0.708172        -146.081         -53.6928        -32.7546         -53.6925        -32.7964       -0.0110237         147.918
0.549                  -0.725424        -146.622         -53.5156        -34.4767         -53.5153        -34.5166       -0.0111379         147.848
0.55                   -0.742984        -147.165         -53.3394        -36.2015         -53.3391        -36.2395       -0.0112533         147.778
0.551                  -0.760856        -147.711         -53.1642        -37.9293         -53.1639        -37.9653         -0.01137         147.708
0.552                   -0.77905        -148.259           -52.99        -39.6603         -52.9897        -39.6944       -0.0114879         147.638
0.553                   -0.79757         -148.81         -52.8169        -41.3948         -52.8166         -41.427        -0.011607         147.568
0.554                  -0.816426        -149.364         -52.6449        -43.1331         -52.6446        -43.1633       -0.0117275         147.498
0.555                  -0.835625        -149.921          -52.474        -44.8753         -52.4738        -44.9036       -0.0118492         147.427
0.556                  -0.855173         -150.48         -52.3043        -46.6217         -52.3041        -46.6481       -0.0119722         147.357
0.557                  -0.875081        -151.043         -52.1357        -48.3724         -52.1355        -48.3969       -0.0120965         147.286
0.558                  -0.895355        -151.608         -51.9683        -50.1277         -51.9681        -50.1503       -0.0122221         147.215
0.559                  -0.916004        -152.176         -51.8021        -51.8875          -51.802        -51.9083       -0.0123491         147.144
0.56                   -0.937038        -152.746         -51.6372        -53.6522         -51.6371        -53.6711       -0.0124775         147.073
0.561                  -0.958464         -153.32         -51.4735        -55.4217         -51.4734        -55.4389       -0.0126073         147.002
0.562                  -0.980294        -153.897         -51.3111        -57.1962          -51.311        -57.2116       -0.0127384         146.931
0.563                   -1.00253        -154.476           -51.15        -58.9758         -51.1499        -58.9895        -0.012871         146.859
0.564                    -1.0252        -155.059         -50.9903        -60.7606         -50.9902        -60.7726       -0.0130051         146.788
0.565                   -1.04829        -155.644         -50.8318        -62.5505         -50.8317        -62.5609       -0.0131405         146.716
0.566                   -1.07183        -156.233         -50.6747        -64.3456         -50.6747        -64.3545       -0.0132775         146.644
0.567                   -1.09582        -156.825          -50.519         -66.146          -50.519        -66.1533        -0.013416         146.572
0.568                   -1.12027        -157.419         -50.3647        -67.9516         -50.3646        -67.9574       -0.0135559           146.5
0.569                    -1.1452        -158.017         -50.2118        -69.7624         -50.2117        -69.7668       -0.0136975         146.428
0.57                    -1.17061        -158.618         -50.0603        -71.5784         -50.0602        -71.5815       -0.0138405         146.355
0.571                   -1.19652        -159.222         -49.9102        -73.3996         -49.9101        -73.4014       -0.0139852         146.283
0.572                   -1.22294        -159.829         -49.7615        -75.2258         -49.7614        -75.2264       -0.0141315          146.21
0.573                   -1.24988         -160.44         -49.6143        -77.0571         -49.6142        -77.0565       -0.0142793         146.137
0.574                   -1.27736        -161.053         -49.4685        -78.8933         -49.4684        -78.8916       -0.0144289         146.064
0.575                   -1.30538         -161.67         -49.3242        -80.7343         -49.3241        -80.7316       -0.0145801         145.991
0.576                   -1.33396         -162.29         -49.1814          -82.58         -49.1813        -82.5764        -0.014733         145.918
0.577                   -1.36312        -162.913           -49.04        -84.4304         -49.0399        -84.4259       -0.0148876         145.845
0.578                   -1.39286        -163.539         -48.9002        -86.2852            -48.9        -86.2799        -0.015044         145.771
0.579                   -1.42321        -164.169         -48.7617        -88.1443         -48.7616        -88.1383       -0.0152022         145.697
0.58                    -1.45417        -164.802         -48.6248        -90.0076         -48.6246         -90.001       -0.0153621         145.623
0.581                   -1.48576        -165.438         -48.4893        -91.8749         -48.4891        -91.8678       -0.0155239         145.549
0.582                     -1.518        -166.077         -48.3553        -93.7461         -48.3551        -93.7384       -0.0156876         145.475
0.583                    -1.5509         -166.72         -48.2227        -95.6209         -48.2225        -95.6128       -0.0158531         145.401
0.584                   -1.58447        -167.365         -48.0916        -97.4992         -48.0913        -97.4908       -0.0160205         145.326
0.585                   -1.61873        -168.014         -47.9619        -99.3807         -47.9617        -99.3721       -0.0161899         145.252
0.586                    -1.6537        -168.666         -47.8337        -101.265         -47.8334        -101.257       -0.0163612         145.177
0.587                    -1.6894        -169.322         -47.7068        -103.153         -47.7065        -103.144       -0.0165345         145.102
0.588                   -1.72584        -169.981         -47.5814        -105.043         -47.5811        -105.034       -0.0167099         145.027
0.589                   -1.76303        -170.642         -47.4573        -106.936          -47.457        -106.927       -0.0168873         144.951
0.59                      -1.801        -171.307         -47.3346        -108.831         -47.3343        -108.822       -0.0170669         144.876
0.591                   -1.83976        -171.975         -47.2133        -110.728          -47.213        -110.719       -0.0172485           144.8
0.592                   -1.87933        -172.647         -47.0932        -112.626          -47.093        -112.618       -0.0174324         144.724
0.593                   -1.91973        -173.321         -46.9745        -114.527         -46.9742        -114.519       -0.0176184         144.648
0.594                   -1.96098        -173.999          -46.857        -116.428         -46.8568        -116.421       -0.0178067         144.572
0.595                   -2.00308        -174.679         -46.7408        -118.331         -46.7406        -118.324       -0.0179972         144.495
0.596                   -2.04608        -175.363         -46.6258        -120.235         -46.6256        -120.229       -0.0181901         144.419
0.597                   -2.08997        -176.049          -46.512         -122.14         -46.5118        -122.134       -0.0183853         144.342
0.598                   -2.13479        -176.739         -46.3993        -124.045         -46.3991         -124.04       -0.0185829         144.265
0.599                   -2.18054        -177.431         -46.2878        -125.951         -46.2876        -125.946       -0.0187829         144.188
0.6                     -2.22726        -178.126         -46.1774        -127.857         -46.1772        -127.853       -0.0189854          144.11
0.601                   -2.27495        -178.824          -46.068        -129.762         -46.0679         -129.76       -0.0191904         144.033
0.602                   -2.32364        -179.525         -45.9596        -131.668         -45.9595        -131.666        -0.019398         143.955
0.603                   -2.37336         179.772         -45.8522        -133.573         -45.8522        -133.572       -0.0196082         143.877
0.604                   -2.42411         179.066         -45.7458        -135.478         -45.7458        -135.477       -0.0198211         143.799
0.605                   -2.47592         178.357         -45.6402        -137.382         -45.6403        -137.382       -0.0200366         143.721
0.606                   -2.52881         177.646         -45.5355        -139.285         -45.5357        -139.286       -0.0202549         143.642
0.607                    -2.5828         176.933         -45.4317        -141.187         -45.4319        -141.189        -0.020476         143.563
0.608                   -2.63791         176.217         -45.3286        -143.088         -45.3289        -143.091       -0.0206999         143.484
0.609                   -2.69417         175.499         -45.2263        -144.987         -45.2267        -144.992       -0.0209268         143.405
0.61                    -2.75158         174.779         -45.1248        -146.885         -45.1251        -146.891       -0.0211566         143.325
0.611                   -2.81018         174.057         -45.0238        -148.782         -45.0243        -148.788       -0.0213894         143.246
0.612                   -2.86997         173.333         -44.9235        -150.676         -44.9241        -150.684       -0.0216253         143.166
0.613                   -2.93099         172.607         -44.8238        -152.569         -44.8244        -152.578       -0.0218643         143.086
0.614                   -2.99326         171.879         -44.7247        -154.461         -44.7254         -154.47       -0.0221065         143.005
0.615                   -3.05678          171.15          -44.626         -156.35         -44.6268        -156.361       -0.0223519         142.925
0.616                   -3.12159          170.42         -44.5278        -158.237         -44.5287        -158.249       -0.0226007         142.844
0.617                   -3.18771         169.688           -44.43        -160.122          -44.431        -160.135       -0.0228528         142.763
0.618                   -3.25514         168.954         -44.3327        -162.005         -44.3337        -162.019       -0.0231084         142.682
0.619                   -3.32392          168.22         -44.2356        -163.886         -44.2368        -163.901       -0.0233675           142.6
0.62                    -3.39406         167.485         -44.1389        -165.764         -44.1402         -165.78       -0.0236301         142.518
0.621                   -3.46558         166.749         -44.0425         -167.64         -44.0438        -167.657       -0.0238964         142.436
0.622                   -3.53851         166.012         -43.9463        -169.514         -43.9477        -169.532       -0.0241665         142.354
0.623                   -3.61285         165.275         -43.8503        -171.385         -43.8518        -171.404       -0.0244403         142.272
0.624                   -3.68862         164.537         -43.7544        -173.254          -43.756        -173.274       -0.0247181         142.189
0.625                   -3.76586         163.799         -43.6587        -175.121         -43.6604        -175.141       -0.0249998         142.106
0.626                   -3.84456         163.062         -43.5631        -176.985         -43.5649        -177.007       -0.0252855         142.022
0.627                   -3.92475         162.324         -43.4675        -178.847         -43.4695        -178.869       -0.0255754         141.939
0.628                   -4.00646         161.587          -43.372         179.293         -43.3741          179.27       -0.0258695         141.855
0.629                   -4.08968          160.85         -43.2765         177.436         -43.2787         177.413       -0.0261679         141.771
