! TOUCHSTONE file generated by CST MICROWAVE STUDIO
! Date and time: Fri Oct  2 16:34:46 2020
! Project name: Scenario_1_Free_Space_out_of_line.cst
! Parameters = {Lambda=346.42; Step_1=17.321; dy1=-293.977; dx1=520; L_HA=400; MT=2.54; Rad_Dielectric=30; Rad_Lower=7.3; Rad_Upper=30; a_HA=580; a_WG=246; b_HA=500; b_WG=121; c_HA=0; c_WG=187; d_feed=85; h_feed=15; h_lower=18; h_upper=40}
! Header version: 2018
! Port assignment regex: !\s*Touchstone port\s*([0-9]+)\s*=\s*(CST MWS port|CST DS port)\s*([0-9]+|Zmin|Zmax)\s*\(\"(.*)\"\)(\s*mode\s*([0-9]+))?.*
! Touchstone port assignment:
! Touchstone port 1 = CST MWS port 1 ("")
! Touchstone port 2 = CST MWS port 2 ("")
# GHz S DB R 50
0.5                    -0.148432        -122.673         -63.3318         -39.623         -63.3318         -39.623      -0.00659502         151.145
0.501                  -0.154285        -123.128         -63.1983        -41.3708         -63.2008         -41.397      -0.00665201          151.08
0.502                  -0.160348        -123.585         -63.0619        -43.1247         -63.0667        -43.1761      -0.00670991         151.014
0.503                  -0.166625        -124.044         -62.9226        -44.8844         -62.9296        -44.9601      -0.00676872         150.949
0.504                  -0.173116        -124.504         -62.7805        -46.6497         -62.7895        -46.7487      -0.00682845         150.883
0.505                  -0.179824        -124.966         -62.6355        -48.4204         -62.6465        -48.5417      -0.00688909         150.817
0.506                  -0.186752         -125.43         -62.4878        -50.1963         -62.5007        -50.3388      -0.00695067         150.752
0.507                  -0.193902        -125.895         -62.3373        -51.9772          -62.352        -52.1399      -0.00701317         150.686
0.508                  -0.201276        -126.362         -62.1842         -53.763         -62.2005        -53.9447       -0.0070766          150.62
0.509                  -0.208876        -126.831         -62.0284        -55.5535         -62.0464        -55.7532      -0.00714097         150.554
0.51                   -0.216705        -127.301         -61.8701        -57.3487         -61.8896        -57.5652      -0.00720628         150.488
0.511                  -0.224766        -127.773         -61.7093        -59.1485         -61.7302        -59.3805      -0.00727255         150.421
0.512                   -0.23306        -128.247          -61.546        -60.9527         -61.5682        -61.1992      -0.00733976         150.355
0.513                   -0.24159        -128.722         -61.3803        -62.7613         -61.4038        -63.0211      -0.00740793         150.289
0.514                  -0.250359          -129.2         -61.2124        -64.5742         -61.2371        -64.8462      -0.00747707         150.222
0.515                  -0.259368        -129.678         -61.0422        -66.3916          -61.068        -66.6745      -0.00754718         150.156
0.516                  -0.268621        -130.159         -60.8698        -68.2133         -60.8966         -68.506      -0.00761826         150.089
0.517                   -0.27812        -130.641         -60.6953        -70.0394         -60.7231        -70.3408      -0.00769033         150.023
0.518                  -0.287867        -131.126         -60.5188        -71.8699         -60.5475        -72.1788      -0.00776339         149.956
0.519                  -0.297865        -131.611         -60.3404        -73.7049         -60.3699        -74.0201      -0.00783745         149.889
0.52                   -0.308116        -132.099         -60.1601        -75.5445         -60.1903        -75.8649       -0.0079125         149.822
0.521                  -0.318624        -132.588          -59.978        -77.3887         -60.0089        -77.7133      -0.00798858         149.755
0.522                  -0.329389         -133.08         -59.7943        -79.2377         -59.8258        -79.5653      -0.00806567         149.688
0.523                  -0.340416        -133.573         -59.6089        -81.0915         -59.6409        -81.4211      -0.00814378         149.621
0.524                  -0.351707        -134.067          -59.422        -82.9504         -59.4545        -83.2808      -0.00822294         149.553
0.525                  -0.363264        -134.564         -59.2336        -84.8144         -59.2665        -85.1447      -0.00830313         149.486
0.526                  -0.375091        -135.062         -59.0439        -86.6837         -59.0771        -87.0129      -0.00838438         149.419
0.527                  -0.387189        -135.562         -58.8529        -88.5584         -58.8864        -88.8856      -0.00846669         149.351
0.528                  -0.399561        -136.064         -58.6608        -90.4388         -58.6945         -90.763      -0.00855008         149.283
0.529                  -0.412211        -136.568         -58.4675         -92.325         -58.5014        -92.6453      -0.00863454         149.216
0.53                   -0.425141        -137.073         -58.2733        -94.2172         -58.3073        -94.5327       -0.0087201         149.148
0.531                  -0.438353        -137.581         -58.0782        -96.1155         -58.1122        -96.4254      -0.00880676          149.08
0.532                  -0.451851         -138.09         -57.8823        -98.0201         -57.9162        -98.3237      -0.00889453         149.012
0.533                  -0.465638        -138.601         -57.6857        -99.9312         -57.7194        -100.228      -0.00898343         148.944
0.534                  -0.479716        -139.114         -57.4885        -101.849          -57.522        -102.138      -0.00907346         148.875
0.535                  -0.494088        -139.629         -57.2907        -103.774          -57.324        -104.054      -0.00916464         148.807
0.536                  -0.508757        -140.146         -57.0926        -105.705         -57.1255        -105.977      -0.00925698         148.739
0.537                  -0.523726        -140.664         -56.8941        -107.644         -56.9266        -107.906       -0.0093505          148.67
0.538                  -0.538999        -141.185         -56.6954         -109.59         -56.7275        -109.842      -0.00944519         148.601
0.539                  -0.554577        -141.707         -56.4966        -111.544         -56.5281        -111.786      -0.00954109         148.533
0.54                   -0.570465        -142.231         -56.2978        -113.505         -56.3287        -113.736       -0.0096382         148.464
0.541                  -0.586665        -142.758         -56.0991        -115.474         -56.1292        -115.694      -0.00973654         148.395
0.542                   -0.60318        -143.286         -55.9006         -117.45         -55.9299        -117.659      -0.00983613         148.326
0.543                  -0.620014        -143.816         -55.7023        -119.435         -55.7308        -119.631      -0.00993697         148.257
0.544                   -0.63717        -144.348         -55.5044        -121.427         -55.5319        -121.612       -0.0100391         148.187
0.545                   -0.65465        -144.882          -55.307        -123.427         -55.3335          -123.6       -0.0101425         148.118
0.546                   -0.67246        -145.418         -55.1102        -125.435         -55.1356        -125.596       -0.0102472         148.049
0.547                    -0.6906        -145.955          -54.914        -127.451         -54.9383          -127.6       -0.0103532         147.979
0.548                  -0.709076        -146.495         -54.7186        -129.475         -54.7418        -129.612       -0.0104606         147.909
0.549                  -0.727891        -147.037         -54.5241        -131.506          -54.546        -131.632       -0.0105693         147.839
0.55                   -0.747047        -147.581         -54.3305        -133.545         -54.3511         -133.66       -0.0106795         147.769
0.551                   -0.76655        -148.127          -54.138        -135.592         -54.1571        -135.695        -0.010791         147.699
0.552                  -0.786401        -148.675         -53.9466        -137.646         -53.9643        -137.738       -0.0109039         147.629
0.553                  -0.806605        -149.225         -53.7564        -139.708         -53.7726        -139.789       -0.0110183         147.559
0.554                  -0.827167        -149.777         -53.5675        -141.776         -53.5822        -141.847       -0.0111341         147.488
0.555                  -0.848088        -150.331           -53.38        -143.851         -53.3931        -143.912       -0.0112515         147.418
0.556                  -0.869374        -150.888         -53.1939        -145.933         -53.2055        -145.984       -0.0113703         147.347
0.557                  -0.891028        -151.446         -53.0093        -148.021         -53.0193        -148.063       -0.0114907         147.277
0.558                  -0.913055        -152.007         -52.8264        -150.115         -52.8347        -150.148       -0.0116126         147.206
0.559                  -0.935458        -152.569         -52.6451        -152.214         -52.6517         -152.24       -0.0117361         147.135
0.56                   -0.958242        -153.134         -52.4655        -154.319         -52.4704        -154.337       -0.0118611         147.063
0.561                  -0.981411        -153.701         -52.2876        -156.428         -52.2909         -156.44       -0.0119879         146.992
0.562                   -1.00497         -154.27         -52.1116        -158.543         -52.1132        -158.548       -0.0121163         146.921
0.563                   -1.02892        -154.841         -51.9374        -160.661         -51.9374        -160.661       -0.0122463         146.849
0.564                   -1.05327        -155.415         -51.7651        -162.783         -51.7634        -162.778       -0.0123781         146.777
0.565                   -1.07803        -155.991         -51.5947        -164.908         -51.5915        -164.898       -0.0125116         146.706
0.566                   -1.10319        -156.569         -51.4262        -167.035         -51.4214        -167.022       -0.0126469         146.634
0.567                   -1.12877        -157.149         -51.2597        -169.165         -51.2534        -169.149        -0.012784         146.562
0.568                   -1.15476        -157.732         -51.0952        -171.297         -51.0874        -171.279        -0.012923         146.489
0.569                   -1.18118        -158.317         -50.9326        -173.431         -50.9234         -173.41       -0.0130638         146.417
0.57                    -1.20802        -158.904          -50.772        -175.565         -50.7614        -175.543       -0.0132065         146.345
0.571                    -1.2353        -159.493         -50.6134        -177.699         -50.6015        -177.677       -0.0133511         146.272
0.572                   -1.26303        -160.085         -50.4568        -179.834         -50.4436        -179.812       -0.0134977         146.199
0.573                   -1.29119         -160.68          -50.302         178.032         -50.2878         178.053       -0.0136463         146.126
0.574                   -1.31981        -161.277         -50.1492         175.898         -50.1339         175.919        -0.013797         146.053
0.575                   -1.34889        -161.876         -49.9983         173.766          -49.982         173.786       -0.0139498          145.98
0.576                   -1.37843        -162.478         -49.8492         171.636          -49.832         171.654       -0.0141046         145.906
0.577                   -1.40844        -163.082          -49.702         169.507         -49.6839         169.524       -0.0142617         145.833
0.578                   -1.43893        -163.689         -49.5565         167.382         -49.5377         167.395       -0.0144209         145.759
0.579                   -1.46991        -164.298         -49.4127         165.258         -49.3933          165.27       -0.0145824         145.685
0.58                    -1.50138         -164.91         -49.2706         163.138         -49.2507         163.147       -0.0147462         145.611
0.581                   -1.53335        -165.524         -49.1302         161.021         -49.1098         161.027       -0.0149124         145.537
0.582                   -1.56582        -166.141         -48.9913         158.908         -48.9705         158.911       -0.0150809         145.463
0.583                   -1.59882        -166.761         -48.8539         156.799         -48.8328         156.798       -0.0152518         145.388
0.584                   -1.63233        -167.384         -48.7179         154.694         -48.6967         154.689       -0.0154252         145.314
0.585                   -1.66638        -168.009         -48.5833         152.593          -48.562         152.585       -0.0156012         145.239
0.586                   -1.70098        -168.637           -48.45         150.496         -48.4287         150.485       -0.0157797         145.164
0.587                   -1.73612        -169.268          -48.318         148.404         -48.2967          148.39       -0.0159609         145.089
0.588                   -1.77182        -169.901         -48.1871         146.316          -48.166         146.299       -0.0161447         145.013
0.589                    -1.8081        -170.538         -48.0573         144.233         -48.0365         144.213       -0.0163313         144.938
0.59                    -1.84496        -171.177         -47.9286         142.155          -47.908         142.132       -0.0165207         144.862
0.591                   -1.88241        -171.819         -47.8008         140.081         -47.7806         140.055       -0.0167129         144.786
0.592                   -1.92047        -172.465          -47.674         138.012         -47.6542         137.983       -0.0169081          144.71
0.593                   -1.95914        -173.113         -47.5479         135.948         -47.5287         135.917       -0.0171062         144.634
0.594                   -1.99844        -173.764         -47.4227         133.888         -47.4039         133.855       -0.0173073         144.558
0.595                   -2.03838        -174.418         -47.2981         131.833           -47.28         131.797       -0.0175116         144.481
0.596                   -2.07897        -175.076         -47.1742         129.781         -47.1567         129.744        -0.017719         144.405
0.597                   -2.12023        -175.736         -47.0508         127.734          -47.034         127.696       -0.0179296         144.328
0.598                   -2.16217          -176.4          -46.928         125.691         -46.9118         125.651       -0.0181435          144.25
0.599                   -2.20481        -177.067         -46.8057         123.652         -46.7902         123.611       -0.0183607         144.173
0.6                     -2.24817        -177.737         -46.6837         121.616          -46.669         121.575       -0.0185814         144.096
0.601                   -2.29225        -178.411         -46.5621         119.583         -46.5482         119.542       -0.0188055         144.018
0.602                   -2.33708        -179.087         -46.4408         117.554         -46.4277         117.512       -0.0190333          143.94
0.603                   -2.38267        -179.767         -46.3198         115.527         -46.3074         115.486       -0.0192646         143.862
0.604                   -2.42904         179.549          -46.199         113.503         -46.1874         113.462       -0.0194997         143.784
0.605                   -2.47621         178.862         -46.0784         111.481         -46.0676         111.441       -0.0197385         143.705
0.606                   -2.52421         178.172          -45.958         109.462         -45.9479         109.423       -0.0199812         143.626
0.607                   -2.57304         177.478         -45.8376         107.444         -45.8283         107.406       -0.0202279         143.547
0.608                   -2.62274          176.78         -45.7173         105.427         -45.7088         105.391       -0.0204785         143.468
0.609                   -2.67333         176.079         -45.5971         103.412         -45.5893         103.377       -0.0207332         143.389
0.61                    -2.72482         175.375         -45.4769         101.397         -45.4699         101.364       -0.0209922         143.309
0.611                   -2.77725         174.666         -45.3568          99.383         -45.3504         99.3523       -0.0212553         143.229
0.612                   -2.83063         173.955         -45.2366          97.369         -45.2309         97.3405       -0.0215228         143.149
0.613                     -2.885         173.239         -45.1164         95.3549         -45.1114         95.3288       -0.0217947         143.069
0.614                   -2.94039          172.52         -44.9962         93.3403         -44.9918         93.3168       -0.0220711         142.989
0.615                   -2.99681         171.797         -44.8759          91.325         -44.8721         91.3041       -0.0223521         142.908
0.616                   -3.05431          171.07         -44.7556         89.3087         -44.7524         89.2905       -0.0226378         142.827
0.617                   -3.11291          170.34         -44.6353          87.291         -44.6326         87.2756       -0.0229282         142.746
0.618                   -3.17264         169.606         -44.5149         85.2716         -44.5127         85.2591       -0.0232235         142.664
0.619                   -3.23355         168.868         -44.3945         83.2503         -44.3928         83.2407       -0.0235237         142.583
0.62                    -3.29566         168.126         -44.2741         81.2268         -44.2728         81.2201       -0.0238289         142.501
0.621                   -3.35901         167.381         -44.1537         79.2008         -44.1527         79.1971       -0.0241392         142.419
0.622                   -3.42363         166.632         -44.0332         77.1721         -44.0327         77.1713       -0.0244547         142.336
0.623                   -3.48958         165.879         -43.9128         75.1404         -43.9126         75.1425       -0.0247755         142.254
0.624                   -3.55688         165.122         -43.7924         73.1055         -43.7925         73.1104       -0.0251017         142.171
0.625                   -3.62558         164.362         -43.6721         71.0671         -43.6724         71.0748       -0.0254333         142.088
0.626                   -3.69573         163.599         -43.5518         69.0251         -43.5523         69.0356       -0.0257704         142.004
0.627                   -3.76736         162.832         -43.4317         66.9792         -43.4324         66.9924       -0.0261131         141.921
0.628                   -3.84053         162.061         -43.3117         64.9294         -43.3126          64.945       -0.0264616         141.837
0.629                   -3.91529         161.287         -43.1919         62.8753         -43.1928         62.8934       -0.0268159         141.752
