! TOUCHSTONE file generated by CST MICROWAVE STUDIO
! Date and time: Fri Oct  2 17:00:50 2020
! Project name: Scenario_1_Free_Space_out_of_line.cst
! Parameters = {Lambda=346.42; Step_1=17.321; dy1=-293.977; dx1=693; L_HA=400; MT=2.54; Rad_Dielectric=30; Rad_Lower=7.3; Rad_Upper=30; a_HA=580; a_WG=246; b_HA=500; b_WG=121; c_HA=0; c_WG=187; d_feed=85; h_feed=15; h_lower=18; h_upper=40}
! Header version: 2018
! Port assignment regex: !\s*Touchstone port\s*([0-9]+)\s*=\s*(CST MWS port|CST DS port)\s*([0-9]+|Zmin|Zmax)\s*\(\"(.*)\"\)(\s*mode\s*([0-9]+))?.*
! Touchstone port assignment:
! Touchstone port 1 = CST MWS port 1 ("")
! Touchstone port 2 = CST MWS port 2 ("")
# GHz S DB R 50
0.5                    -0.148725        -122.579         -64.2545         -132.92         -64.2518        -132.913      -0.00668753         151.157
0.501                  -0.153471        -123.002         -64.1026        -135.038            -64.1        -135.033      -0.00675311         151.092
0.502                  -0.158408        -123.429         -63.9475        -137.158          -63.945        -137.155      -0.00681926         151.027
0.503                  -0.163541        -123.858         -63.7892        -139.279         -63.7869        -139.277      -0.00688598         150.961
0.504                  -0.168875         -124.29          -63.628        -141.399         -63.6257        -141.399      -0.00695329         150.896
0.505                  -0.174413        -124.725         -63.4639         -143.52         -63.4616        -143.521      -0.00702121          150.83
0.506                   -0.18016        -125.163         -63.2969        -145.641         -63.2947        -145.643      -0.00708973         150.765
0.507                  -0.186122        -125.603         -63.1272        -147.761          -63.125        -147.765      -0.00715888         150.699
0.508                  -0.192302        -126.047         -62.9549        -149.881         -62.9528        -149.886      -0.00722866         150.633
0.509                  -0.198705        -126.493         -62.7801        -151.999          -62.778        -152.006      -0.00729908         150.567
0.51                   -0.205336        -126.942         -62.6029        -154.117         -62.6009        -154.125      -0.00737016         150.501
0.511                    -0.2122        -127.394         -62.4234        -156.234         -62.4214        -156.242      -0.00744191         150.435
0.512                  -0.219301        -127.848         -62.2417         -158.35         -62.2398        -158.359      -0.00751433         150.369
0.513                  -0.226644        -128.306          -62.058        -160.464         -62.0561        -160.474      -0.00758745         150.303
0.514                  -0.234234        -128.766         -61.8723        -162.578         -61.8704        -162.589      -0.00766127         150.237
0.515                  -0.242076        -129.229         -61.6848         -164.69         -61.6829        -164.702       -0.0077358          150.17
0.516                  -0.250174        -129.694         -61.4955        -166.802         -61.4936        -166.814      -0.00781106         150.104
0.517                  -0.258534        -130.163         -61.3046        -168.913         -61.3028        -168.926      -0.00788706         150.038
0.518                  -0.267159        -130.634         -61.1121        -171.023         -61.1103        -171.036      -0.00796381         149.971
0.519                  -0.276056        -131.108         -60.9183        -173.133         -60.9165        -173.146      -0.00804133         149.904
0.52                   -0.285228        -131.585         -60.7231        -175.242         -60.7214        -175.256      -0.00811963         149.837
0.521                  -0.294682        -132.064         -60.5267        -177.351          -60.525        -177.365      -0.00819871         149.771
0.522                  -0.304421        -132.546         -60.3292         -179.46         -60.3276        -179.475       -0.0082786         149.704
0.523                  -0.314451        -133.031         -60.1307          178.43         -60.1291         178.416       -0.0083593         149.636
0.524                  -0.324776        -133.519         -59.9313          176.32         -59.9297         176.306      -0.00844084         149.569
0.525                  -0.335402        -134.009         -59.7311          174.21         -59.7296         174.195      -0.00852322         149.502
0.526                  -0.346333        -134.502         -59.5302         172.098         -59.5287         172.083      -0.00860645         149.435
0.527                  -0.357575        -134.998         -59.3287         169.985         -59.3272          169.97      -0.00869056         149.367
0.528                  -0.369132        -135.496         -59.1267          167.87         -59.1252         167.856      -0.00877556           149.3
0.529                   -0.38101        -135.997         -58.9242         165.753         -58.9228          165.74      -0.00886145         149.232
0.53                   -0.393213        -136.501         -58.7214         163.635           -58.72         163.621      -0.00894826         149.164
0.531                  -0.405746        -137.008         -58.5184         161.514          -58.517         161.501        -0.009036         149.097
0.532                  -0.418615        -137.517         -58.3152          159.39         -58.3139         159.377      -0.00912468         149.029
0.533                  -0.431824        -138.028         -58.1119         157.263         -58.1107         157.251      -0.00921433         148.961
0.534                  -0.445378        -138.543         -57.9087         155.133         -57.9075         155.121      -0.00930494         148.893
0.535                  -0.459282         -139.06         -57.7056         152.999         -57.7044         152.988      -0.00939655         148.824
0.536                  -0.473541        -139.579         -57.5026         150.862         -57.5015         150.851      -0.00948916         148.756
0.537                  -0.488161        -140.101            -57.3         148.721         -57.2989          148.71       -0.0095828         148.688
0.538                  -0.503146        -140.626         -57.0976         146.575         -57.0966         146.566      -0.00967747         148.619
0.539                    -0.5185        -141.153         -56.8958         144.425         -56.8948         144.416       -0.0097732          148.55
0.54                    -0.53423        -141.683         -56.6944          142.27         -56.6935         142.262         -0.00987         148.482
0.541                  -0.550339        -142.215         -56.4936         140.111         -56.4927         140.103      -0.00996788         148.413
0.542                  -0.566834         -142.75         -56.2935         137.946         -56.2927         137.939       -0.0100669         148.344
0.543                  -0.583718        -143.287         -56.0941         135.776         -56.0933          135.77        -0.010167         148.275
0.544                  -0.600996        -143.827         -55.8956         133.601         -55.8948         133.595       -0.0102682         148.206
0.545                  -0.618674         -144.37         -55.6979          131.42         -55.6972         131.415       -0.0103706         148.136
0.546                  -0.636757        -144.915         -55.5012         129.233         -55.5005          129.23       -0.0104742         148.067
0.547                  -0.655248        -145.462         -55.3055         127.041         -55.3049         127.038        -0.010579         147.997
0.548                  -0.674154        -146.012         -55.1109         124.843         -55.1103         124.841        -0.010685         147.928
0.549                  -0.693479        -146.564         -54.9174         122.639         -54.9169         122.638       -0.0107922         147.858
0.55                   -0.713227        -147.119         -54.7252          120.43         -54.7247         120.429       -0.0109007         147.788
0.551                  -0.733404        -147.676         -54.5343         118.214         -54.5338         118.215       -0.0110104         147.718
0.552                  -0.754014        -148.235         -54.3447         115.993         -54.3442         115.994       -0.0111214         147.648
0.553                  -0.775062        -148.797         -54.1565         113.766         -54.1561         113.768       -0.0112338         147.578
0.554                  -0.796553        -149.361         -53.9697         111.533         -53.9694         111.536       -0.0113474         147.508
0.555                  -0.818492        -149.928         -53.7845         109.294         -53.7842         109.298       -0.0114625         147.437
0.556                  -0.840882        -150.497         -53.6008          107.05         -53.6005         107.054       -0.0115789         147.367
0.557                  -0.863731        -151.068         -53.4188           104.8         -53.4185         104.806       -0.0116966         147.296
0.558                   -0.88704        -151.642         -53.2383         102.545          -53.238         102.552       -0.0118158         147.225
0.559                  -0.910817        -152.218         -53.0596         100.285         -53.0593         100.292       -0.0119365         147.154
0.56                   -0.935064        -152.796         -52.8826         98.0202         -52.8823          98.028       -0.0120585         147.083
0.561                  -0.959788        -153.377         -52.7074         95.7504         -52.7071         95.7589       -0.0121821         147.012
0.562                  -0.984992         -153.96          -52.534          93.476         -52.5337         93.4853       -0.0123072         146.941
0.563                   -1.01068        -154.545         -52.3624         91.1973         -52.3621         91.2073       -0.0124338         146.869
0.564                   -1.03686        -155.132         -52.1926         88.9146         -52.1923         88.9252       -0.0125619         146.797
0.565                   -1.06354        -155.722         -52.0247          86.628         -52.0244         86.6394       -0.0126916         146.726
0.566                   -1.09071        -156.313         -51.8587          84.338         -51.8584         84.3499        -0.012823         146.654
0.567                   -1.11839        -156.907         -51.6946         82.0447         -51.6943         82.0572       -0.0129559         146.582
0.568                   -1.14657        -157.504         -51.5324         79.7484         -51.5321         79.7615       -0.0130905          146.51
0.569                   -1.17527        -158.102         -51.3721         77.4495         -51.3718         77.4631       -0.0132268         146.437
0.57                    -1.20449        -158.703         -51.2137         75.1483         -51.2134         75.1624       -0.0133647         146.365
0.571                   -1.23423        -159.305         -51.0573          72.845         -51.0569         72.8596       -0.0135044         146.292
0.572                    -1.2645         -159.91         -50.9027           70.54         -50.9023         70.5551       -0.0136459          146.22
0.573                    -1.2953        -160.517         -50.7501         68.2337         -50.7497         68.2491       -0.0137891         146.147
0.574                   -1.32664        -161.127         -50.5993         65.9263         -50.5989          65.942       -0.0139342         146.074
0.575                   -1.35853        -161.738         -50.4504         63.6181         -50.4499         63.6342       -0.0140811         146.001
0.576                   -1.39095        -162.352         -50.3033         61.3095         -50.3028         61.3258       -0.0142299         145.927
0.577                   -1.42394        -162.967          -50.158         59.0007         -50.1575         59.0173       -0.0143806         145.854
0.578                   -1.45747        -163.585         -50.0145         56.6922          -50.014          56.709       -0.0145332          145.78
0.579                   -1.49157        -164.205         -49.8728         54.3841         -49.8723          54.401       -0.0146877         145.706
0.58                    -1.52624        -164.827         -49.7328         52.0767         -49.7322         52.0938       -0.0148443         145.632
0.581                   -1.56148        -165.451         -49.5945         49.7704         -49.5939         49.7875       -0.0150029         145.558
0.582                    -1.5973        -166.077         -49.4578         47.4653         -49.4572         47.4825       -0.0151636         145.484
0.583                    -1.6337        -166.705         -49.3227         45.1618         -49.3221          45.179       -0.0153263          145.41
0.584                   -1.67069        -167.335         -49.1892         42.8601         -49.1885         42.8772       -0.0154912         145.335
0.585                   -1.70828        -167.968         -49.0572         40.5603         -49.0564         40.5773       -0.0156583          145.26
0.586                   -1.74646        -168.602         -48.9266         38.2628         -48.9258         38.2797       -0.0158276         145.185
0.587                   -1.78525        -169.239         -48.7974         35.9676         -48.7966         35.9844       -0.0159991          145.11
0.588                   -1.82466        -169.877         -48.6696          33.675         -48.6688         33.6916       -0.0161729         145.035
0.589                   -1.86467        -170.518          -48.543         31.3852         -48.5422         31.4015        -0.016349          144.96
0.59                    -1.90532        -171.161         -48.4177         29.0982         -48.4169         29.1143       -0.0165275         144.884
0.591                   -1.94659        -171.805         -48.2936         26.8142         -48.2927           26.83       -0.0167084         144.808
0.592                    -1.9885        -172.452         -48.1706         24.5332         -48.1697         24.5488       -0.0168917         144.732
0.593                   -2.03105        -173.101         -48.0486         22.2555         -48.0478         22.2707       -0.0170775         144.656
0.594                   -2.07426        -173.752         -47.9277         19.9811         -47.9268         19.9959       -0.0172659          144.58
0.595                   -2.11812        -174.405         -47.8077         17.7099         -47.8068         17.7244       -0.0174568         144.503
0.596                   -2.16264         -175.06         -47.6886         15.4421         -47.6878         15.4562       -0.0176504         144.427
0.597                   -2.20784        -175.718         -47.5704         13.1777         -47.5695         13.1914       -0.0178466          144.35
0.598                   -2.25372        -176.377         -47.4529         10.9167          -47.452         10.9299       -0.0180456         144.273
0.599                   -2.30028        -177.038         -47.3362         8.65902         -47.3353         8.67178       -0.0182473         144.195
0.6                     -2.34754        -177.702         -47.2201         6.40472         -47.2192           6.417       -0.0184519         144.118
0.601                   -2.39551        -178.367         -47.1046         4.15372         -47.1037         4.16552       -0.0186594          144.04
0.602                   -2.44419        -179.035         -46.9897         1.90597         -46.9888         1.91728       -0.0188698         143.962
0.603                   -2.49359        -179.705         -46.8753       -0.338584         -46.8744       -0.327773       -0.0190832         143.884
0.604                   -2.54372         179.623         -46.7613        -2.58003         -46.7604        -2.56973       -0.0192996         143.806
0.605                    -2.5946         178.949         -46.6477        -4.81846         -46.6469        -4.80867       -0.0195192         143.728
0.606                   -2.64622         178.272         -46.5345        -7.05398         -46.5337        -7.04471        -0.019742         143.649
0.607                   -2.69862         177.594         -46.4216         -9.2867         -46.4208        -9.27795        -0.019968          143.57
0.608                   -2.75178         176.913          -46.309        -11.5168         -46.3082        -11.5085       -0.0201973         143.491
0.609                   -2.80574          176.23         -46.1966        -13.7443         -46.1959        -13.7366         -0.02043         143.412
0.61                    -2.86049         175.545         -46.0844        -15.9694         -46.0837        -15.9622       -0.0206661         143.332
0.611                   -2.91605         174.858         -45.9723        -18.1923         -45.9716        -18.1856       -0.0209058         143.252
0.612                   -2.97243         174.168         -45.8603        -20.4131         -45.8597        -20.4069       -0.0211491         143.172
0.613                   -3.02965         173.476         -45.7484        -22.6319         -45.7478        -22.6263       -0.0213961         143.092
0.614                   -3.08773         172.782         -45.6365        -24.8491         -45.6359        -24.8439       -0.0216468         143.012
0.615                   -3.14667         172.086         -45.5246        -27.0646         -45.5241          -27.06       -0.0219014         142.931
0.616                   -3.20649         171.387         -45.4127        -29.2788         -45.4122        -29.2746       -0.0221599          142.85
0.617                   -3.26721         170.686         -45.3008        -31.4918         -45.3003        -31.4881       -0.0224225         142.769
0.618                   -3.32885         169.983         -45.1888        -33.7038         -45.1884        -33.7005       -0.0226891         142.687
0.619                   -3.39141         169.277         -45.0767         -35.915         -45.0763        -35.9122         -0.02296         142.606
0.62                    -3.45493         168.569         -44.9644        -38.1255         -44.9641        -38.1231       -0.0232353         142.524
0.621                   -3.51942         167.858          -44.852        -40.3357         -44.8517        -40.3337       -0.0235149         142.441
0.622                    -3.5849         167.146         -44.7395        -42.5456         -44.7393         -42.544       -0.0237991         142.359
0.623                   -3.65139          166.43         -44.6268        -44.7555         -44.6266        -44.7543       -0.0240879         142.276
0.624                   -3.71891         165.713         -44.5139        -46.9655         -44.5138        -46.9647       -0.0243816         142.193
0.625                   -3.78749         164.993         -44.4009         -49.176         -44.4007        -49.1755       -0.0246801          142.11
0.626                   -3.85715          164.27         -44.2876         -51.387         -44.2875        -51.3869       -0.0249836         142.027
0.627                   -3.92791         163.545         -44.1741        -53.5988         -44.1741         -53.599       -0.0252922         141.943
0.628                    -3.9998         162.818         -44.0604        -55.8116         -44.0604        -55.8121       -0.0256062         141.859
0.629                   -4.07285         162.088         -43.9465        -58.0255         -43.9466        -58.0263       -0.0259256         141.774
