! TOUCHSTONE file generated by CST MICROWAVE STUDIO
! Date and time: Fri Oct  2 19:16:44 2020
! Project name: Scenario_1_Free_Space_out_of_line.cst
! Parameters = {Lambda=346.42; Step_1=17.321; dy1=-293.977; dx1=866; L_HA=400; MT=2.54; Rad_Dielectric=30; Rad_Lower=7.3; Rad_Upper=30; a_HA=580; a_WG=246; b_HA=500; b_WG=121; c_HA=0; c_WG=187; d_feed=85; h_feed=15; h_lower=18; h_upper=40}
! Header version: 2018
! Port assignment regex: !\s*Touchstone port\s*([0-9]+)\s*=\s*(CST MWS port|CST DS port)\s*([0-9]+|Zmin|Zmax)\s*\(\"(.*)\"\)(\s*mode\s*([0-9]+))?.*
! Touchstone port assignment:
! Touchstone port 1 = CST MWS port 1 ("")
! Touchstone port 2 = CST MWS port 2 ("")
# GHz S DB R 50
0.5                    -0.147967        -122.609         -64.8748         129.844         -64.8748         129.844      -0.00657985          151.15
0.501                  -0.153686        -123.065         -64.6999         127.692         -64.7005         127.678      -0.00664319         151.085
0.502                  -0.159647        -123.522         -64.5232         125.537         -64.5244          125.51      -0.00670743         151.019
0.503                  -0.165852        -123.981         -64.3448         123.377         -64.3466         123.338      -0.00677256         150.954
0.504                  -0.172301        -124.442         -64.1648         121.214         -64.1671         121.162      -0.00683859         150.888
0.505                  -0.178996        -124.904         -63.9833         119.046          -63.986         118.983      -0.00690552         150.823
0.506                  -0.185939        -125.367         -63.8004         116.873         -63.8035         116.801      -0.00697335         150.757
0.507                  -0.193131        -125.832         -63.6161         114.697         -63.6196         114.614      -0.00704208         150.691
0.508                  -0.200574        -126.299         -63.4304         112.515         -63.4343         112.424      -0.00711173         150.625
0.509                  -0.208268        -126.768         -63.2436         110.329         -63.2478         110.229      -0.00718228         150.559
0.51                   -0.216216        -127.237         -63.0556         108.138         -63.0601         108.031      -0.00725375         150.493
0.511                  -0.224419        -127.709         -62.8666         105.942         -62.8713         105.828      -0.00732613         150.427
0.512                  -0.232878        -128.182         -62.6765          103.74         -62.6816          103.62      -0.00739943         150.361
0.513                  -0.241594        -128.657         -62.4856         101.534         -62.4908         101.407      -0.00747365         150.295
0.514                  -0.250569        -129.133         -62.2938         99.3213         -62.2993           99.19      -0.00754879         150.228
0.515                  -0.259805        -129.611         -62.1012         97.1032         -62.1069         96.9675      -0.00762487         150.162
0.516                  -0.269301         -130.09          -61.908         94.8792         -61.9139         94.7396      -0.00770187         150.095
0.517                   -0.27906        -130.572         -61.7141         92.6491         -61.7203         92.5063      -0.00777981         150.029
0.518                  -0.289083        -131.054         -61.5198         90.4128         -61.5261         90.2673      -0.00785868         149.962
0.519                  -0.299371        -131.538         -61.3249           88.17         -61.3314         88.0225      -0.00793849         149.895
0.52                   -0.309925        -132.024         -61.1297         85.9208         -61.1363         85.7717      -0.00801925         149.828
0.521                  -0.320746        -132.512         -60.9342         83.6648         -60.9409         83.5146      -0.00810095         149.761
0.522                  -0.331836        -133.001         -60.7384          81.402         -60.7453         81.2513      -0.00818361         149.694
0.523                  -0.343196        -133.492         -60.5425         79.1322         -60.5495         78.9814      -0.00826722         149.627
0.524                  -0.354826        -133.984         -60.3465         76.8554         -60.3536          76.705       -0.0083518          149.56
0.525                  -0.366728        -134.478         -60.1505         74.5714         -60.1577         74.4218      -0.00843733         149.493
0.526                  -0.378904        -134.974         -59.9546         72.2801         -59.9619         72.1317      -0.00852383         149.425
0.527                  -0.391353        -135.471         -59.7588         69.9814         -59.7661         69.8346      -0.00861131         149.358
0.528                  -0.404078         -135.97         -59.5631         67.6753         -59.5706         67.5305      -0.00869977          149.29
0.529                  -0.417079         -136.47         -59.3678         65.3617         -59.3753         65.2192       -0.0087892         149.223
0.53                   -0.430357        -136.973         -59.1728         63.0405         -59.1804         62.9008      -0.00887963         149.155
0.531                  -0.443914        -137.477         -58.9782         60.7119         -58.9858         60.5751      -0.00897105         149.087
0.532                   -0.45775        -137.982         -58.7841         58.3756         -58.7917         58.2421      -0.00906346         149.019
0.533                  -0.471867        -138.489         -58.5905         56.0318         -58.5981         55.9019      -0.00915689         148.951
0.534                  -0.486265        -138.998         -58.3976         53.6805         -58.4052         53.5543      -0.00925132         148.883
0.535                  -0.500947        -139.509         -58.2053         51.3218         -58.2129         51.1996      -0.00934677         148.815
0.536                  -0.515912        -140.021         -58.0138         48.9556         -58.0213         48.8376      -0.00944324         148.746
0.537                  -0.531162        -140.536          -57.823         46.5821         -57.8305         46.4685      -0.00954074         148.678
0.538                  -0.546698        -141.051         -57.6331         44.2014         -57.6405         44.0923      -0.00963928         148.609
0.539                  -0.562521        -141.569         -57.4441         41.8137         -57.4514         41.7092      -0.00973887         148.541
0.54                   -0.578632        -142.088          -57.256         39.4189         -57.2632         39.3192      -0.00983951         148.472
0.541                  -0.595033         -142.61          -57.069         37.0174          -57.076         36.9225      -0.00994121         148.403
0.542                  -0.611725        -143.133          -56.883         34.6092         -56.8899         34.5192        -0.010044         148.334
0.543                  -0.628709        -143.658         -56.6981         32.1947         -56.7049         32.1096       -0.0101478         148.265
0.544                  -0.645987        -144.184         -56.5143         29.7739         -56.5209         29.6937       -0.0102528         148.196
0.545                  -0.663559        -144.713         -56.3318          27.347         -56.3382         27.2719       -0.0103588         148.127
0.546                  -0.681427        -145.243         -56.1504         24.9145         -56.1566         24.8442        -0.010466         148.057
0.547                  -0.699593        -145.776         -55.9703         22.4764         -55.9763          22.411       -0.0105742         147.988
0.548                  -0.718058         -146.31         -55.7915         20.0331         -55.7973         19.9725       -0.0106836         147.918
0.549                  -0.736825        -146.846          -55.614         17.5847         -55.6195          17.529       -0.0107942         147.848
0.55                   -0.755894        -147.384         -55.4378         15.1317         -55.4431         15.0806       -0.0109059         147.779
0.551                  -0.775267        -147.925          -55.263         12.6743          -55.268         12.6278       -0.0110187         147.709
0.552                  -0.794947        -148.467         -55.0895         10.2127         -55.0943         10.1707       -0.0111328         147.639
0.553                  -0.814935        -149.011         -54.9174         7.74739         -54.9219         7.70961       -0.0112481         147.568
0.554                  -0.835234        -149.558         -54.7467         5.27853         -54.7509          5.2449       -0.0113645         147.498
0.555                  -0.855846        -150.106         -54.5774         2.80647         -54.5813         2.77684       -0.0114822         147.428
0.556                  -0.876774        -150.657         -54.4095        0.331524         -54.4131        0.305725       -0.0116012         147.357
0.557                   -0.89802         -151.21          -54.243        -2.14601         -54.2462        -2.16815       -0.0117214         147.286
0.558                  -0.919587        -151.765         -54.0779        -4.62582         -54.0808         -4.6445        -0.011843         147.216
0.559                  -0.941478        -152.323         -53.9141        -7.10761         -53.9167        -7.12301       -0.0119658         147.145
0.56                   -0.963697        -152.882         -53.7517        -9.59108          -53.754         -9.6034       -0.0120899         147.074
0.561                  -0.986247        -153.444         -53.5906         -12.076         -53.5926        -12.0854       -0.0122154         147.003
0.562                   -1.00913        -154.009         -53.4309         -14.562         -53.4325        -14.5687       -0.0123423         146.931
0.563                   -1.03235        -154.576         -53.2725        -17.0488         -53.2738        -17.0531       -0.0124706          146.86
0.564                   -1.05592        -155.145         -53.1154        -19.5362         -53.1164        -19.5383       -0.0126004         146.788
0.565                   -1.07983        -155.717         -52.9595         -22.024         -52.9602         -22.024       -0.0127315         146.717
0.566                    -1.1041        -156.292         -52.8048         -24.512         -52.8053          -24.51       -0.0128642         146.645
0.567                   -1.12872        -156.869         -52.6514        -26.9998         -52.6515        -26.9962       -0.0129984         146.573
0.568                   -1.15371        -157.449         -52.4991        -29.4873          -52.499        -29.4822       -0.0131341         146.501
0.569                   -1.17907        -158.031         -52.3479        -31.9744         -52.3475         -31.968       -0.0132715         146.428
0.57                     -1.2048        -158.617         -52.1979        -34.4608         -52.1972        -34.4532       -0.0134105         146.356
0.571                   -1.23092        -159.205         -52.0489        -36.9464          -52.048        -36.9379       -0.0135511         146.283
0.572                   -1.25743        -159.796         -51.9009         -39.431         -51.8998        -39.4218       -0.0136934         146.211
0.573                   -1.28434         -160.39         -51.7538        -41.9146         -51.7525        -41.9048       -0.0138375         146.138
0.574                   -1.31165        -160.988         -51.6077        -44.3971         -51.6062        -44.3868       -0.0139834         146.065
0.575                   -1.33939        -161.588         -51.4625        -46.8783         -51.4609        -46.8677       -0.0141311         145.992
0.576                   -1.36755        -162.191         -51.3182        -49.3583         -51.3164        -49.3474       -0.0142807         145.919
0.577                   -1.39615        -162.798         -51.1747        -51.8369         -51.1727         -51.826       -0.0144323         145.845
0.578                    -1.4252        -163.408         -51.0319        -54.3142         -51.0299        -54.3032       -0.0145858         145.772
0.579                   -1.45471        -164.021         -50.8899          -56.79         -50.8878        -56.7792       -0.0147414         145.698
0.58                    -1.48469        -164.638         -50.7486        -59.2645         -50.7464         -59.254       -0.0148991         145.624
0.581                   -1.51517        -165.259          -50.608        -61.7377         -50.6057        -61.7274        -0.015059          145.55
0.582                   -1.54614        -165.883          -50.468        -64.2096         -50.4656        -64.1997       -0.0152211         145.476
0.583                   -1.57764         -166.51         -50.3285        -66.6802         -50.3261        -66.6707       -0.0153855         145.401
0.584                   -1.60967        -167.141         -50.1897        -69.1496         -50.1872        -69.1406       -0.0155523         145.327
0.585                   -1.64226        -167.777         -50.0513        -71.6179         -50.0489        -71.6094       -0.0157215         145.252
0.586                   -1.67542        -168.415         -49.9135        -74.0851          -49.911        -74.0773       -0.0158932         145.177
0.587                   -1.70918        -169.058         -49.7761        -76.5515         -49.7736        -76.5442       -0.0160675         145.102
0.588                   -1.74355        -169.705         -49.6391        -79.0171         -49.6367        -79.0104       -0.0162445         145.027
0.589                   -1.77855        -170.356         -49.5026        -81.4819         -49.5002        -81.4759       -0.0164241         144.952
0.59                    -1.81422        -171.011         -49.3664        -83.9462         -49.3641        -83.9408       -0.0166066         144.876
0.591                   -1.85058         -171.67         -49.2306        -86.4101         -49.2284        -86.4053        -0.016792           144.8
0.592                   -1.88765        -172.334         -49.0952        -88.8737         -49.0931        -88.8695       -0.0169803         144.725
0.593                   -1.92546        -173.002         -48.9601        -91.3371         -48.9581        -91.3335       -0.0171717         144.648
0.594                   -1.96404        -173.674         -48.8254        -93.8006         -48.8234        -93.7975       -0.0173662         144.572
0.595                   -2.00343         -174.35         -48.6909        -96.2642         -48.6891        -96.2617       -0.0175639         144.496
0.596                   -2.04365        -175.031         -48.5568        -98.7281          -48.555        -98.7261       -0.0177648         144.419
0.597                   -2.08473        -175.716         -48.4229        -101.193         -48.4213        -101.191       -0.0179691         144.342
0.598                   -2.12672        -176.405         -48.2894        -103.658         -48.2879        -103.656       -0.0181768         144.265
0.599                   -2.16965        -177.099         -48.1562        -106.123         -48.1547        -106.123       -0.0183879         144.188
0.6                     -2.21355        -177.797         -48.0232         -108.59         -48.0219         -108.59       -0.0186026         144.111
0.601                   -2.25847        -178.499         -47.8905        -111.058         -47.8893        -111.058       -0.0188209         144.033
0.602                   -2.30445        -179.206         -47.7582        -113.527         -47.7571        -113.527       -0.0190428         143.955
0.603                   -2.35152        -179.917         -47.6261        -115.997         -47.6251        -115.997       -0.0192684         143.877
0.604                   -2.39973         179.368         -47.4944        -118.468         -47.4935        -118.469       -0.0194978         143.799
0.605                   -2.44912         178.649          -47.363        -120.942         -47.3622        -120.943       -0.0197309         143.721
0.606                   -2.49973         177.925         -47.2319        -123.416         -47.2313        -123.418       -0.0199678         143.642
0.607                   -2.55161         177.199         -47.1012        -125.893         -47.1006        -125.894       -0.0202085         143.563
0.608                    -2.6048         176.468         -46.9709        -128.371         -46.9704        -128.373        -0.020453         143.484
0.609                   -2.65934         175.734         -46.8409        -130.852         -46.8405        -130.853       -0.0207014         143.405
0.61                    -2.71528         174.997         -46.7114        -133.334         -46.7111        -133.335       -0.0209536         143.326
0.611                   -2.77265         174.257         -46.5822        -135.818          -46.582        -135.819       -0.0212096         143.246
0.612                    -2.8315         173.513         -46.4536        -138.304         -46.4534        -138.305       -0.0214694         143.166
0.613                   -2.89186         172.768         -46.3253        -140.792         -46.3252        -140.794        -0.021733         143.086
0.614                   -2.95378          172.02         -46.1976        -143.283         -46.1976        -143.284       -0.0220003         143.006
0.615                   -3.01728          171.27         -46.0704        -145.775         -46.0704        -145.776       -0.0222713         142.926
0.616                   -3.08239         170.519         -45.9437        -148.269         -45.9437         -148.27        -0.022546         142.845
0.617                   -3.14915         169.766         -45.8175        -150.765         -45.8176        -150.766       -0.0228244         142.764
0.618                   -3.21758         169.013         -45.6919        -153.264          -45.692        -153.264       -0.0231064         142.683
0.619                    -3.2877         168.259         -45.5669        -155.764          -45.567        -155.764       -0.0233919         142.601
0.62                    -3.35953         167.505         -45.4425        -158.265         -45.4427        -158.266       -0.0236809          142.52
0.621                   -3.43307         166.752         -45.3187        -160.769         -45.3189        -160.769       -0.0239734         142.438
0.622                   -3.50833         165.999         -45.1956        -163.274         -45.1958        -163.274       -0.0242694         142.356
0.623                   -3.58532         165.247         -45.0731         -165.78         -45.0733         -165.78       -0.0245688         142.273
0.624                   -3.66403         164.497         -44.9514        -168.288         -44.9515        -168.288       -0.0248715         142.191
0.625                   -3.74445         163.749         -44.8302        -170.796         -44.8304        -170.797       -0.0251777         142.108
0.626                   -3.82656         163.004         -44.7098        -173.306         -44.7099        -173.306       -0.0254872         142.024
0.627                   -3.91034         162.262         -44.5901        -175.817         -44.5902        -175.817       -0.0258002         141.941
0.628                   -3.99577         161.523         -44.4711        -178.328         -44.4712        -178.329       -0.0261165         141.857
0.629                   -4.08282         160.787         -44.3529          179.16         -44.3529          179.16       -0.0264363         141.773
