! TOUCHSTONE file generated by CST MICROWAVE STUDIO
! Date and time: Fri Oct  2 19:02:16 2020
! Project name: Scenario_1_Free_Space_out_of_line.cst
! Parameters = {Lambda=346.42; Step_1=17.321; dy1=-293.977; dx1=1039; L_HA=400; MT=2.54; Rad_Dielectric=30; Rad_Lower=7.3; Rad_Upper=30; a_HA=580; a_WG=246; b_HA=500; b_WG=121; c_HA=0; c_WG=187; d_feed=85; h_feed=15; h_lower=18; h_upper=40}
! Header version: 2018
! Port assignment regex: !\s*Touchstone port\s*([0-9]+)\s*=\s*(CST MWS port|CST DS port)\s*([0-9]+|Zmin|Zmax)\s*\(\"(.*)\"\)(\s*mode\s*([0-9]+))?.*
! Touchstone port assignment:
! Touchstone port 1 = CST MWS port 1 ("")
! Touchstone port 2 = CST MWS port 2 ("")
# GHz S DB R 50
0.5                    -0.148698        -122.516         -65.3704         34.5911         -65.3704         34.5911      -0.00668375         151.158
0.501                  -0.153859        -122.952         -65.2505         32.2572         -65.2504         32.2572      -0.00674219         151.093
0.502                  -0.159182        -123.391         -65.1265         29.9088         -65.1263         29.9088       -0.0068014         151.027
0.503                  -0.164674        -123.832         -64.9985         27.5467         -64.9982         27.5467       -0.0068614         150.962
0.504                  -0.170337        -124.275         -64.8664         25.1715          -64.866         25.1716      -0.00692219         150.896
0.505                  -0.176178         -124.72         -64.7303          22.784         -64.7298         22.7841      -0.00698379         150.831
0.506                    -0.1822        -125.168         -64.5902         20.3848         -64.5897          20.385      -0.00704619         150.765
0.507                  -0.188409        -125.617         -64.4462         17.9746         -64.4456         17.9748      -0.00710941         150.699
0.508                  -0.194808        -126.069         -64.2983         15.5539         -64.2977         15.5543      -0.00717346         150.633
0.509                  -0.201404        -126.524         -64.1467         13.1235          -64.146         13.1239      -0.00723834         150.568
0.51                   -0.208201         -126.98         -63.9914         10.6838         -63.9906         10.6844      -0.00730407         150.502
0.511                  -0.215203        -127.439         -63.8324         8.23552         -63.8316         8.23615      -0.00737065         150.435
0.512                  -0.222416          -127.9         -63.6699         5.77904          -63.669         5.77978       -0.0074381         150.369
0.513                  -0.229846        -128.364          -63.504         3.31488          -63.503         3.31574      -0.00750642         150.303
0.514                  -0.237496         -128.83         -63.3347         0.84349         -63.3337        0.844465      -0.00757562         150.237
0.515                  -0.245372        -129.298         -63.1622        -1.63474         -63.1612        -1.63364      -0.00764572          150.17
0.516                  -0.253481        -129.769         -62.9867        -4.11943         -62.9856        -4.11822      -0.00771672         150.104
0.517                  -0.261825        -130.242         -62.8082        -6.61027          -62.807        -6.60895      -0.00778863         150.037
0.518                  -0.270412        -130.717         -62.6268        -9.10697         -62.6257        -9.10553      -0.00786147         149.971
0.519                  -0.279247        -131.194         -62.4428        -11.6093         -62.4416        -11.6077      -0.00793524         149.904
0.52                   -0.288334        -131.674         -62.2561         -14.117         -62.2549        -14.1154      -0.00800996         149.837
0.521                  -0.297679        -132.157         -62.0671          -16.63         -62.0659        -16.6282      -0.00808563          149.77
0.522                  -0.307289        -132.641         -61.8758         -19.148         -61.8745        -19.1462      -0.00816228         149.703
0.523                  -0.317167        -133.128         -61.6823        -21.6711          -61.681        -21.6692       -0.0082399         149.636
0.524                  -0.327321        -133.618         -61.4869        -24.1991         -61.4856        -24.1971      -0.00831851         149.569
0.525                  -0.337754         -134.11         -61.2896         -26.732         -61.2883        -26.7299      -0.00839813         149.502
0.526                  -0.348474        -134.604         -61.0906        -29.2697         -61.0893        -29.2676      -0.00847875         149.434
0.527                  -0.359486        -135.101           -60.89        -31.8124         -60.8887        -31.8102      -0.00856041         149.367
0.528                  -0.370794          -135.6         -60.6881          -34.36         -60.6868        -34.3578       -0.0086431         149.299
0.529                  -0.382406        -136.101          -60.485        -36.9126         -60.4837        -36.9103      -0.00872684         149.232
0.53                   -0.394327        -136.605         -60.2807        -39.4702         -60.2794        -39.4679      -0.00881165         149.164
0.531                  -0.406561        -137.111         -60.0755         -42.033         -60.0742        -42.0307      -0.00889753         149.096
0.532                  -0.419116        -137.619         -59.8695         -44.601         -59.8683        -44.5987      -0.00898451         149.028
0.533                  -0.431996         -138.13         -59.6629        -47.1744         -59.6616        -47.1721      -0.00907258          148.96
0.534                  -0.445208        -138.644         -59.4558        -49.7531         -59.4545        -49.7508      -0.00916178         148.892
0.535                  -0.458757        -139.159         -59.2483        -52.3374          -59.247        -52.3352       -0.0092521         148.824
0.536                  -0.472649        -139.677         -59.0406        -54.9274         -59.0393        -54.9251      -0.00934356         148.755
0.537                  -0.486889        -140.198         -58.8328        -57.5231         -58.8316        -57.5208      -0.00943619         148.687
0.538                  -0.501483         -140.72         -58.6251        -60.1245         -58.6239        -60.1224      -0.00952999         148.618
0.539                  -0.516437        -141.245         -58.4176        -62.7319         -58.4164        -62.7298      -0.00962497          148.55
0.54                   -0.531756        -141.773         -58.2104        -65.3453         -58.2093        -65.3432      -0.00972116         148.481
0.541                  -0.547446        -142.303         -58.0037        -67.9646         -58.0026        -67.9626      -0.00981856         148.412
0.542                  -0.563513        -142.835         -57.7976          -70.59         -57.7965        -70.5881       -0.0099172         148.343
0.543                  -0.579961        -143.369         -57.5922        -73.2215         -57.5911        -73.2196       -0.0100171         148.274
0.544                  -0.596797        -143.906         -57.3876        -75.8589         -57.3866        -75.8571       -0.0101182         148.205
0.545                  -0.614025        -144.445          -57.184        -78.5024          -57.183        -78.5007       -0.0102207         148.136
0.546                  -0.631652        -144.986         -56.9814        -81.1519         -56.9805        -81.1503       -0.0103244         148.066
0.547                  -0.649682         -145.53           -56.78        -83.8072         -56.7791        -83.8057       -0.0104295         147.997
0.548                   -0.66812        -146.076         -56.5799        -86.4684         -56.5791        -86.4669       -0.0105358         147.927
0.549                  -0.686972        -146.624         -56.3812        -89.1351         -56.3803        -89.1337       -0.0106436         147.858
0.55                   -0.706243        -147.174         -56.1839        -91.8074         -56.1831        -91.8061       -0.0107527         147.788
0.551                  -0.725937        -147.727         -55.9882         -94.485         -55.9874        -94.4838       -0.0108631         147.718
0.552                   -0.74606        -148.282         -55.7941        -97.1676         -55.7933        -97.1665        -0.010975         147.648
0.553                  -0.766617        -148.839         -55.6017        -99.8552          -55.601        -99.8541       -0.0110883         147.577
0.554                  -0.787611        -149.398         -55.4111        -102.547         -55.4104        -102.546       -0.0112031         147.507
0.555                  -0.809048        -149.959         -55.2223        -105.244         -55.2217        -105.243       -0.0113193         147.437
0.556                  -0.830933        -150.523         -55.0354        -107.944         -55.0348        -107.944        -0.011437         147.366
0.557                  -0.853268        -151.088         -54.8505        -110.649         -54.8499        -110.648       -0.0115561         147.295
0.558                   -0.87606        -151.656         -54.6676        -113.356          -54.667        -113.356       -0.0116769         147.225
0.559                  -0.899311        -152.226         -54.4866        -116.067         -54.4862        -116.067       -0.0117991         147.154
0.56                   -0.923027        -152.798         -54.3078        -118.781         -54.3074         -118.78       -0.0119229         147.083
0.561                   -0.94721        -153.372          -54.131        -121.496         -54.1306        -121.496       -0.0120483         147.011
0.562                  -0.971865        -153.949         -53.9563        -124.214          -53.956        -124.214       -0.0121753          146.94
0.563                  -0.996995        -154.527         -53.7838        -126.934         -53.7834        -126.933       -0.0123039         146.869
0.564                    -1.0226        -155.107         -53.6133        -129.654          -53.613        -129.654       -0.0124342         146.797
0.565                   -1.04869         -155.69          -53.445        -132.375         -53.4447        -132.375       -0.0125662         146.725
0.566                   -1.07527        -156.274         -53.2787        -135.097         -53.2785        -135.097       -0.0126998         146.654
0.567                   -1.10233        -156.861         -53.1145        -137.819         -53.1143        -137.818       -0.0128352         146.582
0.568                   -1.12989        -157.449         -52.9524         -140.54         -52.9522         -140.54       -0.0129724         146.509
0.569                   -1.15794        -158.039         -52.7922        -143.261         -52.7921         -143.26       -0.0131113         146.437
0.57                    -1.18648        -158.632         -52.6341         -145.98          -52.634         -145.98        -0.013252         146.365
0.571                   -1.21553        -159.226         -52.4779        -148.698         -52.4778        -148.698       -0.0133945         146.292
0.572                   -1.24507        -159.822         -52.3237        -151.415         -52.3236        -151.415       -0.0135389          146.22
0.573                   -1.27512        -160.421         -52.1712        -154.129         -52.1712        -154.129       -0.0136851         146.147
0.574                   -1.30567        -161.021         -52.0206        -156.841         -52.0206        -156.841       -0.0138333         146.074
0.575                   -1.33673        -161.623         -51.8717        -159.551         -51.8717        -159.551       -0.0139834         146.001
0.576                    -1.3683        -162.227         -51.7245        -162.258         -51.7245        -162.258       -0.0141354         145.927
0.577                   -1.40038        -162.833         -51.5789        -164.962          -51.579        -164.962       -0.0142895         145.854
0.578                   -1.43298        -163.441         -51.4349        -167.663         -51.4349        -167.663       -0.0144456          145.78
0.579                   -1.46608        -164.051         -51.2923         -170.36         -51.2924         -170.36       -0.0146037         145.707
0.58                    -1.49971        -164.663         -51.1512        -173.054         -51.1512        -173.054       -0.0147639         145.633
0.581                   -1.53384        -165.277         -51.0113        -175.744         -51.0114        -175.744       -0.0149262         145.559
0.582                    -1.5685        -165.893         -50.8728        -178.431         -50.8729        -178.431       -0.0150907         145.484
0.583                   -1.60367        -166.511         -50.7354         178.886         -50.7355         178.886       -0.0152574          145.41
0.584                   -1.63937        -167.131         -50.5991         176.207         -50.5993         176.207       -0.0154263         145.336
0.585                   -1.67558        -167.753         -50.4639         173.531         -50.4641         173.532       -0.0155974         145.261
0.586                   -1.71232        -168.377         -50.3297          170.86         -50.3298          170.86       -0.0157709         145.186
0.587                   -1.74958        -169.003         -50.1963         168.192         -50.1964         168.192       -0.0159466         145.111
0.588                   -1.78737        -169.632         -50.0637         165.527         -50.0639         165.527       -0.0161248         145.036
0.589                   -1.82568        -170.262         -49.9319         162.866         -49.9321         162.866       -0.0163053          144.96
0.59                    -1.86452        -170.895         -49.8008         160.208          -49.801         160.209       -0.0164883         144.885
0.591                   -1.90389         -171.53         -49.6703         157.554         -49.6705         157.554       -0.0166737         144.809
0.592                    -1.9438        -172.167         -49.5404         154.903         -49.5405         154.903       -0.0168617         144.733
0.593                   -1.98424        -172.807         -49.4109         152.255          -49.411         152.255       -0.0170523         144.657
0.594                   -2.02522        -173.449         -49.2818         149.609          -49.282          149.61       -0.0172455         144.581
0.595                   -2.06674        -174.094         -49.1531         146.966         -49.1533         146.967       -0.0174414         144.504
0.596                    -2.1088        -174.741         -49.0248         144.326         -49.0249         144.326       -0.0176399         144.428
0.597                   -2.15142        -175.391         -48.8967         141.687         -48.8968         141.688       -0.0178413         144.351
0.598                    -2.1946        -176.043         -48.7688         139.051         -48.7689         139.051       -0.0180454         144.274
0.599                   -2.23833        -176.699         -48.6411         136.416         -48.6412         136.416       -0.0182524         144.197
0.6                     -2.28264        -177.357         -48.5135         133.783         -48.5136         133.783       -0.0184624         144.119
0.601                   -2.32753        -178.019          -48.386          131.15         -48.3861         131.151       -0.0186753         144.042
0.602                     -2.373        -178.683         -48.2585         128.519         -48.2586         128.519       -0.0188913         143.964
0.603                   -2.41908        -179.351         -48.1311         125.888         -48.1312         125.888       -0.0191103         143.886
0.604                   -2.46576         179.977         -48.0036         123.257         -48.0038         123.257       -0.0193326         143.808
0.605                   -2.51308         179.302         -47.8762         120.626         -47.8763         120.627       -0.0195581         143.729
0.606                   -2.56103         178.624         -47.7487         117.996         -47.7488         117.996       -0.0197869         143.651
0.607                   -2.60965         177.941         -47.6211         115.364         -47.6212         115.365       -0.0200191         143.572
0.608                   -2.65894         177.255         -47.4934         112.732         -47.4935         112.732       -0.0202548         143.493
0.609                   -2.70894         176.564         -47.3657         110.099         -47.3658         110.099        -0.020494         143.414
0.61                    -2.75967          175.87         -47.2378         107.464         -47.2379         107.464        -0.020737         143.334
0.611                   -2.81116          175.17         -47.1099         104.828           -47.11         104.828       -0.0209836         143.254
0.612                   -2.86344         174.466         -46.9818          102.19         -46.9819          102.19       -0.0212342         143.175
0.613                   -2.91654         173.757         -46.8537         99.5493         -46.8538         99.5497       -0.0214887         143.094
0.614                    -2.9705         173.044         -46.7255         96.9067         -46.7255         96.9071       -0.0217474         143.014
0.615                   -3.02537         172.325         -46.5972         94.2615         -46.5972         94.2619       -0.0220103         142.933
0.616                   -3.08119           171.6         -46.4688         91.6135         -46.4688         91.6138       -0.0222776         142.852
0.617                   -3.13801         170.871         -46.3404         88.9624         -46.3404         88.9628       -0.0225494         142.771
0.618                   -3.19589         170.135         -46.2119         86.3082          -46.212         86.3086       -0.0228261          142.69
0.619                   -3.25488         169.394         -46.0835         83.6506         -46.0835         83.6509       -0.0231076         142.608
0.62                    -3.31506         168.647          -45.955         80.9894         -45.9551         80.9897       -0.0233943         142.527
0.621                   -3.37649         167.894         -45.8266         78.3245         -45.8267         78.3249       -0.0236864         142.444
0.622                   -3.43925         167.136         -45.6983         75.6558         -45.6983         75.6562       -0.0239841         142.362
0.623                   -3.50341          166.37         -45.5701         72.9832         -45.5701         72.9835       -0.0242877         142.279
0.624                   -3.56907         165.599          -45.442         70.3065          -45.442         70.3068       -0.0245975         142.197
0.625                   -3.63631         164.822         -45.3141         67.6257         -45.3141          67.626       -0.0249138         142.113
0.626                   -3.70523         164.039         -45.1863         64.9407         -45.1864          64.941        -0.025237          142.03
0.627                   -3.77592          163.25         -45.0589         62.2514         -45.0589         62.2517       -0.0255675         141.946
0.628                   -3.84849         162.455         -44.9317          59.558         -44.9317         59.5583       -0.0259055         141.862
0.629                   -3.92305         161.654         -44.8048         56.8603         -44.8048         56.8606       -0.0262515         141.778
