! TOUCHSTONE file generated by CST MICROWAVE STUDIO
! Date and time: Fri Oct  2 16:18:59 2020
! Project name: Scenario_1_Free_Space_out_of_line.cst
! Parameters = {Lambda=346.42; Step_1=17.321; dy1=-311.318; dx1=346; L_HA=400; MT=2.54; Rad_Dielectric=30; Rad_Lower=7.3; Rad_Upper=30; a_HA=580; a_WG=246; b_HA=500; b_WG=121; c_HA=0; c_WG=187; d_feed=85; h_feed=15; h_lower=18; h_upper=40}
! Header version: 2018
! Port assignment regex: !\s*Touchstone port\s*([0-9]+)\s*=\s*(CST MWS port|CST DS port)\s*([0-9]+|Zmin|Zmax)\s*\(\"(.*)\"\)(\s*mode\s*([0-9]+))?.*
! Touchstone port assignment:
! Touchstone port 1 = CST MWS port 1 ("")
! Touchstone port 2 = CST MWS port 2 ("")
# GHz S DB R 50
0.5                    -0.149457        -122.624         -62.6539         51.0311         -62.6539         51.0311      -0.00678334         151.122
0.501                  -0.156512        -123.071         -62.4605         49.0808         -62.4605          49.082      -0.00684547         151.057
0.502                  -0.163724        -123.519         -62.2668         47.1421         -62.2668         47.1444      -0.00690852         150.991
0.503                  -0.171095        -123.969         -62.0729         45.2144         -62.0729         45.2177      -0.00697248         150.926
0.504                  -0.178626         -124.42          -61.879         43.2972          -61.879         43.3015      -0.00703737         150.861
0.505                  -0.186318        -124.872         -61.6851         41.3902          -61.685         41.3954      -0.00710317         150.795
0.506                  -0.194174        -125.326         -61.4912         39.4928         -61.4912         39.4988      -0.00716991         150.729
0.507                  -0.202193        -125.782         -61.2975         37.6045         -61.2974         37.6113      -0.00723759         150.664
0.508                  -0.210378        -126.239          -61.104         35.7249         -61.1039         35.7324       -0.0073062         150.598
0.509                  -0.218731        -126.698         -60.9107         33.8535         -60.9107         33.8616      -0.00737576         150.532
0.51                   -0.227252        -127.158         -60.7178         31.9898         -60.7178         31.9985      -0.00744628         150.466
0.511                  -0.235944         -127.62         -60.5253         30.1334         -60.5252         30.1427      -0.00751775           150.4
0.512                  -0.244809        -128.084         -60.3332         28.2839         -60.3331         28.2936      -0.00759019         150.334
0.513                  -0.253848        -128.549         -60.1415         26.4408         -60.1415          26.451       -0.0076636         150.267
0.514                  -0.263063        -129.016         -59.9504         24.6037         -59.9504         24.6142      -0.00773798         150.201
0.515                  -0.272456        -129.485         -59.7598         22.7722         -59.7598         22.7831      -0.00781334         150.135
0.516                  -0.282029        -129.955         -59.5699         20.9459         -59.5699          20.957       -0.0078897         150.068
0.517                  -0.291785        -130.427         -59.3805         19.1244         -59.3805         19.1358      -0.00796705         150.002
0.518                  -0.301726        -130.901         -59.1918         17.3073         -59.1918         17.3189       -0.0080454         149.935
0.519                  -0.311854        -131.377         -59.0038         15.4942         -59.0038          15.506      -0.00812475         149.868
0.52                   -0.322171        -131.855         -58.8165         13.6848         -58.8165         13.6968      -0.00820513         149.801
0.521                   -0.33268        -132.334           -58.63         11.8788           -58.63         11.8908      -0.00828652         149.735
0.522                  -0.343385        -132.815         -58.4442         10.0758         -58.4442         10.0879      -0.00836895         149.668
0.523                  -0.354286        -133.298         -58.2592         8.27553         -58.2592         8.28765      -0.00845241           149.6
0.524                  -0.365388        -133.783          -58.075         6.47762         -58.0749         6.48974      -0.00853691         149.533
0.525                  -0.376694         -134.27         -57.8916          4.6818         -57.8916         4.69391      -0.00862247         149.466
0.526                  -0.388205        -134.759          -57.709         2.88779          -57.709         2.89985      -0.00870909         149.399
0.527                  -0.399926         -135.25         -57.5273         1.09531         -57.5273          1.1073      -0.00879677         149.331
0.528                   -0.41186        -135.743         -57.3465       -0.695896         -57.3464       -0.684002      -0.00888553         149.264
0.529                  -0.424011        -136.238         -57.1665        -2.48609         -57.1665        -2.47431      -0.00897537         149.196
0.53                    -0.43638        -136.735         -56.9874         -4.2755         -56.9874        -4.26386       -0.0090663         149.128
0.531                  -0.448974        -137.235         -56.8092        -6.06437         -56.8092        -6.05288      -0.00915833          149.06
0.532                  -0.461794        -137.736          -56.632        -7.85291         -56.6319         -7.8416      -0.00925147         148.993
0.533                  -0.474845        -138.239         -56.4556        -9.64133         -56.4556        -9.63021      -0.00934572         148.924
0.534                  -0.488132        -138.745         -56.2802        -11.4298         -56.2802        -11.4189       -0.0094411         148.856
0.535                  -0.501657        -139.253         -56.1057        -13.2186         -56.1057        -13.2079      -0.00953762         148.788
0.536                  -0.515426        -139.762         -55.9322        -15.0078         -55.9321        -14.9974      -0.00963528          148.72
0.537                  -0.529444        -140.275         -55.7596        -16.7977         -55.7595        -16.7874      -0.00973409         148.651
0.538                  -0.543713        -140.789          -55.588        -18.5883         -55.5879        -18.5783      -0.00983407         148.583
0.539                  -0.558241        -141.306         -55.4173        -20.3798         -55.4172        -20.3701      -0.00993522         148.514
0.54                    -0.57303        -141.825         -55.2476        -22.1724         -55.2475         -22.163       -0.0100376         148.445
0.541                  -0.588087        -142.346         -55.0788        -23.9663         -55.0788        -23.9571       -0.0101411         148.377
0.542                  -0.603416         -142.87         -54.9111        -25.7614          -54.911        -25.7525       -0.0102458         148.308
0.543                  -0.619023        -143.396         -54.7443         -27.558         -54.7442        -27.5494       -0.0103518         148.239
0.544                  -0.634914        -143.925         -54.5785        -29.3561         -54.5784        -29.3478       -0.0104589         148.169
0.545                  -0.651094        -144.456         -54.4136        -31.1559         -54.4135        -31.1479       -0.0105674           148.1
0.546                  -0.667569         -144.99         -54.2498        -32.9575         -54.2497        -32.9498        -0.010677         148.031
0.547                  -0.684345        -145.526         -54.0869        -34.7609         -54.0868        -34.7535       -0.0107879         147.961
0.548                  -0.701428        -146.064          -53.925        -36.5662         -53.9249         -36.559       -0.0109001         147.892
0.549                  -0.718826        -146.606         -53.7641        -38.3734          -53.764        -38.3666       -0.0110136         147.822
0.55                   -0.736544        -147.149         -53.6042        -40.1827         -53.6041        -40.1762       -0.0111284         147.752
0.551                  -0.754589        -147.696         -53.4452        -41.9942         -53.4451        -41.9879       -0.0112445         147.682
0.552                  -0.772969        -148.245         -53.2873        -43.8077         -53.2872        -43.8018       -0.0113619         147.612
0.553                  -0.791691        -148.796         -53.1303        -45.6235         -53.1302        -45.6179       -0.0114806         147.542
0.554                  -0.810761        -149.351         -52.9743        -47.4415         -52.9742        -47.4362       -0.0116007         147.472
0.555                  -0.830188        -149.908         -52.8193        -49.2617         -52.8192        -49.2567       -0.0117221         147.401
0.556                   -0.84998        -150.468         -52.6653        -51.0843         -52.6652        -51.0796        -0.011845         147.331
0.557                  -0.870144         -151.03         -52.5123        -52.9092         -52.5122        -52.9047       -0.0119692          147.26
0.558                  -0.890689        -151.596         -52.3602        -54.7364         -52.3601        -54.7322       -0.0120948         147.189
0.559                  -0.911623        -152.164         -52.2091        -56.5659          -52.209         -56.562       -0.0122218         147.118
0.56                   -0.932956        -152.735          -52.059        -58.3978         -52.0589        -58.3942       -0.0123503         147.047
0.561                  -0.954695        -153.309         -51.9099         -60.232         -51.9097        -60.2286       -0.0124802         146.976
0.562                  -0.976851        -153.886         -51.7617        -62.0686         -51.7615        -62.0655       -0.0126116         146.905
0.563                  -0.999432        -154.465         -51.6144        -63.9075         -51.6143        -63.9046       -0.0127445         146.833
0.564                   -1.02245        -155.048         -51.4682        -65.7488         -51.4681        -65.7461       -0.0128789         146.762
0.565                   -1.04591        -155.633         -51.3229        -67.5923         -51.3228        -67.5899       -0.0130148          146.69
0.566                   -1.06983        -156.222         -51.1785        -69.4381         -51.1784        -69.4359       -0.0131522         146.618
0.567                   -1.09421        -156.813         -51.0351        -71.2862          -51.035        -71.2842       -0.0132912         146.546
0.568                   -1.11907        -157.408         -50.8926        -73.1365         -50.8925        -73.1347       -0.0134317         146.474
0.569                   -1.14442        -158.005         -50.7511         -74.989          -50.751        -74.9874       -0.0135739         146.402
0.57                    -1.17026        -158.606         -50.6105        -76.8436         -50.6104        -76.8422       -0.0137176          146.33
0.571                   -1.19661         -159.21         -50.4708        -78.7004         -50.4707        -78.6992        -0.013863         146.257
0.572                   -1.22349        -159.816          -50.332        -80.5593         -50.3319        -80.5582         -0.01401         146.184
0.573                    -1.2509        -160.426         -50.1942        -82.4202         -50.1941        -82.4192       -0.0141587         146.112
0.574                   -1.27885        -161.039         -50.0572         -84.283         -50.0572        -84.2823        -0.014309         146.039
0.575                   -1.30736        -161.655         -49.9212        -86.1479         -49.9211        -86.1472       -0.0144611         145.965
0.576                   -1.33644        -162.274          -49.786        -88.0146          -49.786        -88.0141       -0.0146149         145.892
0.577                   -1.36611        -162.896         -49.6518        -89.8831         -49.6517        -89.8827       -0.0147704         145.819
0.578                   -1.39637        -163.521         -49.5184        -91.7534         -49.5184        -91.7531       -0.0149278         145.745
0.579                   -1.42724         -164.15         -49.3859        -93.6254         -49.3859        -93.6252       -0.0150869         145.672
0.58                    -1.45874        -164.781         -49.2543        -95.4991         -49.2542         -95.499       -0.0152479         145.598
0.581                   -1.49087        -165.416         -49.1235        -97.3743         -49.1235        -97.3743       -0.0154107         145.524
0.582                   -1.52365        -166.053         -48.9936        -99.2511         -48.9936        -99.2512       -0.0155753         145.449
0.583                    -1.5571        -166.694         -48.8645        -101.129         -48.8645        -101.129       -0.0157419         145.375
0.584                   -1.59123        -167.338         -48.7363        -103.009         -48.7363        -103.009       -0.0159104         145.301
0.585                   -1.62605        -167.985         -48.6088         -104.89         -48.6088         -104.89       -0.0160808         145.226
0.586                   -1.66159        -168.636         -48.4823        -106.772         -48.4823        -106.772       -0.0162532         145.151
0.587                   -1.69785        -169.289         -48.3565        -108.655         -48.3565        -108.656       -0.0164277         145.076
0.588                   -1.73485        -169.945         -48.2315         -110.54         -48.2315         -110.54       -0.0166041         145.001
0.589                   -1.77261        -170.605         -48.1073        -112.425         -48.1073        -112.426       -0.0167827         144.926
0.59                    -1.81115        -171.267         -47.9839        -114.312         -47.9839        -114.312       -0.0169633          144.85
0.591                   -1.85047        -171.933         -47.8613        -116.199         -47.8613          -116.2        -0.017146         144.774
0.592                    -1.8906        -172.601         -47.7394        -118.087         -47.7394        -118.088       -0.0173309         144.699
0.593                   -1.93156        -173.272         -47.6183        -119.976         -47.6183        -119.977        -0.017518         144.622
0.594                   -1.97335        -173.947         -47.4979        -121.866         -47.4979        -121.866       -0.0177073         144.546
0.595                     -2.016        -174.624         -47.3783        -123.756         -47.3783        -123.756       -0.0178989          144.47
0.596                   -2.05952        -175.304         -47.2594        -125.647         -47.2594        -125.647       -0.0180928         144.393
0.597                   -2.10394        -175.987         -47.1412        -127.538         -47.1412        -127.538        -0.018289         144.316
0.598                   -2.14927        -176.673         -47.0237        -129.429         -47.0237        -129.429       -0.0184876         144.239
0.599                   -2.19552        -177.361         -46.9069        -131.321         -46.9069        -131.321       -0.0186886         144.162
0.6                     -2.24271        -178.053         -46.7908        -133.213         -46.7908        -133.213        -0.018892         144.085
0.601                   -2.29087        -178.746         -46.6754        -135.105         -46.6754        -135.105       -0.0190979         144.007
0.602                   -2.34002        -179.443         -46.5606        -136.997         -46.5606        -136.997       -0.0193064          143.93
0.603                   -2.39015         179.858         -46.4465        -138.889         -46.4465        -138.889       -0.0195174         143.852
0.604                   -2.44131         179.157          -46.333        -140.781          -46.333        -140.781       -0.0197311         143.774
0.605                   -2.49351         178.453         -46.2202        -142.673         -46.2202        -142.673       -0.0199474         143.695
0.606                   -2.54675         177.746         -46.1079        -144.564         -46.1079        -144.564       -0.0201664         143.617
0.607                   -2.60107         177.038         -45.9963        -146.455         -45.9963        -146.455       -0.0203882         143.538
0.608                   -2.65648         176.327         -45.8853        -148.346         -45.8853        -148.346       -0.0206128         143.459
0.609                   -2.71301         175.614         -45.7749        -150.237         -45.7748        -150.236       -0.0208402          143.38
0.61                    -2.77065           174.9          -45.665        -152.127          -45.665        -152.126       -0.0210706           143.3
0.611                   -2.82945         174.183         -45.5557        -154.016         -45.5557        -154.016       -0.0213039          143.22
0.612                   -2.88941         173.464         -45.4469        -155.905         -45.4469        -155.904       -0.0215402         143.141
0.613                   -2.95056         172.744         -45.3387        -157.792         -45.3387        -157.792       -0.0217797          143.06
0.614                   -3.01291         172.022          -45.231         -159.68          -45.231        -159.679       -0.0220223          142.98
0.615                   -3.07648         171.298         -45.1239        -161.566         -45.1238        -161.565        -0.022268           142.9
0.616                   -3.14128         170.573         -45.0172        -163.451         -45.0172        -163.451       -0.0225171         142.819
0.617                   -3.20735         169.847          -44.911        -165.336          -44.911        -165.335       -0.0227694         142.738
0.618                   -3.27469         169.119         -44.8053        -167.219         -44.8053        -167.219       -0.0230252         142.656
0.619                   -3.34332         168.391         -44.7001        -169.102            -44.7        -169.101       -0.0232844         142.575
0.62                    -3.41326         167.661         -44.5953        -170.983         -44.5953        -170.982       -0.0235472         142.493
0.621                   -3.48453         166.931          -44.491        -172.863         -44.4909        -172.862       -0.0238136         142.411
0.622                   -3.55715           166.2         -44.3871        -174.742          -44.387        -174.741       -0.0240837         142.329
0.623                   -3.63113         165.468         -44.2836         -176.62         -44.2835        -176.619       -0.0243575         142.246
0.624                   -3.70648         164.736         -44.1806        -178.496         -44.1805        -178.495       -0.0246352         142.163
0.625                   -3.78324         164.003         -44.0779         179.629         -44.0778          179.63       -0.0249168          142.08
0.626                    -3.8614         163.271         -43.9756         177.755         -43.9755         177.756       -0.0252024         141.997
0.627                   -3.94099         162.538         -43.8737         175.883         -43.8735         175.884       -0.0254922         141.913
0.628                   -4.02203         161.806         -43.7721         174.012          -43.772         174.013       -0.0257861         141.829
0.629                   -4.10452         161.074         -43.6709         172.143         -43.6708         172.144       -0.0260844         141.745
