! TOUCHSTONE file generated by CST MICROWAVE STUDIO
! Date and time: Fri Oct  2 16:34:19 2020
! Project name: Scenario_1_Free_Space_out_of_line.cst
! Parameters = {Lambda=346.42; Step_1=17.321; dy1=-311.318; dx1=520; L_HA=400; MT=2.54; Rad_Dielectric=30; Rad_Lower=7.3; Rad_Upper=30; a_HA=580; a_WG=246; b_HA=500; b_WG=121; c_HA=0; c_WG=187; d_feed=85; h_feed=15; h_lower=18; h_upper=40}
! Header version: 2018
! Port assignment regex: !\s*Touchstone port\s*([0-9]+)\s*=\s*(CST MWS port|CST DS port)\s*([0-9]+|Zmin|Zmax)\s*\(\"(.*)\"\)(\s*mode\s*([0-9]+))?.*
! Touchstone port assignment:
! Touchstone port 1 = CST MWS port 1 ("")
! Touchstone port 2 = CST MWS port 2 ("")
# GHz S DB R 50
0.5                    -0.147709        -122.632         -63.6518        -43.0983         -63.6512        -43.0957      -0.00656046         151.154
0.501                  -0.153702        -123.088         -63.4748        -44.3531         -63.4741        -44.3547      -0.00661917         151.089
0.502                  -0.159916        -123.546         -63.2967        -45.6352         -63.2958        -45.6408      -0.00667879         151.023
0.503                  -0.166353        -124.005         -63.1174        -46.9445         -63.1164        -46.9539      -0.00673933         150.958
0.504                  -0.173016        -124.466          -62.937        -48.2811         -62.9358        -48.2942      -0.00680078         150.892
0.505                  -0.179904        -124.928         -62.7555        -49.6448         -62.7542        -49.6614      -0.00686316         150.826
0.506                  -0.187021        -125.392         -62.5729        -51.0356         -62.5715        -51.0556      -0.00692645         150.761
0.507                  -0.194367        -125.857         -62.3894        -52.4535         -62.3879        -52.4766      -0.00699067         150.695
0.508                  -0.201944        -126.325         -62.2048        -53.8983         -62.2032        -53.9244      -0.00705581         150.629
0.509                  -0.209754        -126.793         -62.0193        -55.3699         -62.0176        -55.3989      -0.00712187         150.563
0.51                   -0.217799        -127.264         -61.8329        -56.8682         -61.8312        -56.8999      -0.00718887         150.497
0.511                  -0.226079        -127.736         -61.6456        -58.3932         -61.6439        -58.4274      -0.00725681         150.431
0.512                  -0.234597        -128.209         -61.4575        -59.9446         -61.4557        -59.9812      -0.00732568         150.364
0.513                  -0.243354        -128.685         -61.2686        -61.5223         -61.2668         -61.561      -0.00739549         150.298
0.514                  -0.252352        -129.161          -61.079        -63.1261         -61.0772        -63.1669      -0.00746625         150.232
0.515                  -0.261593         -129.64         -60.8887        -64.7559         -60.8869        -64.7985      -0.00753795         150.165
0.516                  -0.271078         -130.12         -60.6978        -66.4114         -60.6961        -66.4558      -0.00761061         150.099
0.517                  -0.280808        -130.602         -60.5064        -68.0924         -60.5046        -68.1384      -0.00768422         150.032
0.518                  -0.290787        -131.085         -60.3144        -69.7988         -60.3127        -69.8461       -0.0077588         149.965
0.519                  -0.301015         -131.57          -60.122        -71.5302         -60.1203        -71.5787      -0.00783434         149.898
0.52                   -0.311494        -132.057         -59.9291        -73.2863         -59.9275        -73.3358      -0.00791085         149.831
0.521                  -0.322226        -132.546          -59.736        -75.0669         -59.7344        -75.1173      -0.00798834         149.764
0.522                  -0.333213        -133.036         -59.5426        -76.8716         -59.5411        -76.9228      -0.00806682         149.697
0.523                  -0.344456        -133.528          -59.349        -78.7001         -59.3476        -78.7519      -0.00814628          149.63
0.524                  -0.355958        -134.021         -59.1553        -80.5521          -59.154        -80.6042      -0.00822673         149.563
0.525                  -0.367721        -134.517         -58.9616         -82.427         -58.9603        -82.4795      -0.00830818         149.496
0.526                  -0.379745        -135.014         -58.7679        -84.3246         -58.7667        -84.3772      -0.00839065         149.428
0.527                  -0.392034        -135.512         -58.5743        -86.2444         -58.5732         -86.297      -0.00847413         149.361
0.528                  -0.404589        -136.013         -58.3809        -88.1859         -58.3799        -88.2383      -0.00855863         149.293
0.529                  -0.417412        -136.515         -58.1878        -90.1487         -58.1869        -90.2008      -0.00864416         149.225
0.53                   -0.430506        -137.019          -57.995        -92.1321         -57.9942        -92.1838      -0.00873073         149.158
0.531                  -0.443871        -137.525         -57.8026        -94.1357         -57.8019        -94.1868      -0.00881835          149.09
0.532                  -0.457512        -138.033         -57.6108        -96.1589         -57.6101        -96.2094      -0.00890702         149.022
0.533                  -0.471429        -138.542         -57.4195        -98.2011          -57.419        -98.2508      -0.00899677         148.953
0.534                  -0.485625        -139.053         -57.2289        -100.262         -57.2285         -100.31      -0.00908758         148.885
0.535                  -0.500102        -139.566          -57.039         -102.34         -57.0387        -102.388      -0.00917949         148.817
0.536                  -0.514862        -140.081           -56.85        -104.435         -56.8497        -104.482      -0.00927249         148.749
0.537                  -0.529908        -140.598         -56.6619        -106.547         -56.6617        -106.592       -0.0093666          148.68
0.538                  -0.545243        -141.116         -56.4747        -108.674         -56.4746        -108.718      -0.00946183         148.612
0.539                  -0.560868        -141.637         -56.2886        -110.816         -56.2885        -110.859       -0.0095582         148.543
0.54                   -0.576787        -142.159         -56.1036        -112.973         -56.1036        -113.014      -0.00965571         148.474
0.541                  -0.593001        -142.684         -55.9197        -115.142         -55.9199        -115.182      -0.00975438         148.405
0.542                  -0.609514         -143.21         -55.7372        -117.325         -55.7374        -117.363      -0.00985422         148.336
0.543                  -0.626329        -143.738         -55.5559        -119.519         -55.5562        -119.555      -0.00995526         148.267
0.544                  -0.643447        -144.268          -55.376        -121.724         -55.3763        -121.759       -0.0100575         148.198
0.545                  -0.660873          -144.8         -55.1975        -123.939         -55.1979        -123.972       -0.0101609         148.128
0.546                  -0.678608        -145.334         -55.0205        -126.163         -55.0209        -126.194       -0.0102656         148.059
0.547                  -0.696657        -145.871          -54.845        -128.395         -54.8454        -128.425       -0.0103716         147.989
0.548                  -0.715022        -146.409          -54.671        -130.636         -54.6715        -130.663       -0.0104788          147.92
0.549                  -0.733707        -146.949         -54.4986        -132.882         -54.4991        -132.908       -0.0105873          147.85
0.55                   -0.752714        -147.491         -54.3278        -135.135         -54.3283        -135.159       -0.0106971          147.78
0.551                  -0.772048        -148.036         -54.1587        -137.393         -54.1592        -137.415       -0.0108083          147.71
0.552                  -0.791712        -148.582         -53.9912        -139.655         -53.9917        -139.675       -0.0109208          147.64
0.553                   -0.81171        -149.131         -53.8253         -141.92         -53.8258        -141.939       -0.0110346          147.57
0.554                  -0.832044        -149.681         -53.6611        -144.188         -53.6616        -144.205       -0.0111499         147.499
0.555                  -0.852721        -150.234         -53.4986        -146.457          -53.499        -146.472       -0.0112666         147.429
0.556                  -0.873742        -150.789         -53.3377        -148.728         -53.3381        -148.741       -0.0113847         147.358
0.557                  -0.895113        -151.347         -53.1785        -150.999         -53.1789         -151.01       -0.0115043         147.287
0.558                  -0.916838        -151.906         -53.0209        -153.269         -53.0212        -153.279       -0.0116254         147.216
0.559                  -0.938922        -152.468         -52.8649        -155.538         -52.8652        -155.547        -0.011748         147.145
0.56                   -0.961368        -153.032         -52.7105        -157.806         -52.7108        -157.813       -0.0118721         147.074
0.561                  -0.984182        -153.599         -52.5577        -160.071         -52.5579        -160.076       -0.0119979         147.003
0.562                   -1.00737        -154.167         -52.4064        -162.333         -52.4066        -162.337       -0.0121252         146.932
0.563                   -1.03093        -154.739         -52.2566        -164.592         -52.2567        -164.594       -0.0122542          146.86
0.564                   -1.05488        -155.312         -52.1083        -166.846         -52.1083        -166.847       -0.0123848         146.789
0.565                   -1.07922        -155.888         -51.9613        -169.096         -51.9613        -169.096       -0.0125172         146.717
0.566                   -1.10395        -156.466         -51.8158        -171.341         -51.8157         -171.34       -0.0126513         146.645
0.567                   -1.12908        -157.047         -51.6715        -173.581         -51.6714        -173.578       -0.0127872         146.573
0.568                   -1.15462        -157.631         -51.5286        -175.814         -51.5283        -175.811       -0.0129249         146.501
0.569                   -1.18056        -158.216         -51.3868        -178.042         -51.3865        -178.037       -0.0130644         146.428
0.57                    -1.20693        -158.805         -51.2462         179.737         -51.2459         179.742       -0.0132058         146.356
0.571                   -1.23373        -159.396         -51.1068         177.523         -51.1063         177.529       -0.0133492         146.283
0.572                   -1.26095        -159.989         -50.9684         175.315         -50.9679         175.322       -0.0134945          146.21
0.573                   -1.28862        -160.586          -50.831         173.114         -50.8304         173.122       -0.0136418         146.137
0.574                   -1.31674        -161.185         -50.6946         170.921         -50.6939          170.93       -0.0137912         146.064
0.575                   -1.34531        -161.786          -50.559         168.735         -50.5583         168.745       -0.0139427         145.991
0.576                   -1.37434        -162.391         -50.4243         166.557         -50.4235         166.567       -0.0140964         145.918
0.577                   -1.40385        -162.998         -50.2904         164.386         -50.2896         164.396       -0.0142522         145.844
0.578                   -1.43383        -163.608         -50.1572         162.222         -50.1563         162.233       -0.0144103         145.771
0.579                   -1.46431        -164.221         -50.0248         160.066         -50.0238         160.078       -0.0145707         145.697
0.58                    -1.49528        -164.836         -49.8929         157.918         -49.8919         157.929       -0.0147334         145.623
0.581                   -1.52677        -165.455         -49.7616         155.777         -49.7606         155.789       -0.0148986         145.549
0.582                   -1.55877        -166.076         -49.6309         153.643         -49.6298         153.655       -0.0150662         145.474
0.583                    -1.5913        -166.701         -49.5007         151.517         -49.4995         151.529       -0.0152363           145.4
0.584                   -1.62437        -167.328         -49.3709         149.397         -49.3696         149.409       -0.0154089         145.325
0.585                   -1.65799        -167.959         -49.2415         147.284         -49.2402         147.297       -0.0155842         145.251
0.586                   -1.69218        -168.592         -49.1124         145.179         -49.1111         145.191       -0.0157622         145.176
0.587                   -1.72694        -169.229         -48.9837         143.079         -48.9824         143.092        -0.015943           145.1
0.588                   -1.76228        -169.869         -48.8553         140.986         -48.8539         140.999       -0.0161265         145.025
0.589                   -1.79823        -170.512         -48.7272         138.899         -48.7258         138.912       -0.0163129          144.95
0.59                    -1.83479        -171.158         -48.5992         136.818         -48.5978         136.831       -0.0165023         144.874
0.591                   -1.87198        -171.807         -48.4714         134.743           -48.47         134.755       -0.0166946         144.798
0.592                   -1.90981         -172.46         -48.3439         132.673         -48.3424         132.685         -0.01689         144.722
0.593                   -1.94829        -173.116         -48.2164         130.608         -48.2149          130.62       -0.0170886         144.646
0.594                   -1.98745        -173.775          -48.089         128.548         -48.0875          128.56       -0.0172903          144.57
0.595                    -2.0273        -174.437         -47.9618         126.493         -47.9603         126.504       -0.0174953         144.493
0.596                   -2.06785        -175.103         -47.8346         124.441         -47.8331         124.452       -0.0177037         144.416
0.597                   -2.10912        -175.773         -47.7075         122.394          -47.706         122.405       -0.0179155          144.34
0.598                   -2.15113        -176.445         -47.5804          120.35         -47.5789         120.361       -0.0181307         144.262
0.599                    -2.1939        -177.121         -47.4533          118.31         -47.4518          118.32       -0.0183496         144.185
0.6                     -2.23744        -177.801         -47.3263         116.273         -47.3248         116.283        -0.018572         144.108
0.601                   -2.28178        -178.484         -47.1992         114.238         -47.1978         114.248       -0.0187981          144.03
0.602                   -2.32694        -179.171         -47.0722         112.206         -47.0707         112.215       -0.0190281         143.952
0.603                   -2.37293        -179.861         -46.9452         110.176         -46.9437         110.185       -0.0192618         143.874
0.604                   -2.41978         179.445         -46.8181         108.148         -46.8167         108.157       -0.0194995         143.796
0.605                   -2.46751         178.748         -46.6911         106.122         -46.6897          106.13       -0.0197412         143.717
0.606                   -2.51614         178.048         -46.5641         104.096         -46.5627         104.104       -0.0199869         143.638
0.607                   -2.56571         177.343         -46.4371         102.072         -46.4357         102.079       -0.0202368          143.56
0.608                   -2.61622         176.635           -46.31         100.048         -46.3087         100.055        -0.020491          143.48
0.609                   -2.66771         175.924          -46.183         98.0242         -46.1817         98.0309       -0.0207494         143.401
0.61                    -2.72021         175.209         -46.0561         96.0007         -46.0548         96.0071       -0.0210121         143.322
0.611                   -2.77373          174.49         -45.9291          93.977         -45.9279          93.983       -0.0212793         143.242
0.612                   -2.82831         173.768         -45.8023         91.9528          -45.801         91.9585        -0.021551         143.162
0.613                   -2.88398         173.043         -45.6754         89.9279         -45.6743         89.9333       -0.0218273         143.082
0.614                   -2.94076         172.314         -45.5487          87.902         -45.5476          87.907       -0.0221082         143.001
0.615                   -2.99869         171.581         -45.4221         85.8748          -45.421         85.8795       -0.0223938          142.92
0.616                    -3.0578         170.845         -45.2956         83.8462         -45.2945         83.8505       -0.0226842          142.84
0.617                   -3.11811         170.106         -45.1692         81.8158         -45.1682         81.8199       -0.0229795         142.758
0.618                   -3.17966         169.363          -45.043         79.7836          -45.042         79.7873       -0.0232796         142.677
0.619                   -3.24249         168.617          -44.917         77.7492          -44.916         77.7527       -0.0235848         142.595
0.62                    -3.30663         167.868         -44.7911         75.7126         -44.7902         75.7157       -0.0238949         142.514
0.621                   -3.37211         167.115         -44.6656         73.6734         -44.6647         73.6763       -0.0242102         142.432
0.622                   -3.43897          166.36         -44.5402         71.6316         -44.5394         71.6342       -0.0245306         142.349
0.623                   -3.50724         165.601         -44.4152          69.587         -44.4144         69.5893       -0.0248562         142.267
0.624                   -3.57697          164.84         -44.2905         67.5394         -44.2897         67.5415        -0.025187         142.184
0.625                   -3.64819         164.075         -44.1661         65.4888         -44.1654         65.4907       -0.0255232         142.101
0.626                   -3.72094         163.309         -44.0421          63.435         -44.0414         63.4367       -0.0258647         142.017
0.627                   -3.79527         162.539         -43.9185         61.3779         -43.9179         61.3794       -0.0262116         141.934
0.628                    -3.8712         161.767         -43.7954         59.3174         -43.7948         59.3187        -0.026564          141.85
0.629                   -3.94879         160.993         -43.6727         57.2535         -43.6721         57.2546       -0.0269219         141.766
