! TOUCHSTONE file generated by CST MICROWAVE STUDIO
! Date and time: Fri Oct  2 19:16:56 2020
! Project name: Scenario_1_Free_Space_out_of_line.cst
! Parameters = {Lambda=346.42; Step_1=17.321; dy1=-311.318; dx1=866; L_HA=400; MT=2.54; Rad_Dielectric=30; Rad_Lower=7.3; Rad_Upper=30; a_HA=580; a_WG=246; b_HA=500; b_WG=121; c_HA=0; c_WG=187; d_feed=85; h_feed=15; h_lower=18; h_upper=40}
! Header version: 2018
! Port assignment regex: !\s*Touchstone port\s*([0-9]+)\s*=\s*(CST MWS port|CST DS port)\s*([0-9]+|Zmin|Zmax)\s*\(\"(.*)\"\)(\s*mode\s*([0-9]+))?.*
! Touchstone port assignment:
! Touchstone port 1 = CST MWS port 1 ("")
! Touchstone port 2 = CST MWS port 2 ("")
# GHz S DB R 50
0.5                    -0.146516        -122.305         -65.1158         127.039         -65.1158         127.039       -0.0065297         151.146
0.501                  -0.151018        -122.745         -64.9238         124.872         -64.9237         124.873      -0.00658337          151.08
0.502                  -0.155754        -123.186         -64.7309         122.703         -64.7308         122.704      -0.00663825         151.015
0.503                  -0.160728         -123.63         -64.5373         120.531          -64.537         120.533      -0.00669433          150.95
0.504                  -0.165943        -124.076         -64.3429         118.357         -64.3425         118.359      -0.00675162         150.884
0.505                  -0.171404        -124.525         -64.1478         116.179         -64.1474         116.182      -0.00681011         150.819
0.506                  -0.177113        -124.975         -63.9522         113.998         -63.9517         114.001      -0.00686982         150.753
0.507                  -0.183076        -125.428          -63.756         111.814         -63.7554         111.817      -0.00693074         150.687
0.508                  -0.189295        -125.883         -63.5594         109.625         -63.5587         109.629      -0.00699287         150.621
0.509                  -0.195776        -126.341         -63.3624         107.432         -63.3617         107.436      -0.00705622         150.556
0.51                    -0.20252          -126.8          -63.165         105.235         -63.1643         105.239      -0.00712078          150.49
0.511                  -0.209534        -127.262         -62.9674         103.033         -62.9666         103.037      -0.00718657         150.424
0.512                  -0.216819        -127.726         -62.7696         100.825         -62.7688          100.83      -0.00725357         150.357
0.513                   -0.22438        -128.192         -62.5717         98.6125         -62.5708         98.6179      -0.00732179         150.291
0.514                  -0.232221        -128.661         -62.3737         96.3943         -62.3728         96.3999      -0.00739124         150.225
0.515                  -0.240345        -129.131         -62.1756         94.1702         -62.1747          94.176      -0.00746191         150.159
0.516                  -0.248756        -129.604         -61.9776           91.94         -61.9767          91.946      -0.00753381         150.092
0.517                  -0.257458         -130.08         -61.7797         89.7036         -61.7787         89.7097      -0.00760693         150.026
0.518                  -0.266454        -130.557          -61.582         87.4608         -61.5809          87.467      -0.00768129         149.959
0.519                  -0.275748        -131.036         -61.3844         85.2112         -61.3834         85.2176      -0.00775687         149.893
0.52                   -0.285343        -131.518         -61.1872         82.9549         -61.1861         82.9613      -0.00783369         149.826
0.521                  -0.295243        -132.002         -60.9902         80.6916         -60.9891          80.698      -0.00791175         149.759
0.522                  -0.305451        -132.488         -60.7936         78.4212         -60.7925         78.4277      -0.00799104         149.692
0.523                  -0.315971        -132.976         -60.5974         76.1436         -60.5963         76.1501      -0.00807157         149.625
0.524                  -0.326806        -133.466         -60.4017         73.8587         -60.4006         73.8651      -0.00815333         149.558
0.525                  -0.337958        -133.959         -60.2066         71.5663         -60.2054         71.5728      -0.00823634         149.491
0.526                  -0.349432        -134.453          -60.012         69.2665         -60.0108         69.2729      -0.00832059         149.423
0.527                   -0.36123         -134.95          -59.818         66.9592         -59.8168         66.9655      -0.00840609         149.356
0.528                  -0.373355        -135.448         -59.6247         64.6443         -59.6235         64.6506      -0.00849282         149.289
0.529                   -0.38581        -135.949         -59.4321         62.3219          -59.431         62.3281      -0.00858081         149.221
0.53                   -0.398598        -136.452         -59.2403         59.9919         -59.2392          59.998      -0.00867004         149.153
0.531                  -0.411721        -136.957         -59.0493         57.6544         -59.0481         57.6604      -0.00876052         149.086
0.532                  -0.425183        -137.464         -58.8592         55.3094          -58.858         55.3153      -0.00885225         149.018
0.533                  -0.438985        -137.973         -58.6699          52.957         -58.6687         52.9628      -0.00894524          148.95
0.534                  -0.453131        -138.484         -58.4815         50.5973         -58.4804         50.6029      -0.00903947         148.882
0.535                  -0.467621        -138.997         -58.2942         48.2304          -58.293         48.2358      -0.00913496         148.814
0.536                  -0.482459        -139.512         -58.1078         45.8563         -58.1067         45.8616       -0.0092317         148.745
0.537                  -0.497647        -140.029         -57.9225         43.4753         -57.9213         43.4804      -0.00932969         148.677
0.538                  -0.513186        -140.548         -57.7382         41.0874         -57.7371         41.0924      -0.00942894         148.609
0.539                  -0.529078        -141.069          -57.555         38.6929         -57.5539         38.6977      -0.00952944          148.54
0.54                   -0.545325        -141.592          -57.373         36.2919         -57.3719         36.2965      -0.00963119         148.472
0.541                  -0.561928        -142.117         -57.1921         33.8846          -57.191          33.889      -0.00973421         148.403
0.542                  -0.578888        -142.644         -57.0124         31.4712         -57.0113         31.4755      -0.00983847         148.334
0.543                  -0.596208        -143.173         -56.8338         29.0519         -56.8328          29.056        -0.009944         148.265
0.544                  -0.613887        -143.704         -56.6565          26.627         -56.6555          26.631       -0.0100508         148.196
0.545                  -0.631927        -144.237         -56.4804         24.1967         -56.4794         24.2005       -0.0101588         148.127
0.546                  -0.650328        -144.771         -56.3056         21.7613         -56.3046         21.7649       -0.0102681         148.058
0.547                  -0.669091        -145.308         -56.1319         19.3209          -56.131         19.3244       -0.0103786         147.988
0.548                  -0.688217        -145.846         -55.9596         16.8759         -55.9587         16.8792       -0.0104904         147.919
0.549                  -0.707705        -146.386         -55.7885         14.4266         -55.7876         14.4297       -0.0106034         147.849
0.55                   -0.727557        -146.929         -55.6187         11.9731         -55.6178         11.9761       -0.0107177          147.78
0.551                  -0.747771        -147.473         -55.4501         9.51579         -55.4492         9.51861       -0.0108333          147.71
0.552                  -0.768347        -148.019         -55.2828         7.05493         -55.2819          7.0576       -0.0109501          147.64
0.553                  -0.789286        -148.566         -55.1167         4.59077         -55.1159         4.59329       -0.0110681          147.57
0.554                  -0.810587        -149.116         -54.9519         2.12359         -54.9511         2.12597       -0.0111874           147.5
0.555                  -0.832249        -149.668         -54.7883       -0.346344         -54.7875       -0.344104       -0.0113079          147.43
0.556                  -0.854271        -150.221         -54.6259        -2.81878         -54.6252        -2.81667       -0.0114296         147.359
0.557                  -0.876654        -150.777         -54.4648        -5.29345          -54.464        -5.29147       -0.0115526         147.289
0.558                  -0.899394        -151.334         -54.3048        -7.77012         -54.3041        -7.76826       -0.0116769         147.218
0.559                  -0.922493        -151.894          -54.146        -10.2485         -54.1453        -10.2468       -0.0118023         147.147
0.56                   -0.945948        -152.455         -53.9883        -12.7285         -53.9876        -12.7268        -0.011929         147.077
0.561                  -0.969759        -153.019         -53.8318        -15.2097         -53.8311        -15.2081        -0.012057         147.006
0.562                  -0.993925        -153.584         -53.6763         -17.692         -53.6757        -17.6905       -0.0121861         146.935
0.563                   -1.01844        -154.151         -53.5219        -20.1751         -53.5213        -20.1738       -0.0123166         146.863
0.564                   -1.04331        -154.721         -53.3686         -22.659          -53.368        -22.6577       -0.0124482         146.792
0.565                   -1.06854        -155.292         -53.2163        -25.1433         -53.2157        -25.1422       -0.0125811          146.72
0.566                   -1.09411        -155.866          -53.065         -27.628         -53.0644         -27.627       -0.0127152         146.649
0.567                   -1.12003        -156.442         -52.9146        -30.1129         -52.9141        -30.1119       -0.0128506         146.577
0.568                   -1.14631         -157.02         -52.7652        -32.5978         -52.7647        -32.5969       -0.0129873         146.505
0.569                   -1.17293        -157.601         -52.6167        -35.0827         -52.6162        -35.0818       -0.0131252         146.433
0.57                     -1.1999        -158.184          -52.469        -37.5673         -52.4685        -37.5665       -0.0132644         146.361
0.571                   -1.22722        -158.769         -52.3222        -40.0517         -52.3217         -40.051       -0.0134049         146.289
0.572                   -1.25489        -159.357         -52.1761        -42.5357         -52.1757         -42.535       -0.0135467         146.216
0.573                   -1.28292        -159.947         -52.0308        -45.0193         -52.0304        -45.0187       -0.0136899         146.144
0.574                    -1.3113         -160.54         -51.8863        -47.5024         -51.8859        -47.5018       -0.0138344         146.071
0.575                   -1.34003        -161.136         -51.7425        -49.9849         -51.7421        -49.9844       -0.0139803         145.998
0.576                   -1.36913        -161.734         -51.5993        -52.4669          -51.599        -52.4664       -0.0141277         145.925
0.577                    -1.3986        -162.336         -51.4569        -54.9483         -51.4565        -54.9478       -0.0142765         145.852
0.578                   -1.42844         -162.94          -51.315        -57.4291         -51.3146        -57.4287       -0.0144269         145.779
0.579                   -1.45866        -163.548         -51.1737        -59.9094         -51.1734        -59.9089       -0.0145788         145.705
0.58                    -1.48927        -164.159          -51.033         -62.389         -51.0327        -62.3886       -0.0147325         145.632
0.581                   -1.52028        -164.773         -50.8929        -64.8682         -50.8925        -64.8678       -0.0148878         145.558
0.582                   -1.55169        -165.391         -50.7532        -67.3469         -50.7529        -67.3465        -0.015045         145.484
0.583                   -1.58354        -166.012         -50.6141        -69.8251         -50.6138        -69.8247       -0.0152041          145.41
0.584                   -1.61582        -166.637         -50.4754        -72.3029         -50.4751        -72.3026       -0.0153652         145.336
0.585                   -1.64855        -167.266         -50.3372        -74.7804         -50.3369        -74.7801       -0.0155285         145.261
0.586                   -1.68177        -167.899         -50.1995        -77.2577         -50.1992        -77.2574        -0.015694         145.187
0.587                   -1.71548        -168.536         -50.0622        -79.7348         -50.0619        -79.7345       -0.0158618         145.112
0.588                   -1.74971        -169.177         -49.9253        -82.2118          -49.925        -82.2115       -0.0160322         145.037
0.589                   -1.78449        -169.823         -49.7887        -84.6888         -49.7885        -84.6885       -0.0162052         144.962
0.59                    -1.81985        -170.473         -49.6526        -87.1659         -49.6524        -87.1656       -0.0163811         144.887
0.591                   -1.85581        -171.127         -49.5169        -89.6431         -49.5167        -89.6429       -0.0165598         144.811
0.592                   -1.89243        -171.787         -49.3816        -92.1207         -49.3813        -92.1204       -0.0167417         144.736
0.593                   -1.92972        -172.451         -49.2466        -94.5985         -49.2464        -94.5983       -0.0169267          144.66
0.594                   -1.96773         -173.12          -49.112        -97.0769         -49.1118        -97.0767       -0.0171152         144.584
0.595                   -2.00651        -173.794         -48.9778        -99.5558         -48.9776        -99.5556       -0.0173071         144.508
0.596                    -2.0461        -174.472         -48.8439        -102.035         -48.8437        -102.035       -0.0175026         144.432
0.597                   -2.08654        -175.156         -48.7104        -104.516         -48.7102        -104.515       -0.0177017         144.355
0.598                   -2.12788        -175.845         -48.5773        -106.997         -48.5771        -106.997       -0.0179047         144.278
0.599                   -2.17018        -176.539         -48.4446        -109.479         -48.4444        -109.479       -0.0181115         144.201
0.6                     -2.21348        -177.237         -48.3122        -111.962          -48.312        -111.962       -0.0183221         144.124
0.601                   -2.25784        -177.941         -48.1803        -114.446         -48.1801        -114.446       -0.0185366         144.047
0.602                   -2.30331        -178.649         -48.0487        -116.931         -48.0485        -116.931        -0.018755          143.97
0.603                   -2.34995        -179.362         -47.9176        -119.417         -47.9174        -119.417       -0.0189773         143.892
0.604                    -2.3978         179.921         -47.7868        -121.905         -47.7867        -121.905       -0.0192034         143.814
0.605                   -2.44692           179.2         -47.6566        -124.394         -47.6564        -124.394       -0.0194333         143.736
0.606                   -2.49736         178.475         -47.5267        -126.884         -47.5266        -126.884       -0.0196669         143.658
0.607                   -2.54916         177.746         -47.3973        -129.375         -47.3972        -129.375       -0.0199041          143.58
0.608                   -2.60237         177.013         -47.2684        -131.868         -47.2683        -131.868       -0.0201449         143.501
0.609                   -2.65703         176.278           -47.14        -134.363         -47.1399        -134.362       -0.0203891         143.422
0.61                    -2.71318          175.54         -47.0121        -136.858          -47.012        -136.858       -0.0206367         143.343
0.611                   -2.77084         174.799         -46.8847        -139.355         -46.8846        -139.355       -0.0208875         143.264
0.612                   -2.83005         174.057         -46.7578        -141.854         -46.7577        -141.853       -0.0211416         143.185
0.613                   -2.89083         173.313         -46.6315        -144.353         -46.6314        -144.353       -0.0213988         143.105
0.614                   -2.95319         172.568         -46.5058        -146.854         -46.5057        -146.854        -0.021659         143.025
0.615                   -3.01715         171.822         -46.3806        -149.357         -46.3805        -149.356       -0.0219222         142.945
0.616                    -3.0827         171.075          -46.256         -151.86         -46.2559         -151.86       -0.0221884         142.865
0.617                   -3.14986         170.329          -46.132        -154.364         -46.1319        -154.364       -0.0224574         142.784
0.618                   -3.21861         169.583         -46.0086         -156.87         -46.0085         -156.87       -0.0227294         142.704
0.619                   -3.28894         168.838         -45.8859        -159.376         -45.8858        -159.376       -0.0230041         142.623
0.62                    -3.36083         168.095         -45.7638        -161.884         -45.7637        -161.884       -0.0232818         142.542
0.621                   -3.43428         167.353         -45.6423        -164.392         -45.6423        -164.392       -0.0235623          142.46
0.622                   -3.50925         166.612         -45.5215        -166.901         -45.5215        -166.901       -0.0238456         142.379
0.623                   -3.58571         165.874         -45.4014         -169.41         -45.4013         -169.41       -0.0241319         142.297
0.624                   -3.66363         165.139         -45.2819         -171.92         -45.2818         -171.92       -0.0244212         142.215
0.625                   -3.74299         164.406         -45.1631         -174.43          -45.163         -174.43       -0.0247135         142.132
0.626                   -3.82374         163.676          -45.045        -176.941         -45.0449         -176.94       -0.0250089         142.049
0.627                   -3.90586          162.95         -44.9276        -179.451         -44.9275        -179.451       -0.0253074         141.967
0.628                    -3.9893         162.226         -44.8108         178.039         -44.8107         178.039       -0.0256091         141.883
0.629                   -4.07404         161.506         -44.6947         175.528         -44.6946         175.529       -0.0259142           141.8
