! TOUCHSTONE file generated by CST MICROWAVE STUDIO
! Date and time: Fri Oct  2 19:02:05 2020
! Project name: Scenario_1_Free_Space_out_of_line.cst
! Parameters = {Lambda=346.42; Step_1=17.321; dy1=-311.318; dx1=1039; L_HA=400; MT=2.54; Rad_Dielectric=30; Rad_Lower=7.3; Rad_Upper=30; a_HA=580; a_WG=246; b_HA=500; b_WG=121; c_HA=0; c_WG=187; d_feed=85; h_feed=15; h_lower=18; h_upper=40}
! Header version: 2018
! Port assignment regex: !\s*Touchstone port\s*([0-9]+)\s*=\s*(CST MWS port|CST DS port)\s*([0-9]+|Zmin|Zmax)\s*\(\"(.*)\"\)(\s*mode\s*([0-9]+))?.*
! Touchstone port assignment:
! Touchstone port 1 = CST MWS port 1 ("")
! Touchstone port 2 = CST MWS port 2 ("")
# GHz S DB R 50
0.5                    -0.149386        -122.582         -65.4588         32.0016         -65.4588         32.0016      -0.00667933         151.155
0.501                  -0.154103        -123.048         -65.6763         28.5908         -65.6739         28.6201      -0.00674312          151.09
0.502                  -0.159092        -123.516         -65.8769         25.0127         -65.8727         25.0737      -0.00680738         151.025
0.503                  -0.164354        -123.985         -66.0572         21.2724         -66.0517         21.3668      -0.00687213          150.96
0.504                  -0.169891        -124.456         -66.2136         17.3787         -66.2074         17.5079      -0.00693737         150.894
0.505                  -0.175701        -124.927         -66.3426         13.3457         -66.3365         13.5103      -0.00700312         150.829
0.506                  -0.181786          -125.4         -66.4409         9.19213         -66.4356         9.39192       -0.0070694         150.763
0.507                  -0.188146        -125.874         -66.5058         4.94148          -66.502         5.17518      -0.00713622         150.697
0.508                  -0.194782         -126.35          -66.535        0.621315         -66.5335        0.886696      -0.00720359         150.632
0.509                  -0.201695        -126.826         -66.5272        -3.73787         -66.5286        -3.44399      -0.00727154         150.566
0.51                   -0.208884        -127.304          -66.482        -8.10406          -66.487        -7.78568      -0.00734006           150.5
0.511                   -0.21635        -127.783            -66.4        -12.4453         -66.4089        -12.1071      -0.00740919         150.434
0.512                  -0.224093        -128.263         -66.2826        -16.7316         -66.2956        -16.3784      -0.00747893         150.368
0.513                  -0.232115        -128.745          -66.132        -20.9356         -66.1494        -20.5726       -0.0075493         150.302
0.514                  -0.240415        -129.227         -65.9512        -25.0347         -65.9728        -24.6667      -0.00762032         150.235
0.515                  -0.248994        -129.711         -65.7433        -29.0105         -65.7691        -28.6421        -0.007692         150.169
0.516                  -0.257852        -130.197          -65.512          -32.85         -65.5417        -32.4852      -0.00776436         150.103
0.517                  -0.266989        -130.683         -65.2609        -36.5447         -65.2941         -36.187      -0.00783741         150.036
0.518                  -0.276406        -131.171         -64.9933        -40.0903         -65.0296        -39.7425      -0.00791118         149.969
0.519                  -0.286103         -131.66         -64.7126        -43.4863         -64.7516        -43.1506      -0.00798567         149.903
0.52                   -0.296081         -132.15         -64.4216        -46.7351          -64.463        -46.4131      -0.00806091         149.836
0.521                  -0.306339        -132.642         -64.1231        -49.8412         -64.1665        -49.5341      -0.00813691         149.769
0.522                  -0.316879        -133.135         -63.8194        -52.8108         -63.8643        -52.5195      -0.00821369         149.702
0.523                    -0.3277        -133.629         -63.5124        -55.6514         -63.5585        -55.3761      -0.00829126         149.635
0.524                  -0.338802        -134.124         -63.2039        -58.3709         -63.2508        -58.1117      -0.00836965         149.568
0.525                  -0.350187        -134.621         -62.8952        -60.9776         -62.9426        -60.7344      -0.00844888         149.501
0.526                  -0.361855        -135.119         -62.5874        -63.4798         -62.6351        -63.2524      -0.00852895         149.433
0.527                  -0.373805        -135.618         -62.2816        -65.8857         -62.3293        -65.6736       -0.0086099         149.366
0.528                  -0.386038        -136.119         -61.9784        -68.2034         -62.0259        -68.0061      -0.00869173         149.299
0.529                  -0.398555        -136.621         -61.6785        -70.4403         -61.7256        -70.2572      -0.00877447         149.231
0.53                   -0.411356        -137.124         -61.3823        -72.6036         -61.4288        -72.4341      -0.00885814         149.163
0.531                  -0.424441        -137.629         -61.0902        -74.7001          -61.136        -74.5435      -0.00894275         149.095
0.532                  -0.437811        -138.135         -60.8024        -76.7361         -60.8473        -76.5917      -0.00902833         149.028
0.533                  -0.451467        -138.643          -60.519        -78.7173          -60.563        -78.5846      -0.00911489          148.96
0.534                  -0.465408        -139.152         -60.2403        -80.6493         -60.2832        -80.5276      -0.00920246         148.891
0.535                  -0.479636        -139.662         -59.9663        -82.5371          -60.008        -82.4257      -0.00929106         148.823
0.536                   -0.49415        -140.174         -59.6969        -84.3853         -59.7374        -84.2837      -0.00938071         148.755
0.537                  -0.508952        -140.687         -59.4322        -86.1983         -59.4715        -86.1058      -0.00947142         148.686
0.538                  -0.524043        -141.202         -59.1722          -87.98         -59.2101        -87.8961      -0.00956322         148.618
0.539                  -0.539422        -141.718         -58.9168        -89.7342         -58.9533        -89.6583      -0.00965614         148.549
0.54                   -0.555092        -142.235         -58.6659        -91.4642          -58.701        -91.3959      -0.00975019         148.481
0.541                  -0.571052        -142.755         -58.4194        -93.1733         -58.4531         -93.112      -0.00984539         148.412
0.542                  -0.587303        -143.275         -58.1773        -94.8645         -58.2095        -94.8097      -0.00994177         148.343
0.543                  -0.603847        -143.798         -57.9395        -96.5404         -57.9701        -96.4917       -0.0100394         148.274
0.544                  -0.620685        -144.322         -57.7058        -98.2037         -57.7349        -98.1606       -0.0101382         148.205
0.545                  -0.637817        -144.847         -57.4761        -99.8567         -57.5037        -99.8189       -0.0102382         148.135
0.546                  -0.655245        -145.374         -57.2503        -101.502         -57.2763        -101.469       -0.0103395         148.066
0.547                  -0.672971        -145.903         -57.0284        -103.141         -57.0528        -103.112       -0.0104422         147.996
0.548                  -0.690996        -146.434         -56.8102        -104.776         -56.8331        -104.752       -0.0105461         147.927
0.549                   -0.70932        -146.966         -56.5956        -106.409         -56.6168        -106.388       -0.0106514         147.857
0.55                   -0.727947          -147.5         -56.3844        -108.042         -56.4041        -108.025       -0.0107581         147.787
0.551                  -0.746878        -148.036         -56.1767        -109.676         -56.1948        -109.662       -0.0108661         147.717
0.552                  -0.766114        -148.573         -55.9722        -111.313         -55.9887        -111.302       -0.0109756         147.647
0.553                  -0.785658        -149.113         -55.7709        -112.955         -55.7858        -112.946       -0.0110865         147.577
0.554                  -0.805511        -149.654         -55.5727        -114.602          -55.586        -114.596       -0.0111989         147.507
0.555                  -0.825678        -150.197         -55.3774        -116.257         -55.3892        -116.253       -0.0113128         147.436
0.556                  -0.846158        -150.743          -55.185         -117.92         -55.1953        -117.918       -0.0114283         147.366
0.557                  -0.866957         -151.29         -54.9954        -119.594         -55.0041        -119.593       -0.0115453         147.295
0.558                  -0.888076        -151.839         -54.8085        -121.278         -54.8157        -121.278       -0.0116638         147.224
0.559                  -0.909518         -152.39         -54.6242        -122.975         -54.6299        -122.976        -0.011784         147.153
0.56                   -0.931287        -152.943         -54.4425        -124.685         -54.4466        -124.687       -0.0119059         147.082
0.561                  -0.953386        -153.499         -54.2631         -126.41         -54.2658        -126.412       -0.0120294         147.011
0.562                  -0.975819        -154.057         -54.0861         -128.15         -54.0873        -128.153       -0.0121546          146.94
0.563                   -0.99859        -154.617         -53.9114        -129.907         -53.9111         -129.91       -0.0122815         146.868
0.564                    -1.0217        -155.179         -53.7389        -131.681         -53.7372        -131.685       -0.0124102         146.797
0.565                   -1.04516        -155.743         -53.5685        -133.474         -53.5654        -133.478       -0.0125407         146.725
0.566                   -1.06897         -156.31         -53.4002        -135.287         -53.3956         -135.29       -0.0126731         146.653
0.567                   -1.09314        -156.879         -53.2338         -137.12         -53.2279        -137.122       -0.0128073         146.581
0.568                   -1.11767        -157.451         -53.0693        -138.974         -53.0621        -138.976       -0.0129433         146.509
0.569                   -1.14257        -158.025         -52.9067        -140.851         -52.8981        -140.852       -0.0130813         146.437
0.57                    -1.16784        -158.602         -52.7458         -142.75         -52.7359        -142.751       -0.0132213         146.364
0.571                   -1.19349        -159.181         -52.5866        -144.674         -52.5755        -144.673       -0.0133633         146.292
0.572                   -1.21953        -159.764         -52.4291        -146.622         -52.4167        -146.621       -0.0135072         146.219
0.573                   -1.24596        -160.348         -52.2732        -148.596         -52.2596        -148.593       -0.0136533         146.146
0.574                   -1.27279        -160.936         -52.1187        -150.596          -52.104        -150.592       -0.0138014         146.073
0.575                   -1.30003        -161.526         -51.9657        -152.622         -51.9499        -152.617       -0.0139517             146
0.576                   -1.32769         -162.12         -51.8142        -154.677         -51.7972         -154.67       -0.0141042         145.927
0.577                   -1.35578        -162.716         -51.6639         -156.76         -51.6459        -156.751       -0.0142588         145.854
0.578                    -1.3843        -163.315          -51.515        -158.871          -51.496        -158.861       -0.0144157          145.78
0.579                   -1.41327        -163.918         -51.3673        -161.012         -51.3473        -161.001       -0.0145749         145.706
0.58                     -1.4427        -164.523         -51.2207        -163.184         -51.1998         -163.17       -0.0147364         145.632
0.581                   -1.47259        -165.132         -51.0753        -165.386         -51.0535        -165.371       -0.0149003         145.558
0.582                   -1.50297        -165.744          -50.931        -167.619         -50.9083        -167.602       -0.0150666         145.484
0.583                   -1.53383        -166.359         -50.7876        -169.883         -50.7642        -169.865       -0.0152353          145.41
0.584                    -1.5652        -166.978         -50.6453         -172.18         -50.6212        -172.159       -0.0154065         145.335
0.585                   -1.59709          -167.6         -50.5039        -174.509         -50.4791        -174.486       -0.0155802          145.26
0.586                    -1.6295        -168.226         -50.3633         -176.87         -50.3379        -176.846       -0.0157565         145.186
0.587                   -1.66247        -168.855         -50.2237        -179.264         -50.1976        -179.238       -0.0159355         145.111
0.588                     -1.696        -169.488         -50.0848         178.308         -50.0582         178.336        -0.016117         145.035
0.589                   -1.73011        -170.124         -49.9466         175.848         -49.9196         175.878       -0.0163013          144.96
0.59                    -1.76481        -170.765         -49.8092         173.354         -49.7818         173.386       -0.0164883         144.885
0.591                   -1.80013        -171.409         -49.6724         170.827         -49.6446         170.861       -0.0166782         144.809
0.592                   -1.83608        -172.057         -49.5363         168.267         -49.5082         168.302       -0.0168708         144.733
0.593                   -1.87269        -172.709         -49.4008         165.674         -49.3725         165.711       -0.0170664         144.657
0.594                   -1.90996        -173.365         -49.2658         163.048         -49.2374         163.086       -0.0172648         144.581
0.595                   -1.94794        -174.025         -49.1314          160.39         -49.1029         160.429       -0.0174663         144.504
0.596                   -1.98663         -174.69         -48.9975         157.699          -48.969          157.74       -0.0176708         144.428
0.597                   -2.02606        -175.358         -48.8641         154.977         -48.8356         155.019       -0.0178784         144.351
0.598                   -2.06626        -176.031         -48.7312         152.223         -48.7027         152.266       -0.0180891         144.274
0.599                   -2.10725        -176.708         -48.5987         149.439         -48.5704         149.483        -0.018303         144.197
0.6                     -2.14906        -177.389         -48.4666         146.626         -48.4385          146.67       -0.0185202         144.119
0.601                   -2.19172        -178.074          -48.335         143.783         -48.3071         143.828       -0.0187406         144.042
0.602                   -2.23525        -178.764         -48.2037         140.912         -48.1761         140.958       -0.0189644         143.964
0.603                   -2.27969        -179.459         -48.0728         138.014         -48.0456          138.06       -0.0191916         143.886
0.604                   -2.32506         179.843         -47.9423         135.089         -47.9155         135.136       -0.0194222         143.808
0.605                    -2.3714         179.139         -47.8122          132.14         -47.7859         132.187       -0.0196563          143.73
0.606                   -2.41874         178.432         -47.6824         129.167         -47.6566         129.214       -0.0198941         143.651
0.607                   -2.46712         177.719          -47.553         126.171         -47.5278         126.218       -0.0201354         143.572
0.608                   -2.51657         177.003          -47.424         123.154         -47.3994           123.2       -0.0203804         143.493
0.609                   -2.56713         176.281         -47.2953         120.116         -47.2714         120.163       -0.0206292         143.414
0.61                    -2.61883         175.556          -47.167         117.061         -47.1439         117.106       -0.0208817         143.335
0.611                   -2.67172         174.826         -47.0391         113.988         -47.0167         114.033       -0.0211381         143.255
0.612                   -2.72584         174.091         -46.9117           110.9           -46.89         110.944       -0.0213985         143.175
0.613                   -2.78122         173.353         -46.7846         107.798         -46.7637         107.841       -0.0216628         143.095
0.614                   -2.83792          172.61         -46.6579         104.684         -46.6379         104.726       -0.0219312         143.015
0.615                   -2.89596         171.863         -46.5317         101.559         -46.5125         101.599       -0.0222036         142.935
0.616                    -2.9554         171.111          -46.406         98.4247         -46.3877          98.464       -0.0224802         142.854
0.617                   -3.01629         170.356         -46.2807         95.2829         -46.2633         95.3208       -0.0227611         142.773
0.618                   -3.07866         169.597         -46.1559         92.1353         -46.1394         92.1717       -0.0230463         142.692
0.619                   -3.14256         168.834         -46.0317         88.9833          -46.016         89.0181       -0.0233358          142.61
0.62                    -3.20804         168.067         -45.9079         85.8286         -45.8931         85.8617       -0.0236297         142.529
0.621                   -3.27515         167.297         -45.7847         82.6726         -45.7708          82.704       -0.0239282         142.447
0.622                   -3.34393         166.524         -45.6621         79.5168          -45.649         79.5464       -0.0242312         142.364
0.623                   -3.41444         165.748           -45.54         76.3627         -45.5278         76.3906       -0.0245388         142.282
0.624                   -3.48671         164.968         -45.4185         73.2117         -45.4071         73.2377       -0.0248511         142.199
0.625                   -3.56081         164.187         -45.2976         70.0651         -45.2871         70.0893       -0.0251682         142.116
0.626                   -3.63676         163.403         -45.1772         66.9242         -45.1676         66.9465       -0.0254901         142.033
0.627                   -3.71463         162.616         -45.0576         63.7901         -45.0487         63.8106       -0.0258169          141.95
0.628                   -3.79445         161.829         -44.9385          60.664         -44.9304         60.6828       -0.0261487         141.866
0.629                   -3.87627         161.039           -44.82          57.547         -44.8127          57.564       -0.0264854         141.782
