! TOUCHSTONE file generated by CST MICROWAVE STUDIO
! Date and time: Fri Oct  2 16:32:55 2020
! Project name: Scenario_1_Free_Space_out_of_line.cst
! Parameters = {Lambda=346.42; Step_1=17.321; dy1=312.958; dx1=346; L_HA=400; MT=2.54; Rad_Dielectric=30; Rad_Lower=7.3; Rad_Upper=30; a_HA=580; a_WG=246; b_HA=500; b_WG=121; c_HA=0; c_WG=187; d_feed=85; h_feed=15; h_lower=18; h_upper=40}
! Header version: 2018
! Port assignment regex: !\s*Touchstone port\s*([0-9]+)\s*=\s*(CST MWS port|CST DS port)\s*([0-9]+|Zmin|Zmax)\s*\(\"(.*)\"\)(\s*mode\s*([0-9]+))?.*
! Touchstone port assignment:
! Touchstone port 1 = CST MWS port 1 ("")
! Touchstone port 2 = CST MWS port 2 ("")
# GHz S DB R 50
0.5                    -0.151597        -122.682         -62.9056         39.6306         -62.9056         39.6306       -0.0068559         151.101
0.501                   -0.15787        -123.118         -62.7842         37.5802         -62.7842         37.5801      -0.00691731         151.036
0.502                  -0.164277        -123.557          -62.659         35.5347          -62.659         35.5344      -0.00697954          150.97
0.503                  -0.170824        -123.997           -62.53         33.4947           -62.53         33.4943       -0.0070426         150.905
0.504                  -0.177513        -124.439         -62.3975         31.4609         -62.3975         31.4603       -0.0071065         150.839
0.505                  -0.184349        -124.883         -62.2615         29.4338         -62.2616         29.4332      -0.00717125         150.774
0.506                  -0.191334         -125.33         -62.1223         27.4141         -62.1224         27.4133      -0.00723685         150.708
0.507                  -0.198474        -125.778         -61.9799         25.4022           -61.98         25.4013      -0.00730331         150.642
0.508                  -0.205772        -126.229         -61.8345         23.3986         -61.8346         23.3976      -0.00737064         150.577
0.509                  -0.213231        -126.682         -61.6862         21.4035         -61.6863         21.4024      -0.00743884         150.511
0.51                   -0.220857        -127.137         -61.5352         19.4173         -61.5353          19.416      -0.00750792         150.445
0.511                  -0.228652        -127.595         -61.3816         17.4401         -61.3817         17.4388      -0.00757789         150.379
0.512                  -0.236622        -128.054         -61.2256         15.4722         -61.2257         15.4708      -0.00764876         150.312
0.513                   -0.24477        -128.516         -61.0673         13.5136         -61.0674         13.5121      -0.00772053         150.246
0.514                    -0.2531         -128.98         -60.9068         11.5645          -60.907         11.5629      -0.00779321          150.18
0.515                  -0.261618        -129.446         -60.7444         9.62475         -60.7445         9.62309      -0.00786681         150.113
0.516                  -0.270326        -129.914           -60.58         7.69441         -60.5801         7.69268      -0.00794133         150.047
0.517                  -0.279231        -130.385         -60.4139         5.77337         -60.4141         5.77158      -0.00801678          149.98
0.518                  -0.288335        -130.858         -60.2462         3.86151         -60.2463         3.85966      -0.00809318         149.914
0.519                  -0.297644        -131.333          -60.077         1.95868         -60.0772         1.95678      -0.00817052         149.847
0.52                   -0.307162        -131.811         -59.9065       0.0646897         -59.9066       0.0627416      -0.00824882          149.78
0.521                  -0.316895        -132.291         -59.7347        -1.82069         -59.7348        -1.82268      -0.00832809         149.713
0.522                  -0.326845        -132.773         -59.5617         -3.6977         -59.5618        -3.69972      -0.00840832         149.646
0.523                  -0.337019        -133.258         -59.3878        -5.56662         -59.3879        -5.56867      -0.00848954         149.579
0.524                  -0.347422        -133.744         -59.2129        -7.42773          -59.213        -7.42981      -0.00857174         149.512
0.525                  -0.358057        -134.234         -59.0372        -9.28136         -59.0373        -9.28345      -0.00865493         149.445
0.526                   -0.36893        -134.725         -58.8608        -11.1278         -58.8609        -11.1299      -0.00873913         149.377
0.527                  -0.380047        -135.219         -58.6838        -12.9675         -58.6839        -12.9696      -0.00882434          149.31
0.528                  -0.391411        -135.716         -58.5062        -14.8006         -58.5063        -14.8028      -0.00891057         149.242
0.529                  -0.403029        -136.215         -58.3282        -16.6277         -58.3283        -16.6298      -0.00899783         149.174
0.53                   -0.414905        -136.716         -58.1499        -18.4491           -58.15        -18.4512      -0.00908612         149.107
0.531                  -0.427044         -137.22         -57.9712         -20.265         -57.9713        -20.2671      -0.00917546         149.039
0.532                  -0.439453        -137.726         -57.7924         -22.076         -57.7925        -22.0781      -0.00926585         148.971
0.533                  -0.452136        -138.235         -57.6135        -23.8824         -57.6135        -23.8845      -0.00935731         148.903
0.534                  -0.465099        -138.746         -57.4344        -25.6846         -57.4345        -25.6866      -0.00944984         148.835
0.535                  -0.478347        -139.259         -57.2554        -27.4829         -57.2555        -27.4849      -0.00954344         148.766
0.536                  -0.491886        -139.775         -57.0765        -29.2778         -57.0766        -29.2798      -0.00963814         148.698
0.537                  -0.505722        -140.294         -56.8977        -31.0696         -56.8978        -31.0715      -0.00973394          148.63
0.538                  -0.519861        -140.815         -56.7191        -32.8586         -56.7191        -32.8605      -0.00983084         148.561
0.539                  -0.534307        -141.338         -56.5407        -34.6453         -56.5408        -34.6472      -0.00992887         148.492
0.54                   -0.549068        -141.864         -56.3626          -36.43         -56.3627        -36.4318        -0.010028         148.424
0.541                  -0.564148        -142.393         -56.1849         -38.213          -56.185        -38.2148       -0.0101283         148.355
0.542                  -0.579555        -142.924         -56.0076        -39.9948         -56.0077        -39.9965       -0.0102297         148.286
0.543                  -0.595294        -143.457         -55.8308        -41.7756         -55.8308        -41.7773       -0.0103323         148.217
0.544                   -0.61137        -143.994         -55.6544        -43.5557         -55.6545        -43.5573       -0.0104361         148.148
0.545                  -0.627792        -144.532         -55.4786        -45.3355         -55.4787        -45.3371       -0.0105411         148.078
0.546                  -0.644564        -145.074         -55.3034        -47.1152         -55.3034        -47.1168       -0.0106472         148.009
0.547                  -0.661693        -145.617         -55.1288        -48.8953         -55.1288        -48.8968       -0.0107545         147.939
0.548                  -0.679186        -146.164         -54.9548        -50.6759         -54.9549        -50.6773       -0.0108631          147.87
0.549                  -0.697049        -146.713         -54.7816        -52.4573         -54.7816        -52.4587       -0.0109729           147.8
0.55                   -0.715289        -147.265          -54.609        -54.2398         -54.6091        -54.2411       -0.0110839          147.73
0.551                  -0.733913        -147.819         -54.4373        -56.0236         -54.4373        -56.0249       -0.0111962          147.66
0.552                  -0.752926        -148.375         -54.2664        -57.8091         -54.2664        -57.8103       -0.0113097          147.59
0.553                  -0.772337        -148.935         -54.0963        -59.5963         -54.0963        -59.5974       -0.0114245          147.52
0.554                  -0.792152        -149.497          -53.927        -61.3855         -53.9271        -61.3866       -0.0115406         147.449
0.555                  -0.812377        -150.061         -53.7587         -63.177         -53.7587         -63.178        -0.011658         147.379
0.556                  -0.833021        -150.629         -53.5913        -64.9708         -53.5913        -64.9718       -0.0117767         147.308
0.557                   -0.85409        -151.199         -53.4248        -66.7672         -53.4248        -66.7681       -0.0118967         147.238
0.558                  -0.875592        -151.771         -53.2593        -68.5664         -53.2594        -68.5672       -0.0120181         147.167
0.559                  -0.897534        -152.346         -53.0949        -70.3684         -53.0949        -70.3692       -0.0121408         147.096
0.56                   -0.919922        -152.924         -52.9314        -72.1734         -52.9315        -72.1741       -0.0122649         147.025
0.561                  -0.942766        -153.504         -52.7691        -73.9816         -52.7691        -73.9823       -0.0123904         146.954
0.562                  -0.966073        -154.087         -52.6078        -75.7931         -52.6078        -75.7937       -0.0125173         146.882
0.563                  -0.989849        -154.673         -52.4476        -77.6078         -52.4476        -77.6084       -0.0126456         146.811
0.564                    -1.0141        -155.261         -52.2885        -79.4261         -52.2885        -79.4265       -0.0127754         146.739
0.565                   -1.03884        -155.852         -52.1305        -81.2478         -52.1305        -81.2482       -0.0129066         146.668
0.566                   -1.06408        -156.445         -51.9737        -83.0731         -51.9738        -83.0734       -0.0130392         146.596
0.567                   -1.08982        -157.041         -51.8181         -84.902         -51.8182        -84.9023       -0.0131734         146.524
0.568                   -1.11606         -157.64         -51.6637        -86.7345         -51.6637        -86.7348       -0.0133091         146.452
0.569                   -1.14283        -158.242         -51.5105        -88.5707         -51.5105        -88.5709       -0.0134463         146.379
0.57                    -1.17012        -158.846         -51.3585        -90.4107         -51.3585        -90.4108        -0.013585         146.307
0.571                   -1.19795        -159.452         -51.2078        -92.2542         -51.2078        -92.2543       -0.0137253         146.234
0.572                   -1.22632        -160.062         -51.0583        -94.1015         -51.0583        -94.1015       -0.0138672         146.162
0.573                   -1.25524        -160.673         -50.9101        -95.9524         -50.9101        -95.9524       -0.0140107         146.089
0.574                   -1.28473        -161.288         -50.7631         -97.807         -50.7631        -97.8069       -0.0141559         146.016
0.575                   -1.31478        -161.905         -50.6174        -99.6651         -50.6174         -99.665       -0.0143027         145.943
0.576                   -1.34542        -162.525          -50.473        -101.527         -50.4729        -101.527       -0.0144512          145.87
0.577                   -1.37664        -163.147         -50.3298        -103.392         -50.3298        -103.392       -0.0146013         145.796
0.578                   -1.40846        -163.772          -50.188         -105.26          -50.188         -105.26       -0.0147532         145.723
0.579                   -1.44089          -164.4         -50.0474        -107.132         -50.0474        -107.132       -0.0149069         145.649
0.58                    -1.47394         -165.03         -49.9082        -109.007         -49.9082        -109.007       -0.0150623         145.575
0.581                   -1.50761        -165.662         -49.7702        -110.886         -49.7702        -110.885       -0.0152195         145.501
0.582                   -1.54192        -166.298         -49.6336        -112.767         -49.6335        -112.767       -0.0153786         145.427
0.583                   -1.57687        -166.936         -49.4982        -114.651         -49.4982        -114.651       -0.0155395         145.352
0.584                   -1.61248        -167.576         -49.3641        -116.538         -49.3641        -116.538       -0.0157023         145.278
0.585                   -1.64876        -168.219         -49.2313        -118.428         -49.2313        -118.428       -0.0158671         145.203
0.586                   -1.68572        -168.864         -49.0998        -120.321         -49.0997         -120.32       -0.0160338         145.128
0.587                   -1.72336        -169.512         -48.9695        -122.216         -48.9695        -122.215       -0.0162025         145.053
0.588                    -1.7617        -170.163         -48.8405        -124.113         -48.8405        -124.113       -0.0163732         144.978
0.589                   -1.80074        -170.815         -48.7127        -126.013         -48.7127        -126.012       -0.0165459         144.903
0.59                    -1.84051        -171.471         -48.5862        -127.914         -48.5862        -127.914       -0.0167208         144.827
0.591                   -1.88101        -172.129         -48.4609        -129.818         -48.4609        -129.817       -0.0168978         144.751
0.592                   -1.92225        -172.789         -48.3368        -131.723         -48.3368        -131.723       -0.0170769         144.675
0.593                   -1.96424        -173.452         -48.2139        -133.631         -48.2139         -133.63       -0.0172583         144.599
0.594                   -2.00699        -174.117         -48.0921        -135.539         -48.0921        -135.539       -0.0174419         144.523
0.595                   -2.05053        -174.784         -47.9716         -137.45         -47.9715        -137.449       -0.0176278         144.447
0.596                   -2.09485        -175.454         -47.8521        -139.361         -47.8521        -139.361        -0.017816          144.37
0.597                   -2.13997        -176.127         -47.7338        -141.274         -47.7337        -141.273       -0.0180067         144.293
0.598                    -2.1859        -176.801         -47.6165        -143.188         -47.6165        -143.187       -0.0181997         144.216
0.599                   -2.23266        -177.478         -47.5003        -145.102         -47.5003        -145.102       -0.0183953         144.139
0.6                     -2.28026        -178.157         -47.3852        -147.018         -47.3852        -147.017       -0.0185933         144.062
0.601                   -2.32871        -178.839         -47.2711        -148.934         -47.2711        -148.933        -0.018794         143.984
0.602                   -2.37802        -179.522          -47.158         -150.85         -47.1579         -150.85       -0.0189972         143.906
0.603                   -2.42821         179.792         -47.0458        -152.767         -47.0458        -152.767       -0.0192032         143.828
0.604                   -2.47929         179.104         -46.9346        -154.685         -46.9346        -154.684       -0.0194119          143.75
0.605                   -2.53127         178.413         -46.8243        -156.602         -46.8243        -156.602       -0.0196235         143.671
0.606                   -2.58418         177.721         -46.7149         -158.52         -46.7149         -158.52       -0.0198379         143.593
0.607                   -2.63801         177.027         -46.6064        -160.438         -46.6063        -160.437       -0.0200552         143.514
0.608                   -2.69279          176.33         -46.4987        -162.356         -46.4986        -162.355       -0.0202756         143.435
0.609                   -2.74853         175.632         -46.3918        -164.273         -46.3917        -164.272        -0.020499         143.356
0.61                    -2.80525         174.931         -46.2856         -166.19         -46.2856         -166.19       -0.0207255         143.276
0.611                   -2.86296         174.229         -46.1802        -168.107         -46.1802        -168.106       -0.0209553         143.197
0.612                   -2.92168         173.525         -46.0756        -170.023         -46.0755        -170.023       -0.0211883         143.117
0.613                   -2.98142         172.819         -45.9716        -171.939         -45.9715        -171.939       -0.0214247         143.036
0.614                    -3.0422         172.111         -45.8682        -173.855         -45.8682        -173.854       -0.0216646         142.956
0.615                   -3.10403         171.401         -45.7655         -175.77         -45.7655        -175.769        -0.021908         142.875
0.616                   -3.16693          170.69         -45.6634        -177.684         -45.6634        -177.684        -0.022155         142.795
0.617                   -3.23093         169.977         -45.5619        -179.598         -45.5619        -179.597       -0.0224057         142.713
0.618                   -3.29602         169.262         -45.4609          178.49         -45.4609          178.49       -0.0226603         142.632
0.619                   -3.36224         168.546         -45.3604         176.578         -45.3604         176.578       -0.0229187          142.55
0.62                     -3.4296         167.828         -45.2604         174.666         -45.2604         174.667       -0.0231811         142.469
0.621                   -3.49812         167.109         -45.1609         172.756         -45.1609         172.756       -0.0234476         142.386
0.622                   -3.56782         166.389         -45.0618         170.846         -45.0617         170.846       -0.0237183         142.304
0.623                   -3.63871         165.667         -44.9631         168.937          -44.963         168.938       -0.0239934         142.221
0.624                   -3.71081         164.944         -44.8647         167.029         -44.8647          167.03       -0.0242728         142.139
0.625                   -3.78415          164.22         -44.7668         165.122         -44.7667         165.122       -0.0245568         142.055
0.626                   -3.85874         163.495         -44.6691         163.216         -44.6691         163.216       -0.0248455         141.972
0.627                   -3.93461         162.769         -44.5718          161.31         -44.5718         161.311       -0.0251389         141.888
0.628                   -4.01177         162.042         -44.4747         159.406         -44.4747         159.406       -0.0254373         141.804
0.629                   -4.09024         161.314          -44.378         157.502         -44.3779         157.502       -0.0257407          141.72
