! TOUCHSTONE file generated by CST MICROWAVE STUDIO
! Date and time: Fri Oct  2 16:40:41 2020
! Project name: Scenario_1_Free_Space_out_of_line.cst
! Parameters = {Lambda=346.42; Step_1=17.321; dy1=312.958; dx1=520; L_HA=400; MT=2.54; Rad_Dielectric=30; Rad_Lower=7.3; Rad_Upper=30; a_HA=580; a_WG=246; b_HA=500; b_WG=121; c_HA=0; c_WG=187; d_feed=85; h_feed=15; h_lower=18; h_upper=40}
! Header version: 2018
! Port assignment regex: !\s*Touchstone port\s*([0-9]+)\s*=\s*(CST MWS port|CST DS port)\s*([0-9]+|Zmin|Zmax)\s*\(\"(.*)\"\)(\s*mode\s*([0-9]+))?.*
! Touchstone port assignment:
! Touchstone port 1 = CST MWS port 1 ("")
! Touchstone port 2 = CST MWS port 2 ("")
# GHz S DB R 50
0.5                    -0.147075        -122.628         -63.9277        -51.0683         -63.9277        -51.0683      -0.00651844         151.103
0.501                  -0.154349        -123.091         -63.7127         -53.196         -63.7128        -53.1963      -0.00657801         151.038
0.502                  -0.161833        -123.555         -63.4981        -55.3061         -63.4983        -55.3067      -0.00663846         150.972
0.503                   -0.16953         -124.02          -63.284        -57.3996         -63.2842        -57.4005      -0.00669981         150.907
0.504                  -0.177437        -124.487         -63.0705        -59.4774         -63.0707        -59.4786      -0.00676206         150.841
0.505                  -0.185556        -124.954         -62.8576        -61.5405         -62.8579         -61.542      -0.00682521         150.775
0.506                  -0.193886        -125.423         -62.6455        -63.5899         -62.6458        -63.5915      -0.00688928         150.709
0.507                  -0.202429        -125.893         -62.4343        -65.6263         -62.4345        -65.6282      -0.00695426         150.644
0.508                  -0.211183        -126.364         -62.2239        -67.6508         -62.2242        -67.6529      -0.00702016         150.578
0.509                   -0.22015        -126.836         -62.0144        -69.6641         -62.0147        -69.6663      -0.00708699         150.512
0.51                   -0.229329         -127.31         -61.8059         -71.667         -61.8063        -71.6694      -0.00715476         150.445
0.511                  -0.238721        -127.784         -61.5985        -73.6603         -61.5989        -73.6629      -0.00722347         150.379
0.512                  -0.248326         -128.26         -61.3922        -75.6448         -61.3926        -75.6476      -0.00729312         150.313
0.513                  -0.258145        -128.737          -61.187        -77.6213         -61.1874        -77.6241      -0.00736373         150.246
0.514                  -0.268178        -129.216         -60.9829        -79.5903         -60.9833        -79.5933       -0.0074353          150.18
0.515                  -0.278425        -129.696           -60.78        -81.5526         -60.7804        -81.5557      -0.00750784         150.113
0.516                  -0.288887        -130.177         -60.5783        -83.5088         -60.5787         -83.512      -0.00758136         150.047
0.517                  -0.299565        -130.659         -60.3779        -85.4596         -60.3782        -85.4628      -0.00765587          149.98
0.518                  -0.310458        -131.143         -60.1786        -87.4054         -60.1789        -87.4087      -0.00773136         149.913
0.519                  -0.321568        -131.628         -59.9806         -89.347         -59.9809        -89.3503      -0.00780786         149.846
0.52                   -0.332895        -132.114         -59.7838        -91.2847         -59.7841         -91.288      -0.00788536         149.779
0.521                  -0.344441        -132.602         -59.5883        -93.2191         -59.5886        -93.2225      -0.00796389         149.712
0.522                  -0.356205        -133.091         -59.3941        -95.1508         -59.3944        -95.1541      -0.00804344         149.645
0.523                  -0.368188        -133.581         -59.2011          -97.08         -59.2014        -97.0834      -0.00812403         149.578
0.524                  -0.380392        -134.073         -59.0094        -99.0074         -59.0097        -99.0108      -0.00820566         149.511
0.525                  -0.392818        -134.567          -58.819        -100.933         -58.8193        -100.937      -0.00828835         149.443
0.526                  -0.405466        -135.062         -58.6298        -102.858         -58.6301        -102.861      -0.00837211         149.376
0.527                  -0.418338        -135.558          -58.442        -104.782         -58.4422        -104.785      -0.00845694         149.308
0.528                  -0.431434        -136.056         -58.2553        -106.706         -58.2556        -106.709      -0.00854286         149.241
0.529                  -0.444757        -136.555           -58.07         -108.63         -58.0702        -108.633      -0.00862988         149.173
0.53                   -0.458307        -137.056         -57.8859        -110.554         -57.8861        -110.557      -0.00871801         149.105
0.531                  -0.472086        -137.559         -57.7031        -112.478         -57.7032        -112.481      -0.00880726         149.037
0.532                  -0.486095        -138.063         -57.5215        -114.403         -57.5216        -114.406      -0.00889764         148.969
0.533                  -0.500336        -138.569         -57.3411         -116.33         -57.3412        -116.333      -0.00898917         148.901
0.534                  -0.514811        -139.076          -57.162        -118.258         -57.1621        -118.261      -0.00908185         148.832
0.535                  -0.529521        -139.585          -56.984        -120.187         -56.9842         -120.19      -0.00917571         148.764
0.536                  -0.544469        -140.096         -56.8073        -122.119         -56.8074        -122.121      -0.00927075         148.696
0.537                  -0.559657        -140.609         -56.6318        -124.052         -56.6319        -124.055      -0.00936698         148.627
0.538                  -0.575086        -141.123         -56.4575        -125.988         -56.4576         -125.99      -0.00946443         148.558
0.539                  -0.590759        -141.639         -56.2844        -127.926         -56.2844        -127.928      -0.00956311          148.49
0.54                   -0.606678        -142.157         -56.1125        -129.866         -56.1125        -129.869      -0.00966302         148.421
0.541                  -0.622846        -142.676         -55.9416         -131.81         -55.9416        -131.812      -0.00976419         148.352
0.542                  -0.639266        -143.198          -55.772        -133.756          -55.772        -133.758      -0.00986663         148.283
0.543                   -0.65594        -143.721         -55.6035        -135.705         -55.6034        -135.707      -0.00997036         148.214
0.544                  -0.672871        -144.247         -55.4361        -137.657          -55.436        -137.659       -0.0100754         148.144
0.545                  -0.690063        -144.774         -55.2698        -139.613         -55.2697        -139.614       -0.0101817         148.075
0.546                  -0.707518        -145.303         -55.1046        -141.572         -55.1045        -141.573       -0.0102894         148.005
0.547                  -0.725241        -145.834         -54.9405        -143.534         -54.9404        -143.535       -0.0103985         147.936
0.548                  -0.743233        -146.368         -54.7774          -145.5         -54.7773        -145.501       -0.0105089         147.866
0.549                  -0.761501        -146.903         -54.6155        -147.469         -54.6153         -147.47       -0.0106207         147.796
0.55                   -0.780046        -147.441         -54.4545        -149.442         -54.4544        -149.443       -0.0107339         147.726
0.551                  -0.798874         -147.98         -54.2946        -151.418         -54.2944         -151.42       -0.0108486         147.656
0.552                  -0.817989        -148.522         -54.1357        -153.399         -54.1355          -153.4       -0.0109647         147.586
0.553                  -0.837395        -149.066         -53.9778        -155.383         -53.9776        -155.384       -0.0110822         147.516
0.554                  -0.857097        -149.612         -53.8209        -157.371         -53.8207        -157.372       -0.0112013         147.445
0.555                    -0.8771        -150.161          -53.665        -159.363         -53.6648        -159.364       -0.0113219         147.375
0.556                  -0.897408        -150.712           -53.51        -161.359         -53.5098        -161.359        -0.011444         147.304
0.557                  -0.918029        -151.265          -53.356        -163.358         -53.3557        -163.359       -0.0115676         147.233
0.558                  -0.938966        -151.821         -53.2029        -165.362         -53.2026        -165.362       -0.0116929         147.162
0.559                  -0.960226        -152.379         -53.0507        -167.369         -53.0504         -167.37       -0.0118197         147.091
0.56                   -0.981814         -152.94         -52.8994        -169.381         -52.8992        -169.381       -0.0119482          147.02
0.561                   -1.00374        -153.503          -52.749        -171.396         -52.7488        -171.396       -0.0120783         146.949
0.562                     -1.026        -154.068         -52.5995        -173.415         -52.5992        -173.415       -0.0122101         146.878
0.563                   -1.04862        -154.637         -52.4508        -175.438         -52.4506        -175.438       -0.0123437         146.806
0.564                   -1.07159        -155.207          -52.303        -177.465         -52.3027        -177.465       -0.0124789         146.734
0.565                   -1.09492        -155.781          -52.156        -179.496         -52.1558        -179.496       -0.0126159         146.663
0.566                   -1.11863        -156.357         -52.0099          178.47         -52.0096          178.47       -0.0127547         146.591
0.567                   -1.14271        -156.936         -51.8645         176.431         -51.8642         176.431       -0.0128953         146.519
0.568                   -1.16718        -157.518         -51.7199         174.389         -51.7196         174.389       -0.0130378         146.446
0.569                   -1.19205        -158.102         -51.5761         172.343         -51.5758         172.343       -0.0131821         146.374
0.57                    -1.21732         -158.69         -51.4331         170.293         -51.4328         170.293       -0.0133283         146.301
0.571                   -1.24301         -159.28         -51.2908          168.24         -51.2905          168.24       -0.0134765         146.229
0.572                   -1.26912        -159.873         -51.1493         166.183          -51.149         166.183       -0.0136267         146.156
0.573                   -1.29567        -160.469         -51.0084         164.122         -51.0081         164.122       -0.0137788         146.083
0.574                   -1.32266        -161.069         -50.8683         162.058          -50.868         162.058        -0.013933          146.01
0.575                    -1.3501        -161.671         -50.7289          159.99         -50.7286         159.991       -0.0140893         145.937
0.576                   -1.37802        -162.276         -50.5902         157.919         -50.5899          157.92       -0.0142476         145.864
0.577                   -1.40641        -162.885         -50.4521         155.844         -50.4518         155.845       -0.0144081          145.79
0.578                   -1.43529        -163.496         -50.3147         153.767         -50.3145         153.767       -0.0145708         145.716
0.579                   -1.46467        -164.111          -50.178         151.685         -50.1777         151.686       -0.0147357         145.643
0.58                    -1.49457        -164.729         -50.0419         149.601         -50.0416         149.601       -0.0149029         145.569
0.581                     -1.525         -165.35         -49.9065         147.513         -49.9062         147.514       -0.0150724         145.494
0.582                   -1.55597        -165.975         -49.7716         145.422         -49.7714         145.423       -0.0152442          145.42
0.583                   -1.58749        -166.603         -49.6374         143.328         -49.6372         143.329       -0.0154183         145.346
0.584                   -1.61959        -167.234         -49.5038         141.231         -49.5036         141.232       -0.0155949         145.271
0.585                   -1.65227        -167.869         -49.3708         139.131         -49.3706         139.132        -0.015774         145.196
0.586                   -1.68556        -168.507         -49.2384         137.028         -49.2382         137.029       -0.0159555         145.121
0.587                   -1.71946        -169.149         -49.1066         134.922         -49.1063         134.923       -0.0161396         145.046
0.588                     -1.754        -169.794         -48.9753         132.814         -48.9751         132.814       -0.0163263         144.971
0.589                   -1.78918        -170.443         -48.8446         130.702         -48.8444         130.703       -0.0165157         144.896
0.59                    -1.82504        -171.095         -48.7145         128.588         -48.7143         128.589       -0.0167077          144.82
0.591                   -1.86158         -171.75          -48.585         126.472         -48.5847         126.472       -0.0169025         144.744
0.592                   -1.89883         -172.41         -48.4559         124.352         -48.4557         124.353          -0.0171         144.668
0.593                    -1.9368        -173.072         -48.3275         122.231         -48.3273         122.231       -0.0173004         144.592
0.594                   -1.97551        -173.739         -48.1996         120.106         -48.1994         120.107       -0.0175037         144.516
0.595                   -2.01499        -174.409         -48.0722          117.98          -48.072          117.98       -0.0177099         144.439
0.596                   -2.05525        -175.082         -47.9453         115.851         -47.9452         115.852       -0.0179191         144.363
0.597                   -2.09632        -175.759          -47.819          113.72         -47.8189         113.721       -0.0181314         144.286
0.598                   -2.13821         -176.44         -47.6933         111.587         -47.6931         111.587       -0.0183467         144.209
0.599                   -2.18096        -177.125          -47.568         109.451         -47.5679         109.452       -0.0185652         144.132
0.6                     -2.22457        -177.813         -47.4433         107.314         -47.4432         107.315       -0.0187869         144.054
0.601                   -2.26908        -178.504         -47.3191         105.175          -47.319         105.175       -0.0190119         143.976
0.602                    -2.3145          -179.2         -47.1954         103.034         -47.1953         103.034       -0.0192402         143.899
0.603                   -2.36087        -179.898         -47.0723         100.891         -47.0722         100.891       -0.0194719         143.821
0.604                   -2.40821         179.399         -46.9497          98.746         -46.9496         98.7464       -0.0197071         143.742
0.605                   -2.45654         178.693         -46.8276         96.5996         -46.8275            96.6       -0.0199457         143.664
0.606                   -2.50588         177.984         -46.7061         94.4517          -46.706          94.452       -0.0201879         143.585
0.607                   -2.55627         177.271          -46.585         92.3022          -46.585         92.3025       -0.0204337         143.507
0.608                   -2.60774         176.555         -46.4645         90.1513         -46.4645         90.1516       -0.0206833         143.428
0.609                    -2.6603         175.835         -46.3446          87.999         -46.3445         87.9993       -0.0209365         143.348
0.61                    -2.71398         175.112         -46.2252         85.8455         -46.2251         85.8458       -0.0211936         143.269
0.611                   -2.76882         174.386         -46.1063         83.6908         -46.1062          83.691       -0.0214546         143.189
0.612                   -2.82484         173.657         -45.9879         81.5349         -45.9879         81.5352       -0.0217195         143.109
0.613                   -2.88207         172.925         -45.8701         79.3781         -45.8701         79.3783       -0.0219884         143.029
0.614                   -2.94054         172.189         -45.7528         77.2202         -45.7528         77.2204       -0.0222614         142.949
0.615                   -3.00028         171.451         -45.6361         75.0616         -45.6361         75.0617       -0.0225386         142.868
0.616                   -3.06131         170.709           -45.52         72.9021           -45.52         72.9022       -0.0228199         142.787
0.617                   -3.12368         169.965         -45.4043         70.7419         -45.4043          70.742       -0.0231055         142.706
0.618                    -3.1874         169.219         -45.2893         68.5811         -45.2893         68.5812       -0.0233955         142.625
0.619                   -3.25251         168.469         -45.1748         66.4198         -45.1748         66.4199       -0.0236898         142.544
0.62                    -3.31904         167.718         -45.0608         64.2581         -45.0608         64.2581       -0.0239886         142.462
0.621                   -3.38702         166.964         -44.9475          62.096         -44.9475          62.096        -0.024292          142.38
0.622                   -3.45648         166.208         -44.8346         59.9337         -44.8347         59.9336          -0.0246         142.298
0.623                   -3.52745          165.45         -44.7224         57.7712         -44.7224         57.7711       -0.0249126         142.215
0.624                   -3.59997          164.69         -44.6107         55.6086         -44.6108         55.6085       -0.0252299         142.132
0.625                   -3.67405         163.928         -44.4996          53.446         -44.4997         53.4459       -0.0255521         142.049
0.626                   -3.74974         163.165         -44.3891         51.2836         -44.3891         51.2835       -0.0258791         141.966
0.627                   -3.82706         162.401         -44.2791         49.1213         -44.2792         49.1212        -0.026211         141.883
0.628                   -3.90604         161.636         -44.1698         46.9593         -44.1698         46.9592       -0.0265479         141.799
0.629                   -3.98672          160.87          -44.061         44.7977          -44.061         44.7976       -0.0268898         141.715
