! TOUCHSTONE file generated by CST MICROWAVE STUDIO
! Date and time: Fri Oct  2 16:53:49 2020
! Project name: Scenario_1_Free_Space_out_of_line.cst
! Parameters = {Lambda=346.42; Step_1=17.321; dy1=312.958; dx1=693; L_HA=400; MT=2.54; Rad_Dielectric=30; Rad_Lower=7.3; Rad_Upper=30; a_HA=580; a_WG=246; b_HA=500; b_WG=121; c_HA=0; c_WG=187; d_feed=85; h_feed=15; h_lower=18; h_upper=40}
! Header version: 2018
! Port assignment regex: !\s*Touchstone port\s*([0-9]+)\s*=\s*(CST MWS port|CST DS port)\s*([0-9]+|Zmin|Zmax)\s*\(\"(.*)\"\)(\s*mode\s*([0-9]+))?.*
! Touchstone port assignment:
! Touchstone port 1 = CST MWS port 1 ("")
! Touchstone port 2 = CST MWS port 2 ("")
# GHz S DB R 50
0.5                    -0.149765        -122.598         -64.7933        -142.518         -64.5887        -142.528      -0.00667835          151.15
0.501                  -0.154158        -123.025         -64.6531        -144.639         -64.4404        -144.665      -0.00673063         151.085
0.502                  -0.158726        -123.454         -64.5095        -146.765         -64.2892        -146.803      -0.00678396          151.02
0.503                  -0.163476        -123.886         -64.3628        -148.894         -64.1351        -148.943      -0.00683835         150.955
0.504                  -0.168411        -124.321          -64.213        -151.027         -63.9783        -151.084      -0.00689379         150.889
0.505                  -0.173539        -124.758         -64.0601        -153.163         -63.8189        -153.227       -0.0069503         150.824
0.506                  -0.178864        -125.198         -63.9043        -155.301         -63.6569        -155.371      -0.00700787         150.758
0.507                  -0.184392        -125.641         -63.7456        -157.441         -63.4925        -157.515      -0.00706651         150.693
0.508                  -0.190129        -126.087         -63.5842        -159.583         -63.3257         -159.66      -0.00712622         150.627
0.509                  -0.196079        -126.535           -63.42        -161.727         -63.1566        -161.805      -0.00718701         150.561
0.51                   -0.202249        -126.986         -63.2533        -163.872         -62.9854         -163.95      -0.00724887         150.495
0.511                  -0.208644         -127.44          -63.084        -166.018         -62.8121        -166.096      -0.00731182         150.429
0.512                  -0.215269        -127.896         -62.9124        -168.165         -62.6368        -168.242      -0.00737585         150.363
0.513                  -0.222131        -128.356         -62.7385        -170.313         -62.4597        -170.387      -0.00744097         150.297
0.514                  -0.229234        -128.818         -62.5624        -172.462         -62.2808        -172.533      -0.00750719         150.231
0.515                  -0.236585        -129.282         -62.3843         -174.61         -62.1003        -174.679       -0.0075745         150.165
0.516                  -0.244189        -129.749         -62.2042         -176.76         -61.9182        -176.825      -0.00764292         150.098
0.517                  -0.252052        -130.219         -62.0222         -178.91         -61.7346        -178.971      -0.00771244         150.032
0.518                  -0.260178        -130.692         -61.8384          178.94         -61.5497         178.883      -0.00778307         149.965
0.519                  -0.268575        -131.168          -61.653          176.79         -61.3635         176.736      -0.00785482         149.898
0.52                   -0.277247        -131.646         -61.4661         174.638         -61.1762         174.589      -0.00792769         149.832
0.521                    -0.2862        -132.126         -61.2778         172.487         -60.9877         172.441      -0.00800168         149.765
0.522                  -0.295439         -132.61         -61.0881         170.334         -60.7983         170.293       -0.0080768         149.698
0.523                  -0.304971        -133.096         -60.8971         168.181          -60.608         168.143      -0.00815306         149.631
0.524                  -0.314801        -133.585         -60.7051         166.028          -60.417         165.993      -0.00823045         149.564
0.525                  -0.324934        -134.076         -60.5121         163.873         -60.2252         163.841      -0.00830899         149.497
0.526                  -0.335375         -134.57         -60.3181         161.717         -60.0328         161.688      -0.00838867         149.429
0.527                  -0.346131        -135.067         -60.1233         159.559           -59.84         159.533      -0.00846952         149.362
0.528                  -0.357207        -135.566         -59.9278         157.401         -59.6466         157.376      -0.00855152         149.295
0.529                  -0.368608        -136.068         -59.7317          155.24          -59.453         155.218      -0.00863468         149.227
0.53                    -0.38034        -136.573         -59.5351         153.078         -59.2591         153.057      -0.00871902         149.159
0.531                  -0.392409         -137.08         -59.3381         150.913          -59.065         150.893      -0.00880454         149.092
0.532                  -0.404819         -137.59         -59.1407         148.747         -58.8708         148.727      -0.00889124         149.024
0.533                  -0.417576        -138.102         -58.9431         146.578         -58.6766         146.558      -0.00897913         148.956
0.534                  -0.430685        -138.617         -58.7453         144.406         -58.4825         144.386      -0.00906822         148.888
0.535                  -0.444152        -139.135         -58.5475         142.232         -58.2885         142.211      -0.00915852          148.82
0.536                  -0.457982        -139.655         -58.3497         140.054         -58.0947         140.033      -0.00925002         148.751
0.537                   -0.47218        -140.178          -58.152         137.874         -57.9013         137.851      -0.00934274         148.683
0.538                  -0.486751        -140.703         -57.9545          135.69         -57.7082         135.665      -0.00943669         148.614
0.539                  -0.501701         -141.23         -57.7573         133.502         -57.5155         133.476      -0.00953187         148.546
0.54                   -0.517035        -141.761         -57.5605         131.311         -57.3233         131.283      -0.00962829         148.477
0.541                  -0.532758        -142.293         -57.3641         129.116         -57.1318         129.085      -0.00972596         148.408
0.542                  -0.548874        -142.828         -57.1682         126.917         -56.9408         126.884      -0.00982489          148.34
0.543                  -0.565389        -143.366         -56.9729         124.714         -56.7506         124.678      -0.00992508         148.271
0.544                  -0.582308        -143.906         -56.7782         122.507         -56.5611         122.468       -0.0100266         148.201
0.545                  -0.599635        -144.449         -56.5844         120.295         -56.3724         120.253       -0.0101293         148.132
0.546                  -0.617376        -144.994         -56.3913         118.079         -56.1847         118.035       -0.0102334         148.063
0.547                  -0.635535        -145.541         -56.1991         115.859         -55.9979         115.811       -0.0103387         147.993
0.548                  -0.654118        -146.091         -56.0078         113.634          -55.812         113.583       -0.0104454         147.924
0.549                  -0.673128        -146.643         -55.8175         111.405         -55.6273         111.351       -0.0105534         147.854
0.55                    -0.69257        -147.197         -55.6283         109.171         -55.4436         109.114       -0.0106627         147.784
0.551                   -0.71245        -147.754         -55.4402         106.933         -55.2611         106.872       -0.0107734         147.715
0.552                  -0.732771        -148.313         -55.2533          104.69         -55.0797         104.627       -0.0108854         147.645
0.553                  -0.753538        -148.875         -55.0676         102.443         -54.8996         102.376       -0.0109988         147.574
0.554                  -0.774755        -149.439         -54.8832         100.191         -54.7208         100.122       -0.0111136         147.504
0.555                  -0.796428        -150.005         -54.7001         97.9354         -54.5433         97.8634       -0.0112298         147.434
0.556                   -0.81856        -150.573         -54.5183         95.6751         -54.3671         95.6008       -0.0113474         147.363
0.557                  -0.841156        -151.144          -54.338         93.4107         -54.1924         93.3341       -0.0114664         147.293
0.558                   -0.86422        -151.717         -54.1592         91.1422          -54.019         91.0637       -0.0115868         147.222
0.559                  -0.887756        -152.292         -53.9818         88.8698         -53.8471         88.7895       -0.0117087         147.151
0.56                   -0.911768         -152.87         -53.8059         86.5936         -53.6766         86.5119       -0.0118321          147.08
0.561                  -0.936261        -153.449         -53.6316         84.3139         -53.5076         84.2308        -0.011957         147.009
0.562                  -0.961239        -154.031         -53.4588         82.0306         -53.3401         81.9466       -0.0120833         146.938
0.563                  -0.986706        -154.615         -53.2877         79.7442         -53.1742         79.6595       -0.0122112         146.866
0.564                   -1.01267        -155.202         -53.1181         77.4546         -53.0097         77.3695       -0.0123406         146.795
0.565                   -1.03912         -155.79         -52.9502         75.1622         -52.8468         75.0769       -0.0124715         146.723
0.566                   -1.06608        -156.381         -52.7839         72.8671         -52.6855          72.782       -0.0126041         146.652
0.567                   -1.09354        -156.973         -52.6193         70.5696         -52.5257         70.4848       -0.0127382          146.58
0.568                   -1.12152        -157.568         -52.4563         68.2699         -52.3674         68.1858       -0.0128739         146.508
0.569                      -1.15        -158.166         -52.2949         65.9681         -52.2107         65.8849       -0.0130113         146.435
0.57                      -1.179        -158.765         -52.1352         63.6646         -52.0555         63.5826       -0.0131503         146.363
0.571                   -1.20853        -159.366         -51.9772         61.3596         -51.9018         61.2789        -0.013291         146.291
0.572                   -1.23858         -159.97         -51.8208         59.0532         -51.7496         58.9742       -0.0134333         146.218
0.573                   -1.26915        -160.575          -51.666         56.7458          -51.599         56.6687       -0.0135775         146.145
0.574                   -1.30026        -161.183         -51.5128         54.4376         -51.4498         54.3624       -0.0137233         146.072
0.575                   -1.33191        -161.793         -51.3613         52.1287         -51.3021         52.0558        -0.013871         145.999
0.576                    -1.3641        -162.405         -51.2113         49.8194         -51.1558         49.7489       -0.0140204         145.926
0.577                   -1.39684        -163.019         -51.0628           47.51         -51.0109         47.4419       -0.0141717         145.853
0.578                   -1.43013        -163.635         -50.9159         45.2005         -50.8674         45.1352       -0.0143248         145.779
0.579                   -1.46397        -164.253         -50.7704         42.8913         -50.7253         42.8287       -0.0144798         145.706
0.58                    -1.49837        -164.873         -50.6264         40.5826         -50.5844         40.5228       -0.0146368         145.632
0.581                   -1.53333        -165.496         -50.4838         38.2744         -50.4449         38.2176       -0.0147956         145.558
0.582                   -1.56886         -166.12         -50.3427          35.967         -50.3066         35.9132       -0.0149565         145.484
0.583                   -1.60497        -166.747         -50.2028         33.6606         -50.1695         33.6097       -0.0151194         145.409
0.584                   -1.64165        -167.376         -50.0643         31.3552         -50.0336         31.3074       -0.0152844         145.335
0.585                   -1.67891        -168.007         -49.9271         29.0511         -49.8988         29.0064       -0.0154514          145.26
0.586                   -1.71676         -168.64         -49.7911         26.7484         -49.7652         26.7066       -0.0156206         145.186
0.587                   -1.75521        -169.275         -49.6562         24.4471         -49.6326         24.4083        -0.015792         145.111
0.588                   -1.79425        -169.912         -49.5225         22.1475          -49.501         22.1116       -0.0159656         145.036
0.589                    -1.8339        -170.552         -49.3899         19.8494         -49.3703         19.8164       -0.0161414          144.96
0.59                    -1.87415        -171.193         -49.2584         17.5532         -49.2406         17.5229       -0.0163196         144.885
0.591                   -1.91502        -171.837         -49.1278         15.2587         -49.1118         15.2312       -0.0165001         144.809
0.592                   -1.95652        -172.483         -48.9982          12.966         -48.9838         12.9411        -0.016683         144.733
0.593                   -1.99864        -173.131         -48.8696         10.6753         -48.8567         10.6529       -0.0168683         144.657
0.594                    -2.0414        -173.781         -48.7417         8.38638         -48.7302         8.36639       -0.0170561         144.581
0.595                   -2.08481        -174.434         -48.6147          6.0994         -48.6045         6.08169       -0.0172465         144.505
0.596                   -2.12886        -175.089         -48.4885         3.81432         -48.4795         3.79874       -0.0174396         144.428
0.597                   -2.17357        -175.746         -48.3629         1.53111         -48.3551         1.51754       -0.0176352         144.352
0.598                   -2.21895        -176.406         -48.2381       -0.750265         -48.2313       -0.761969       -0.0178337         144.275
0.599                   -2.26501        -177.067         -48.1139        -3.02984          -48.108        -3.03982       -0.0180349         144.198
0.6                     -2.31175        -177.732         -47.9903        -5.30768         -47.9852        -5.31607       -0.0182389          144.12
0.601                   -2.35918        -178.398         -47.8672        -7.58385         -47.8629         -7.5908       -0.0184459         144.043
0.602                   -2.40731        -179.067         -47.7446        -9.85843         -47.7411        -9.86407       -0.0186559         143.965
0.603                   -2.45617        -179.738         -47.6225        -12.1315         -47.6196         -12.136       -0.0188689         143.887
0.604                   -2.50574         179.588         -47.5009        -14.4032         -47.4986        -14.4066        -0.019085         143.809
0.605                   -2.55606         178.912         -47.3796        -16.6735         -47.3778        -16.6761       -0.0193044         143.731
0.606                   -2.60712         178.233         -47.2587        -18.9427         -47.2574        -18.9445        -0.019527         143.652
0.607                   -2.65894         177.551         -47.1381        -21.2108         -47.1372         -21.212       -0.0197531         143.573
0.608                   -2.71154         176.868         -47.0178         -23.478         -47.0173        -23.4786       -0.0199825         143.495
0.609                   -2.76493         176.181         -46.8977        -25.7444         -46.8976        -25.7446       -0.0202155         143.415
0.61                    -2.81912         175.492         -46.7779        -28.0101          -46.778          -28.01       -0.0204522         143.336
0.611                   -2.87413           174.8         -46.6583        -30.2753         -46.6587         -30.275       -0.0206925         143.256
0.612                   -2.92998         174.106         -46.5389        -32.5402         -46.5395        -32.5398       -0.0209367         143.177
0.613                   -2.98667         173.408         -46.4196        -34.8049         -46.4205        -34.8044       -0.0211847         143.096
0.614                   -3.04424         172.708         -46.3005        -37.0695         -46.3015         -37.069       -0.0214368         143.016
0.615                    -3.1027         172.006         -46.1815        -39.3342         -46.1827        -39.3339        -0.021693         142.936
0.616                   -3.16207           171.3         -46.0625        -41.5992         -46.0639         -41.599       -0.0219534         142.855
0.617                   -3.22237         170.592         -45.9437        -43.8647         -45.9452        -43.8647       -0.0222181         142.774
0.618                   -3.28362          169.88          -45.825        -46.1308         -45.8266        -46.1309       -0.0224873         142.693
0.619                   -3.34585         169.166         -45.7063        -48.3976          -45.708         -48.398        -0.022761         142.611
0.62                    -3.40908         168.449         -45.5877        -50.6654         -45.5895         -50.666       -0.0230394         142.529
0.621                   -3.47333         167.729         -45.4691        -52.9343          -45.471        -52.9352       -0.0233226         142.447
0.622                   -3.53863         167.005         -45.3506        -55.2045         -45.3526        -55.2056       -0.0236107         142.365
0.623                   -3.60501         166.279         -45.2321        -57.4761         -45.2342        -57.4774       -0.0239039         142.283
0.624                   -3.67249          165.55         -45.1136        -59.7492         -45.1159        -59.7507       -0.0242022           142.2
0.625                   -3.74112         164.818         -44.9952        -62.0241         -44.9976        -62.0258       -0.0245058         142.117
0.626                   -3.81091         164.083         -44.8769        -64.3009         -44.8793        -64.3026       -0.0248149         142.034
0.627                   -3.88191         163.344         -44.7586        -66.5797         -44.7612        -66.5815       -0.0251296          141.95
0.628                   -3.95415         162.603         -44.6403        -68.8607          -44.643        -68.8624         -0.02545         141.866
0.629                   -4.02766         161.858         -44.5221         -71.144          -44.525        -71.1456       -0.0257763         141.782
