! TOUCHSTONE file generated by CST MICROWAVE STUDIO
! Date and time: Fri Oct  2 19:08:09 2020
! Project name: Scenario_1_Free_Space_out_of_line.cst
! Parameters = {Lambda=346.42; Step_1=17.321; dy1=312.958; dx1=866; L_HA=400; MT=2.54; Rad_Dielectric=30; Rad_Lower=7.3; Rad_Upper=30; a_HA=580; a_WG=246; b_HA=500; b_WG=121; c_HA=0; c_WG=187; d_feed=85; h_feed=15; h_lower=18; h_upper=40}
! Header version: 2018
! Port assignment regex: !\s*Touchstone port\s*([0-9]+)\s*=\s*(CST MWS port|CST DS port)\s*([0-9]+|Zmin|Zmax)\s*\(\"(.*)\"\)(\s*mode\s*([0-9]+))?.*
! Touchstone port assignment:
! Touchstone port 1 = CST MWS port 1 ("")
! Touchstone port 2 = CST MWS port 2 ("")
# GHz S DB R 50
0.5                    -0.147586        -122.576         -65.2317         121.554         -65.2317         121.554      -0.00653749         151.174
0.501                  -0.152489        -123.016         -65.0351         119.406         -65.0348         119.406      -0.00659297         151.109
0.502                  -0.157613        -123.458         -64.8378         117.253         -64.8373         117.253      -0.00664954         151.044
0.503                   -0.16296        -123.903         -64.6401         115.094         -64.6393         115.094       -0.0067072         150.978
0.504                  -0.168536         -124.35         -64.4419         112.931         -64.4408         112.931      -0.00676597         150.913
0.505                  -0.174344        -124.799         -64.2433         110.762          -64.242         110.762      -0.00682584         150.847
0.506                  -0.180387         -125.25         -64.0444         108.587         -64.0429         108.587      -0.00688684         150.782
0.507                   -0.18667        -125.704         -63.8452         106.406         -63.8435         106.406      -0.00694896         150.716
0.508                  -0.193197        -126.159         -63.6458         104.219         -63.6439         104.219      -0.00701222          150.65
0.509                  -0.199971        -126.617         -63.4462         102.026         -63.4441         102.025      -0.00707663         150.584
0.51                   -0.206996        -127.078         -63.2466         99.8257         -63.2443         99.8252      -0.00714219         150.518
0.511                  -0.214276         -127.54         -63.0468         97.6189         -63.0444         97.6184      -0.00720891         150.452
0.512                  -0.221814        -128.005         -62.8471         95.4053         -62.8445         95.4046      -0.00727681         150.386
0.513                  -0.229615        -128.472         -62.6474         93.1845         -62.6447         93.1838      -0.00734588          150.32
0.514                  -0.237682        -128.941         -62.4478         90.9565          -62.445         90.9556      -0.00741614         150.253
0.515                  -0.246018        -129.413         -62.2484         88.7212         -62.2455         88.7201       -0.0074876         150.187
0.516                  -0.254628        -129.886         -62.0492         86.4782         -62.0462          86.477      -0.00756027         150.121
0.517                  -0.263515        -130.362         -61.8503         84.2277         -61.8472         84.2263      -0.00763414         150.054
0.518                  -0.272683         -130.84         -61.6517         81.9694         -61.6485         81.9679      -0.00770924         149.987
0.519                  -0.282134         -131.32         -61.4534         79.7033         -61.4501         79.7016      -0.00778557         149.921
0.52                   -0.291873        -131.802         -61.2555         77.4293         -61.2522         77.4274      -0.00786313         149.854
0.521                  -0.301903        -132.287         -61.0582         75.1474         -61.0548         75.1453      -0.00794194         149.787
0.522                  -0.312227        -132.773         -60.8613         72.8575         -60.8579         72.8552        -0.008022          149.72
0.523                  -0.322849        -133.262          -60.665         70.5595         -60.6615         70.5571      -0.00810332         149.653
0.524                  -0.333771        -133.753         -60.4693         68.2535         -60.4658         68.2509      -0.00818591         149.586
0.525                  -0.344998        -134.246         -60.2742         65.9395         -60.2707         65.9368      -0.00826977         149.518
0.526                  -0.356531        -134.742         -60.0798         63.6175         -60.0763         63.6146      -0.00835492         149.451
0.527                  -0.368375        -135.239         -59.8862         61.2875         -59.8827         61.2844      -0.00844135         149.383
0.528                  -0.380532        -135.738         -59.6933         58.9495         -59.6898         58.9464      -0.00852908         149.316
0.529                  -0.393004         -136.24         -59.5013         56.6038         -59.4978         56.6005      -0.00861811         149.248
0.53                   -0.405796        -136.744         -59.3101         54.2502         -59.3066         54.2468      -0.00870845         149.181
0.531                  -0.418909        -137.249         -59.1198          51.889         -59.1164         51.8855       -0.0088001         149.113
0.532                  -0.432347        -137.757         -58.9304         49.5202          -58.927         49.5167      -0.00889308         149.045
0.533                  -0.446111        -138.267          -58.742          47.144         -58.7386         47.1404      -0.00898738         148.977
0.534                  -0.460204        -138.779         -58.5546         44.7606         -58.5513         44.7569      -0.00908302         148.909
0.535                  -0.474629        -139.293         -58.3682         42.3699         -58.3649         42.3662      -0.00917999          148.84
0.536                  -0.489387        -139.809         -58.1829         39.9724         -58.1796         39.9686      -0.00927831         148.772
0.537                  -0.504482        -140.327         -57.9986          37.568         -57.9954         37.5643      -0.00937798         148.704
0.538                  -0.519915        -140.847         -57.8154         35.1571         -57.8123         35.1533      -0.00947899         148.635
0.539                  -0.535688         -141.37         -57.6334         32.7398         -57.6303          32.736      -0.00958137         148.566
0.54                   -0.551802        -141.894         -57.4525         30.3163         -57.4495         30.3126      -0.00968511         148.498
0.541                   -0.56826         -142.42         -57.2728         27.8868         -57.2698         27.8832      -0.00979021         148.429
0.542                  -0.585064        -142.948         -57.0942         25.4517         -57.0913         25.4481      -0.00989668          148.36
0.543                  -0.602214        -143.479         -56.9169          23.011          -56.914         23.0076       -0.0100045         148.291
0.544                  -0.619713        -144.011         -56.7407         20.5651         -56.7379         20.5618       -0.0101137         148.222
0.545                  -0.637561        -144.545         -56.5657         18.1142          -56.563          18.111       -0.0102243         148.153
0.546                   -0.65576        -145.082          -56.392         15.6586         -56.3894         15.6555       -0.0103363         148.083
0.547                  -0.674311         -145.62         -56.2195         13.1985         -56.2169         13.1956       -0.0104496         148.014
0.548                  -0.693215         -146.16         -56.0482         10.7341         -56.0456         10.7314       -0.0105643         147.944
0.549                  -0.712473        -146.702         -55.8781         8.26577         -55.8756         8.26318       -0.0106804         147.874
0.55                   -0.732085        -147.247         -55.7092         5.79369         -55.7068         5.79129       -0.0107978         147.805
0.551                  -0.752053        -147.793         -55.5415         3.31814         -55.5391         3.31593       -0.0109166         147.735
0.552                  -0.772376        -148.341          -55.375        0.839351         -55.3727        0.837353       -0.0110368         147.665
0.553                  -0.793056        -148.892         -55.2097        -1.64242         -55.2075        -1.64421       -0.0111583         147.595
0.554                  -0.814093        -149.444         -55.0456        -4.12694         -55.0434        -4.12851       -0.0112812         147.524
0.555                  -0.835488        -149.999         -54.8826        -6.61398         -54.8805        -6.61532       -0.0114055         147.454
0.556                  -0.857241        -150.555         -54.7208         -9.1033         -54.7187        -9.10441        -0.011531         147.383
0.557                  -0.879351        -151.114         -54.5601        -11.5947          -54.558        -11.5956       -0.0116579         147.313
0.558                  -0.901821        -151.674         -54.4005        -14.0879         -54.3985        -14.0886       -0.0117861         147.242
0.559                  -0.924649        -152.237          -54.242        -16.5828           -54.24        -16.5833       -0.0119157         147.171
0.56                   -0.947837        -152.802         -54.0845        -19.0792         -54.0826        -19.0794       -0.0120465           147.1
0.561                  -0.971384        -153.369         -53.9281        -21.5769         -53.9263        -21.5768       -0.0121786         147.029
0.562                  -0.995291        -153.938         -53.7727        -24.0756         -53.7709        -24.0754        -0.012312         146.958
0.563                   -1.01956         -154.51         -53.6183        -26.5753         -53.6166        -26.5749       -0.0124466         146.886
0.564                   -1.04419        -155.083         -53.4649        -29.0759         -53.4632        -29.0752       -0.0125824         146.815
0.565                   -1.06918        -155.659         -53.3124         -31.577         -53.3107        -31.5762       -0.0127195         146.743
0.566                   -1.09454        -156.238         -53.1608        -34.0788         -53.1591        -34.0777       -0.0128578         146.671
0.567                   -1.12026        -156.819         -53.0101         -36.581         -53.0085        -36.5797       -0.0129972           146.6
0.568                   -1.14635        -157.402         -52.8603        -39.0835         -52.8587         -39.082       -0.0131378         146.528
0.569                    -1.1728        -157.987         -52.7113        -41.5862         -52.7097        -41.5846       -0.0132796         146.455
0.57                    -1.19963        -158.576         -52.5631        -44.0891         -52.5615        -44.0874       -0.0134225         146.383
0.571                   -1.22683        -159.166         -52.4156        -46.5921         -52.4141        -46.5903       -0.0135666         146.311
0.572                   -1.25441         -159.76          -52.269        -49.0952         -52.2675        -49.0932       -0.0137118         146.238
0.573                   -1.28237        -160.356          -52.123        -51.5983         -52.1216        -51.5962       -0.0138581         146.165
0.574                   -1.31071        -160.955         -51.9778        -54.1013         -51.9764        -54.0991       -0.0140055         146.092
0.575                   -1.33945        -161.557         -51.8332        -56.6043         -51.8318        -56.6021       -0.0141542         146.019
0.576                   -1.36859        -162.162         -51.6893        -59.1073          -51.688         -59.105        -0.014304         145.946
0.577                   -1.39813         -162.77         -51.5461        -61.6102         -51.5447        -61.6078       -0.0144551         145.873
0.578                   -1.42809        -163.382         -51.4034         -64.113         -51.4021        -64.1106       -0.0146075         145.799
0.579                   -1.45847        -163.996         -51.2613        -66.6158           -51.26        -66.6133       -0.0147612         145.726
0.58                    -1.48928        -164.614         -51.1199        -69.1186         -51.1186        -69.1161       -0.0149165         145.652
0.581                   -1.52055        -165.235         -50.9789        -71.6214         -50.9777        -71.6189       -0.0150734         145.578
0.582                   -1.55227         -165.86         -50.8385        -74.1242         -50.8373        -74.1218       -0.0152321         145.504
0.583                   -1.58448        -166.489         -50.6987        -76.6271         -50.6975        -76.6247       -0.0153927         145.429
0.584                   -1.61717        -167.121         -50.5593        -79.1302         -50.5581        -79.1278       -0.0155554         145.355
0.585                   -1.65039        -167.757         -50.4205        -81.6334         -50.4193        -81.6311       -0.0157205          145.28
0.586                   -1.68414        -168.397         -50.2821        -84.1369          -50.281        -84.1346       -0.0158882         145.205
0.587                   -1.71845        -169.042         -50.1442        -86.6407         -50.1431        -86.6384       -0.0160587          145.13
0.588                   -1.75334         -169.69         -50.0068        -89.1448         -50.0057        -89.1426       -0.0162323         145.055
0.589                   -1.78885        -170.343         -49.8698        -91.6493         -49.8688        -91.6472       -0.0164091          144.98
0.59                      -1.825            -171         -49.7334        -94.1543         -49.7323        -94.1523       -0.0165895         144.904
0.591                   -1.86183        -171.662         -49.5973        -96.6598         -49.5963        -96.6579       -0.0167735         144.829
0.592                   -1.89936        -172.328         -49.4618        -99.1659         -49.4608        -99.1641       -0.0169614         144.753
0.593                   -1.93765        -172.999         -49.3267        -101.673         -49.3257        -101.671       -0.0171532         144.677
0.594                   -1.97673        -173.674          -49.192         -104.18         -49.1911        -104.178       -0.0173492           144.6
0.595                   -2.01664        -174.354         -49.0578        -106.688         -49.0569        -106.687       -0.0175492         144.524
0.596                   -2.05742        -175.039          -48.924        -109.197         -48.9232        -109.196       -0.0177533         144.447
0.597                   -2.09912        -175.728         -48.7908        -111.707           -48.79        -111.705       -0.0179615         144.371
0.598                   -2.14179        -176.422         -48.6579        -114.217         -48.6572        -114.216       -0.0181737         144.294
0.599                   -2.18547        -177.121         -48.5256        -116.729         -48.5249        -116.728       -0.0183898         144.216
0.6                     -2.23022        -177.824         -48.3937        -119.241         -48.3931         -119.24       -0.0186096         144.139
0.601                   -2.27608        -178.531         -48.2624        -121.755         -48.2617        -121.754        -0.018833         144.062
0.602                   -2.32311        -179.243         -48.1315        -124.269         -48.1309        -124.268       -0.0190599         143.984
0.603                   -2.37134        -179.958         -48.0011        -126.785         -48.0006        -126.784       -0.0192902         143.906
0.604                   -2.42084         179.322         -47.8712        -129.301         -47.8707          -129.3       -0.0195236         143.828
0.605                   -2.47164         178.599         -47.7419        -131.818         -47.7414        -131.817       -0.0197602         143.749
0.606                   -2.52379         177.873         -47.6131        -134.336         -47.6126        -134.336       -0.0199997         143.671
0.607                   -2.57732         177.144         -47.4848        -136.856         -47.4844        -136.855        -0.020242         143.592
0.608                   -2.63228         176.412         -47.3571        -139.376         -47.3567        -139.375       -0.0204872         143.513
0.609                    -2.6887         175.678         -47.2299        -141.897         -47.2296        -141.896       -0.0207351         143.434
0.61                     -2.7466         174.941         -47.1033        -144.418          -47.103        -144.418       -0.0209856         143.355
0.611                     -2.806         174.204         -46.9772        -146.941          -46.977        -146.941       -0.0212388         143.275
0.612                   -2.86693         173.465         -46.8518        -149.464         -46.8516        -149.464       -0.0214946         143.196
0.613                   -2.92938         172.725         -46.7269        -151.989         -46.7267        -151.988       -0.0217531         143.116
0.614                   -2.99338         171.985         -46.6026        -154.513         -46.6025        -154.513       -0.0220142         143.035
0.615                    -3.0589         171.245          -46.479        -157.038         -46.4788        -157.038        -0.022278         142.955
0.616                   -3.12596         170.505         -46.3559        -159.564         -46.3558        -159.563       -0.0225444         142.874
0.617                   -3.19452         169.766         -46.2334         -162.09         -46.2334        -162.089       -0.0228137         142.793
0.618                   -3.26458         169.029         -46.1116        -164.617         -46.1116        -164.616       -0.0230857         142.712
0.619                   -3.33611         168.293         -45.9904        -167.143         -45.9904        -167.142       -0.0233606         142.631
0.62                    -3.40909         167.558         -45.8698         -169.67         -45.8698        -169.669       -0.0236384         142.549
0.621                   -3.48347         166.826         -45.7498        -172.197         -45.7498        -172.196       -0.0239192         142.467
0.622                   -3.55922         166.097         -45.6304        -174.723         -45.6304        -174.722       -0.0242031         142.385
0.623                   -3.63631          165.37         -45.5116         -177.25         -45.5117        -177.249       -0.0244903         142.303
0.624                    -3.7147         164.645         -45.3934        -179.776         -45.3935        -179.775       -0.0247807          142.22
0.625                   -3.79434         163.924         -45.2759         177.698          -45.276         177.699       -0.0250745         142.137
0.626                   -3.87519         163.205         -45.1589         175.173          -45.159         175.174       -0.0253717         142.054
0.627                   -3.95722          162.49         -45.0426         172.648         -45.0426         172.649       -0.0256726         141.971
0.628                   -4.04038         161.778         -44.9268         170.124         -44.9268         170.125       -0.0259773         141.887
0.629                   -4.12464         161.068         -44.8115           167.6         -44.8116         167.602       -0.0262858         141.803
