! TOUCHSTONE file generated by CST MICROWAVE STUDIO
! Date and time: Fri Oct  2 18:54:51 2020
! Project name: Scenario_1_Free_Space_out_of_line.cst
! Parameters = {Lambda=346.42; Step_1=17.321; dy1=312.958; dx1=1039; L_HA=400; MT=2.54; Rad_Dielectric=30; Rad_Lower=7.3; Rad_Upper=30; a_HA=580; a_WG=246; b_HA=500; b_WG=121; c_HA=0; c_WG=187; d_feed=85; h_feed=15; h_lower=18; h_upper=40}
! Header version: 2018
! Port assignment regex: !\s*Touchstone port\s*([0-9]+)\s*=\s*(CST MWS port|CST DS port)\s*([0-9]+|Zmin|Zmax)\s*\(\"(.*)\"\)(\s*mode\s*([0-9]+))?.*
! Touchstone port assignment:
! Touchstone port 1 = CST MWS port 1 ("")
! Touchstone port 2 = CST MWS port 2 ("")
# GHz S DB R 50
0.5                    -0.149292         -122.49         -65.7021          27.143         -65.7021          27.143      -0.00665016         151.168
0.501                  -0.154073        -122.933         -65.6002         24.9766         -65.5994         24.9824      -0.00670794         151.103
0.502                  -0.159064        -123.379         -65.4941         22.7876         -65.4926         22.7991      -0.00676653         151.038
0.503                  -0.164268        -123.826         -65.3837         20.5765         -65.3815         20.5936      -0.00682592         150.972
0.504                  -0.169689        -124.275          -65.269         18.3439         -65.2661         18.3663      -0.00688613         150.907
0.505                  -0.175329        -124.726         -65.1499         16.0904         -65.1464         16.1179      -0.00694716         150.841
0.506                  -0.181191        -125.179         -65.0264         13.8166         -65.0224         13.8491      -0.00700902         150.776
0.507                   -0.18728        -125.635         -64.8986         11.5231          -64.894         11.5604      -0.00707172          150.71
0.508                  -0.193598        -126.092         -64.7663         9.21065         -64.7612         9.25245      -0.00713526         150.644
0.509                  -0.200149        -126.551         -64.6297         6.87982         -64.6241         6.92592      -0.00719966         150.578
0.51                   -0.206937        -127.013         -64.4887         4.53128         -64.4827         4.58143      -0.00726491         150.512
0.511                  -0.213964        -127.477         -64.3434         2.16569          -64.337         2.21964      -0.00733104         150.446
0.512                  -0.221234        -127.942         -64.1938        -0.21632         -64.1871       -0.158824      -0.00739804          150.38
0.513                  -0.228751         -128.41           -64.04        -2.61411         -64.0329        -2.55335      -0.00746593         150.314
0.514                  -0.236518         -128.88          -63.882        -5.02707         -63.8747        -4.96332      -0.00753471         150.248
0.515                  -0.244538        -129.352           -63.72         -7.4546         -63.7124        -7.38815      -0.00760439         150.181
0.516                  -0.252816        -129.826          -63.554        -9.89614         -63.5462        -9.82727      -0.00767498         150.115
0.517                  -0.261355        -130.302         -63.3841        -12.3511         -63.3762        -12.2801       -0.0077465         150.048
0.518                  -0.270158         -130.78         -63.2105        -14.8191         -63.2023        -14.7462      -0.00781895         149.982
0.519                  -0.279229         -131.26         -63.0332        -17.2995         -63.0249        -17.2251      -0.00789233         149.915
0.52                   -0.288572        -131.742         -62.8524        -19.7919          -62.844        -19.7163      -0.00796667         149.848
0.521                  -0.298191        -132.227         -62.6682        -22.2959         -62.6597        -22.2193      -0.00804196         149.782
0.522                  -0.308089        -132.714         -62.4807         -24.811         -62.4722        -24.7338      -0.00811823         149.715
0.523                  -0.318269        -133.202         -62.2902        -27.3371         -62.2817        -27.2594      -0.00819547         149.648
0.524                  -0.328737        -133.693         -62.0968        -29.8736         -62.0883        -29.7959      -0.00827371          149.58
0.525                  -0.339494        -134.186         -61.9006        -32.4205         -61.8921        -32.3429      -0.00835294         149.513
0.526                  -0.350546        -134.681         -61.7018        -34.9773         -61.6933        -34.9001      -0.00843319         149.446
0.527                  -0.361897        -135.178         -61.5007        -37.5439         -61.4922        -37.4674      -0.00851446         149.379
0.528                  -0.373549        -135.678         -61.2973        -40.1201         -61.2889        -40.0445      -0.00859677         149.311
0.529                  -0.385507        -136.179         -61.0919        -42.7057         -61.0836        -42.6312      -0.00868012         149.243
0.53                   -0.397774        -136.683         -60.8846        -45.3006         -60.8764        -45.2274      -0.00876453         149.176
0.531                  -0.410355        -137.189         -60.6757        -47.9046         -60.6676         -47.833      -0.00885002         149.108
0.532                  -0.423254        -137.697         -60.4654        -50.5177         -60.4574        -50.4478      -0.00893658          149.04
0.533                  -0.436474        -138.207         -60.2538        -53.1397         -60.2459        -53.0718      -0.00902424         148.972
0.534                   -0.45002        -138.719         -60.0411        -55.7706         -60.0334        -55.7047      -0.00911301         148.904
0.535                  -0.463895        -139.233         -59.8276        -58.4102         -59.8201        -58.3465       -0.0092029         148.836
0.536                  -0.478104         -139.75         -59.6134        -61.0585         -59.6061        -60.9972      -0.00929392         148.768
0.537                   -0.49265        -140.268         -59.3987        -63.7154         -59.3916        -63.6565      -0.00938609         148.699
0.538                  -0.507537        -140.789         -59.1838        -66.3807         -59.1769        -66.3244      -0.00947943         148.631
0.539                  -0.522771        -141.312         -58.9688        -69.0545         -58.9622        -69.0007      -0.00957394         148.562
0.54                   -0.538353        -141.837          -58.754        -71.7364         -58.7475        -71.6854      -0.00966964         148.493
0.541                   -0.55429        -142.364         -58.5394        -74.4265         -58.5332        -74.3782      -0.00976655         148.425
0.542                  -0.570584        -142.893         -58.3254        -77.1245         -58.3194         -77.079      -0.00986468         148.356
0.543                   -0.58724        -143.425          -58.112        -79.8302         -58.1063        -79.7875      -0.00996405         148.287
0.544                  -0.604263        -143.959         -57.8995        -82.5434          -57.894        -82.5035       -0.0100647         148.218
0.545                  -0.621655        -144.494          -57.688        -85.2639         -57.6828        -85.2267       -0.0101666         148.148
0.546                  -0.639422        -145.032         -57.4776        -87.9914         -57.4728        -87.9569       -0.0102697         148.079
0.547                  -0.657568        -145.573         -57.2687        -90.7255         -57.2641        -90.6938       -0.0103742          148.01
0.548                  -0.676096        -146.115         -57.0612        -93.4659         -57.0569        -93.4368         -0.01048          147.94
0.549                  -0.695012        -146.659         -56.8554        -96.2122         -56.8514        -96.1857       -0.0105871          147.87
0.55                   -0.714318        -147.206         -56.6513        -98.9641         -56.6476        -98.9401       -0.0106956         147.801
0.551                   -0.73402        -147.755         -56.4492        -101.721         -56.4458        -101.699       -0.0108055         147.731
0.552                  -0.754122        -148.306          -56.249        -104.482         -56.2459        -104.463       -0.0109167         147.661
0.553                  -0.774628        -148.859          -56.051        -107.248         -56.0482        -107.231       -0.0110294         147.591
0.554                  -0.795542        -149.414         -55.8552        -110.017         -55.8527        -110.002       -0.0111435          147.52
0.555                  -0.816869        -149.971         -55.6617        -112.789         -55.6595        -112.776        -0.011259          147.45
0.556                  -0.838613        -150.531         -55.4705        -115.564         -55.4686        -115.553        -0.011376          147.38
0.557                  -0.860778        -151.092         -55.2818         -118.34         -55.2802        -118.331       -0.0114945         147.309
0.558                  -0.883369        -151.656         -55.0956        -121.118         -55.0943         -121.11       -0.0116146         147.238
0.559                   -0.90639        -152.222         -54.9119        -123.896         -54.9108         -123.89       -0.0117361         147.167
0.56                   -0.929845         -152.79         -54.7307        -126.675         -54.7299         -126.67       -0.0118592         147.096
0.561                   -0.95374        -153.361         -54.5521        -129.452         -54.5516        -129.449       -0.0119839         147.025
0.562                  -0.978078        -153.933         -54.3761        -132.229         -54.3758        -132.226       -0.0121102         146.954
0.563                   -1.00286        -154.508         -54.2026        -135.004         -54.2026        -135.002       -0.0122381         146.883
0.564                    -1.0281        -155.085         -54.0317        -137.776         -54.0319        -137.775       -0.0123677         146.811
0.565                    -1.0538        -155.664         -53.8633        -140.545         -53.8637        -140.545       -0.0124989         146.739
0.566                   -1.07995        -156.245         -53.6974        -143.312          -53.698        -143.312       -0.0126318         146.668
0.567                   -1.10658        -156.828         -53.5339        -146.074         -53.5347        -146.075       -0.0127665         146.596
0.568                   -1.13367        -157.414         -53.3728        -148.831         -53.3737        -148.833       -0.0129029         146.524
0.569                   -1.16124        -158.001         -53.2141        -151.584         -53.2151        -151.586       -0.0130411         146.452
0.57                    -1.18929        -158.591         -53.0575        -154.332         -53.0587        -154.334       -0.0131811         146.379
0.571                   -1.21782        -159.183         -52.9032        -157.074         -52.9044        -157.076        -0.013323         146.307
0.572                   -1.24684        -159.778         -52.7509         -159.81         -52.7522        -159.812       -0.0134667         146.234
0.573                   -1.27636        -160.374         -52.6006         -162.54          -52.602        -162.542       -0.0136123         146.161
0.574                   -1.30638        -160.973         -52.4522        -165.264         -52.4537        -165.266       -0.0137598         146.088
0.575                    -1.3369        -161.574         -52.3057         -167.98         -52.3072        -167.982       -0.0139093         146.015
0.576                   -1.36793        -162.177         -52.1608        -170.691         -52.1623        -170.692       -0.0140607         145.942
0.577                   -1.39948        -162.782         -52.0176        -173.394         -52.0191        -173.396       -0.0142142         145.869
0.578                   -1.43154        -163.389         -51.8759         -176.09         -51.8774        -176.092       -0.0143697         145.795
0.579                   -1.46413        -163.999         -51.7356         -178.78          -51.737        -178.781       -0.0145274         145.722
0.58                    -1.49726        -164.611         -51.5966         178.537          -51.598         178.536       -0.0146871         145.648
0.581                   -1.53091        -165.225         -51.4587         175.861         -51.4601          175.86        -0.014849         145.574
0.582                   -1.56511        -165.842          -51.322         173.192         -51.3233         173.191       -0.0150131           145.5
0.583                   -1.59986        -166.461         -51.1863         170.529         -51.1875         170.528       -0.0151794         145.426
0.584                   -1.63516        -167.082         -51.0514         167.872         -51.0526         167.871        -0.015348         145.351
0.585                   -1.67101        -167.705         -50.9174         165.221         -50.9184         165.221       -0.0155189         145.277
0.586                   -1.70744        -168.331         -50.7841         162.576          -50.785         162.576       -0.0156922         145.202
0.587                   -1.74443        -168.959         -50.6513         159.937         -50.6521         159.937       -0.0158678         145.127
0.588                     -1.782         -169.59         -50.5191         157.302         -50.5198         157.302       -0.0160458         145.052
0.589                   -1.82016        -170.222         -50.3874         154.672         -50.3879         154.673       -0.0162264         144.977
0.59                    -1.85891        -170.858          -50.256         152.047         -50.2564         152.047       -0.0164094         144.901
0.591                   -1.89825        -171.495         -50.1249         149.426         -50.1252         149.426        -0.016595         144.825
0.592                    -1.9382        -172.135          -49.994         146.808         -49.9941         146.808       -0.0167833          144.75
0.593                   -1.97877        -172.778         -49.8632         144.194         -49.8632         144.193       -0.0169741         144.674
0.594                   -2.01995        -173.423         -49.7326         141.582         -49.7325         141.581       -0.0171677         144.598
0.595                   -2.06176         -174.07         -49.6019         138.972         -49.6017         138.971        -0.017364         144.521
0.596                   -2.10421         -174.72         -49.4713         136.364         -49.4709         136.363       -0.0175632         144.445
0.597                   -2.14731        -175.373         -49.3406         133.758         -49.3401         133.756       -0.0177651         144.368
0.598                   -2.19106        -176.028         -49.2098         131.152         -49.2091          131.15         -0.01797         144.291
0.599                   -2.23548        -176.686         -49.0788         128.547         -49.0781         128.545       -0.0181779         144.214
0.6                     -2.28057        -177.347         -48.9477         125.941         -48.9468         125.939       -0.0183887         144.137
0.601                   -2.32635         -178.01         -48.8164         123.335         -48.8154         123.332       -0.0186026         144.059
0.602                   -2.37282        -178.676         -48.6849         120.728         -48.6837         120.725       -0.0188197         143.982
0.603                      -2.42        -179.345         -48.5531         118.119         -48.5519         118.115       -0.0190399         143.904
0.604                    -2.4679         179.983         -48.4211         115.508         -48.4197         115.504       -0.0192634         143.826
0.605                   -2.51653         179.309         -48.2888         112.895         -48.2874          112.89       -0.0194902         143.747
0.606                   -2.56591         178.631         -48.1563         110.279         -48.1548         110.274       -0.0197204         143.669
0.607                   -2.61605         177.951         -48.0236         107.659          -48.022         107.654        -0.019954          143.59
0.608                   -2.66696         177.268         -47.8906         105.036         -47.8889          105.03       -0.0201911         143.511
0.609                   -2.71867         176.581         -47.7574         102.409         -47.7557         102.402       -0.0204318         143.432
0.61                    -2.77119         175.891         -47.6241         99.7771         -47.6222         99.7698       -0.0206761         143.353
0.611                   -2.82453         175.198         -47.4905         97.1405         -47.4886         97.1325       -0.0209241         143.273
0.612                   -2.87873         174.502         -47.3568         94.4986         -47.3549         94.4901       -0.0211759         143.193
0.613                   -2.93379         173.803         -47.2229         91.8512          -47.221         91.8422       -0.0214316         143.113
0.614                   -2.98973           173.1          -47.089          89.198         -47.0871         89.1884       -0.0216912         143.033
0.615                    -3.0466         172.393         -46.9551         86.5388         -46.9531         86.5286       -0.0219548         142.953
0.616                    -3.1044         171.683         -46.8211         83.8733         -46.8191         83.8626       -0.0222225         142.872
0.617                   -3.16316          170.97         -46.6872         81.2012         -46.6852           81.19       -0.0224944         142.791
0.618                   -3.22292         170.252         -46.5534         78.5225         -46.5514         78.5108       -0.0227705          142.71
0.619                    -3.2837         169.531         -46.4197          75.837         -46.4177         75.8248        -0.023051         142.629
0.62                    -3.34554         168.807         -46.2862         73.1445         -46.2843         73.1319       -0.0233359         142.547
0.621                   -3.40847         168.078          -46.153          70.445         -46.1511         70.4319       -0.0236253         142.465
0.622                   -3.47254         167.345           -46.02         67.7384         -46.0182          67.725       -0.0239192         142.383
0.623                   -3.53777         166.609         -45.8874         65.0247         -45.8856         65.0109       -0.0242179         142.301
0.624                   -3.60422         165.868         -45.7553         62.3039         -45.7535         62.2899       -0.0245213         142.218
0.625                   -3.67193         165.123         -45.6236         59.5762         -45.6219         59.5618       -0.0248296         142.135
0.626                   -3.74095         164.374         -45.4925         56.8414         -45.4908         56.8269       -0.0251429         142.052
0.627                   -3.81133         163.621         -45.3619         54.0999         -45.3604         54.0852       -0.0254612         141.969
0.628                   -3.88314         162.864          -45.232         51.3517         -45.2305         51.3368       -0.0257846         141.885
0.629                   -3.95643         162.102         -45.1028         48.5971         -45.1014         48.5821       -0.0261133         141.801
