! TOUCHSTONE file generated by CST MICROWAVE STUDIO
! Date and time: Fri Oct  2 17:14:18 2020
! Project name: Scenario_1_Free_Space_out_of_line.cst
! Parameters = {Lambda=346.42; Step_1=17.321; dy1=-328.659; dx1=173; L_HA=400; MT=2.54; Rad_Dielectric=30; Rad_Lower=7.3; Rad_Upper=30; a_HA=580; a_WG=246; b_HA=500; b_WG=121; c_HA=0; c_WG=187; d_feed=85; h_feed=15; h_lower=18; h_upper=40}
! Header version: 2018
! Port assignment regex: !\s*Touchstone port\s*([0-9]+)\s*=\s*(CST MWS port|CST DS port)\s*([0-9]+|Zmin|Zmax)\s*\(\"(.*)\"\)(\s*mode\s*([0-9]+))?.*
! Touchstone port assignment:
! Touchstone port 1 = CST MWS port 1 ("")
! Touchstone port 2 = CST MWS port 2 ("")
# GHz S DB R 50
0.5                    -0.146118        -122.463         -63.3993          127.73         -63.3993          127.73      -0.00628033         151.163
0.501                  -0.151964        -122.913         -63.2096         126.187         -63.2085         126.182      -0.00633419         151.097
0.502                  -0.158017        -123.364         -63.0209         124.646         -63.0188         124.636      -0.00638875         151.032
0.503                  -0.164279        -123.817         -62.8332         123.108         -62.8301         123.094      -0.00644403         150.967
0.504                  -0.170754        -124.272         -62.6464         121.571         -62.6424         121.553      -0.00650004         150.901
0.505                  -0.177442        -124.728         -62.4606         120.036         -62.4557         120.014      -0.00655678         150.836
0.506                  -0.184346        -125.187         -62.2757         118.502         -62.2701         118.476      -0.00661426          150.77
0.507                  -0.191469        -125.647         -62.0917         116.969         -62.0854          116.94      -0.00667248         150.704
0.508                  -0.198811        -126.108         -61.9087         115.436         -61.9018         115.404      -0.00673146         150.639
0.509                  -0.206377        -126.572         -61.7267         113.903         -61.7191         113.869      -0.00679121         150.573
0.51                   -0.214168        -127.037         -61.5456          112.37         -61.5375         112.334      -0.00685173         150.507
0.511                  -0.222186        -127.504         -61.3654         110.836         -61.3568         110.798      -0.00691303         150.441
0.512                  -0.230433        -127.972         -61.1861         109.302         -61.1771         109.262      -0.00697512         150.375
0.513                  -0.238912        -128.443         -61.0078         107.767         -60.9984         107.726      -0.00703801         150.309
0.514                  -0.247626        -128.915         -60.8304         106.231         -60.8207         106.188       -0.0071017         150.243
0.515                  -0.256576        -129.389         -60.6539         104.693         -60.6439         104.649      -0.00716622         150.176
0.516                  -0.265766        -129.865         -60.4784         103.154         -60.4681         103.109      -0.00723156          150.11
0.517                  -0.275197        -130.343         -60.3037         101.613         -60.2933         101.567      -0.00729775         150.043
0.518                  -0.284872        -130.822           -60.13          100.07         -60.1194         100.024      -0.00736478         149.977
0.519                  -0.294794        -131.304         -59.9572         98.5254         -59.9464         98.4781      -0.00743267          149.91
0.52                   -0.304965        -131.787         -59.7853         96.9781         -59.7745         96.9304      -0.00750143         149.843
0.521                  -0.315388        -132.272         -59.6144         95.4283         -59.6034         95.3803      -0.00757108         149.777
0.522                  -0.326065        -132.759         -59.4443          93.876         -59.4333         93.8278      -0.00764161          149.71
0.523                  -0.336999        -133.248         -59.2751          92.321         -59.2642         92.2727      -0.00771305         149.643
0.524                  -0.348194        -133.738         -59.1069         90.7631         -59.0959         90.7149       -0.0077854         149.576
0.525                  -0.359651        -134.231         -58.9396         89.2023         -58.9287         89.1543      -0.00785869         149.508
0.526                  -0.371373        -134.725         -58.7731         87.6384         -58.7623         87.5907      -0.00793291         149.441
0.527                  -0.383364        -135.222         -58.6076         86.0715         -58.5969         86.0241      -0.00800809         149.374
0.528                  -0.395626         -135.72          -58.443         84.5014         -58.4324         84.4544      -0.00808423         149.306
0.529                  -0.408162         -136.22         -58.2793         82.9279         -58.2688         82.8815      -0.00816136         149.239
0.53                   -0.420975        -136.722         -58.1165         81.3512         -58.1062         81.3054      -0.00823948         149.171
0.531                  -0.434068        -137.226         -57.9546          79.771         -57.9445         79.7259       -0.0083186         149.103
0.532                  -0.447444        -137.732         -57.7936         78.1875         -57.7837         78.1431      -0.00839875         149.036
0.533                  -0.461107         -138.24         -57.6336         76.6004         -57.6239         76.5568      -0.00847993         148.968
0.534                  -0.475059         -138.75         -57.4744         75.0099         -57.4649         74.9671      -0.00856217           148.9
0.535                  -0.489304        -139.262         -57.3161         73.4159         -57.3069          73.374      -0.00864547         148.831
0.536                  -0.503845        -139.776         -57.1588         71.8183         -57.1498         71.7773      -0.00872985         148.763
0.537                  -0.518686        -140.292         -57.0023         70.2171         -56.9936         70.1772      -0.00881534         148.695
0.538                  -0.533829         -140.81         -56.8468         68.6124         -56.8384         68.5735      -0.00890194         148.627
0.539                  -0.549279         -141.33         -56.6922         67.0042          -56.684         66.9664      -0.00898967         148.558
0.54                   -0.565039        -141.852         -56.5385         65.3925         -56.5306         65.3558      -0.00907856         148.489
0.541                  -0.581112        -142.376         -56.3857         63.7772         -56.3781         63.7416      -0.00916861         148.421
0.542                  -0.597502        -142.902         -56.2338         62.1585         -56.2265         62.1241      -0.00925985         148.352
0.543                  -0.614213         -143.43         -56.0828         60.5363         -56.0758         60.5031      -0.00935229         148.283
0.544                  -0.631249         -143.96         -55.9328         58.9107         -55.9261         58.8787      -0.00944596         148.214
0.545                  -0.648613        -144.493         -55.7836         57.2817         -55.7772          57.251      -0.00954087         148.145
0.546                   -0.66631        -145.027         -55.6354         55.6494         -55.6293         55.6199      -0.00963705         148.075
0.547                  -0.684344        -145.564          -55.488         54.0138         -55.4822         53.9856      -0.00973451         148.006
0.548                  -0.702718        -146.102         -55.3416          52.375         -55.3361         52.3481      -0.00983328         147.936
0.549                  -0.721437        -146.643          -55.196         50.7331         -55.1909         50.7074      -0.00993338         147.867
0.55                   -0.740506        -147.186         -55.0514         49.0881         -55.0465         49.0637       -0.0100348         147.797
0.551                  -0.759928        -147.732         -54.9077           47.44         -54.9031         47.4169       -0.0101376         147.727
0.552                  -0.779709        -148.279         -54.7648         45.7891         -54.7606         45.7672       -0.0102419         147.657
0.553                  -0.799852        -148.829         -54.6229         44.1352         -54.6189         44.1147       -0.0103475         147.587
0.554                  -0.820362         -149.38         -54.4819         42.4786         -54.4781         42.4593       -0.0104546         147.517
0.555                  -0.841245        -149.934         -54.3417         40.8192         -54.3383         40.8012       -0.0105631         147.447
0.556                  -0.862505        -150.491         -54.2024         39.1572         -54.1993         39.1405       -0.0106732         147.376
0.557                  -0.884147        -151.049          -54.064         37.4927         -54.0611         37.4772       -0.0107847         147.306
0.558                  -0.906176         -151.61         -53.9265         35.8258         -53.9238         35.8115       -0.0108979         147.235
0.559                  -0.928597        -152.173         -53.7898         34.1565         -53.7874         34.1434       -0.0110126         147.164
0.56                   -0.951417        -152.738          -53.654         32.4849         -53.6519          32.473       -0.0111289         147.094
0.561                  -0.974639        -153.306         -53.5191         30.8112         -53.5172         30.8005       -0.0112468         147.022
0.562                   -0.99827        -153.876          -53.385         29.1354         -53.3833         29.1258       -0.0113664         146.951
0.563                   -1.02232        -154.448         -53.2518         27.4576         -53.2503         27.4491       -0.0114877          146.88
0.564                   -1.04678        -155.023         -53.1194          25.778         -53.1181         25.7706       -0.0116107         146.809
0.565                   -1.07167          -155.6         -52.9878         24.0966         -52.9867         24.0902       -0.0117355         146.737
0.566                     -1.097         -156.18          -52.857         22.4134         -52.8561         22.4081       -0.0118621         146.665
0.567                   -1.12276        -156.762         -52.7271         20.7287         -52.7263         20.7243       -0.0119904         146.594
0.568                   -1.14897        -157.346         -52.5979         19.0425         -52.5973         19.0391       -0.0121207         146.522
0.569                   -1.17563        -157.932         -52.4696         17.3549         -52.4691         17.3524       -0.0122528         146.449
0.57                    -1.20275        -158.522          -52.342         15.6659         -52.3417         15.6643       -0.0123869         146.377
0.571                   -1.23033        -159.113         -52.2152         13.9758          -52.215          13.975        -0.012523         146.305
0.572                   -1.25839        -159.707         -52.0891         12.2845         -52.0891         12.2845        -0.012661         146.232
0.573                   -1.28692        -160.304         -51.9638         10.5921          -51.964         10.5929       -0.0128011          146.16
0.574                   -1.31595        -160.903         -51.8393         8.89879         -51.8395         8.90026       -0.0129433         146.087
0.575                   -1.34547        -161.504         -51.7155         7.20459         -51.7158         7.20673       -0.0130876         146.014
0.576                   -1.37549        -162.108         -51.5923         5.50959         -51.5928         5.51236       -0.0132341         145.941
0.577                   -1.40602        -162.715         -51.4699         3.81387         -51.4704         3.81722       -0.0133828         145.868
0.578                   -1.43706        -163.324         -51.3482          2.1175         -51.3488         2.12139       -0.0135337         145.794
0.579                   -1.46864        -163.936         -51.2272        0.420549         -51.2278        0.424934       -0.0136869         145.721
0.58                    -1.50075         -164.55         -51.1068        -1.27691         -51.1075        -1.27207       -0.0138425         145.647
0.581                   -1.53341        -165.167         -50.9871        -2.97481         -50.9879        -2.96957       -0.0140004         145.573
0.582                   -1.56662        -165.787          -50.868         -4.6731         -50.8688        -4.66749       -0.0141608         145.499
0.583                   -1.60039        -166.409         -50.7496         -6.3717         -50.7504        -6.36578       -0.0143237         145.425
0.584                   -1.63474        -167.034         -50.6318        -8.07058         -50.6326        -8.06438       -0.0144891         145.351
0.585                   -1.66966        -167.661         -50.5145        -9.76967         -50.5154        -9.76325       -0.0146571         145.276
0.586                   -1.70518        -168.291         -50.3979        -11.4689         -50.3988        -11.4623       -0.0148277         145.202
0.587                    -1.7413        -168.924         -50.2819        -13.1683         -50.2828        -13.1616       -0.0150011         145.127
0.588                   -1.77804         -169.56         -50.1664        -14.8678         -50.1673        -14.8609       -0.0151771         145.052
0.589                   -1.81539        -170.198         -50.0514        -16.5673         -50.0523        -16.5604        -0.015356         144.977
0.59                    -1.85339        -170.839          -49.937        -18.2668         -49.9379        -18.2599       -0.0155377         144.901
0.591                   -1.89203        -171.483         -49.8232        -19.9664          -49.824        -19.9594       -0.0157223         144.826
0.592                   -1.93132        -172.129         -49.7098        -21.6659         -49.7107         -21.659       -0.0159099          144.75
0.593                   -1.97129        -172.778          -49.597        -23.3653         -49.5978        -23.3585       -0.0161005         144.674
0.594                   -2.01194         -173.43         -49.4846        -25.0646         -49.4854         -25.058       -0.0162942         144.598
0.595                   -2.05328        -174.085         -49.3727        -26.7639         -49.3735        -26.7574       -0.0164911         144.522
0.596                   -2.09533        -174.742         -49.2613         -28.463          -49.262        -28.4567       -0.0166911         144.446
0.597                    -2.1381        -175.402         -49.1503        -30.1621          -49.151         -30.156       -0.0168944         144.369
0.598                   -2.18161        -176.065         -49.0398         -31.861         -49.0405        -31.8552       -0.0171011         144.293
0.599                   -2.22587        -176.731         -48.9297        -33.5599         -48.9304        -33.5543       -0.0173112         144.216
0.6                     -2.27088        -177.399         -48.8201        -35.2586         -48.8207        -35.2534       -0.0175247         144.139
0.601                   -2.31668        -178.071         -48.7109        -36.9572         -48.7114        -36.9523       -0.0177418         144.061
0.602                   -2.36327        -178.745          -48.602        -38.6557         -48.6025        -38.6512       -0.0179625         143.984
0.603                   -2.41066        -179.422         -48.4936        -40.3542         -48.4941        -40.3501       -0.0181868         143.906
0.604                   -2.45888         179.899         -48.3856        -42.0526          -48.386        -42.0489       -0.0184149         143.828
0.605                   -2.50794         179.216         -48.2779         -43.751         -48.2783        -43.7476       -0.0186468          143.75
0.606                   -2.55785         178.531         -48.1706        -45.4493         -48.1709        -45.4464       -0.0188826         143.672
0.607                   -2.60864         177.843         -48.0637        -47.1476          -48.064        -47.1452       -0.0191223         143.593
0.608                   -2.66032         177.152         -47.9572         -48.846         -47.9574         -48.844       -0.0193661         143.515
0.609                   -2.71291         176.459          -47.851        -50.5444         -47.8511        -50.5429       -0.0196139         143.436
0.61                    -2.76643         175.763         -47.7452        -52.2429         -47.7452        -52.2419       -0.0198659         143.357
0.611                   -2.82089         175.064         -47.6397        -53.9416         -47.6397        -53.9411       -0.0201222         143.278
0.612                   -2.87632         174.362         -47.5345        -55.6403         -47.5345        -55.6403       -0.0203828         143.198
0.613                   -2.93273         173.658         -47.4297        -57.3393         -47.4297        -57.3398       -0.0206477         143.118
0.614                   -2.99015         172.951         -47.3252        -59.0385         -47.3251        -59.0395       -0.0209172         143.038
0.615                   -3.04859         172.241         -47.2211         -60.738          -47.221        -60.7395       -0.0211911         142.958
0.616                   -3.10808         171.529         -47.1173        -62.4377         -47.1171        -62.4397       -0.0214697         142.878
0.617                   -3.16865         170.814         -47.0138        -64.1378         -47.0136        -64.1403        -0.021753         142.797
0.618                    -3.2303         170.097         -46.9107        -65.8382         -46.9104        -65.8413        -0.022041         142.716
0.619                   -3.29306         169.377         -46.8079        -67.5391         -46.8076        -67.5426       -0.0223338         142.635
0.62                    -3.35697         168.655         -46.7054        -69.2404         -46.7051        -69.2444       -0.0226316         142.554
0.621                   -3.42203          167.93         -46.6032        -70.9422         -46.6029        -70.9467       -0.0229343         142.472
0.622                   -3.48828         167.203         -46.5014        -72.6446          -46.501        -72.6495        -0.023242         142.391
0.623                   -3.55574         166.474            -46.4        -74.3475         -46.3996        -74.3528       -0.0235549         142.309
0.624                   -3.62443         165.742         -46.2988        -76.0509         -46.2984        -76.0568       -0.0238729         142.226
0.625                   -3.69439         165.008          -46.198        -77.7551         -46.1976        -77.7613       -0.0241962         142.144
0.626                   -3.76563         164.272         -46.0976        -79.4599         -46.0971        -79.4665       -0.0245248         142.061
0.627                   -3.83819         163.534         -45.9975        -81.1654          -45.997        -81.1724       -0.0248588         141.978
0.628                    -3.9121         162.794         -45.8978        -82.8716         -45.8973         -82.879       -0.0251981         141.895
0.629                   -3.98737         162.052         -45.7985        -84.5786         -45.7979        -84.5863        -0.025543         141.811
