! TOUCHSTONE file generated by CST MICROWAVE STUDIO
! Date and time: Fri Oct  2 16:18:26 2020
! Project name: Scenario_1_Free_Space_out_of_line.cst
! Parameters = {Lambda=346.42; Step_1=17.321; dy1=-328.659; dx1=346; L_HA=400; MT=2.54; Rad_Dielectric=30; Rad_Lower=7.3; Rad_Upper=30; a_HA=580; a_WG=246; b_HA=500; b_WG=121; c_HA=0; c_WG=187; d_feed=85; h_feed=15; h_lower=18; h_upper=40}
! Header version: 2018
! Port assignment regex: !\s*Touchstone port\s*([0-9]+)\s*=\s*(CST MWS port|CST DS port)\s*([0-9]+|Zmin|Zmax)\s*\(\"(.*)\"\)(\s*mode\s*([0-9]+))?.*
! Touchstone port assignment:
! Touchstone port 1 = CST MWS port 1 ("")
! Touchstone port 2 = CST MWS port 2 ("")
# GHz S DB R 50
0.5                    -0.150249        -122.677         -63.0221          46.524         -63.0221          46.524      -0.00681468         151.129
0.501                  -0.155957        -123.112         -63.0048          44.757         -63.0048         44.7571      -0.00688252         151.064
0.502                  -0.161837         -123.55         -62.9835         42.9661         -62.9835         42.9664      -0.00695114         150.998
0.503                   -0.16789         -123.99         -62.9578          41.152         -62.9578         41.1525      -0.00702052         150.933
0.504                   -0.17412        -124.431         -62.9277         39.3156         -62.9277         39.3162      -0.00709069         150.867
0.505                  -0.180529        -124.875         -62.8929         37.4578          -62.893         37.4585      -0.00716164         150.801
0.506                   -0.18712        -125.321         -62.8535         35.5795         -62.8535         35.5803      -0.00723338         150.736
0.507                  -0.193895        -125.769         -62.8091         33.6819         -62.8091         33.6828      -0.00730591          150.67
0.508                  -0.200858        -126.218         -62.7597          31.766         -62.7597         31.7671      -0.00737924         150.604
0.509                   -0.20801         -126.67         -62.7051         29.8333         -62.7051         29.8345      -0.00745337         150.538
0.51                   -0.215354        -127.124         -62.6453         27.8848         -62.6453         27.8861      -0.00752831         150.472
0.511                  -0.222894         -127.58         -62.5801         25.9221         -62.5801         25.9235      -0.00760407         150.406
0.512                  -0.230633        -128.038         -62.5095         23.9465         -62.5095          23.948      -0.00768064         150.339
0.513                  -0.238573        -128.499         -62.4334         21.9594         -62.4334          21.961      -0.00775805         150.273
0.514                  -0.246717        -128.961         -62.3517         19.9624         -62.3518         19.9641      -0.00783628         150.207
0.515                  -0.255069        -129.425         -62.2645         17.9569         -62.2646         17.9587      -0.00791535          150.14
0.516                  -0.263631        -129.892         -62.1717         15.9444         -62.1718         15.9463      -0.00799527         150.074
0.517                  -0.272407        -130.361         -62.0734         13.9265         -62.0735         13.9285      -0.00807604         150.007
0.518                    -0.2814        -130.832         -61.9695         11.9047         -61.9696         11.9067      -0.00815766          149.94
0.519                  -0.290614        -131.305         -61.8602         9.88034         -61.8603         9.88243      -0.00824014         149.874
0.52                   -0.300051        -131.781         -61.7454         7.85492         -61.7455         7.85707       -0.0083235         149.807
0.521                  -0.309716        -132.258         -61.6253         5.82982         -61.6254         5.83201      -0.00840773          149.74
0.522                  -0.319612        -132.738         -61.4999         3.80635         -61.5001         3.80858      -0.00849284         149.673
0.523                  -0.329741         -133.22         -61.3694         1.78578         -61.3696         1.78804      -0.00857884         149.605
0.524                   -0.34011        -133.705         -61.2339       -0.230705         -61.2341       -0.228412      -0.00866574         149.538
0.525                  -0.350719        -134.192         -61.0935        -2.24199         -61.0937        -2.23968      -0.00875355         149.471
0.526                  -0.361575        -134.681         -60.9483        -4.24706         -60.9485        -4.24473      -0.00884226         149.403
0.527                   -0.37268        -135.172         -60.7986        -6.24497         -60.7988        -6.24263       -0.0089319         149.336
0.528                  -0.384039        -135.666         -60.6445        -8.23487         -60.6447        -8.23252      -0.00902246         149.268
0.529                  -0.395655        -136.161         -60.4861         -10.216         -60.4863        -10.2137      -0.00911396         149.201
0.53                   -0.407534         -136.66         -60.3236        -12.1877         -60.3239        -12.1854       -0.0092064         149.133
0.531                  -0.419678        -137.161         -60.1573        -14.1495         -60.1576        -14.1471       -0.0092998         149.065
0.532                  -0.432093        -137.664         -59.9873        -16.1007         -59.9875        -16.0984      -0.00939415         148.997
0.533                  -0.444782        -138.169         -59.8137        -18.0412         -59.8139        -18.0389      -0.00948947         148.929
0.534                  -0.457751        -138.677         -59.6368        -19.9705          -59.637        -19.9682      -0.00958578         148.861
0.535                  -0.471003        -139.187         -59.4567        -21.8884          -59.457        -21.8861      -0.00968307         148.792
0.536                  -0.484544          -139.7         -59.2737        -23.7949          -59.274        -23.7926      -0.00978135         148.724
0.537                  -0.498379        -140.216         -59.0879        -25.6898         -59.0881        -25.6876      -0.00988064         148.655
0.538                  -0.512512        -140.733         -58.8994        -27.5732         -58.8997        -27.5711      -0.00998095         148.587
0.539                  -0.526948        -141.253         -58.7086        -29.4453         -58.7088        -29.4431       -0.0100823         148.518
0.54                   -0.541692        -141.776         -58.5154         -31.306         -58.5157        -31.3039       -0.0101847         148.449
0.541                  -0.556751        -142.301         -58.3202        -33.1557         -58.3205        -33.1536       -0.0102881          148.38
0.542                  -0.572128        -142.829          -58.123        -34.9946         -58.1233        -34.9925       -0.0103925         148.311
0.543                   -0.58783         -143.36         -57.9241         -36.823         -57.9244         -36.821       -0.0104981         148.242
0.544                  -0.603861        -143.892         -57.7235        -38.6413         -57.7238        -38.6393       -0.0106047         148.173
0.545                  -0.620228        -144.428         -57.5214        -40.4498         -57.5217        -40.4479       -0.0107124         148.104
0.546                  -0.636937        -144.966          -57.318        -42.2491         -57.3183        -42.2472       -0.0108212         148.034
0.547                  -0.653993        -145.507         -57.1134        -44.0395         -57.1137        -44.0376       -0.0109312         147.965
0.548                  -0.671403         -146.05         -56.9078        -45.8215          -56.908        -45.8197       -0.0110422         147.895
0.549                  -0.689172        -146.596         -56.7011        -47.5957         -56.7014        -47.5939       -0.0111544         147.825
0.55                   -0.707307        -147.145         -56.4937        -49.3625         -56.4939        -49.3608       -0.0112677         147.755
0.551                  -0.725814        -147.696         -56.2855        -51.1225         -56.2857        -51.1209       -0.0113823         147.685
0.552                  -0.744701         -148.25         -56.0767        -52.8764         -56.0769        -52.8747       -0.0114979         147.615
0.553                  -0.763973        -148.806         -55.8674        -54.6245         -55.8677        -54.6229       -0.0116148         147.545
0.554                  -0.783638        -149.366         -55.6578        -56.3676          -55.658         -56.366       -0.0117329         147.475
0.555                  -0.803702        -149.928         -55.4478        -58.1061          -55.448        -58.1046       -0.0118522         147.404
0.556                  -0.824173        -150.492         -55.2376        -59.8407         -55.2378        -59.8392       -0.0119728         147.334
0.557                  -0.845057         -151.06         -55.0274        -61.5719         -55.0276        -61.5705       -0.0120945         147.263
0.558                  -0.866364         -151.63         -54.8171        -63.3004         -54.8173         -63.299       -0.0122176         147.192
0.559                  -0.888099        -152.203         -54.6069        -65.0266         -54.6071        -65.0252       -0.0123419         147.121
0.56                   -0.910271        -152.779         -54.3968        -66.7511          -54.397        -66.7498       -0.0124676          147.05
0.561                  -0.932888        -153.358          -54.187        -68.4746         -54.1871        -68.4733       -0.0125945         146.979
0.562                  -0.955958        -153.939         -53.9775        -70.1974         -53.9776        -70.1962       -0.0127228         146.907
0.563                  -0.979489        -154.523         -53.7683        -71.9203         -53.7685        -71.9191       -0.0128524         146.836
0.564                   -1.00349         -155.11         -53.5596        -73.6437         -53.5598        -73.6426       -0.0129834         146.764
0.565                   -1.02797          -155.7         -53.3515        -75.3681         -53.3516         -75.367       -0.0131158         146.693
0.566                   -1.05293        -156.293         -53.1439         -77.094          -53.144         -77.093       -0.0132496         146.621
0.567                    -1.0784        -156.888         -52.9371         -78.822         -52.9372        -78.8209       -0.0133848         146.549
0.568                   -1.10436        -157.486         -52.7309        -80.5524          -52.731        -80.5514       -0.0135215         146.476
0.569                   -1.13084        -158.088         -52.5256        -82.2857         -52.5257        -82.2848       -0.0136596         146.404
0.57                    -1.15785        -158.692         -52.3211        -84.0224         -52.3212        -84.0215       -0.0137992         146.332
0.571                   -1.18539        -159.299         -52.1176        -85.7629         -52.1177         -85.762       -0.0139403         146.259
0.572                   -1.21347        -159.908         -51.9151        -87.5075         -51.9152        -87.5067       -0.0140829         146.186
0.573                    -1.2421        -160.521         -51.7137        -89.2567         -51.7137        -89.2559       -0.0142271         146.114
0.574                    -1.2713        -161.137         -51.5134        -91.0107         -51.5134          -91.01       -0.0143729         146.041
0.575                   -1.30107        -161.755         -51.3143          -92.77         -51.3143        -92.7693       -0.0145202         145.967
0.576                   -1.33143        -162.376         -51.1164        -94.5348         -51.1164        -94.5341       -0.0146692         145.894
0.577                   -1.36238            -163         -50.9199        -96.3054         -50.9199        -96.3048       -0.0148198         145.821
0.578                   -1.39394        -163.627         -50.7248         -98.082         -50.7248        -98.0815       -0.0149721         145.747
0.579                   -1.42612        -164.257         -50.5311        -99.8649         -50.5311        -99.8644       -0.0151261         145.673
0.58                    -1.45892         -164.89          -50.339        -101.654         -50.3389        -101.654       -0.0152818         145.599
0.581                   -1.49237        -165.526         -50.1484         -103.45         -50.1483         -103.45       -0.0154393         145.525
0.582                   -1.52647        -166.164         -49.9594        -105.253         -49.9593        -105.253       -0.0155985         145.451
0.583                   -1.56123        -166.805         -49.7721        -107.063         -49.7721        -107.063       -0.0157595         145.377
0.584                   -1.59667         -167.45         -49.5866         -108.88         -49.5865         -108.88       -0.0159224         145.302
0.585                    -1.6328        -168.097         -49.4029        -110.704         -49.4028        -110.704       -0.0160872         145.227
0.586                   -1.66963        -168.746          -49.221        -112.535          -49.221        -112.535       -0.0162539         145.152
0.587                   -1.70718        -169.399         -49.0411        -114.373          -49.041        -114.373       -0.0164225         145.077
0.588                   -1.74545        -170.054         -48.8631        -116.219          -48.863        -116.219        -0.016593         145.002
0.589                   -1.78446        -170.713         -48.6872        -118.071         -48.6871        -118.071       -0.0167656         144.927
0.59                    -1.82423        -171.373         -48.5133        -119.931         -48.5132        -119.931       -0.0169402         144.851
0.591                   -1.86476        -172.037         -48.3416        -121.797         -48.3415        -121.797       -0.0171169         144.775
0.592                   -1.90608        -172.704          -48.172         -123.67         -48.1719         -123.67       -0.0172957         144.699
0.593                   -1.94819        -173.373         -48.0046         -125.55         -48.0045         -125.55       -0.0174766         144.623
0.594                   -1.99111        -174.044         -47.8395        -127.436         -47.8394        -127.436       -0.0176597         144.547
0.595                   -2.03485        -174.719         -47.6767        -129.328         -47.6765        -129.329       -0.0178451          144.47
0.596                   -2.07943        -175.396         -47.5162        -131.227          -47.516        -131.227       -0.0180327         144.394
0.597                   -2.12487        -176.075          -47.358        -133.131         -47.3579        -133.131       -0.0182227         144.317
0.598                   -2.17117        -176.757         -47.2022         -135.04         -47.2021        -135.041        -0.018415          144.24
0.599                   -2.21835        -177.442         -47.0489        -136.955         -47.0487        -136.955       -0.0186097         144.162
0.6                     -2.26644        -178.129         -46.8979        -138.874         -46.8977        -138.875       -0.0188069         144.085
0.601                   -2.31543        -178.818         -46.7494        -140.798         -46.7492        -140.799       -0.0190066         144.007
0.602                   -2.36536         -179.51         -46.6034        -142.726         -46.6032        -142.727       -0.0192088         143.929
0.603                   -2.41623         179.795         -46.4598        -144.658         -46.4596        -144.659       -0.0194136         143.851
0.604                   -2.46806         179.099         -46.3186        -146.593         -46.3184        -146.594       -0.0196211         143.773
0.605                   -2.52086           178.4           -46.18        -148.531         -46.1798        -148.532       -0.0198313         143.695
0.606                   -2.57466         177.699         -46.0437        -150.472         -46.0435        -150.473       -0.0200443         143.616
0.607                   -2.62947         176.996           -45.91        -152.415         -45.9098        -152.416       -0.0202601         143.537
0.608                    -2.6853         176.291         -45.7787         -154.36         -45.7785         -154.36       -0.0204787         143.458
0.609                   -2.74217         175.584         -45.6497        -156.306         -45.6495        -156.306       -0.0207004         143.378
0.61                     -2.8001         174.875         -45.5232        -158.253          -45.523        -158.253        -0.020925         143.299
0.611                   -2.85911         174.164         -45.3991          -160.2         -45.3989        -160.201       -0.0211527         143.219
0.612                    -2.9192         173.452         -45.2772        -162.148         -45.2771        -162.149       -0.0213836         143.139
0.613                   -2.98041         172.737         -45.1577        -164.095         -45.1575        -164.096       -0.0216177         143.059
0.614                   -3.04274         172.021         -45.0405        -166.042         -45.0403        -166.043       -0.0218551         142.978
0.615                   -3.10621         171.303         -44.9254        -167.988         -44.9252        -167.989       -0.0220959         142.898
0.616                   -3.17084         170.584         -44.8125        -169.932         -44.8124        -169.933       -0.0223401         142.817
0.617                   -3.23665         169.864         -44.7018        -171.875         -44.7016        -171.876       -0.0225878         142.735
0.618                   -3.30365         169.142         -44.5931        -173.816         -44.5929        -173.817       -0.0228391         142.654
0.619                   -3.37186         168.419         -44.4864        -175.754         -44.4862        -175.755       -0.0230942         142.572
0.62                    -3.44129         167.695         -44.3817        -177.689         -44.3815         -177.69        -0.023353          142.49
0.621                   -3.51198          166.97         -44.2788        -179.622         -44.2786        -179.623       -0.0236156         142.408
0.622                   -3.58392         166.245         -44.1778         178.449         -44.1776         178.448       -0.0238823         142.326
0.623                   -3.65714         165.518         -44.0785         176.523         -44.0783         176.522        -0.024153         142.243
0.624                   -3.73166         164.791         -43.9809         174.601         -43.9807           174.6       -0.0244279          142.16
0.625                    -3.8075         164.063         -43.8849         172.683         -43.8848         172.682        -0.024707         142.077
0.626                   -3.88466         163.335         -43.7905         170.769         -43.7904         170.768       -0.0249906         141.993
0.627                   -3.96317         162.606         -43.6976          168.86         -43.6974         168.859       -0.0252786         141.909
0.628                   -4.04305         161.878          -43.606         166.955         -43.6059         166.954       -0.0255712         141.825
0.629                    -4.1243         161.149         -43.5158         165.055         -43.5157         165.053       -0.0258685         141.741
