! TOUCHSTONE file generated by CST MICROWAVE STUDIO
! Date and time: Fri Oct  2 16:34:09 2020
! Project name: Scenario_1_Free_Space_out_of_line.cst
! Parameters = {Lambda=346.42; Step_1=17.321; dy1=-328.659; dx1=520; L_HA=400; MT=2.54; Rad_Dielectric=30; Rad_Lower=7.3; Rad_Upper=30; a_HA=580; a_WG=246; b_HA=500; b_WG=121; c_HA=0; c_WG=187; d_feed=85; h_feed=15; h_lower=18; h_upper=40}
! Header version: 2018
! Port assignment regex: !\s*Touchstone port\s*([0-9]+)\s*=\s*(CST MWS port|CST DS port)\s*([0-9]+|Zmin|Zmax)\s*\(\"(.*)\"\)(\s*mode\s*([0-9]+))?.*
! Touchstone port assignment:
! Touchstone port 1 = CST MWS port 1 ("")
! Touchstone port 2 = CST MWS port 2 ("")
# GHz S DB R 50
0.5                    -0.147379        -122.621         -63.9422        -46.6545         -63.9422        -46.6545      -0.00655183         151.149
0.501                  -0.150869        -123.056         -63.7488        -48.4252         -63.7488        -48.4252      -0.00660113         151.084
0.502                   -0.15469        -123.495         -63.5553         -50.199         -63.5553         -50.199      -0.00665158         151.018
0.503                  -0.158843        -123.937         -63.3616        -51.9763         -63.3616        -51.9763      -0.00670317         150.953
0.504                  -0.163328        -124.382         -63.1678        -53.7572         -63.1678        -53.7572      -0.00675593         150.887
0.505                  -0.168146        -124.829         -62.9738        -55.5421         -62.9738        -55.5421      -0.00680987         150.822
0.506                  -0.173296        -125.279         -62.7799        -57.3311         -62.7799        -57.3311      -0.00686498         150.756
0.507                  -0.178778        -125.732         -62.5858        -59.1245         -62.5858        -59.1245      -0.00692128          150.69
0.508                  -0.184595        -126.187         -62.3918        -60.9224         -62.3918        -60.9224      -0.00697877         150.624
0.509                  -0.190745        -126.646         -62.1977        -62.7252         -62.1977        -62.7252      -0.00703748         150.558
0.51                   -0.197229        -127.106         -62.0038        -64.5328         -62.0038        -64.5329       -0.0070974         150.492
0.511                  -0.204049         -127.57         -61.8099        -66.3457         -61.8099        -66.3457      -0.00715855         150.426
0.512                  -0.211203        -128.036         -61.6161        -68.1639         -61.6161        -68.1639      -0.00722093          150.36
0.513                  -0.218693        -128.504         -61.4225        -69.9876         -61.4225        -69.9876      -0.00728456         150.293
0.514                   -0.22652        -128.975          -61.229        -71.8171          -61.229        -71.8171      -0.00734944         150.227
0.515                  -0.234683        -129.449         -61.0358        -73.6523         -61.0358        -73.6523      -0.00741559         150.161
0.516                  -0.243183        -129.924         -60.8427        -75.4936         -60.8427        -75.4936      -0.00748301         150.094
0.517                   -0.25202        -130.403           -60.65        -77.3409           -60.65        -77.3409      -0.00755172         150.027
0.518                  -0.261196        -130.883         -60.4575        -79.1946         -60.4575        -79.1946      -0.00762172         149.961
0.519                   -0.27071        -131.366         -60.2654        -81.0546         -60.2654        -81.0546      -0.00769302         149.894
0.52                   -0.280563        -131.852         -60.0736        -82.9211         -60.0736        -82.9211      -0.00776564         149.827
0.521                  -0.290755        -132.339         -59.8822        -84.7942         -59.8822        -84.7942      -0.00783958          149.76
0.522                  -0.301287        -132.829         -59.6913         -86.674         -59.6913         -86.674      -0.00791485         149.693
0.523                  -0.312158        -133.321         -59.5007        -88.5605         -59.5007        -88.5605      -0.00799147         149.626
0.524                  -0.323371        -133.815         -59.3107        -90.4538         -59.3107        -90.4538      -0.00806944         149.558
0.525                  -0.334924        -134.312         -59.1212        -92.3541         -59.1212        -92.3541      -0.00814878         149.491
0.526                  -0.346818        -134.811         -58.9322        -94.2612         -58.9322        -94.2612      -0.00822949         149.424
0.527                  -0.359054        -135.312         -58.7438        -96.1753         -58.7438        -96.1753      -0.00831159         149.356
0.528                  -0.371631        -135.815          -58.556        -98.0964          -58.556        -98.0964      -0.00839508         149.288
0.529                  -0.384551         -136.32         -58.3688        -100.024         -58.3688        -100.024      -0.00847998         149.221
0.53                   -0.397813        -136.827         -58.1823         -101.96         -58.1823         -101.96       -0.0085663         149.153
0.531                  -0.411418        -137.336         -57.9965        -103.902         -57.9965        -103.902      -0.00865405         149.085
0.532                  -0.425365        -137.847         -57.8114        -105.851         -57.8114        -105.851      -0.00874324         149.017
0.533                  -0.439657        -138.361          -57.627        -107.806          -57.627        -107.806      -0.00883388         148.949
0.534                  -0.454291        -138.876         -57.4435        -109.769         -57.4435        -109.769      -0.00892598          148.88
0.535                   -0.46927        -139.394         -57.2607        -111.739         -57.2607        -111.739      -0.00901956         148.812
0.536                  -0.484593        -139.913         -57.0788        -113.715         -57.0788        -113.715      -0.00911462         148.744
0.537                  -0.500261        -140.435         -56.8977        -115.698         -56.8977        -115.698      -0.00921118         148.675
0.538                  -0.516273        -140.958         -56.7176        -117.687         -56.7176        -117.687      -0.00930924         148.606
0.539                  -0.532631        -141.483         -56.5383        -119.683         -56.5383        -119.683      -0.00940883         148.538
0.54                   -0.549334        -142.011           -56.36        -121.686           -56.36        -121.686      -0.00950994         148.469
0.541                  -0.566383         -142.54         -56.1826        -123.694         -56.1826        -123.694       -0.0096126           148.4
0.542                  -0.583778        -143.071         -56.0063        -125.708         -56.0063        -125.708      -0.00971682         148.331
0.543                   -0.60152        -143.604         -55.8309        -127.729         -55.8309        -127.729       -0.0098226         148.262
0.544                  -0.619609         -144.14         -55.6565        -129.755         -55.6565        -129.755      -0.00992996         148.192
0.545                  -0.638046        -144.677         -55.4832        -131.787         -55.4832        -131.787       -0.0100389         148.123
0.546                  -0.656832        -145.216          -55.311        -133.824          -55.311        -133.824       -0.0101495         148.054
0.547                  -0.675966        -145.757         -55.1398        -135.866         -55.1398        -135.866       -0.0102617         147.984
0.548                   -0.69545          -146.3         -54.9697        -137.914         -54.9697        -137.914       -0.0103755         147.914
0.549                  -0.715283        -146.845         -54.8007        -139.966         -54.8007        -139.966       -0.0104909         147.844
0.55                   -0.735468        -147.391         -54.6328        -142.023         -54.6328        -142.023        -0.010608         147.774
0.551                  -0.756005         -147.94         -54.4661        -144.084         -54.4661        -144.084       -0.0107268         147.704
0.552                  -0.776895        -148.491         -54.3004        -146.149         -54.3004        -146.149       -0.0108472         147.634
0.553                  -0.798139        -149.044         -54.1359        -148.219         -54.1359        -148.219       -0.0109694         147.564
0.554                  -0.819737        -149.598         -53.9726        -150.292         -53.9726        -150.292       -0.0110933         147.493
0.555                  -0.841692        -150.155         -53.8104        -152.369         -53.8104        -152.369       -0.0112188         147.423
0.556                  -0.864005        -150.714         -53.6493         -154.45         -53.6493         -154.45       -0.0113462         147.352
0.557                  -0.886677        -151.274         -53.4894        -156.533         -53.4894        -156.533       -0.0114752         147.281
0.558                  -0.909709        -151.837         -53.3306        -158.619         -53.3306        -158.619       -0.0116061          147.21
0.559                  -0.933104        -152.402         -53.1729        -160.708         -53.1729        -160.708       -0.0117387         147.139
0.56                   -0.956863        -152.968         -53.0164        -162.799         -53.0164        -162.799       -0.0118731         147.068
0.561                  -0.980989        -153.537          -52.861        -164.893          -52.861        -164.893       -0.0120093         146.997
0.562                   -1.00548        -154.108         -52.7068        -166.989         -52.7068        -166.989       -0.0121473         146.926
0.563                   -1.03035        -154.681         -52.5536        -169.086         -52.5536        -169.086       -0.0122872         146.854
0.564                   -1.05559        -155.257         -52.4015        -171.185         -52.4015        -171.185       -0.0124289         146.782
0.565                    -1.0812        -155.834         -52.2505        -173.286         -52.2505        -173.286       -0.0125725         146.711
0.566                    -1.1072        -156.414         -52.1006        -175.387         -52.1006        -175.387        -0.012718         146.639
0.567                   -1.13358        -156.995         -51.9517         -177.49         -51.9517         -177.49       -0.0128654         146.567
0.568                   -1.16034        -157.579         -51.8038        -179.593         -51.8038        -179.593       -0.0130147         146.494
0.569                    -1.1875        -158.166          -51.657         178.303          -51.657         178.303       -0.0131659         146.422
0.57                    -1.21505        -158.754         -51.5111         176.198         -51.5111         176.198       -0.0133191         146.349
0.571                   -1.24299        -159.345         -51.3663         174.093         -51.3663         174.093       -0.0134742         146.277
0.572                   -1.27134        -159.939         -51.2223         171.988         -51.2223         171.988       -0.0136314         146.204
0.573                    -1.3001        -160.534         -51.0794         169.883         -51.0794         169.883       -0.0137905         146.131
0.574                   -1.32927        -161.132         -50.9373         167.778         -50.9373         167.778       -0.0139516         146.058
0.575                   -1.35886        -161.733         -50.7961         165.673         -50.7961         165.673       -0.0141148         145.985
0.576                   -1.38887        -162.336         -50.6557         163.569         -50.6557         163.569         -0.01428         145.912
0.577                   -1.41931        -162.942         -50.5162         161.465         -50.5162         161.465       -0.0144473         145.838
0.578                   -1.45019         -163.55         -50.3776         159.362         -50.3776         159.362       -0.0146167         145.764
0.579                   -1.48152        -164.161         -50.2397         157.259         -50.2397         157.259       -0.0147881         145.691
0.58                    -1.51329        -164.775         -50.1025         155.157         -50.1025         155.157       -0.0149618         145.617
0.581                   -1.54553        -165.391         -49.9661         153.056         -49.9661         153.056       -0.0151375         145.542
0.582                   -1.57823         -166.01         -49.8304         150.956         -49.8304         150.956       -0.0153154         145.468
0.583                   -1.61141        -166.632         -49.6954         148.856         -49.6954         148.856       -0.0154955         145.394
0.584                   -1.64508        -167.257         -49.5611         146.758         -49.5611         146.758       -0.0156779         145.319
0.585                   -1.67924        -167.884         -49.4274          144.66         -49.4274          144.66       -0.0158624         145.244
0.586                   -1.71391        -168.515         -49.2943         142.564         -49.2943         142.564       -0.0160492         145.169
0.587                   -1.74909        -169.148         -49.1618         140.468         -49.1618         140.468       -0.0162383         145.094
0.588                   -1.78481        -169.785         -49.0298         138.373         -49.0298         138.373       -0.0164297         145.019
0.589                   -1.82106        -170.424         -48.8984          136.28         -48.8984          136.28       -0.0166234         144.944
0.59                    -1.85787        -171.067         -48.7676         134.187         -48.7676         134.187       -0.0168194         144.868
0.591                   -1.89524        -171.713         -48.6372         132.095         -48.6372         132.095       -0.0170178         144.792
0.592                   -1.93319        -172.362         -48.5073         130.004         -48.5073         130.004       -0.0172187         144.716
0.593                   -1.97174        -173.015         -48.3779         127.914         -48.3779         127.914        -0.017422          144.64
0.594                    -2.0109        -173.671         -48.2489         125.824         -48.2489         125.824       -0.0176277         144.564
0.595                   -2.05069         -174.33         -48.1204         123.735         -48.1204         123.735       -0.0178359         144.487
0.596                   -2.09112        -174.992         -47.9923         121.647         -47.9923         121.647       -0.0180467         144.411
0.597                   -2.13221        -175.658         -47.8646          119.56         -47.8646          119.56         -0.01826         144.334
0.598                   -2.17397        -176.328         -47.7372         117.473         -47.7372         117.473        -0.018476         144.257
0.599                   -2.21644        -177.001         -47.6102         115.386         -47.6102         115.386       -0.0186946          144.18
0.6                     -2.25963        -177.678         -47.4836           113.3         -47.4836           113.3       -0.0189159         144.102
0.601                   -2.30355        -178.358         -47.3574         111.214         -47.3574         111.214       -0.0191399         144.025
0.602                   -2.34824        -179.042         -47.2314         109.128         -47.2314         109.128       -0.0193668         143.947
0.603                   -2.39371         -179.73         -47.1059         107.042         -47.1059         107.042       -0.0195965         143.869
0.604                   -2.43999         179.579         -46.9806         104.957         -46.9806         104.957       -0.0198291          143.79
0.605                    -2.4871         178.884         -46.8557         102.871         -46.8557         102.871       -0.0200648         143.712
0.606                   -2.53506         178.185          -46.731         100.785          -46.731         100.785       -0.0203035         143.633
0.607                   -2.58391         177.482         -46.6067         98.6983         -46.6067         98.6983       -0.0205453         143.554
0.608                   -2.63367         176.776         -46.4827         96.6115         -46.4827         96.6115       -0.0207904         143.475
0.609                   -2.68437         176.065         -46.3591         94.5242         -46.3591         94.5242       -0.0210388         143.396
0.61                    -2.73604         175.351         -46.2357         92.4363         -46.2357         92.4363       -0.0212907         143.316
0.611                   -2.78871         174.633         -46.1126         90.3477         -46.1126         90.3476       -0.0215462         143.237
0.612                    -2.8424         173.911         -45.9899         88.2582         -45.9899         88.2582       -0.0218054         143.157
0.613                   -2.89716         173.185         -45.8675         86.1679         -45.8675         86.1679       -0.0220684         143.077
0.614                   -2.95302         172.456         -45.7454         84.0767         -45.7454         84.0767       -0.0223356         142.996
0.615                   -3.01001         171.723         -45.6237         81.9843         -45.6237         81.9843       -0.0226069         142.915
0.616                   -3.06816         170.985         -45.5023         79.8908         -45.5023         79.8908       -0.0228826         142.834
0.617                   -3.12751         170.245         -45.3812         77.7961         -45.3812         77.7961        -0.023163         142.753
0.618                   -3.18811           169.5         -45.2606         75.7001         -45.2606         75.7001       -0.0234483         142.672
0.619                   -3.24998         168.752         -45.1402         73.6027         -45.1402         73.6027       -0.0237388          142.59
0.62                    -3.31317             168         -45.0203         71.5039         -45.0203         71.5039       -0.0240346         142.508
0.621                   -3.37772         167.245         -44.9008         69.4036         -44.9008         69.4036       -0.0243362         142.426
0.622                   -3.44367         166.486         -44.7817         67.3018         -44.7817         67.3018       -0.0246438         142.344
0.623                   -3.51105         165.724          -44.663         65.1984          -44.663         65.1984       -0.0249577         142.261
0.624                   -3.57992         164.959         -44.5447         63.0933         -44.5447         63.0933       -0.0252782         142.178
0.625                   -3.65032         164.191         -44.4269         60.9866         -44.4269         60.9866       -0.0256058         142.095
0.626                   -3.72229          163.42         -44.3096         58.8782         -44.3096         58.8782       -0.0259406         142.011
0.627                   -3.79587         162.646         -44.1928         56.7681         -44.1928         56.7681       -0.0262829         141.928
0.628                   -3.87111         161.869         -44.0764         54.6563         -44.0764         54.6563        -0.026633         141.844
0.629                   -3.94806          161.09         -43.9606         52.5428         -43.9606         52.5428       -0.0269911         141.759
