! TOUCHSTONE file generated by CST MICROWAVE STUDIO
! Date and time: Fri Oct  2 17:01:17 2020
! Project name: Scenario_1_Free_Space_out_of_line.cst
! Parameters = {Lambda=346.42; Step_1=17.321; dy1=-328.659; dx1=693; L_HA=400; MT=2.54; Rad_Dielectric=30; Rad_Lower=7.3; Rad_Upper=30; a_HA=580; a_WG=246; b_HA=500; b_WG=121; c_HA=0; c_WG=187; d_feed=85; h_feed=15; h_lower=18; h_upper=40}
! Header version: 2018
! Port assignment regex: !\s*Touchstone port\s*([0-9]+)\s*=\s*(CST MWS port|CST DS port)\s*([0-9]+|Zmin|Zmax)\s*\(\"(.*)\"\)(\s*mode\s*([0-9]+))?.*
! Touchstone port assignment:
! Touchstone port 1 = CST MWS port 1 ("")
! Touchstone port 2 = CST MWS port 2 ("")
# GHz S DB R 50
0.5                    -0.149733        -122.609         -64.5934        -139.058         -64.5934        -139.058      -0.00670857         151.138
0.501                  -0.155832        -123.046         -64.4217          -141.3         -64.4225        -141.298      -0.00676406         151.073
0.502                  -0.162077        -123.485         -64.2475        -143.533         -64.2492         -143.53      -0.00682073         151.008
0.503                  -0.168471        -123.926         -64.0711        -145.757         -64.0735        -145.753      -0.00687858         150.943
0.504                  -0.175017        -124.369         -63.8925        -147.974         -63.8956        -147.968      -0.00693761         150.877
0.505                  -0.181718        -124.814         -63.7119        -150.181         -63.7157        -150.175       -0.0069978         150.812
0.506                  -0.188577        -125.261         -63.5295        -152.381         -63.5339        -152.374      -0.00705916         150.746
0.507                  -0.195599         -125.71         -63.3453        -154.573         -63.3503        -154.566      -0.00712168          150.68
0.508                  -0.202786        -126.161         -63.1596        -156.757         -63.1651         -156.75      -0.00718536         150.614
0.509                  -0.210142        -126.614         -62.9724        -158.934         -62.9784        -158.927      -0.00725018         150.548
0.51                   -0.217672         -127.07         -62.7839        -161.104         -62.7903        -161.097      -0.00731614         150.483
0.511                  -0.225377        -127.527         -62.5941        -163.268         -62.6009         -163.26      -0.00738325         150.417
0.512                  -0.233264        -127.987         -62.4033        -165.425         -62.4104        -165.418      -0.00745148          150.35
0.513                  -0.241334        -128.449         -62.2114        -167.577         -62.2188        -167.569      -0.00752085         150.284
0.514                  -0.249593        -128.913         -62.0187        -169.723         -62.0263        -169.716      -0.00759135         150.218
0.515                  -0.258045        -129.379         -61.8251        -171.864          -61.833        -171.857      -0.00766296         150.152
0.516                  -0.266694        -129.848         -61.6309        -174.001         -61.6389        -173.994       -0.0077357         150.085
0.517                  -0.275543        -130.319         -61.4361        -176.134         -61.4442        -176.127      -0.00780955         150.019
0.518                  -0.284598        -130.792         -61.2407        -178.263          -61.249        -178.257      -0.00788451         149.952
0.519                  -0.293863        -131.267          -61.045         179.611         -61.0533         179.617      -0.00796058         149.885
0.52                   -0.303342        -131.744         -60.8489         177.488         -60.8572         177.494      -0.00803776         149.818
0.521                  -0.313041        -132.224         -60.6525         175.367         -60.6608         175.372      -0.00811604         149.751
0.522                  -0.322964        -132.707         -60.4559         173.248         -60.4642         173.253      -0.00819543         149.684
0.523                  -0.333116        -133.191         -60.2592          171.13         -60.2674         171.135      -0.00827592         149.617
0.524                  -0.343501        -133.678         -60.0625         169.013         -60.0706         169.018      -0.00835751          149.55
0.525                  -0.354126        -134.167         -59.8658         166.897         -59.8738         166.901       -0.0084402         149.483
0.526                  -0.364995        -134.659         -59.6691         164.781          -59.677         164.785      -0.00852399         149.416
0.527                  -0.376113        -135.153         -59.4726         162.664         -59.4803         162.668      -0.00860888         149.348
0.528                  -0.387487        -135.649         -59.2764         160.547         -59.2839         160.551      -0.00869486         149.281
0.529                   -0.39912        -136.148         -59.0803         158.429         -59.0876         158.432      -0.00878196         149.213
0.53                    -0.41102         -136.65         -58.8847         156.309         -58.8917         156.312      -0.00887015         149.145
0.531                  -0.423191        -137.153         -58.6893         154.187         -58.6962          154.19      -0.00895945         149.077
0.532                   -0.43564         -137.66         -58.4944         152.063          -58.501         152.066      -0.00904985         149.009
0.533                  -0.448373        -138.168            -58.3         149.937         -58.3063          149.94      -0.00914136         148.941
0.534                  -0.461395        -138.679         -58.1062         147.808         -58.1122          147.81      -0.00923399         148.873
0.535                  -0.474712        -139.193         -57.9129         145.675         -57.9186         145.678      -0.00932773         148.805
0.536                  -0.488331        -139.709         -57.7202          143.54         -57.7256         143.542      -0.00942259         148.737
0.537                  -0.502258        -140.228         -57.5282           141.4         -57.5333         141.403      -0.00951857         148.668
0.538                    -0.5165        -140.749         -57.3369         139.257         -57.3417         139.259      -0.00961568           148.6
0.539                  -0.531063        -141.273         -57.1464         137.109         -57.1509         137.112      -0.00971393         148.531
0.54                   -0.545954        -141.799         -56.9567         134.957         -56.9608         134.959      -0.00981332         148.462
0.541                  -0.561179        -142.328         -56.7679         132.801         -56.7717         132.803      -0.00991385         148.393
0.542                  -0.576745        -142.859           -56.58          130.64         -56.5834         130.642       -0.0100155         148.325
0.543                  -0.592659        -143.393         -56.3929         128.473          -56.396         128.475       -0.0101184         148.255
0.544                  -0.608929         -143.93         -56.2069         126.302         -56.2096         126.304       -0.0102224         148.186
0.545                   -0.62556        -144.469         -56.0219         124.126         -56.0242         124.127       -0.0103276         148.117
0.546                  -0.642561         -145.01         -55.8379         121.944         -55.8399         121.946        -0.010434         148.048
0.547                  -0.659939        -145.555          -55.655         119.757         -55.6566         119.758       -0.0105415         147.978
0.548                  -0.677701        -146.101         -55.4732         117.565         -55.4745         117.566       -0.0106503         147.908
0.549                  -0.695853        -146.651         -55.2926         115.367         -55.2935         115.368       -0.0107603         147.839
0.55                   -0.714405        -147.203         -55.1132         113.163         -55.1138         113.164       -0.0108715         147.769
0.551                  -0.733363        -147.757          -54.935         110.954         -54.9352         110.955       -0.0109839         147.699
0.552                  -0.752734        -148.314          -54.758          108.74         -54.7579          108.74       -0.0110976         147.629
0.553                  -0.772527        -148.874         -54.5823          106.52         -54.5819          106.52       -0.0112125         147.559
0.554                   -0.79275        -149.436         -54.4079         104.295         -54.4072         104.295       -0.0113287         147.488
0.555                  -0.813409        -150.001         -54.2349         102.064         -54.2338         102.064       -0.0114462         147.418
0.556                  -0.834513        -150.569         -54.0631          99.828         -54.0618         99.8277        -0.011565         147.347
0.557                  -0.856069        -151.139         -53.8928          97.587         -53.8911         97.5863       -0.0116852         147.276
0.558                  -0.878085        -151.711         -53.7239         95.3409         -53.7219         95.3399       -0.0118066         147.206
0.559                   -0.90057        -152.286         -53.5563         93.0898         -53.5541         93.0886       -0.0119294         147.135
0.56                    -0.92353        -152.864         -53.3902          90.834         -53.3877         90.8324       -0.0120535         147.064
0.561                  -0.946974        -153.444         -53.2256         88.5736         -53.2228         88.5717        -0.012179         146.992
0.562                  -0.970909        -154.026         -53.0623         86.3088         -53.0593         86.3064       -0.0123059         146.921
0.563                  -0.995344        -154.611         -52.9006         84.0397         -52.8973          84.037       -0.0124342          146.85
0.564                   -1.02029        -155.199         -52.7403         81.7665         -52.7368         81.7634        -0.012564         146.778
0.565                   -1.04574        -155.789         -52.5815         79.4895         -52.5778         79.4859       -0.0126952         146.706
0.566                   -1.07172        -156.381         -52.4242         77.2088         -52.4202         77.2048       -0.0128278         146.634
0.567                   -1.09823        -156.976         -52.2683         74.9247         -52.2642         74.9203        -0.012962         146.562
0.568                   -1.12528        -157.573         -52.1139         72.6374         -52.1097         72.6326       -0.0130976          146.49
0.569                   -1.15287        -158.173          -51.961         70.3472         -51.9566         70.3418       -0.0132348         146.418
0.57                    -1.18101        -158.775         -51.8096         68.0542          -51.805         68.0484       -0.0133735         146.345
0.571                   -1.20971         -159.38         -51.6596         65.7587         -51.6549         65.7525       -0.0135139         146.273
0.572                   -1.23899        -159.986         -51.5111          63.461         -51.5063         63.4543       -0.0136558           146.2
0.573                   -1.26883        -160.595          -51.364         61.1612         -51.3591         61.1541       -0.0137993         146.127
0.574                   -1.29926        -161.206         -51.2184         58.8598         -51.2133         58.8522       -0.0139445         146.054
0.575                   -1.33027         -161.82         -51.0741         56.5568         -51.0689         56.5488       -0.0140914         145.981
0.576                   -1.36188        -162.436         -50.9312         54.2525          -50.926         54.2441         -0.01424         145.908
0.577                   -1.39408        -163.054         -50.7897         51.9473         -50.7844         51.9384       -0.0143903         145.834
0.578                    -1.4269        -163.674         -50.6495         49.6412         -50.6442         49.6319       -0.0145424         145.761
0.579                   -1.46033        -164.296         -50.5106         47.3346         -50.5053         47.3249       -0.0146962         145.687
0.58                    -1.49438        -164.921          -50.373         45.0277         -50.3676         45.0176        -0.014852         145.613
0.581                   -1.52905        -165.547         -50.2366         42.7206         -50.2313         42.7102       -0.0150095         145.539
0.582                   -1.56435        -166.176         -50.1015         40.4137         -50.0962         40.4029        -0.015169         145.465
0.583                   -1.60029        -166.806         -49.9676          38.107         -49.9622         38.0959       -0.0153304          145.39
0.584                   -1.63688        -167.439         -49.8348         35.8009         -49.8295         35.7895       -0.0154937         145.316
0.585                   -1.67411        -168.074         -49.7031         33.4954         -49.6979         33.4837       -0.0156591         145.241
0.586                   -1.71199         -168.71         -49.5726         31.1908         -49.5673         31.1789       -0.0158265         145.166
0.587                   -1.75052        -169.349          -49.443         28.8872         -49.4379         28.8751       -0.0159959         145.091
0.588                   -1.78972        -169.989         -49.3145         26.5848         -49.3094         26.5724       -0.0161675         145.016
0.589                   -1.82959        -170.632          -49.187         24.2838         -49.1819         24.2712       -0.0163413         144.941
0.59                    -1.87012        -171.276         -49.0603         21.9841         -49.0554         21.9714       -0.0165173         144.865
0.591                   -1.91132        -171.922         -48.9346         19.6861         -48.9298         19.6732       -0.0166955         144.789
0.592                   -1.95321         -172.57         -48.8097         17.3897          -48.805         17.3768        -0.016876         144.713
0.593                   -1.99577         -173.22         -48.6857         15.0951          -48.681         15.0821       -0.0170589         144.637
0.594                   -2.03902        -173.872         -48.5624         12.8023         -48.5578         12.7893       -0.0172442         144.561
0.595                   -2.08296        -174.525         -48.4398         10.5115         -48.4354         10.4985       -0.0174319         144.484
0.596                   -2.12759        -175.181         -48.3179         8.22265         -48.3136         8.20966       -0.0176222         144.408
0.597                   -2.17292        -175.838         -48.1967         5.93584         -48.1925         5.92291        -0.017815         144.331
0.598                   -2.21895        -176.497         -48.0761         3.65109          -48.072         3.63824       -0.0180104         144.254
0.599                   -2.26568        -177.157          -47.956         1.36843         -47.9521          1.3557       -0.0182086         144.176
0.6                     -2.31312         -177.82         -47.8365       -0.912128         -47.8327       -0.924726       -0.0184094         144.099
0.601                   -2.36127        -178.484         -47.7175        -3.19059         -47.7138        -3.20303       -0.0186131         144.021
0.602                   -2.41013         -179.15         -47.5989        -5.46697         -47.5954        -5.47921       -0.0188197         143.944
0.603                   -2.45972        -179.818         -47.4808        -7.74129         -47.4774        -7.75331       -0.0190292         143.865
0.604                   -2.51003         179.512          -47.363        -10.0136         -47.3598        -10.0254       -0.0192418         143.787
0.605                   -2.56107          178.84         -47.2456        -12.2839         -47.2425        -12.2954       -0.0194574         143.709
0.606                   -2.61284         178.166         -47.1285        -14.5522         -47.1256        -14.5635       -0.0196763          143.63
0.607                   -2.66536         177.491         -47.0117        -16.8187         -47.0089        -16.8297       -0.0198984         143.551
0.608                   -2.71862         176.813         -46.8952        -19.0834         -46.8925         -19.094       -0.0201238         143.472
0.609                   -2.77264         176.134         -46.7789        -21.3464         -46.7763        -21.3566       -0.0203527         143.393
0.61                    -2.82742         175.452         -46.6627        -23.6077         -46.6604        -23.6176        -0.020585         143.313
0.611                   -2.88297         174.768         -46.5468        -25.8675         -46.5446         -25.877        -0.020821         143.233
0.612                   -2.93931         174.082          -46.431        -28.1258         -46.4289         -28.135       -0.0210608         143.153
0.613                   -2.99643         173.394         -46.3154        -30.3828         -46.3134        -30.3916       -0.0213043         143.073
0.614                   -3.05436         172.704         -46.1998        -32.6386          -46.198        -32.6469       -0.0215517         142.993
0.615                   -3.11311         172.011         -46.0843        -34.8933         -46.0826        -34.9012       -0.0218031         142.912
0.616                   -3.17269         171.316         -45.9689         -37.147         -45.9673        -37.1545       -0.0220587         142.831
0.617                   -3.23311         170.618         -45.8536        -39.3998         -45.8521        -39.4069       -0.0223185          142.75
0.618                   -3.29439         169.918         -45.7382         -41.652         -45.7369        -41.6586       -0.0225827         142.668
0.619                   -3.35656         169.216         -45.6229        -43.9035         -45.6217        -43.9097       -0.0228514         142.587
0.62                    -3.41962          168.51         -45.5076        -46.1546         -45.5065        -46.1604       -0.0231247         142.505
0.621                   -3.48361         167.802         -45.3923        -48.4054         -45.3913        -48.4107       -0.0234027         142.423
0.622                   -3.54854         167.091          -45.277        -50.6561         -45.2761         -50.661       -0.0236856          142.34
0.623                   -3.61445         166.377         -45.1616        -52.9067         -45.1608        -52.9112       -0.0239736         142.257
0.624                   -3.68135         165.661         -45.0463        -55.1575         -45.0455        -55.1615       -0.0242667         142.174
0.625                   -3.74927         164.941         -44.9309        -57.4086         -44.9302        -57.4121       -0.0245651         142.091
0.626                   -3.81825         164.218         -44.8155        -59.6601         -44.8149        -59.6632       -0.0248689         142.008
0.627                   -3.88832         163.492            -44.7        -61.9121         -44.6995        -61.9148       -0.0251784         141.924
0.628                   -3.95951         162.763         -44.5845        -64.1649         -44.5841        -64.1672       -0.0254937          141.84
0.629                   -4.03187         162.031          -44.469        -66.4186         -44.4686        -66.4204       -0.0258149         141.756
