! TOUCHSTONE file generated by CST MICROWAVE STUDIO
! Date and time: Fri Oct  2 19:01:56 2020
! Project name: Scenario_1_Free_Space_out_of_line.cst
! Parameters = {Lambda=346.42; Step_1=17.321; dy1=-328.659; dx1=1039; L_HA=400; MT=2.54; Rad_Dielectric=30; Rad_Lower=7.3; Rad_Upper=30; a_HA=580; a_WG=246; b_HA=500; b_WG=121; c_HA=0; c_WG=187; d_feed=85; h_feed=15; h_lower=18; h_upper=40}
! Header version: 2018
! Port assignment regex: !\s*Touchstone port\s*([0-9]+)\s*=\s*(CST MWS port|CST DS port)\s*([0-9]+|Zmin|Zmax)\s*\(\"(.*)\"\)(\s*mode\s*([0-9]+))?.*
! Touchstone port assignment:
! Touchstone port 1 = CST MWS port 1 ("")
! Touchstone port 2 = CST MWS port 2 ("")
# GHz S DB R 50
0.5                    -0.149314        -122.492         -65.5844         29.1912         -65.5844         29.1912      -0.00670574          151.14
0.501                  -0.153967         -122.94         -65.5874         27.0968         -65.5912         27.0046      -0.00676829         151.074
0.502                  -0.158847         -123.39         -65.5854         24.9609         -65.5924         24.7756      -0.00683148         151.009
0.503                  -0.163957        -123.841          -65.578         22.7838         -65.5878         22.5047      -0.00689531         150.943
0.504                  -0.169299        -124.295         -65.5649          20.566         -65.5769          20.193      -0.00695979         150.878
0.505                  -0.174875         -124.75         -65.5457         18.3084         -65.5594         17.8415      -0.00702493         150.812
0.506                  -0.180689        -125.207         -65.5201         16.0119          -65.535         15.4514      -0.00709073         150.746
0.507                  -0.186744        -125.667         -65.4878         13.6775         -65.5033         13.0243      -0.00715721         150.681
0.508                  -0.193042        -126.128         -65.4484         11.3066         -65.4639         10.5619      -0.00722438         150.615
0.509                  -0.199585        -126.591         -65.4017         8.90064         -65.4166         8.06618      -0.00729224         150.549
0.51                   -0.206378        -127.055         -65.3473         6.46139         -65.3612          5.5392       -0.0073608         150.483
0.511                  -0.213422        -127.522          -65.285         3.99067         -65.2972         2.98329      -0.00743008         150.417
0.512                   -0.22072        -127.991         -65.2146         1.49052         -65.2247        0.400903      -0.00750007          150.35
0.513                  -0.228275        -128.461         -65.1359        -1.03692         -65.1432        -2.20536       -0.0075708         150.284
0.514                  -0.236091        -128.934         -65.0486        -3.58934         -65.0528        -4.83281      -0.00764227         150.218
0.515                  -0.244169        -129.408         -64.9527        -6.16435         -64.9534        -7.47868      -0.00771449         150.151
0.516                  -0.252513        -129.884          -64.848        -8.75951         -64.8448        -10.1402      -0.00778748         150.085
0.517                  -0.261126        -130.363         -64.7345        -11.3723         -64.7271        -12.8144      -0.00786123         150.018
0.518                   -0.27001        -130.843         -64.6122        -14.0002         -64.6004        -15.4987      -0.00793577         149.951
0.519                  -0.279169        -131.325          -64.481        -16.6407         -64.4646        -18.1903       -0.0080111         149.885
0.52                   -0.288605        -131.809         -64.3411        -19.2915           -64.32        -20.8866      -0.00808724         149.818
0.521                  -0.298322        -132.295         -64.1926          -21.95         -64.1666        -23.5851       -0.0081642         149.751
0.522                  -0.308322        -132.783         -64.0355        -24.6141         -64.0048        -26.2836      -0.00824198         149.684
0.523                  -0.318608        -133.273         -63.8701        -27.2816         -63.8347        -28.9797      -0.00832061         149.617
0.524                  -0.329183        -133.765         -63.6966        -29.9506         -63.6567        -31.6717      -0.00840008         149.549
0.525                  -0.340051        -134.258         -63.5151        -32.6192         -63.4709        -34.3578      -0.00848043         149.482
0.526                  -0.351214        -134.754         -63.3261        -35.2859         -63.2778        -37.0365      -0.00856165         149.415
0.527                  -0.362675        -135.252         -63.1297        -37.9493         -63.0777        -39.7066      -0.00864376         149.347
0.528                  -0.374437        -135.752         -62.9264        -40.6082         -62.8708         -42.367      -0.00872678          149.28
0.529                  -0.386503        -136.253         -62.7163        -43.2616         -62.6577        -45.0171      -0.00881071         149.212
0.53                   -0.398877        -136.757         -62.4999        -45.9088         -62.4386        -47.6561      -0.00889558         149.144
0.531                  -0.411561        -137.262         -62.2774        -48.5493          -62.214         -50.284      -0.00898139         149.076
0.532                  -0.424558         -137.77         -62.0494        -51.1827         -61.9841        -52.9004      -0.00906817         149.008
0.533                  -0.437872        -138.279         -61.8161        -53.8089         -61.7495        -55.5057      -0.00915592          148.94
0.534                  -0.451505        -138.791         -61.5778         -56.428         -61.5104        -58.0999      -0.00924465         148.872
0.535                  -0.465461        -139.305          -61.335        -59.0403         -61.2672        -60.6837       -0.0093344         148.804
0.536                  -0.479742         -139.82         -61.0881        -61.6461         -61.0203        -63.2577      -0.00942516         148.735
0.537                  -0.494352        -140.338         -60.8373         -64.246           -60.77        -65.8225      -0.00951697         148.667
0.538                  -0.509294        -140.857         -60.5831        -66.8408         -60.5167        -68.3791      -0.00960982         148.598
0.539                   -0.52457        -141.379         -60.3257        -69.4313         -60.2607        -70.9286      -0.00970375         148.529
0.54                   -0.540185        -141.902         -60.0656        -72.0184         -60.0023         -73.472      -0.00979877         148.461
0.541                  -0.556141        -142.428         -59.8031         -74.603         -59.7419        -76.0104      -0.00989489         148.392
0.542                  -0.572441        -142.955         -59.5385        -77.1865         -59.4797        -78.5451      -0.00999213         148.323
0.543                  -0.589089        -143.485         -59.2721        -79.7697          -59.216        -81.0774       -0.0100905         148.254
0.544                  -0.606087        -144.016         -59.0043        -82.3541         -58.9512        -83.6086       -0.0101901         148.184
0.545                   -0.62344         -144.55         -58.7354        -84.9408         -58.6855        -86.1401       -0.0102908         148.115
0.546                  -0.641149        -145.086         -58.4657        -87.5309         -58.4192        -88.6731       -0.0103927         148.046
0.547                  -0.659218        -145.624         -58.1956        -90.1259         -58.1526        -91.2091       -0.0104959         147.976
0.548                  -0.677651        -146.163         -57.9253        -92.7268         -57.8859        -93.7493       -0.0106002         147.906
0.549                  -0.696451        -146.705         -57.6551        -95.3349         -57.6195         -96.295       -0.0107059         147.836
0.55                    -0.71562        -147.249         -57.3854        -97.9512         -57.3535        -98.8475       -0.0108128         147.767
0.551                  -0.735163        -147.795         -57.1165        -100.577         -57.0882        -101.408        -0.010921         147.697
0.552                  -0.755082        -148.343         -56.8487        -103.213          -56.824        -103.978       -0.0110306         147.626
0.553                  -0.775382        -148.893         -56.5822        -105.861          -56.561        -106.557       -0.0111415         147.556
0.554                  -0.796064        -149.445         -56.3173         -108.52         -56.2996        -109.148       -0.0112537         147.486
0.555                  -0.817133            -150         -56.0545        -111.193         -56.0399        -111.751       -0.0113674         147.415
0.556                  -0.838592        -150.556         -55.7939        -113.879         -55.7822        -114.367       -0.0114825         147.345
0.557                  -0.860445        -151.115         -55.5359        -116.579         -55.5268        -116.997        -0.011599         147.274
0.558                  -0.882695        -151.675         -55.2807        -119.293          -55.274         -119.64        -0.011717         147.203
0.559                  -0.905345        -152.238         -55.0286        -122.022         -55.0239        -122.298       -0.0118365         147.132
0.56                   -0.928399        -152.803         -54.7799        -124.765         -54.7769        -124.971       -0.0119575         147.061
0.561                  -0.951861         -153.37         -54.5349        -127.523         -54.5332        -127.659       -0.0120801          146.99
0.562                  -0.975734        -153.939         -54.2939        -130.295         -54.2929        -130.362       -0.0122043         146.918
0.563                   -1.00002        -154.511          -54.057        -133.081         -54.0564         -133.08         -0.01233         146.847
0.564                   -1.02473        -155.085         -53.8244         -135.88         -53.8238        -135.813       -0.0124574         146.775
0.565                   -1.04986         -155.66         -53.5965        -138.691         -53.5954         -138.56       -0.0125865         146.703
0.566                   -1.07542        -156.239         -53.3734        -141.514         -53.3713        -141.321       -0.0127172         146.631
0.567                    -1.1014        -156.819         -53.1553        -144.348         -53.1518        -144.094       -0.0128497         146.559
0.568                   -1.12783        -157.402         -52.9423        -147.191         -52.9369         -146.88        -0.012984         146.487
0.569                   -1.15469        -157.986         -52.7346        -150.042         -52.7269        -149.677         -0.01312         146.415
0.57                    -1.18199        -158.574         -52.5322        -152.899         -52.5219        -152.483       -0.0132579         146.342
0.571                   -1.20974        -159.163         -52.3352        -155.763         -52.3219        -155.299       -0.0133976         146.269
0.572                   -1.23795        -159.755         -52.1437        -158.629          -52.127        -158.123       -0.0135393         146.197
0.573                   -1.26661        -160.349         -51.9576        -161.499         -51.9374        -160.952       -0.0136829         146.124
0.574                   -1.29573        -160.946         -51.7771        -164.368         -51.7529        -163.786       -0.0138284         146.051
0.575                   -1.32532        -161.545         -51.6019        -167.237         -51.5737        -166.624        -0.013976         145.977
0.576                   -1.35538        -162.146         -51.4321        -170.103         -51.3997        -169.464       -0.0141256         145.904
0.577                   -1.38591         -162.75         -51.2675        -172.965         -51.2308        -172.303       -0.0142773          145.83
0.578                   -1.41693        -163.356          -51.108        -175.822          -51.067        -175.142       -0.0144311         145.757
0.579                   -1.44844        -163.965         -50.9535        -178.671         -50.9081        -177.978       -0.0145871         145.683
0.58                    -1.48044        -164.577         -50.8038         178.488         -50.7541          179.19       -0.0147454         145.609
0.581                   -1.51295        -165.191         -50.6586         175.657         -50.6047         176.364       -0.0149059         145.535
0.582                   -1.54595        -165.807         -50.5178         172.836         -50.4599         173.544       -0.0150687          145.46
0.583                   -1.57948        -166.426         -50.3811         170.027         -50.3194         170.732       -0.0152339         145.386
0.584                   -1.61352        -167.048         -50.2483          167.23          -50.183         167.928       -0.0154015         145.311
0.585                   -1.64809        -167.673         -50.1191         164.447         -50.0505         165.135       -0.0155715         145.236
0.586                   -1.68319          -168.3         -49.9933         161.677         -49.9217         162.353        -0.015744         145.161
0.587                   -1.71884        -168.931         -49.8705         158.922         -49.7963         159.581       -0.0159191         145.086
0.588                   -1.75504        -169.564         -49.7506         156.181          -49.674         156.822       -0.0160969         145.011
0.589                    -1.7918          -170.2         -49.6333         153.455         -49.5547         154.076       -0.0162772         144.935
0.59                    -1.82913        -170.838         -49.5182         150.744          -49.438         151.342       -0.0164603          144.86
0.591                   -1.86704         -171.48         -49.4051         148.047         -49.3237         148.621       -0.0166462         144.784
0.592                   -1.90554        -172.125         -49.2938         145.364         -49.2115         145.913        -0.016835         144.708
0.593                   -1.94464        -172.773          -49.184         142.696         -49.1012         143.218       -0.0170266         144.632
0.594                   -1.98436        -173.424         -49.0754         140.041         -48.9925         140.536       -0.0172212         144.555
0.595                    -2.0247        -174.079         -48.9679           137.4         -48.8852         137.866       -0.0174188         144.479
0.596                   -2.06568        -174.736         -48.8612          134.77         -48.7791         135.209       -0.0176195         144.402
0.597                   -2.10732        -175.397         -48.7551         132.153         -48.6739         132.564       -0.0178234         144.325
0.598                   -2.14962        -176.061         -48.6494         129.547         -48.5693         129.929       -0.0180304         144.248
0.599                    -2.1926        -176.729         -48.5439         126.951         -48.4653         127.306       -0.0182408         144.171
0.6                     -2.23628          -177.4         -48.4384         124.365         -48.3616         124.692       -0.0184546         144.093
0.601                   -2.28068        -178.075         -48.3329         121.787          -48.258         122.088       -0.0186718         144.015
0.602                   -2.32582        -178.753         -48.2271         119.217         -48.1544         119.492       -0.0188925         143.937
0.603                   -2.37171        -179.435         -48.1209         116.654         -48.0506         116.904       -0.0191168         143.859
0.604                   -2.41837         179.879         -48.0142         114.097         -47.9465         114.323       -0.0193447         143.781
0.605                   -2.46584         179.189         -47.9069         111.544         -47.8419         111.748       -0.0195764         143.702
0.606                   -2.51412         178.496         -47.7989         108.996         -47.7367         109.178        -0.019812         143.624
0.607                   -2.56326         177.798         -47.6901          106.45         -47.6309         106.612       -0.0200514         143.545
0.608                   -2.61327         177.097         -47.5805         103.907         -47.5243         104.049       -0.0202949         143.465
0.609                   -2.66418         176.392           -47.47         101.364         -47.4169         101.489       -0.0205424         143.386
0.61                    -2.71603         175.682         -47.3586         98.8223         -47.3086         98.9305       -0.0207941         143.306
0.611                   -2.76883         174.968         -47.2463         96.2795         -47.1993         96.3725         -0.02105         143.227
0.612                   -2.82264          174.25          -47.133         93.7351         -47.0891         93.8142       -0.0213103         143.147
0.613                   -2.87748         173.528         -47.0187         91.1885         -46.9779         91.2549        -0.021575         143.066
0.614                   -2.93339         172.801         -46.9034         88.6387         -46.8656         88.6937       -0.0218442         142.986
0.615                   -2.99042          172.07         -46.7872          86.085         -46.7524         86.1298        -0.022118         142.905
0.616                   -3.04859         171.335           -46.67         83.5268         -46.6381         83.5625       -0.0223965         142.824
0.617                   -3.10797         170.595         -46.5519         80.9633         -46.5229         80.9911       -0.0226798         142.743
0.618                   -3.16859         169.851          -46.433          78.394         -46.4066         78.4149        -0.022968         142.661
0.619                    -3.2305         169.102         -46.3133         75.8183         -46.2895         75.8333       -0.0232611          142.58
0.62                    -3.29376         168.349         -46.1928         73.2357         -46.1715         73.2457       -0.0235592         142.498
0.621                   -3.35842         167.592         -46.0716         70.6457         -46.0526         70.6516       -0.0238625         142.416
0.622                   -3.42453          166.83         -45.9497         68.0479          -45.933         68.0505        -0.024171         142.333
0.623                   -3.49216         166.064         -45.8273         65.4419         -45.8127         65.4419       -0.0244848          142.25
0.624                   -3.56136         165.295         -45.7044         62.8276         -45.6918         62.8256       -0.0248039         142.167
0.625                    -3.6322         164.521         -45.5812         60.2045         -45.5703         60.2012       -0.0251284         142.084
0.626                   -3.70474         163.743         -45.4575         57.5727         -45.4484         57.5685       -0.0254585         142.001
0.627                   -3.77905         162.962         -45.3337         54.9318          -45.326         54.9272       -0.0257941         141.917
0.628                   -3.85519         162.177         -45.2097          52.282         -45.2034         52.2773       -0.0261353         141.833
0.629                   -3.93325         161.389         -45.0856         49.6231         -45.0806         49.6187       -0.0264821         141.749
