! TOUCHSTONE file generated by CST MICROWAVE STUDIO
! Date and time: Fri Oct  2 17:14:05 2020
! Project name: Scenario_1_Free_Space_out_of_line.cst
! Parameters = {Lambda=346.42; Step_1=17.321; dy1=-346; dx1=173; L_HA=400; MT=2.54; Rad_Dielectric=30; Rad_Lower=7.3; Rad_Upper=30; a_HA=580; a_WG=246; b_HA=500; b_WG=121; c_HA=0; c_WG=187; d_feed=85; h_feed=15; h_lower=18; h_upper=40}
! Header version: 2018
! Port assignment regex: !\s*Touchstone port\s*([0-9]+)\s*=\s*(CST MWS port|CST DS port)\s*([0-9]+|Zmin|Zmax)\s*\(\"(.*)\"\)(\s*mode\s*([0-9]+))?.*
! Touchstone port assignment:
! Touchstone port 1 = CST MWS port 1 ("")
! Touchstone port 2 = CST MWS port 2 ("")
# GHz S DB R 50
0.5                    -0.147363        -122.723         -63.9533         122.565         -63.9533         122.565      -0.00636229         151.147
0.501                  -0.153893        -123.175         -63.8943         120.784          -63.895         120.775      -0.00642882         151.081
0.502                  -0.160613        -123.629         -63.8303         118.993         -63.8317         118.975      -0.00649567         151.016
0.503                  -0.167525        -124.085         -63.7615         117.195         -63.7634         117.167      -0.00656286          150.95
0.504                  -0.174632        -124.542         -63.6878         115.389         -63.6902         115.353       -0.0066304         150.885
0.505                  -0.181935            -125         -63.6092         113.579          -63.612         113.534      -0.00669829         150.819
0.506                  -0.189436        -125.461         -63.5257         111.764         -63.5289          111.71      -0.00676654         150.753
0.507                  -0.197137        -125.923         -63.4373         109.947         -63.4408         109.884      -0.00683517         150.687
0.508                   -0.20504        -126.386         -63.3441         108.128         -63.3478         108.056      -0.00690419         150.621
0.509                  -0.213148        -126.852         -63.2461         106.308           -63.25         106.228      -0.00697361         150.555
0.51                   -0.221461        -127.319         -63.1433         104.489         -63.1473         104.401      -0.00704343         150.489
0.511                  -0.229983        -127.787         -63.0359         102.673         -63.0399         102.576      -0.00711368         150.423
0.512                  -0.238716        -128.258         -62.9239         100.859         -62.9279         100.755      -0.00718436         150.357
0.513                  -0.247662         -128.73         -62.8075         99.0496         -62.8114         98.9383      -0.00725549         150.291
0.514                  -0.256822        -129.203         -62.6867         97.2453         -62.6905         97.1269      -0.00732707         150.224
0.515                    -0.2662        -129.679         -62.5616         95.4469         -62.5653         95.3219      -0.00739914         150.158
0.516                  -0.275798        -130.156         -62.4324         93.6554         -62.4359         93.5241      -0.00747169         150.091
0.517                  -0.285618        -130.635         -62.2992         91.8716         -62.3025         91.7343      -0.00754474         150.025
0.518                  -0.295663        -131.115         -62.1622         90.0961         -62.1652         89.9532      -0.00761831         149.958
0.519                  -0.305934        -131.598         -62.0215         88.3296         -62.0242         88.1815      -0.00769241         149.891
0.52                   -0.316436        -132.082         -61.8772         86.5727         -61.8796         86.4198      -0.00776707         149.824
0.521                   -0.32717        -132.568         -61.7296         84.8257         -61.7316         84.6685      -0.00784229         149.757
0.522                  -0.338138        -133.056         -61.5787         83.0891         -61.5803         82.9279       -0.0079181          149.69
0.523                  -0.349345        -133.546         -61.4247         81.3632          -61.426         81.1985      -0.00799451         149.623
0.524                  -0.360791        -134.037         -61.2678         79.6483         -61.2687         79.4805      -0.00807154         149.556
0.525                  -0.372481         -134.53         -61.1081         77.9446         -61.1086         77.7741      -0.00814921         149.488
0.526                  -0.384417        -135.026         -60.9458         76.2521          -60.946         76.0793      -0.00822754         149.421
0.527                  -0.396602        -135.523          -60.781          74.571         -60.7808         74.3962      -0.00830655         149.353
0.528                  -0.409039        -136.022          -60.614         72.9011         -60.6134         72.7249      -0.00838626         149.286
0.529                  -0.421732        -136.522         -60.4448         71.2425         -60.4438         71.0651      -0.00846669         149.218
0.53                   -0.434682        -137.025         -60.2735         69.5949         -60.2722         69.4169      -0.00854787          149.15
0.531                  -0.447894         -137.53         -60.1004         67.9584         -60.0988         67.7799      -0.00862981         149.082
0.532                   -0.46137        -138.036         -59.9256         66.3325         -59.9236          66.154      -0.00871254         149.014
0.533                  -0.475114        -138.545         -59.7492         64.7171         -59.7469         64.5389      -0.00879608         148.946
0.534                   -0.48913        -139.056         -59.5714         63.1119         -59.5687         62.9344      -0.00888045         148.878
0.535                   -0.50342        -139.568         -59.3922         61.5165         -59.3893         61.3399      -0.00896569         148.809
0.536                  -0.517989        -140.083         -59.2118         59.9305         -59.2086         59.7553      -0.00905182         148.741
0.537                   -0.53284        -140.599         -59.0303         58.3536         -59.0269           58.18      -0.00913886         148.672
0.538                  -0.547977        -141.118         -58.8478         56.7853         -58.8442         56.6136      -0.00922684         148.604
0.539                  -0.563402        -141.638         -58.6645         55.2252         -58.6607         55.0557      -0.00931579         148.535
0.54                   -0.579122        -142.161         -58.4805         53.6729         -58.4765         53.5057      -0.00940573         148.466
0.541                  -0.595138        -142.686         -58.2958         52.1277         -58.2916         51.9633       -0.0094967         148.397
0.542                  -0.611455        -143.213         -58.1106         50.5893         -58.1062         50.4278      -0.00958872         148.328
0.543                  -0.628078        -143.742         -57.9249         49.0571         -57.9204         48.8988      -0.00968182         148.259
0.544                  -0.645011        -144.273         -57.7388         47.5306         -57.7343         47.3757      -0.00977604          148.19
0.545                  -0.662257        -144.806         -57.5525         46.0093         -57.5479          45.858      -0.00987141          148.12
0.546                  -0.679822        -145.341          -57.366         44.4926         -57.3614         44.3452      -0.00996795         148.051
0.547                  -0.697709        -145.879         -57.1795           42.98         -57.1748         42.8366       -0.0100657         147.981
0.548                  -0.715923        -146.419         -56.9929          41.471         -56.9883         41.3318       -0.0101647         147.911
0.549                  -0.734469        -146.961         -56.8064         39.9649         -56.8018         39.8301        -0.010265         147.842
0.55                   -0.753353        -147.505           -56.62         38.4613         -56.6155         38.3311       -0.0103666         147.772
0.551                  -0.772577        -148.051         -56.4339         36.9596         -56.4294         36.8341       -0.0104695         147.702
0.552                  -0.792149          -148.6         -56.2481         35.4592         -56.2437         35.3387       -0.0105738         147.631
0.553                  -0.812072        -149.151         -56.0626         33.9596         -56.0584         33.8442       -0.0106796         147.561
0.554                  -0.832352        -149.704         -55.8776         32.4603         -55.8735         32.3501       -0.0107868         147.491
0.555                  -0.852995         -150.26         -55.6931         30.9608         -55.6891          30.856       -0.0108955          147.42
0.556                  -0.874005        -150.817         -55.5092         29.4605         -55.5054         29.3611       -0.0110058         147.349
0.557                  -0.895389        -151.378          -55.326         27.9589         -55.3223         27.8651       -0.0111176         147.279
0.558                  -0.917152         -151.94         -55.1435         26.4555           -55.14         26.3675        -0.011231         147.208
0.559                    -0.9393        -152.505         -54.9617         24.9498         -54.9585         24.8676       -0.0113461         147.137
0.56                   -0.961838        -153.072         -54.7809         23.4413         -54.7778         23.3651       -0.0114629         147.065
0.561                  -0.984774        -153.642         -54.6009         21.9296         -54.5981         21.8594       -0.0115814         146.994
0.562                   -1.00811        -154.214          -54.422         20.4141         -54.4194           20.35       -0.0117018         146.923
0.563                   -1.03186        -154.789         -54.2442         18.8944         -54.2418         18.8366       -0.0118239         146.851
0.564                   -1.05603        -155.366         -54.0674         17.3702         -54.0654         17.3186       -0.0119479         146.779
0.565                   -1.08062        -155.945         -53.8919         15.8409         -53.8901         15.7956       -0.0120739         146.707
0.566                   -1.10564        -156.527         -53.7177         14.3061         -53.7161         14.2673       -0.0122018         146.635
0.567                   -1.13109        -157.111         -53.5448         12.7656         -53.5435         12.7331       -0.0123317         146.563
0.568                   -1.15699        -157.698         -53.3734         11.2188         -53.3723         11.1928       -0.0124636         146.491
0.569                   -1.18334        -158.288         -53.2034         9.66548         -53.2027           9.646       -0.0125977         146.419
0.57                    -1.21015         -158.88         -53.0351         8.10529         -53.0346         8.09231       -0.0127339         146.346
0.571                   -1.23743        -159.474         -52.8683          6.5379         -52.8681         6.53141       -0.0128723         146.273
0.572                   -1.26518        -160.072         -52.7033         4.96302         -52.7033         4.96302        -0.013013           146.2
0.573                   -1.29341        -160.671         -52.5401          3.3804         -52.5404         3.38685       -0.0131559         146.127
0.574                   -1.32214        -161.274         -52.3788         1.78978         -52.3793         1.80264       -0.0133012         146.054
0.575                   -1.35136        -161.879         -52.2194        0.190944         -52.2202        0.210162       -0.0134489         145.981
0.576                   -1.38109        -162.486         -52.0621         -1.4163         -52.0631         -1.3908        -0.013599         145.908
0.577                   -1.41134        -163.097         -51.9069        -3.03211         -51.9081        -3.00043       -0.0137517         145.834
0.578                   -1.44212         -163.71         -51.7539        -4.65664         -51.7553        -4.61889       -0.0139068          145.76
0.579                   -1.47343        -164.325         -51.6031           -6.29         -51.6047         -6.2463       -0.0140646         145.686
0.58                    -1.50528        -164.944         -51.4548        -7.93227         -51.4565        -7.88278        -0.014225         145.612
0.581                   -1.53769        -165.565         -51.3088         -9.5835         -51.3107         -9.5284       -0.0143881         145.538
0.582                   -1.57066        -166.189         -51.1654        -11.2437         -51.1675        -11.1832        -0.014554         145.464
0.583                   -1.60421        -166.815         -51.0246         -12.913         -51.0268        -12.8472       -0.0147226         145.389
0.584                   -1.63834        -167.444         -50.8865        -14.5911         -50.8888        -14.5205       -0.0148941         145.314
0.585                   -1.67307        -168.077         -50.7511        -16.2782         -50.7535        -16.2029       -0.0150685         145.239
0.586                   -1.70841        -168.711         -50.6186        -17.9741          -50.621        -17.8944       -0.0152459         145.164
0.587                   -1.74436        -169.349         -50.4889        -19.6786         -50.4915        -19.5949       -0.0154263         145.089
0.588                   -1.78094        -169.989         -50.3623        -21.3917         -50.3649        -21.3043       -0.0156098         145.014
0.589                   -1.81816        -170.633         -50.2388        -23.1131         -50.2414        -23.0224       -0.0157964         144.938
0.59                    -1.85603        -171.279         -50.1183        -24.8427         -50.1209        -24.7491       -0.0159861         144.863
0.591                   -1.89457        -171.927         -50.0011        -26.5802         -50.0037        -26.4842       -0.0161791         144.787
0.592                   -1.93379        -172.579         -49.8872        -28.3253         -49.8897        -28.2274       -0.0163753         144.711
0.593                   -1.97369        -173.234         -49.7766        -30.0778         -49.7791        -29.9785       -0.0165749         144.634
0.594                    -2.0143        -173.891         -49.6694        -31.8374         -49.6718        -31.7372       -0.0167779         144.558
0.595                   -2.05563        -174.551         -49.5656        -33.6036          -49.568        -33.5033       -0.0169843         144.481
0.596                   -2.09768        -175.214         -49.4654        -35.3763         -49.4676        -35.2764       -0.0171941         144.405
0.597                   -2.14048         -175.88         -49.3687        -37.1551         -49.3708        -37.0563       -0.0174075         144.328
0.598                   -2.18404        -176.549         -49.2755        -38.9395         -49.2776        -38.8426       -0.0176245          144.25
0.599                   -2.22838         -177.22         -49.1861        -40.7292          -49.188        -40.6349       -0.0178452         144.173
0.6                      -2.2735        -177.895         -49.1003        -42.5238         -49.1021         -42.433       -0.0180695         144.095
0.601                   -2.31943        -178.572         -49.0182         -44.323         -49.0199        -44.2365       -0.0182976         144.018
0.602                   -2.36617        -179.252         -48.9399        -46.1263         -48.9414         -46.045       -0.0185294          143.94
0.603                   -2.41375        -179.935         -48.8653        -47.9334         -48.8666        -47.8583       -0.0187651         143.862
0.604                   -2.46219         179.379         -48.7945        -49.7439         -48.7956        -49.6761       -0.0190047         143.783
0.605                   -2.51149         178.691         -48.7275        -51.5575         -48.7285        -51.4979       -0.0192482         143.705
0.606                   -2.56168         177.999         -48.6643        -53.3738         -48.6651        -53.3236       -0.0194957         143.626
0.607                   -2.61278         177.305         -48.6049        -55.1924         -48.6055        -55.1529       -0.0197472         143.547
0.608                   -2.66479         176.608         -48.5493        -57.0132         -48.5497        -56.9855       -0.0200028         143.468
0.609                   -2.71775         175.908         -48.4976        -58.8359         -48.4978        -58.8213       -0.0202626         143.389
0.61                    -2.77167         175.206         -48.4496        -60.6602         -48.4496        -60.6602       -0.0205265         143.309
0.611                   -2.82657         174.501         -48.4055        -62.4859         -48.4052        -62.5019       -0.0207946         143.229
0.612                   -2.88246         173.793         -48.3651        -64.3129         -48.3647        -64.3465       -0.0210669         143.149
0.613                   -2.93938         173.082         -48.3285        -66.1412         -48.3278        -66.1939       -0.0213436         143.069
0.614                   -2.99733         172.369         -48.2957        -67.9707         -48.2947        -68.0442       -0.0216246         142.988
0.615                   -3.05635         171.653         -48.2667        -69.8014         -48.2654        -69.8976         -0.02191         142.908
0.616                   -3.11645         170.934         -48.2413        -71.6334         -48.2397        -71.7543       -0.0221999         142.827
0.617                   -3.17765         170.213         -48.2197         -73.467         -48.2177        -73.6145       -0.0224942         142.746
0.618                   -3.23998          169.49         -48.2018        -75.3025         -48.1994        -75.4787        -0.022793         142.664
0.619                   -3.30346         168.764         -48.1876        -77.1401         -48.1846        -77.3474       -0.0230964         142.583
0.62                    -3.36811         168.035          -48.177        -78.9803         -48.1734        -79.2211       -0.0234044         142.501
0.621                   -3.43396         167.305         -48.1701        -80.8238         -48.1658        -81.1005        -0.023717         142.419
0.622                   -3.50103         166.572         -48.1669        -82.6712         -48.1616        -82.9867       -0.0240343         142.336
0.623                   -3.56935         165.836         -48.1673        -84.5234          -48.161        -84.8805       -0.0243562         142.254
0.624                   -3.63894         165.099         -48.1712        -86.3814         -48.1637        -86.7833        -0.024683         142.171
0.625                   -3.70983         164.359         -48.1788        -88.2464         -48.1697        -88.6962       -0.0250145         142.088
0.626                   -3.78205         163.617           -48.19        -90.1197         -48.1791         -90.621       -0.0253509         142.005
0.627                   -3.85561         162.874         -48.2047         -92.003         -48.1916        -92.5595       -0.0256921         141.921
0.628                   -3.93056         162.128          -48.223         -93.898         -48.2073        -94.5136       -0.0260382         141.837
0.629                   -4.00692         161.381         -48.2448        -95.8069          -48.226        -96.4857       -0.0263893         141.753
