! TOUCHSTONE file generated by CST MICROWAVE STUDIO
! Date and time: Fri Oct  2 16:17:53 2020
! Project name: Scenario_1_Free_Space_out_of_line.cst
! Parameters = {Lambda=346.42; Step_1=17.321; dy1=-346; dx1=346; L_HA=400; MT=2.54; Rad_Dielectric=30; Rad_Lower=7.3; Rad_Upper=30; a_HA=580; a_WG=246; b_HA=500; b_WG=121; c_HA=0; c_WG=187; d_feed=85; h_feed=15; h_lower=18; h_upper=40}
! Header version: 2018
! Port assignment regex: !\s*Touchstone port\s*([0-9]+)\s*=\s*(CST MWS port|CST DS port)\s*([0-9]+|Zmin|Zmax)\s*\(\"(.*)\"\)(\s*mode\s*([0-9]+))?.*
! Touchstone port assignment:
! Touchstone port 1 = CST MWS port 1 ("")
! Touchstone port 2 = CST MWS port 2 ("")
# GHz S DB R 50
0.5                    -0.150481        -122.635         -63.4447         42.2507         -63.4172          41.982      -0.00682379         151.128
0.501                  -0.155983        -123.077         -63.2364         40.4652         -63.2103         40.2642      -0.00689778         151.062
0.502                  -0.161665         -123.52         -63.0292         38.6956         -63.0047         38.5526      -0.00697232         150.997
0.503                  -0.167531        -123.965         -62.8231         36.9406         -62.8004         36.8465       -0.0070474         150.931
0.504                  -0.173582        -124.412         -62.6181         35.1989         -62.5975         35.1452      -0.00712304         150.866
0.505                  -0.179822        -124.861         -62.4143         33.4692         -62.3958         33.4477      -0.00719923           150.8
0.506                  -0.186254        -125.312         -62.2117         31.7503         -62.1955         31.7535        -0.007276         150.735
0.507                  -0.192879        -125.765         -62.0103         30.0411         -61.9964         30.0618      -0.00735333         150.669
0.508                    -0.1997         -126.22         -61.8101         28.3404         -61.7986          28.372      -0.00743124         150.603
0.509                  -0.206721        -126.677         -61.6111         26.6473          -61.602         26.6834      -0.00750974         150.537
0.51                   -0.213944        -127.135         -61.4134         24.9606         -61.4067         24.9955      -0.00758882         150.471
0.511                  -0.221373        -127.596          -61.217         23.2795         -61.2126         23.3077       -0.0076685         150.405
0.512                  -0.229009        -128.059         -61.0218          21.603         -61.0197         21.6194      -0.00774878         150.339
0.513                  -0.236856        -128.524         -60.8279         19.9302         -60.8279         19.9302      -0.00782967         150.273
0.514                  -0.244917         -128.99         -60.6353         18.2603         -60.6374         18.2396      -0.00791118         150.206
0.515                  -0.253196        -129.459         -60.4439         16.5924          -60.448          16.547      -0.00799331          150.14
0.516                  -0.261695         -129.93         -60.2537         14.9258         -60.2597         14.8521      -0.00807606         150.073
0.517                  -0.270417        -130.403         -60.0647         13.2597         -60.0726         13.1544      -0.00815946         150.007
0.518                  -0.279366        -130.878          -59.877         11.5934         -59.8866         11.4535       -0.0082435          149.94
0.519                  -0.288546        -131.355         -59.6905         9.92624         -59.7016          9.7491      -0.00832819         149.873
0.52                   -0.297958        -131.834         -59.5052         8.25756         -59.5178         8.04077      -0.00841353         149.806
0.521                  -0.307608        -132.315         -59.3211         6.58672          -59.335         6.32821      -0.00849955          149.74
0.522                  -0.317499        -132.799         -59.1381         4.91315         -59.1533         4.61107      -0.00858624         149.673
0.523                  -0.327633        -133.284         -58.9563         3.23627         -58.9726         2.88907      -0.00867362         149.605
0.524                  -0.338016        -133.772         -58.7757         1.55554          -58.793         1.16192      -0.00876168         149.538
0.525                   -0.34865        -134.262         -58.5962       -0.129553         -58.6144       -0.570651      -0.00885045         149.471
0.526                  -0.359539        -134.754         -58.4178         -1.8195         -58.4368        -2.30889      -0.00893993         149.404
0.527                  -0.370688        -135.248         -58.2406        -3.51476         -58.2603        -4.05302      -0.00903012         149.336
0.528                  -0.382099        -135.745         -58.0644        -5.21578         -58.0847        -5.80327      -0.00912104         149.269
0.529                  -0.393778        -136.243         -57.8894        -6.92298         -57.9102        -7.55984       -0.0092127         149.201
0.53                   -0.405728        -136.744         -57.7154        -8.63676         -57.7366        -9.32291      -0.00930511         149.133
0.531                  -0.417954        -137.247         -57.5425        -10.3575          -57.564        -11.0926      -0.00939827         149.065
0.532                  -0.430459        -137.753         -57.3707        -12.0855         -57.3924        -12.8692       -0.0094922         148.998
0.533                  -0.443248         -138.26         -57.1999        -13.8212         -57.2218        -14.6527      -0.00958691          148.93
0.534                  -0.456326         -138.77         -57.0302        -15.5648         -57.0522        -16.4433       -0.0096824         148.861
0.535                  -0.469697        -139.283         -56.8616        -17.3166         -56.8836        -18.2411       -0.0097787         148.793
0.536                  -0.483365        -139.797         -56.6939        -19.0769         -56.7159        -20.0462       -0.0098758         148.725
0.537                  -0.497335        -140.314         -56.5274        -20.8459         -56.5492        -21.8586      -0.00997373         148.656
0.538                  -0.511613        -140.833         -56.3618        -22.6239         -56.3835        -23.6784       -0.0100725         148.588
0.539                  -0.526202        -141.355         -56.1973        -24.4111         -56.2187        -25.5057       -0.0101721         148.519
0.54                   -0.541108        -141.879         -56.0338        -26.2076          -56.055        -27.3405       -0.0102725         148.451
0.541                  -0.556336        -142.405         -55.8714        -28.0136         -55.8922        -29.1829       -0.0103739         148.382
0.542                  -0.571891        -142.934           -55.71        -29.8293         -55.7304        -31.0327       -0.0104761         148.313
0.543                  -0.587779        -143.465         -55.5496        -31.6547         -55.5696        -32.8901       -0.0105792         148.244
0.544                  -0.604003        -143.999         -55.3902          -33.49         -55.4098         -34.755       -0.0106832         148.175
0.545                  -0.620571        -144.535         -55.2319        -35.3352          -55.251        -36.6273       -0.0107882         148.105
0.546                  -0.637488        -145.073         -55.0746        -37.1904         -55.0932         -38.507        -0.010894         148.036
0.547                  -0.654758        -145.614         -54.9184        -39.0556         -54.9364         -40.394       -0.0110009         147.967
0.548                  -0.672389        -146.157         -54.7632        -40.9308         -54.7807        -42.2883       -0.0111086         147.897
0.549                  -0.690385        -146.703         -54.6091        -42.8161         -54.6259        -44.1898       -0.0112174         147.827
0.55                   -0.708753        -147.251          -54.456        -44.7114         -54.4722        -46.0984       -0.0113272         147.757
0.551                  -0.727499        -147.802          -54.304        -46.6166         -54.3195        -48.0138        -0.011438         147.687
0.552                   -0.74663        -148.356          -54.153        -48.5317         -54.1678        -49.9361       -0.0115498         147.617
0.553                  -0.766151        -148.911         -54.0031        -50.4565         -54.0171        -51.8651       -0.0116626         147.547
0.554                  -0.786068         -149.47         -53.8543         -52.391         -53.8676        -53.8005       -0.0117766         147.477
0.555                   -0.80639        -150.031         -53.7066        -54.3351          -53.719        -55.7424       -0.0118915         147.407
0.556                  -0.827121        -150.594           -53.56        -56.2885         -53.5715        -57.6903       -0.0120076         147.336
0.557                   -0.84827         -151.16         -53.4144        -58.2511         -53.4251        -59.6443       -0.0121248         147.265
0.558                  -0.869842        -151.729           -53.27        -60.2227         -53.2797         -61.604       -0.0122432         147.195
0.559                  -0.891846          -152.3         -53.1267         -62.203         -53.1354        -63.5693       -0.0123627         147.124
0.56                   -0.914288        -152.874         -52.9845         -64.192         -52.9922          -65.54       -0.0124833         147.053
0.561                  -0.937175         -153.45         -52.8434        -66.1892         -52.8501        -67.5158       -0.0126052         146.982
0.562                  -0.960516        -154.029         -52.7035        -68.1944          -52.709        -69.4964       -0.0127283          146.91
0.563                  -0.984317        -154.611         -52.5646        -70.2073          -52.569        -71.4817       -0.0128526         146.839
0.564                   -1.00859        -155.195         -52.4269        -72.2277         -52.4301        -73.4714       -0.0129781         146.767
0.565                   -1.03333        -155.782         -52.2904        -74.2552         -52.2922        -75.4653        -0.013105         146.696
0.566                   -1.05857        -156.372          -52.155        -76.2894         -52.1554         -77.463       -0.0132331         146.624
0.567                   -1.08429        -156.964         -52.0207        -78.3301         -52.0197        -79.4642       -0.0133626         146.552
0.568                   -1.11051        -157.559         -51.8876        -80.3768         -51.8851        -81.4689       -0.0134934          146.48
0.569                   -1.13725        -158.157         -51.7555        -82.4292         -51.7515        -83.4765       -0.0136256         146.408
0.57                     -1.1645        -158.757         -51.6247        -84.4869          -51.619        -85.4869       -0.0137591         146.335
0.571                   -1.19228         -159.36         -51.4949        -86.5494         -51.4875        -87.4998       -0.0138941         146.263
0.572                    -1.2206        -159.965         -51.3663        -88.6165         -51.3571        -89.5149       -0.0140306          146.19
0.573                   -1.24946        -160.574         -51.2388        -90.6875         -51.2278        -91.5319       -0.0141685         146.117
0.574                   -1.27888        -161.185         -51.1124        -92.7623         -51.0994        -93.5505       -0.0143079         146.044
0.575                   -1.30886        -161.798         -50.9871        -94.8402         -50.9721        -95.5704       -0.0144489         145.971
0.576                   -1.33941        -162.414         -50.8629         -96.921         -50.8458        -97.5913       -0.0145914         145.898
0.577                   -1.37055        -163.033         -50.7398        -99.0041         -50.7205         -99.613       -0.0147355         145.825
0.578                   -1.40228        -163.655         -50.6178        -101.089         -50.5961        -101.635       -0.0148813         145.751
0.579                   -1.43461         -164.28         -50.4968        -103.176         -50.4728        -103.658       -0.0150286         145.677
0.58                    -1.46756        -164.907         -50.3768        -105.263         -50.3504         -105.68       -0.0151777         145.604
0.581                   -1.50113        -165.536         -50.2578        -107.351         -50.2289        -107.702       -0.0153285          145.53
0.582                   -1.53534        -166.169         -50.1399         -109.44         -50.1084        -109.723        -0.015481         145.455
0.583                   -1.57019        -166.804         -50.0229        -111.528         -49.9888        -111.743       -0.0156353         145.381
0.584                    -1.6057        -167.442         -49.9069        -113.615           -49.87        -113.763       -0.0157915         145.307
0.585                   -1.64188        -168.082         -49.7918        -115.701         -49.7522        -115.781       -0.0159495         145.232
0.586                   -1.67874        -168.725         -49.6776        -117.786         -49.6352        -117.797       -0.0161094         145.157
0.587                   -1.71629        -169.371         -49.5643        -119.869          -49.519        -119.811       -0.0162712         145.082
0.588                   -1.75454        -170.019         -49.4519         -121.95         -49.4036        -121.823        -0.016435         145.007
0.589                   -1.79351         -170.67         -49.3402        -124.028          -49.289        -123.833       -0.0166009         144.932
0.59                    -1.83321        -171.324         -49.2294        -126.103         -49.1752        -125.841       -0.0167688         144.856
0.591                   -1.87364         -171.98         -49.1194        -128.175         -49.0621        -127.845       -0.0169388          144.78
0.592                   -1.91483        -172.639         -49.0101        -130.243         -48.9497        -129.847       -0.0171109         144.705
0.593                   -1.95678          -173.3         -48.9015        -132.307          -48.838        -131.846       -0.0172852         144.629
0.594                   -1.99951        -173.964         -48.7936        -134.367          -48.727        -133.841       -0.0174618         144.552
0.595                   -2.04302        -174.631         -48.6864        -136.422         -48.6166        -135.833       -0.0176406         144.476
0.596                   -2.08735          -175.3         -48.5797        -138.473         -48.5069        -137.821       -0.0178218         144.399
0.597                   -2.13249        -175.971         -48.4737        -140.518         -48.3977        -139.806       -0.0180054         144.323
0.598                   -2.17846        -176.645         -48.3682        -142.558         -48.2892        -141.787       -0.0181914         144.246
0.599                   -2.22527        -177.321         -48.2633        -144.592         -48.1811        -143.764       -0.0183799         144.168
0.6                     -2.27295            -178         -48.1588         -146.62         -48.0736        -145.736       -0.0185709         144.091
0.601                    -2.3215        -178.681         -48.0549        -148.643         -47.9666        -147.705       -0.0187646         144.013
0.602                   -2.37093        -179.364         -47.9513        -150.659         -47.8601        -149.669       -0.0189609         143.936
0.603                   -2.42127          179.95         -47.8481        -152.669          -47.754        -151.629       -0.0191599         143.858
0.604                   -2.47253         179.262         -47.7454        -154.672         -47.6483        -153.584       -0.0193617          143.78
0.605                   -2.52472         178.572         -47.6429        -156.669         -47.5431        -155.535       -0.0195663         143.701
0.606                   -2.57785         177.879         -47.5408        -158.659         -47.4382        -157.482       -0.0197739         143.623
0.607                   -2.63195         177.185         -47.4389        -160.642         -47.3337        -159.424       -0.0199844         143.544
0.608                   -2.68703         176.488         -47.3373        -162.618         -47.2295        -161.361        -0.020198         143.465
0.609                    -2.7431         175.789          -47.236        -164.587         -47.1256        -163.293       -0.0204147         143.386
0.61                    -2.80018         175.089         -47.1348         -166.55          -47.022        -165.221       -0.0206346         143.306
0.611                   -2.85829         174.386         -47.0338        -168.505         -46.9187        -167.145       -0.0208577         143.226
0.612                   -2.91744         173.681         -46.9329        -170.453         -46.8156        -169.063       -0.0210842         143.146
0.613                   -2.97765         172.975         -46.8321        -172.394         -46.7128        -170.977       -0.0213141         143.066
0.614                   -3.03894         172.267         -46.7315        -174.328         -46.6101        -172.887       -0.0215476         142.986
0.615                   -3.10132         171.557         -46.6309        -176.255         -46.5076        -174.792       -0.0217846         142.905
0.616                   -3.16481         170.845         -46.5304        -178.175         -46.4054        -176.692       -0.0220252         142.825
0.617                   -3.22943         170.132         -46.4299         179.912         -46.3032        -178.588       -0.0222697         142.743
0.618                   -3.29519         169.417         -46.3294         178.006         -46.2012         179.521        -0.022518         142.662
0.619                   -3.36211         168.701         -46.2288         176.107         -46.0993         177.634       -0.0227702         142.581
0.62                    -3.43022         167.983         -46.1283         174.215         -45.9975         175.752       -0.0230265         142.499
0.621                   -3.49952         167.264         -46.0277         172.329         -45.8958         173.873       -0.0232869         142.417
0.622                   -3.57004         166.544          -45.927         170.449         -45.7941         171.999       -0.0235516         142.334
0.623                   -3.64179         165.823         -45.8262         168.577         -45.6925         170.129       -0.0238206         142.252
0.624                    -3.7148         165.101         -45.7254          166.71          -45.591         168.263       -0.0240941         142.169
0.625                   -3.78908         164.378         -45.6244          164.85         -45.4895         166.401       -0.0243722         142.086
0.626                   -3.86465         163.654         -45.5233         162.995          -45.388         164.542        -0.024655         142.002
0.627                   -3.94152          162.93         -45.4221         161.147         -45.2865         162.687       -0.0249425         141.919
0.628                   -4.01973         162.204         -45.3207         159.304          -45.185         160.836       -0.0252351         141.835
0.629                   -4.09928         161.479         -45.2191         157.467         -45.0835         158.989       -0.0255326         141.751
