! TOUCHSTONE file generated by CST MICROWAVE STUDIO
! Date and time: Fri Oct  2 16:34:01 2020
! Project name: Scenario_1_Free_Space_out_of_line.cst
! Parameters = {Lambda=346.42; Step_1=17.321; dy1=-346; dx1=520; L_HA=400; MT=2.54; Rad_Dielectric=30; Rad_Lower=7.3; Rad_Upper=30; a_HA=580; a_WG=246; b_HA=500; b_WG=121; c_HA=0; c_WG=187; d_feed=85; h_feed=15; h_lower=18; h_upper=40}
! Header version: 2018
! Port assignment regex: !\s*Touchstone port\s*([0-9]+)\s*=\s*(CST MWS port|CST DS port)\s*([0-9]+|Zmin|Zmax)\s*\(\"(.*)\"\)(\s*mode\s*([0-9]+))?.*
! Touchstone port assignment:
! Touchstone port 1 = CST MWS port 1 ("")
! Touchstone port 2 = CST MWS port 2 ("")
# GHz S DB R 50
0.5                    -0.146455        -122.491         -64.3527        -50.3928         -64.3527        -50.3928      -0.00645854          151.16
0.501                  -0.151021        -122.952         -64.3582        -51.9755         -64.3588        -51.9738      -0.00650564         151.095
0.502                  -0.155886        -123.415         -64.3609        -53.5928         -64.3621        -53.5894      -0.00655385          151.03
0.503                  -0.161051        -123.879         -64.3604        -55.2449         -64.3622          -55.24      -0.00660317         150.965
0.504                  -0.166516        -124.345         -64.3564        -56.9319         -64.3589        -56.9256      -0.00665362         150.899
0.505                  -0.172281        -124.813         -64.3487         -58.654         -64.3519        -58.6465      -0.00670521         150.834
0.506                  -0.178348        -125.281         -64.3371        -60.4109         -64.3409        -60.4025      -0.00675795         150.768
0.507                  -0.184716        -125.751         -64.3211        -62.2026         -64.3256        -62.1934      -0.00681186         150.702
0.508                  -0.191385        -126.223         -64.3005        -64.0287         -64.3057        -64.0188      -0.00686695         150.637
0.509                  -0.198357        -126.696          -64.275        -65.8887         -64.2809        -65.8784      -0.00692323         150.571
0.51                    -0.20563         -127.17         -64.2443        -67.7819         -64.2509        -67.7715      -0.00698071         150.505
0.511                  -0.213206        -127.646         -64.2081        -69.7075         -64.2153        -69.6972      -0.00703942         150.439
0.512                  -0.221085        -128.123          -64.166        -71.6645          -64.174        -71.6545      -0.00709935         150.373
0.513                  -0.229266        -128.602         -64.1178        -73.6519         -64.1264        -73.6424      -0.00716053         150.307
0.514                   -0.23775        -129.082         -64.0631        -75.6681         -64.0724        -75.6594      -0.00722297         150.241
0.515                  -0.246538        -129.563         -64.0018        -77.7118         -64.0117        -77.7041      -0.00728668         150.174
0.516                  -0.255629        -130.046         -63.9334        -79.7812          -63.944        -79.7747      -0.00735167         150.108
0.517                  -0.265023         -130.53         -63.8579        -81.8744         -63.8691        -81.8695      -0.00741795         150.042
0.518                  -0.274721        -131.016         -63.7749        -83.9896         -63.7866        -83.9863      -0.00748555         149.975
0.519                  -0.284722        -131.503         -63.6842        -86.1245         -63.6965        -86.1231      -0.00755447         149.908
0.52                   -0.295027        -131.992         -63.5858        -88.2769         -63.5986        -88.2776      -0.00762473         149.842
0.521                  -0.305637        -132.482         -63.4793        -90.4444         -63.4926        -90.4474      -0.00769633         149.775
0.522                   -0.31655        -132.973         -63.3648        -92.6247         -63.3785          -92.63       -0.0077693         149.708
0.523                  -0.327768        -133.466         -63.2422        -94.8151         -63.2563         -94.823      -0.00784364         149.641
0.524                   -0.33929         -133.96         -63.1113        -97.0133         -63.1258        -97.0238      -0.00791938         149.574
0.525                  -0.351117        -134.456         -62.9722        -99.2167          -62.987        -99.2299      -0.00799651         149.507
0.526                  -0.363249        -134.953          -62.825        -101.423           -62.84        -101.439      -0.00807506         149.439
0.527                  -0.375685        -135.452         -62.6696        -103.629         -62.6849        -103.648      -0.00815504         149.372
0.528                  -0.388427        -135.952         -62.5063        -105.833         -62.5217        -105.855      -0.00823646         149.304
0.529                  -0.401474        -136.454          -62.335        -108.033         -62.3505        -108.058      -0.00831934         149.237
0.53                   -0.414826        -136.957         -62.1559        -110.226         -62.1715        -110.254      -0.00840369         149.169
0.531                  -0.428485        -137.462         -61.9693        -112.411         -61.9849        -112.441      -0.00848952         149.101
0.532                  -0.442449        -137.968         -61.7753        -114.586         -61.7909        -114.618      -0.00857684         149.034
0.533                  -0.456721        -138.476         -61.5742        -116.748         -61.5897        -116.783      -0.00866568         148.966
0.534                  -0.471299        -138.985         -61.3662        -118.897         -61.3816        -118.934      -0.00875604         148.898
0.535                  -0.486184        -139.496         -61.1515        -121.031         -61.1667        -121.071      -0.00884794         148.829
0.536                  -0.501378        -140.009         -60.9304        -123.149         -60.9455        -123.191      -0.00894139         148.761
0.537                   -0.51688        -140.523         -60.7032        -125.251          -60.718        -125.294       -0.0090364         148.693
0.538                   -0.53269        -141.038         -60.4702        -127.334         -60.4847        -127.379        -0.009133         148.624
0.539                  -0.548811        -141.556         -60.2316          -129.4         -60.2459        -129.446      -0.00923118         148.556
0.54                   -0.565242        -142.075         -59.9877        -131.447         -60.0017        -131.494      -0.00933098         148.487
0.541                  -0.581984        -142.595         -59.7388        -133.475         -59.7525        -133.523      -0.00943239         148.419
0.542                  -0.599038        -143.117         -59.4852        -135.485         -59.4985        -135.533      -0.00953544          148.35
0.543                  -0.616405        -143.641         -59.2272        -137.475           -59.24        -137.524      -0.00964014         148.281
0.544                  -0.634086        -144.167         -58.9649        -139.448         -58.9773        -139.497      -0.00974651         148.212
0.545                  -0.652082        -144.694         -58.6987        -141.402         -58.7107        -141.451      -0.00985455         148.142
0.546                  -0.670395        -145.224         -58.4287        -143.339         -58.4403        -143.387      -0.00996429         148.073
0.547                  -0.689025        -145.754         -58.1553        -145.259         -58.1663        -145.307       -0.0100757         148.004
0.548                  -0.707975        -146.287         -57.8786        -147.163         -57.8891         -147.21       -0.0101889         147.934
0.549                  -0.727246        -146.822         -57.5988        -149.051         -57.6089        -149.098       -0.0103038         147.865
0.55                   -0.746838        -147.358         -57.3161        -150.926         -57.3257        -150.971       -0.0104205         147.795
0.551                  -0.766755        -147.896         -57.0308        -152.787         -57.0398         -152.83       -0.0105389         147.725
0.552                  -0.786999        -148.437         -56.7429        -154.635         -56.7514        -154.677       -0.0106591         147.655
0.553                   -0.80757        -148.979         -56.4527        -156.472         -56.4607        -156.512       -0.0107811         147.585
0.554                  -0.828472        -149.523         -56.1602          -158.3         -56.1677        -158.338       -0.0109049         147.515
0.555                  -0.849708        -150.069         -55.8658        -160.118         -55.8727        -160.154       -0.0110305         147.445
0.556                  -0.871278        -150.617         -55.5694         -161.93         -55.5757        -161.963        -0.011158         147.374
0.557                  -0.893187        -151.167         -55.2712        -163.735         -55.2769        -163.765       -0.0112874         147.304
0.558                  -0.915437        -151.719         -54.9713        -165.535         -54.9765        -165.562       -0.0114186         147.233
0.559                  -0.938031        -152.273         -54.6699        -167.331         -54.6744        -167.356       -0.0115517         147.162
0.56                   -0.960973         -152.83          -54.367        -169.126         -54.3709        -169.148       -0.0116867         147.091
0.561                  -0.984267        -153.388         -54.0627         -170.92         -54.0661        -170.939       -0.0118236          147.02
0.562                   -1.00791        -153.949         -53.7573        -172.716         -53.7599        -172.731       -0.0119625         146.949
0.563                   -1.03192        -154.512         -53.4506        -174.513         -53.4527        -174.525       -0.0121034         146.878
0.564                   -1.05629        -155.077         -53.1429        -176.315         -53.1443        -176.323       -0.0122462         146.806
0.565                   -1.08103        -155.645         -52.8343        -178.122          -52.835        -178.126        -0.012391         146.735
0.566                   -1.10614        -156.215         -52.5248        -179.937         -52.5248        -179.937       -0.0125378         146.663
0.567                   -1.13162        -156.787         -52.2145          178.24         -52.2138         178.244       -0.0126866         146.591
0.568                   -1.15749        -157.362         -51.9036         176.407         -51.9021         176.415       -0.0128375         146.519
0.569                   -1.18375        -157.939         -51.5921         174.561         -51.5899         174.574       -0.0129904         146.447
0.57                     -1.2104        -158.519         -51.2801         172.702         -51.2771         172.719       -0.0131454         146.375
0.571                   -1.23745        -159.102         -50.9679         170.827         -50.9641         170.848       -0.0133026         146.303
0.572                   -1.26491        -159.686         -50.6554         168.936         -50.6508         168.961       -0.0134618          146.23
0.573                   -1.29278        -160.274         -50.3429         167.025         -50.3374         167.055       -0.0136231         146.158
0.574                   -1.32107        -160.864         -50.0304         165.094          -50.024         165.128       -0.0137867         146.085
0.575                   -1.34978        -161.457         -49.7182         163.141         -49.7109         163.179       -0.0139523         146.012
0.576                   -1.37894        -162.053         -49.4065         161.164         -49.3982         161.207       -0.0141202         145.939
0.577                   -1.40853        -162.651         -49.0953         159.161          -49.086         159.208       -0.0142903         145.866
0.578                   -1.43858        -163.253         -48.7849         157.131         -48.7746         157.182       -0.0144626         145.792
0.579                   -1.46909        -163.857         -48.4756         155.071         -48.4642         155.127       -0.0146372         145.719
0.58                    -1.50007        -164.464         -48.1676         152.981         -48.1551         153.041        -0.014814         145.645
0.581                   -1.53154        -165.074         -47.8611         150.859         -47.8474         150.923       -0.0149932         145.572
0.582                   -1.56349        -165.688         -47.5564         148.704         -47.5416         148.771       -0.0151746         145.498
0.583                   -1.59595        -166.304          -47.254         146.513         -47.2379         146.583       -0.0153584         145.424
0.584                   -1.62891        -166.923          -46.954         144.285         -46.9366         144.359       -0.0155445         145.349
0.585                   -1.66241        -167.546         -46.6569          142.02         -46.6381         142.097       -0.0157331         145.275
0.586                   -1.69644        -168.172          -46.363         139.716         -46.3429         139.796        -0.015924           145.2
0.587                   -1.73102        -168.801         -46.0728         137.373         -46.0513         137.455       -0.0161174         145.126
0.588                   -1.76616        -169.433         -45.7867          134.99         -45.7638         135.073       -0.0163132         145.051
0.589                   -1.80189        -170.069         -45.5052         132.566         -45.4807         132.651       -0.0165115         144.976
0.59                     -1.8382        -170.708         -45.2287         130.101         -45.2027         130.187       -0.0167122         144.901
0.591                   -1.87512         -171.35         -44.9577         127.595         -44.9303         127.682       -0.0169156         144.825
0.592                   -1.91267        -171.996         -44.6928          125.05         -44.6638         125.135       -0.0171214          144.75
0.593                   -1.95085        -172.645         -44.4345         122.465          -44.404         122.549       -0.0173299         144.674
0.594                   -1.98969        -173.298         -44.1833         119.841         -44.1512         119.924       -0.0175409         144.598
0.595                    -2.0292        -173.955         -43.9397         117.181         -43.9061         117.262       -0.0177546         144.522
0.596                    -2.0694        -174.615         -43.7042         114.486         -43.6691         114.564       -0.0179709         144.446
0.597                   -2.11032        -175.278         -43.4774         111.759         -43.4407         111.833         -0.01819         144.369
0.598                   -2.15196        -175.946         -43.2596         109.002         -43.2215         109.071       -0.0184117         144.293
0.599                   -2.19436        -176.617         -43.0513         106.218         -43.0118         106.283       -0.0186362         144.216
0.6                     -2.23752        -177.291         -42.8529         103.411         -42.8121          103.47       -0.0188634         144.139
0.601                   -2.28148         -177.97         -42.6647         100.585         -42.6226         100.637       -0.0190935         144.062
0.602                   -2.32626        -178.652         -42.4869         97.7433         -42.4437         97.7885       -0.0193264         143.985
0.603                   -2.37187        -179.338         -42.3199         94.8907         -42.2756         94.9283       -0.0195621         143.907
0.604                   -2.41834         179.972         -42.1636         92.0316         -42.1184         92.0611       -0.0198008         143.829
0.605                    -2.4657         179.279         -42.0182         89.1706         -41.9721         89.1915       -0.0200423         143.752
0.606                   -2.51398         178.581         -41.8836         86.3122         -41.8368         86.3243       -0.0202868         143.674
0.607                   -2.56319          177.88         -41.7598         83.4611         -41.7124          83.464       -0.0205343         143.595
0.608                   -2.61337         177.175         -41.6465         80.6216         -41.5987         80.6152       -0.0207849         143.517
0.609                   -2.66454         176.467         -41.5435         77.7981         -41.4954         77.7823       -0.0210385         143.438
0.61                    -2.71673         175.754         -41.4506         74.9946         -41.4023         74.9695       -0.0212952         143.359
0.611                   -2.76997         175.038         -41.3673         72.2149         -41.3189         72.1806        -0.021555          143.28
0.612                   -2.82429         174.318         -41.2932         69.4625         -41.2449         69.4191        -0.021818         143.201
0.613                   -2.87972         173.595         -41.2279         66.7405         -41.1797         66.6882       -0.0220843         143.121
0.614                    -2.9363         172.867         -41.1708         64.0516          -41.123         63.9908       -0.0223537         143.041
0.615                   -2.99404         172.136         -41.1215         61.3982         -41.0741         61.3291       -0.0226265         142.961
0.616                     -3.053         171.402         -41.0794         58.7822         -41.0325         58.7053       -0.0229026         142.881
0.617                   -3.11319         170.664          -41.044         56.2051         -40.9976         56.1209       -0.0231822         142.801
0.618                   -3.17466         169.923         -41.0147         53.6683          -40.969         53.5772       -0.0234651          142.72
0.619                   -3.23744         169.178         -40.9909         51.1724         -40.9459          51.075       -0.0237516         142.639
0.62                    -3.30156          168.43         -40.9722         48.7181          -40.928         48.6148       -0.0240415         142.558
0.621                   -3.36706         167.679          -40.958         46.3056         -40.9146         46.1969       -0.0243351         142.477
0.622                   -3.43398         166.925         -40.9477         43.9348         -40.9053         43.8213       -0.0246323         142.395
0.623                   -3.50235         166.168          -40.941         41.6053         -40.8995         41.4875       -0.0249332         142.313
0.624                   -3.57221         165.408         -40.9374         39.3168         -40.8969         39.1951       -0.0252378         142.231
0.625                    -3.6436         164.645         -40.9364         37.0684         -40.8969         36.9434       -0.0255463         142.149
0.626                   -3.71656          163.88         -40.9377         34.8593         -40.8991         34.7315       -0.0258586         142.066
0.627                   -3.79112         163.113         -40.9407         32.6885         -40.9032         32.5583       -0.0261748         141.984
0.628                   -3.86732         162.343         -40.9453          30.555         -40.9088         30.4228        -0.026495           141.9
0.629                    -3.9452         161.572          -40.951         28.4574         -40.9155         28.3238       -0.0268193         141.817
