! TOUCHSTONE file generated by CST MICROWAVE STUDIO
! Date and time: Fri Oct  2 17:01:27 2020
! Project name: Scenario_1_Free_Space_out_of_line.cst
! Parameters = {Lambda=346.42; Step_1=17.321; dy1=-346; dx1=693; L_HA=400; MT=2.54; Rad_Dielectric=30; Rad_Lower=7.3; Rad_Upper=30; a_HA=580; a_WG=246; b_HA=500; b_WG=121; c_HA=0; c_WG=187; d_feed=85; h_feed=15; h_lower=18; h_upper=40}
! Header version: 2018
! Port assignment regex: !\s*Touchstone port\s*([0-9]+)\s*=\s*(CST MWS port|CST DS port)\s*([0-9]+|Zmin|Zmax)\s*\(\"(.*)\"\)(\s*mode\s*([0-9]+))?.*
! Touchstone port assignment:
! Touchstone port 1 = CST MWS port 1 ("")
! Touchstone port 2 = CST MWS port 2 ("")
# GHz S DB R 50
0.5                    -0.149911        -122.548         -64.8218        -142.551         -64.8218        -142.551      -0.00672506          151.15
0.501                  -0.155961        -122.984         -64.6551        -144.682         -64.6552        -144.682      -0.00679171         151.084
0.502                  -0.162151        -123.422          -64.486        -146.813         -64.4862        -146.813      -0.00685889         151.019
0.503                  -0.168484        -123.862         -64.3146        -148.943         -64.3149        -148.943      -0.00692663         150.954
0.504                  -0.174964        -124.304         -64.1411        -151.073         -64.1414        -151.073      -0.00699492         150.888
0.505                  -0.181594        -124.749         -63.9655        -153.202         -63.9659        -153.202      -0.00706377         150.823
0.506                  -0.188378        -125.195         -63.7879        -155.331         -63.7884        -155.331      -0.00713319         150.757
0.507                  -0.195321        -125.644         -63.6085         -157.46          -63.609         -157.46      -0.00720319         150.691
0.508                  -0.202426        -126.094         -63.4273        -159.588         -63.4279        -159.588      -0.00727376         150.625
0.509                  -0.209697        -126.547         -63.2445        -161.715         -63.2451        -161.715      -0.00734493         150.559
0.51                   -0.217138        -127.002           -63.06        -163.843         -63.0608        -163.842      -0.00741668         150.493
0.511                  -0.224755         -127.46         -62.8742         -165.97         -62.8749         -165.97      -0.00748904         150.427
0.512                   -0.23255        -127.919         -62.6869        -168.097         -62.6877        -168.096      -0.00756201         150.361
0.513                  -0.240529        -128.381         -62.4984        -170.223         -62.4992        -170.223      -0.00763559         150.295
0.514                  -0.248696        -128.845         -62.3087        -172.351         -62.3096         -172.35       -0.0077098         150.229
0.515                  -0.257055        -129.311          -62.118        -174.478         -62.1188        -174.478      -0.00778464         150.162
0.516                  -0.265611         -129.78         -61.9262        -176.606         -61.9271        -176.606      -0.00786012         150.096
0.517                   -0.27437         -130.25         -61.7335        -178.735         -61.7344        -178.735      -0.00793625         150.029
0.518                  -0.283335        -130.724         -61.5401         179.136          -61.541         179.136      -0.00801303         149.963
0.519                  -0.292512        -131.199         -61.3459         177.005         -61.3468         177.005      -0.00809048         149.896
0.52                   -0.301906        -131.677         -61.1511         174.872          -61.152         174.872       -0.0081686         149.829
0.521                  -0.311522        -132.157         -60.9558         172.739         -60.9567         172.738      -0.00824741         149.762
0.522                  -0.321365         -132.64           -60.76         170.603         -60.7609         170.603      -0.00832691         149.695
0.523                  -0.331441        -133.125         -60.5638         168.465         -60.5647         168.465       -0.0084071         149.628
0.524                  -0.341754        -133.612         -60.3673         166.325         -60.3682         166.325      -0.00848801         149.561
0.525                  -0.352311        -134.102         -60.1706         164.182         -60.1715         164.182      -0.00856964         149.494
0.526                  -0.363117        -134.594         -59.9738         162.037         -59.9747         162.037        -0.008652         149.427
0.527                  -0.374177        -135.088          -59.777         159.888         -59.7778         159.888       -0.0087351         149.359
0.528                  -0.385498        -135.585         -59.5801         157.737         -59.5809         157.736      -0.00881895         149.292
0.529                  -0.397085        -136.085         -59.3834         155.581         -59.3842         155.581      -0.00890357         149.224
0.53                   -0.408945        -136.587         -59.1868         153.423         -59.1876         153.423      -0.00898896         149.156
0.531                  -0.421082        -137.091         -58.9904          151.26         -58.9912          151.26      -0.00907514         149.088
0.532                  -0.433504        -137.598         -58.7944         149.093         -58.7952         149.093      -0.00916211          149.02
0.533                  -0.446217        -138.108         -58.5988         146.923         -58.5995         146.923       -0.0092499         148.952
0.534                  -0.459226         -138.62         -58.4036         144.747         -58.4043         144.747      -0.00933851         148.884
0.535                  -0.472539        -139.134         -58.2089         142.568         -58.2096         142.568      -0.00942795         148.816
0.536                  -0.486161        -139.651         -58.0148         140.383         -58.0155         140.383      -0.00951824         148.748
0.537                  -0.500099        -140.171         -57.8214         138.194          -57.822         138.194       -0.0096094         148.679
0.538                   -0.51436        -140.693         -57.6287             136         -57.6292             136      -0.00970144         148.611
0.539                   -0.52895        -141.217         -57.4368         133.801         -57.4373         133.801      -0.00979437         148.542
0.54                   -0.543876        -141.744         -57.2456         131.597         -57.2461         131.597      -0.00988821         148.473
0.541                  -0.559145        -142.274         -57.0554         129.387         -57.0558         129.387      -0.00998297         148.405
0.542                  -0.574765        -142.806         -56.8661         127.173         -56.8665         127.173       -0.0100787         148.336
0.543                   -0.59074        -143.341         -56.6779         124.953         -56.6782         124.953       -0.0101753         148.267
0.544                   -0.60708        -143.878         -56.4907         122.728          -56.491         122.728        -0.010273         148.197
0.545                   -0.62379        -144.418         -56.3045         120.498         -56.3048         120.498       -0.0103716         148.128
0.546                  -0.640878        -144.961         -56.1196         118.263         -56.1198         118.263       -0.0104712         148.059
0.547                   -0.65835        -145.506         -55.9358         116.023          -55.936         116.023       -0.0105719         147.989
0.548                  -0.676215        -146.053         -55.7533         113.777         -55.7535         113.777       -0.0106736         147.919
0.549                   -0.69448        -146.603         -55.5721         111.526         -55.5722         111.526       -0.0107764          147.85
0.55                    -0.71315        -147.156         -55.3922         109.271         -55.3923         109.271       -0.0108803          147.78
0.551                  -0.732235        -147.711         -55.2137         107.011         -55.2137         107.011       -0.0109853          147.71
0.552                   -0.75174        -148.268         -55.0365         104.746         -55.0365         104.746       -0.0110914          147.64
0.553                  -0.771674        -148.829         -54.8608         102.476         -54.8608         102.476       -0.0111987          147.57
0.554                  -0.792044        -149.391         -54.6866         100.202         -54.6865         100.202       -0.0113072         147.499
0.555                  -0.812856        -149.956         -54.5139         97.9239         -54.5138         97.9238       -0.0114169         147.429
0.556                  -0.834119        -150.524         -54.3427         95.6416         -54.3425         95.6415       -0.0115278         147.358
0.557                  -0.855839        -151.094          -54.173         93.3555         -54.1728         93.3554         -0.01164         147.287
0.558                  -0.878023        -151.667         -54.0048         91.0657         -54.0046         91.0655       -0.0117535         147.217
0.559                   -0.90068        -152.242         -53.8383         88.7725          -53.838         88.7722       -0.0118684         147.146
0.56                   -0.923816        -152.819         -53.6733          86.476          -53.673         86.4757       -0.0119846         147.075
0.561                  -0.947438        -153.399         -53.5099         84.1765         -53.5096         84.1762       -0.0121021         147.003
0.562                  -0.971553        -153.982         -53.3481         81.8743         -53.3478         81.8739       -0.0122212         146.932
0.563                  -0.996169        -154.567         -53.1879         79.5695         -53.1876         79.5691       -0.0123416          146.86
0.564                   -1.02129        -155.154         -53.0293         77.2625         -53.0289         77.2621       -0.0124636         146.789
0.565                   -1.04693        -155.743         -52.8723         74.9535         -52.8719          74.953       -0.0125872         146.717
0.566                   -1.07309        -156.335         -52.7169         72.6426         -52.7165         72.6421       -0.0127123         146.645
0.567                   -1.09977        -156.929         -52.5631         70.3303         -52.5626         70.3297        -0.012839         146.573
0.568                   -1.12699        -157.526         -52.4108         68.0167         -52.4104          68.016       -0.0129674         146.501
0.569                   -1.15475        -158.125         -52.2601         65.7021         -52.2597         65.7014       -0.0130976         146.429
0.57                    -1.18306        -158.726         -52.1109         63.3867         -52.1105         63.3859       -0.0132295         146.356
0.571                   -1.21192        -159.329         -51.9633         61.0708         -51.9628           61.07       -0.0133632         146.283
0.572                   -1.24134        -159.935         -51.8171         58.7546         -51.8167         58.7537       -0.0134988         146.211
0.573                   -1.27133        -160.542         -51.6724         56.4383          -51.672         56.4374       -0.0136364         146.138
0.574                   -1.30188        -161.152         -51.5292         54.1223         -51.5287         54.1213       -0.0137759         146.065
0.575                   -1.33302        -161.764         -51.3874         51.8066         -51.3869         51.8055       -0.0139175         145.991
0.576                   -1.36473        -162.379         -51.2469         49.4915         -51.2464         49.4904       -0.0140613         145.918
0.577                   -1.39704        -162.995         -51.1078         47.1772         -51.1073         47.1761       -0.0142072         145.845
0.578                   -1.42993        -163.613           -50.97         44.8639         -50.9695         44.8627       -0.0143553         145.771
0.579                   -1.46343        -164.234         -50.8335         42.5517          -50.833         42.5505       -0.0145058         145.697
0.58                    -1.49753        -164.856         -50.6982         40.2409         -50.6977         40.2397       -0.0146587         145.623
0.581                   -1.53223        -165.481         -50.5641         37.9316         -50.5636         37.9303       -0.0148141         145.549
0.582                   -1.56755        -166.108         -50.4311         35.6239         -50.4306         35.6226        -0.014972         145.475
0.583                   -1.60348        -166.736         -50.2993          33.318         -50.2988         33.3166       -0.0151325           145.4
0.584                   -1.64004        -167.367         -50.1685         31.0139          -50.168         31.0126       -0.0152958         145.325
0.585                   -1.67721        -167.999         -50.0387         28.7119         -50.0383         28.7105       -0.0154618         145.251
0.586                   -1.71502        -168.634           -49.91         26.4119         -49.9095         26.4104       -0.0156307         145.176
0.587                   -1.75346         -169.27         -49.7821          24.114         -49.7817         24.1126       -0.0158025           145.1
0.588                   -1.79254        -169.908         -49.6552         21.8184         -49.6547         21.8169       -0.0159773         145.025
0.589                   -1.83225        -170.548         -49.5291          19.525         -49.5287         19.5235       -0.0161552          144.95
0.59                    -1.87261         -171.19         -49.4038         17.2339         -49.4034         17.2324       -0.0163362         144.874
0.591                   -1.91361        -171.834         -49.2793         14.9451         -49.2789         14.9437       -0.0165204         144.798
0.592                   -1.95527         -172.48         -49.1554         12.6587         -49.1551         12.6572       -0.0167079         144.722
0.593                   -1.99758        -173.128         -49.0323         10.3746         -49.0319         10.3732       -0.0168985         144.646
0.594                   -2.04054        -173.777         -48.9098         8.09288         -48.9094         8.09143       -0.0170925         144.569
0.595                   -2.08416        -174.429         -48.7879         5.81343         -48.7875           5.812       -0.0172898         144.493
0.596                   -2.12845        -175.082         -48.6665         3.53626         -48.6661         3.53484       -0.0174904         144.416
0.597                   -2.17341        -175.737         -48.5456         1.26131         -48.5453         1.25992       -0.0176943         144.339
0.598                   -2.21903        -176.395         -48.4252        -1.01147         -48.4249        -1.01284       -0.0179015         144.262
0.599                   -2.26533        -177.054         -48.3053        -3.28214          -48.305        -3.28348       -0.0181119         144.185
0.6                     -2.31231        -177.715         -48.1857        -5.55078         -48.1854        -5.55209       -0.0183254         144.107
0.601                   -2.35997        -178.378         -48.0665        -7.81747         -48.0662        -7.81875       -0.0185421          144.03
0.602                   -2.40832        -179.043         -47.9476        -10.0823         -47.9473        -10.0835       -0.0187618         143.952
0.603                   -2.45737         -179.71          -47.829        -12.3454         -47.8288        -12.3466       -0.0189845         143.874
0.604                   -2.50712         179.621         -47.7107        -14.6068         -47.7105         -14.608       -0.0192101         143.795
0.605                   -2.55757          178.95         -47.5926        -16.8667         -47.5924        -16.8678       -0.0194385         143.717
0.606                   -2.60873         178.277         -47.4748        -19.1251         -47.4746        -19.1262       -0.0196696         143.638
0.607                   -2.66062         177.601         -47.3571        -21.3822         -47.3569        -21.3833       -0.0199034         143.559
0.608                   -2.71324         176.923         -47.2396        -23.6382         -47.2394        -23.6392       -0.0201399          143.48
0.609                   -2.76659         176.243         -47.1222        -25.8932          -47.122        -25.8941       -0.0203791         143.401
0.61                     -2.8207         175.561         -47.0049        -28.1472         -47.0048        -28.1481       -0.0206208         143.321
0.611                   -2.87556         174.876         -46.8877        -30.4005         -46.8876        -30.4013       -0.0208653         143.241
0.612                   -2.93121         174.188         -46.7707        -32.6531         -46.7705        -32.6539       -0.0211125         143.161
0.613                   -2.98764         173.498         -46.6536        -34.9053         -46.6535        -34.9061       -0.0213625         143.081
0.614                   -3.04487         172.806         -46.5367        -37.1572         -46.5366        -37.1579       -0.0216155         143.001
0.615                   -3.10292         172.111         -46.4197        -39.4088         -46.4196        -39.4095       -0.0218715          142.92
0.616                   -3.16181         171.412         -46.3028        -41.6605         -46.3028        -41.6611       -0.0221307         142.839
0.617                   -3.22155         170.712          -46.186        -43.9122         -46.1859        -43.9128       -0.0223934         142.758
0.618                   -3.28218         170.008         -46.0691        -46.1643          -46.069        -46.1648       -0.0226596         142.676
0.619                    -3.3437         169.301         -45.9522        -48.4167         -45.9522        -48.4172       -0.0229296         142.595
0.62                    -3.40615         168.591         -45.8354        -50.6697         -45.8353        -50.6702       -0.0232036         142.513
0.621                   -3.46955         167.878         -45.7185        -52.9235         -45.7185        -52.9239       -0.0234819         142.431
0.622                   -3.53394         167.161         -45.6017         -55.178         -45.6017        -55.1784       -0.0237647         142.348
0.623                   -3.59933         166.442         -45.4849        -57.4336         -45.4848        -57.4339       -0.0240522         142.265
0.624                   -3.66577         165.719          -45.368        -59.6903          -45.368        -59.6906       -0.0243446         142.182
0.625                   -3.73328         164.992         -45.2512        -61.9482         -45.2512        -61.9485       -0.0246423         142.099
0.626                   -3.80191         164.263         -45.1344        -64.2076         -45.1344        -64.2078       -0.0249454         142.015
0.627                    -3.8717         163.529         -45.0176        -66.4684         -45.0176        -66.4686       -0.0252543         141.932
0.628                   -3.94267         162.792         -44.9008         -68.731         -44.9008        -68.7311        -0.025569         141.848
0.629                   -4.01489         162.052         -44.7841        -70.9952         -44.7841        -70.9953         -0.02589         141.763
