! TOUCHSTONE file generated by CST MICROWAVE STUDIO
! Date and time: Fri Oct  2 19:17:14 2020
! Project name: Scenario_1_Free_Space_out_of_line.cst
! Parameters = {Lambda=346.42; Step_1=17.321; dy1=-346; dx1=866; L_HA=400; MT=2.54; Rad_Dielectric=30; Rad_Lower=7.3; Rad_Upper=30; a_HA=580; a_WG=246; b_HA=500; b_WG=121; c_HA=0; c_WG=187; d_feed=85; h_feed=15; h_lower=18; h_upper=40}
! Header version: 2018
! Port assignment regex: !\s*Touchstone port\s*([0-9]+)\s*=\s*(CST MWS port|CST DS port)\s*([0-9]+|Zmin|Zmax)\s*\(\"(.*)\"\)(\s*mode\s*([0-9]+))?.*
! Touchstone port assignment:
! Touchstone port 1 = CST MWS port 1 ("")
! Touchstone port 2 = CST MWS port 2 ("")
# GHz S DB R 50
0.5                    -0.147415        -122.545         -65.3487         121.038         -65.3487         121.038      -0.00656623         151.137
0.501                  -0.154186        -122.999         -65.3285         118.558         -65.3286         118.558      -0.00662569         151.072
0.502                  -0.161171        -123.454         -65.3007         116.049          -65.301         116.049      -0.00668609         151.006
0.503                   -0.16837        -123.911         -65.2651         113.514         -65.2655         113.514      -0.00674744         150.941
0.504                  -0.175784         -124.37         -65.2214         110.955          -65.222         110.955      -0.00680974         150.875
0.505                  -0.183415        -124.829         -65.1695         108.375         -65.1702         108.375        -0.006873         150.809
0.506                  -0.191263        -125.291         -65.1092         105.776         -65.1101         105.776      -0.00693723         150.744
0.507                   -0.19933        -125.754         -65.0404         103.162         -65.0414         103.162      -0.00700243         150.678
0.508                  -0.207617        -126.218          -64.963         100.536         -64.9642         100.536      -0.00706861         150.612
0.509                  -0.216124        -126.684         -64.8771         97.9011         -64.8783         97.9001      -0.00713578         150.546
0.51                   -0.224853        -127.151         -64.7826         95.2596         -64.7839         95.2583      -0.00720394          150.48
0.511                  -0.233804         -127.62         -64.6796         92.6149          -64.681         92.6132       -0.0072731         150.414
0.512                  -0.242979        -128.091         -64.5682         89.9699         -64.5698         89.9678      -0.00734328         150.348
0.513                  -0.252379        -128.563         -64.4486         87.3274         -64.4503         87.3248      -0.00741447         150.281
0.514                  -0.262004        -129.036          -64.321           84.69         -64.3227          84.687      -0.00748669         150.215
0.515                  -0.271855        -129.512         -64.1856         82.0602         -64.1873         82.0568      -0.00755994         150.148
0.516                  -0.281932        -129.988         -64.0426         79.4405         -64.0444         79.4366      -0.00763423         150.082
0.517                  -0.292238        -130.467         -63.8923         76.8328         -63.8941         76.8285      -0.00770957         150.015
0.518                  -0.302772        -130.946          -63.735          74.239         -63.7369         74.2343      -0.00778597         149.949
0.519                  -0.313535        -131.428         -63.5711         71.6609          -63.573         71.6557      -0.00786343         149.882
0.52                   -0.324528        -131.911         -63.4009         69.0998         -63.4028         69.0942      -0.00794197         149.815
0.521                  -0.335752        -132.395         -63.2247          66.557         -63.2267          66.551       -0.0080216         149.748
0.522                  -0.347207        -132.882         -63.0429         64.0334         -63.0449         64.0271      -0.00810231         149.681
0.523                  -0.358894        -133.369         -62.8558         61.5299         -62.8578         61.5232      -0.00818413         149.614
0.524                  -0.370813        -133.859         -62.6639         59.0469         -62.6658         59.0399      -0.00826705         149.546
0.525                  -0.382965         -134.35         -62.4673         56.5847         -62.4693         56.5774       -0.0083511         149.479
0.526                  -0.395351        -134.842         -62.2666         54.1436         -62.2685         54.1361      -0.00843628         149.412
0.527                  -0.407971        -135.337          -62.062         51.7236         -62.0639         51.7158      -0.00852259         149.344
0.528                  -0.420826        -135.833         -61.8538         49.3243         -61.8557         49.3164      -0.00861005         149.276
0.529                  -0.433916         -136.33         -61.6424         46.9456         -61.6442         46.9375      -0.00869867         149.209
0.53                   -0.447241         -136.83          -61.428          44.587         -61.4298         44.5787      -0.00878846         149.141
0.531                  -0.460803        -137.331          -61.211         42.2479         -61.2128         42.2395      -0.00887943         149.073
0.532                  -0.474602        -137.834         -60.9916         39.9276         -60.9933         39.9191      -0.00897158         149.005
0.533                  -0.488638        -138.338         -60.7701         37.6253         -60.7718         37.6168      -0.00906494         148.937
0.534                  -0.502911        -138.845         -60.5467         35.3403         -60.5483         35.3318       -0.0091595         148.869
0.535                  -0.517424        -139.353         -60.3216         33.0717         -60.3232         33.0631      -0.00925528           148.8
0.536                  -0.532175        -139.863         -60.0951         30.8184         -60.0966         30.8099       -0.0093523         148.732
0.537                  -0.547165        -140.374         -59.8674         28.5795         -59.8688         28.5711      -0.00945056         148.664
0.538                  -0.562396        -140.888         -59.6386          26.354           -59.64         26.3457      -0.00955007         148.595
0.539                  -0.577868        -141.403         -59.4089         24.1409         -59.4103         24.1327      -0.00965085         148.526
0.54                   -0.593582        -141.921         -59.1785          21.939         -59.1799          21.931      -0.00975291         148.457
0.541                  -0.609539         -142.44         -58.9476         19.7472         -58.9489         19.7394      -0.00985626         148.389
0.542                  -0.625739        -142.961         -58.7163         17.5646         -58.7175          17.557      -0.00996091         148.319
0.543                  -0.642184        -143.485         -58.4847           15.39         -58.4858         15.3826       -0.0100669          148.25
0.544                  -0.658874         -144.01         -58.2529         13.2223          -58.254         13.2151       -0.0101742         148.181
0.545                  -0.675812        -144.537         -58.0211         11.0605         -58.0221         11.0536       -0.0102828         148.112
0.546                  -0.692998        -145.067         -57.7894         8.90344         -57.7903          8.8968       -0.0103928         148.042
0.547                  -0.710434        -145.598         -57.5579         6.75014         -57.5587         6.74379       -0.0105041         147.973
0.548                  -0.728122        -146.132         -57.3266         4.59955         -57.3274         4.59351       -0.0106168         147.903
0.549                  -0.746064        -146.668         -57.0957         2.45066         -57.0965         2.44493        -0.010731         147.833
0.55                   -0.764262        -147.206         -56.8653         0.30247          -56.866        0.297069       -0.0108465         147.763
0.551                  -0.782718        -147.747         -56.6354        -1.84599         -56.6361        -1.85105       -0.0109634         147.693
0.552                  -0.801436         -148.29         -56.4062        -3.99567         -56.4067        -4.00038       -0.0110818         147.623
0.553                  -0.820417        -148.835         -56.1776        -6.14748         -56.1781        -6.15184       -0.0112017         147.553
0.554                  -0.839667        -149.383         -55.9499        -8.30233         -55.9503        -8.30633        -0.011323         147.483
0.555                  -0.859188        -149.933         -55.7229        -10.4611         -55.7233        -10.4647       -0.0114458         147.412
0.556                  -0.878985        -150.486         -55.4969        -12.6246         -55.4973        -12.6278         -0.01157         147.342
0.557                  -0.899062        -151.042         -55.2719        -14.7936         -55.2722        -14.7965       -0.0116958         147.271
0.558                  -0.919424          -151.6          -55.048         -16.969         -55.0482        -16.9715       -0.0118231           147.2
0.559                  -0.940077        -152.161         -54.8252        -19.1514         -54.8253        -19.1535        -0.011952         147.129
0.56                   -0.961027        -152.725         -54.6036        -21.3416         -54.6036        -21.3434       -0.0120824         147.058
0.561                  -0.982281        -153.292         -54.3832        -23.5403         -54.3832        -23.5417       -0.0122144         146.987
0.562                   -1.00385        -153.861         -54.1642        -25.7481         -54.1642        -25.7491        -0.012348         146.915
0.563                   -1.02573        -154.434         -53.9466        -27.9656         -53.9465        -27.9662       -0.0124833         146.844
0.564                   -1.04794         -155.01         -53.7305        -30.1934         -53.7303        -30.1936       -0.0126201         146.772
0.565                    -1.0705        -155.589         -53.5159         -32.432         -53.5156        -32.4319       -0.0127586           146.7
0.566                   -1.09339        -156.172         -53.3029        -34.6819         -53.3025        -34.6814       -0.0128988         146.629
0.567                   -1.11665        -156.757         -53.0915        -36.9436         -53.0912        -36.9428       -0.0130406         146.557
0.568                   -1.14029        -157.347          -52.882        -39.2174         -52.8815        -39.2163       -0.0131842         146.484
0.569                    -1.1643        -157.939         -52.6742        -41.5038         -52.6737        -41.5024       -0.0133294         146.412
0.57                    -1.18872        -158.535         -52.4684         -43.803         -52.4678        -43.8013       -0.0134765          146.34
0.571                   -1.21355        -159.135         -52.2645        -46.1154         -52.2639        -46.1134       -0.0136253         146.267
0.572                   -1.23882        -159.739         -52.0626        -48.4412         -52.0619        -48.4388       -0.0137759         146.194
0.573                   -1.26454        -160.346         -51.8629        -50.7805         -51.8621        -50.7779       -0.0139283         146.121
0.574                   -1.29072        -160.958         -51.6653        -53.1335         -51.6645        -53.1306       -0.0140825         146.048
0.575                    -1.3174        -161.573         -51.4699        -55.5003         -51.4691        -55.4972       -0.0142386         145.975
0.576                   -1.34458        -162.192         -51.2769        -57.8809          -51.276        -57.8775       -0.0143965         145.902
0.577                    -1.3723        -162.815         -51.0863        -60.2753         -51.0853        -60.2718       -0.0145564         145.828
0.578                   -1.40058        -163.443         -50.8981        -62.6835          -50.897        -62.6797       -0.0147182         145.755
0.579                   -1.42944        -164.074         -50.7124        -65.1053         -50.7113        -65.1014       -0.0148819         145.681
0.58                    -1.45891         -164.71         -50.5293        -67.5407         -50.5281        -67.5366       -0.0150476         145.607
0.581                   -1.48902         -165.35         -50.3488        -69.9893         -50.3476         -69.985       -0.0152153         145.533
0.582                    -1.5198        -165.994         -50.1711        -72.4509         -50.1698        -72.4465        -0.015385         145.459
0.583                   -1.55128        -166.643          -49.996        -74.9253         -49.9947        -74.9208       -0.0155568         145.385
0.584                   -1.58348        -167.296         -49.8238         -77.412         -49.8224        -77.4075       -0.0157306          145.31
0.585                   -1.61644        -167.953         -49.6543        -79.9108         -49.6529        -79.9061       -0.0159065         145.235
0.586                    -1.6502        -168.614         -49.4878        -82.4211         -49.4863        -82.4164       -0.0160846          145.16
0.587                   -1.68478         -169.28         -49.3241        -84.9425         -49.3226        -84.9378       -0.0162648         145.085
0.588                   -1.72022         -169.95         -49.1634        -87.4745         -49.1618        -87.4698       -0.0164472          145.01
0.589                   -1.75656        -170.624         -49.0056        -90.0165          -49.004        -90.0118       -0.0166319         144.935
0.59                    -1.79383        -171.301         -48.8508         -92.568         -48.8492        -92.5633       -0.0168188         144.859
0.591                   -1.83206        -171.983          -48.699        -95.1284         -48.6973        -95.1238       -0.0170079         144.783
0.592                   -1.87129        -172.669         -48.5501         -97.697         -48.5484        -97.6925       -0.0171994         144.708
0.593                   -1.91155        -173.358         -48.4042        -100.273         -48.4025        -100.269       -0.0173932         144.631
0.594                   -1.95287        -174.051         -48.2613        -102.856         -48.2596        -102.852       -0.0175894         144.555
0.595                   -1.99529        -174.747         -48.1213        -105.446         -48.1196        -105.442        -0.017788         144.479
0.596                   -2.03883        -175.447         -47.9842        -108.041         -47.9825        -108.037       -0.0179891         144.402
0.597                   -2.08352        -176.149           -47.85        -110.641         -47.8482        -110.637       -0.0181926         144.325
0.598                   -2.12939        -176.854         -47.7186        -113.245         -47.7168        -113.241       -0.0183986         144.248
0.599                   -2.17646        -177.562           -47.59        -115.853         -47.5882        -115.849       -0.0186073         144.171
0.6                     -2.22476        -178.273         -47.4641        -118.463         -47.4623         -118.46       -0.0188185         144.094
0.601                    -2.2743        -178.985         -47.3409        -121.076         -47.3391        -121.073       -0.0190323         144.016
0.602                    -2.3251        -179.699         -47.2203        -123.691         -47.2185        -123.687       -0.0192488         143.938
0.603                   -2.37718         179.585         -47.1022        -126.306         -47.1004        -126.303       -0.0194681          143.86
0.604                   -2.43053         178.868         -46.9865        -128.922         -46.9847        -128.919       -0.0196901         143.782
0.605                   -2.48518          178.15         -46.8732        -131.537         -46.8714        -131.534       -0.0199149         143.704
0.606                   -2.54113         177.431         -46.7622        -134.151         -46.7604        -134.149       -0.0201426         143.625
0.607                   -2.59836         176.711         -46.6533        -136.765         -46.6515        -136.762       -0.0203732         143.546
0.608                    -2.6569         175.991         -46.5465        -139.376         -46.5447        -139.374       -0.0206067         143.467
0.609                   -2.71672         175.271         -46.4416        -141.985         -46.4399        -141.983       -0.0208433         143.388
0.61                    -2.77782         174.551         -46.3387        -144.592          -46.337         -144.59       -0.0210829         143.309
0.611                    -2.8402         173.831         -46.2374        -147.195         -46.2358        -147.193       -0.0213256         143.229
0.612                   -2.90383         173.112         -46.1379        -149.794         -46.1363        -149.793       -0.0215714         143.149
0.613                    -2.9687         172.394         -46.0399         -152.39         -46.0383        -152.389       -0.0218205         143.069
0.614                   -3.03481         171.677         -45.9433        -154.982         -45.9417        -154.981       -0.0220729         142.988
0.615                   -3.10211         170.961          -45.848        -157.569         -45.8465        -157.568       -0.0223286         142.908
0.616                   -3.17061         170.247          -45.754        -160.152         -45.7525        -160.151       -0.0225878         142.827
0.617                   -3.24027         169.533          -45.661         -162.73         -45.6596         -162.73       -0.0228503         142.746
0.618                   -3.31108         168.821         -45.5691        -165.303         -45.5677        -165.303       -0.0231165         142.665
0.619                   -3.38301         168.111         -45.4781        -167.871         -45.4767        -167.871       -0.0233862         142.583
0.62                    -3.45605         167.403         -45.3878        -170.434         -45.3865        -170.434       -0.0236596         142.501
0.621                   -3.53016         166.696         -45.2983        -172.992          -45.297        -172.992       -0.0239368         142.419
0.622                   -3.60534         165.991         -45.2093        -175.544         -45.2081        -175.544       -0.0242178         142.337
0.623                   -3.68156         165.288         -45.1208        -178.091         -45.1197        -178.091       -0.0245028         142.254
0.624                    -3.7588         164.586         -45.0328         179.367         -45.0317         179.367       -0.0247917         142.172
0.625                   -3.83705         163.887          -44.945          176.83          -44.944          176.83       -0.0250847         142.088
0.626                   -3.91629         163.189         -44.8575         174.299         -44.8565         174.299       -0.0253819         142.005
0.627                   -3.99651         162.492         -44.7701         171.773         -44.7691         171.772       -0.0256834         141.921
0.628                    -4.0777         161.797         -44.6828         169.251         -44.6818         169.251       -0.0259893         141.838
0.629                   -4.15985         161.104         -44.5954         166.734         -44.5946         166.734       -0.0262996         141.753
