! TOUCHSTONE file generated by CST MICROWAVE STUDIO
! Date and time: Fri Oct  2 19:01:46 2020
! Project name: Scenario_1_Free_Space_out_of_line.cst
! Parameters = {Lambda=346.42; Step_1=17.321; dy1=-346; dx1=1039; L_HA=400; MT=2.54; Rad_Dielectric=30; Rad_Lower=7.3; Rad_Upper=30; a_HA=580; a_WG=246; b_HA=500; b_WG=121; c_HA=0; c_WG=187; d_feed=85; h_feed=15; h_lower=18; h_upper=40}
! Header version: 2018
! Port assignment regex: !\s*Touchstone port\s*([0-9]+)\s*=\s*(CST MWS port|CST DS port)\s*([0-9]+|Zmin|Zmax)\s*\(\"(.*)\"\)(\s*mode\s*([0-9]+))?.*
! Touchstone port assignment:
! Touchstone port 1 = CST MWS port 1 ("")
! Touchstone port 2 = CST MWS port 2 ("")
# GHz S DB R 50
0.5                    -0.148616        -122.393         -65.7744         26.3575         -65.7744         26.3575      -0.00665096         151.149
0.501                  -0.152262        -122.831         -65.6402         24.0964           -65.64         24.0946       -0.0067079         151.084
0.502                  -0.156151        -123.272         -65.5027         21.8195         -65.5023         21.8161      -0.00676565         151.019
0.503                  -0.160288        -123.715          -65.362         19.5273         -65.3613         19.5224      -0.00682422         150.953
0.504                  -0.164677         -124.16          -65.218         17.2203         -65.2172         17.2139      -0.00688361         150.888
0.505                  -0.169321        -124.608         -65.0708         14.8989         -65.0698         14.8911      -0.00694383         150.822
0.506                  -0.174225        -125.058         -64.9205         12.5634         -64.9193         12.5543      -0.00700489         150.757
0.507                  -0.179392        -125.511         -64.7671         10.2142         -64.7657         10.2038      -0.00706679         150.691
0.508                  -0.184826        -125.966         -64.6105         7.85166          -64.609         7.84022      -0.00712954         150.625
0.509                  -0.190531        -126.423          -64.451         5.47625         -64.4493         5.46375      -0.00719314          150.56
0.51                   -0.196512        -126.883         -64.2886         3.08826         -64.2867          3.0748      -0.00725761         150.494
0.511                  -0.202772        -127.345         -64.1232        0.688058         -64.1212        0.673696      -0.00732295         150.428
0.512                  -0.209314        -127.809          -63.955        -1.72404         -63.9529        -1.73922      -0.00738916         150.362
0.513                  -0.216144        -128.276         -63.7842        -4.14772         -63.7819        -4.16365      -0.00745626         150.296
0.514                  -0.223265        -128.745         -63.6106        -6.58269         -63.6082         -6.5993      -0.00752425         150.229
0.515                   -0.23068        -129.216         -63.4346        -9.02867         -63.4321        -9.04589      -0.00759315         150.163
0.516                  -0.238394        -129.689          -63.256        -11.4854         -63.2534        -11.5032      -0.00766295         150.097
0.517                   -0.24641        -130.165         -63.0752        -13.9526         -63.0725        -13.9709      -0.00773366          150.03
0.518                  -0.254732        -130.644          -62.892        -16.4301         -62.8893        -16.4488       -0.0078053         149.964
0.519                  -0.263365        -131.124         -62.7068        -18.9177          -62.704        -18.9367      -0.00787788         149.897
0.52                   -0.272312        -131.607         -62.5195        -21.4152         -62.5166        -21.4345      -0.00795139          149.83
0.521                  -0.281576        -132.092         -62.3303        -23.9223         -62.3274        -23.9419      -0.00802586         149.764
0.522                  -0.291161         -132.58         -62.1393         -26.439         -62.1363        -26.4588      -0.00810128         149.697
0.523                  -0.301072        -133.069         -61.9467        -28.9651         -61.9437        -28.9851      -0.00817767          149.63
0.524                  -0.311312        -133.561         -61.7525        -31.5005         -61.7495        -31.5206      -0.00825504         149.563
0.525                  -0.321884        -134.055         -61.5569         -34.045         -61.5539        -34.0652       -0.0083334         149.495
0.526                  -0.332792        -134.552           -61.36        -36.5985          -61.357        -36.6188      -0.00841275         149.428
0.527                   -0.34404        -135.051         -61.1619         -39.161         -61.1589        -39.1812      -0.00849311         149.361
0.528                  -0.355631        -135.551         -60.9629        -41.7323         -60.9599        -41.7525      -0.00857448         149.293
0.529                  -0.367569        -136.054         -60.7629        -44.3123           -60.76        -44.3324      -0.00865688         149.226
0.53                   -0.379857         -136.56         -60.5622         -46.901         -60.5593         -46.921      -0.00874032         149.158
0.531                  -0.392499        -137.067         -60.3609        -49.4982          -60.358         -49.518      -0.00882481         149.091
0.532                  -0.405497        -137.577         -60.1591        -52.1039         -60.1563        -52.1235      -0.00891035         149.023
0.533                  -0.418857        -138.089         -59.9569        -54.7179         -59.9542        -54.7373      -0.00899696         148.955
0.534                  -0.432579        -138.603         -59.7545        -57.3402         -59.7519        -57.3594      -0.00908466         148.887
0.535                  -0.446669        -139.119         -59.5521        -59.9706         -59.5495        -59.9895      -0.00917345         148.819
0.536                  -0.461129        -139.637         -59.3497         -62.609         -59.3472        -62.6276      -0.00926334         148.751
0.537                  -0.475962        -140.157         -59.1474        -65.2553          -59.145        -65.2736      -0.00935435         148.682
0.538                  -0.491171         -140.68         -58.9455        -67.9093         -58.9432        -67.9273      -0.00944648         148.614
0.539                   -0.50676        -141.205          -58.744        -70.5709         -58.7418        -70.5886      -0.00953976         148.545
0.54                   -0.522731        -141.731          -58.543        -73.2399         -58.5409        -73.2572      -0.00963419         148.477
0.541                  -0.539087         -142.26         -58.3427        -75.9162         -58.3407         -75.933      -0.00972979         148.408
0.542                  -0.555831        -142.791         -58.1432        -78.5994         -58.1413        -78.6158      -0.00982657         148.339
0.543                  -0.572967        -143.324         -57.9446        -81.2893         -57.9428        -81.3053      -0.00992455          148.27
0.544                  -0.590495        -143.859          -57.747        -83.9858         -57.7453        -84.0014       -0.0100237         148.201
0.545                   -0.60842        -144.396         -57.5505        -86.6886         -57.5489        -86.7036       -0.0101241         148.132
0.546                  -0.626744        -144.935         -57.3552        -89.3973         -57.3537        -89.4119       -0.0102258         148.063
0.547                  -0.645469        -145.476         -57.1612        -92.1117         -57.1598        -92.1257       -0.0103287         147.994
0.548                  -0.664598        -146.019         -56.9685        -94.8314         -56.9673        -94.8449       -0.0104328         147.924
0.549                  -0.684134        -146.564         -56.7774        -97.5561         -56.7763        -97.5691       -0.0105383         147.855
0.55                   -0.704078        -147.111         -56.5877        -100.285         -56.5867        -100.298        -0.010645         147.785
0.551                  -0.724433         -147.66         -56.3997        -103.019         -56.3988        -103.031       -0.0107531         147.715
0.552                  -0.745201        -148.212         -56.2133        -105.757         -56.2126        -105.768       -0.0108625         147.645
0.553                  -0.766385        -148.765         -56.0287        -108.498          -56.028        -108.508       -0.0109732         147.575
0.554                  -0.787986         -149.32         -55.8459        -111.242         -55.8453        -111.252       -0.0110854         147.505
0.555                  -0.810006        -149.877         -55.6648        -113.988         -55.6643        -113.998       -0.0111989         147.435
0.556                  -0.832448        -150.436         -55.4857        -116.737         -55.4852        -116.746       -0.0113138         147.365
0.557                  -0.855314        -150.997         -55.3084        -119.488          -55.308        -119.497       -0.0114301         147.294
0.558                  -0.878605        -151.559          -55.133         -122.24         -55.1327        -122.248       -0.0115478         147.224
0.559                  -0.902323        -152.124         -54.9595        -124.993         -54.9593        -125.001       -0.0116671         147.153
0.56                    -0.92647        -152.691         -54.7879        -127.747         -54.7879        -127.754       -0.0117878         147.082
0.561                  -0.951047         -153.26         -54.6183        -130.501         -54.6183        -130.507         -0.01191         147.011
0.562                  -0.976058        -153.831         -54.4506        -133.255         -54.4507         -133.26       -0.0120337          146.94
0.563                    -1.0015        -154.403         -54.2848        -136.008          -54.285        -136.013        -0.012159         146.869
0.564                   -1.02738        -154.978          -54.121        -138.759         -54.1211        -138.764       -0.0122859         146.797
0.565                    -1.0537        -155.554         -53.9589         -141.51         -53.9592        -141.514       -0.0124143         146.726
0.566                   -1.08046        -156.133         -53.7988        -144.259          -53.799        -144.262       -0.0125444         146.654
0.567                   -1.10765        -156.713         -53.6404        -147.005         -53.6407        -147.008        -0.012676         146.582
0.568                   -1.13529        -157.296         -53.4838        -149.749         -53.4841        -149.752       -0.0128094         146.511
0.569                   -1.16337         -157.88         -53.3289        -152.491         -53.3293        -152.493       -0.0129445         146.439
0.57                     -1.1919        -158.467         -53.1757         -155.23         -53.1761        -155.231       -0.0130812         146.366
0.571                   -1.22088        -159.055         -53.0242        -157.965         -53.0246        -157.966       -0.0132197         146.294
0.572                    -1.2503        -159.646         -52.8742        -160.697         -52.8746        -160.698         -0.01336         146.222
0.573                   -1.28018        -160.238         -52.7257        -163.426         -52.7261        -163.426       -0.0135021         146.149
0.574                    -1.3105        -160.833         -52.5786         -166.15         -52.5791        -166.151        -0.013646         146.076
0.575                   -1.34129         -161.43          -52.433        -168.871         -52.4335        -168.871       -0.0137918         146.003
0.576                   -1.37252        -162.028         -52.2887        -171.588         -52.2892        -171.588       -0.0139394          145.93
0.577                   -1.40422        -162.629         -52.1457        -174.301         -52.1461          -174.3        -0.014089         145.857
0.578                   -1.43638        -163.232         -52.0038         -177.01         -52.0043        -177.009       -0.0142405         145.784
0.579                   -1.46899        -163.838         -51.8631        -179.714         -51.8635        -179.713        -0.014394          145.71
0.58                    -1.50208        -164.445         -51.7234         177.585         -51.7239         177.586       -0.0145496         145.637
0.581                   -1.53563        -165.055         -51.5848         174.889         -51.5852          174.89       -0.0147072         145.563
0.582                   -1.56966        -165.667          -51.447         172.196         -51.4475         172.198       -0.0148669         145.489
0.583                   -1.60415        -166.281         -51.3102         169.507         -51.3106         169.509       -0.0150287         145.415
0.584                   -1.63913        -166.898         -51.1741         166.823         -51.1745         166.825       -0.0151928         145.341
0.585                   -1.67459        -167.517         -51.0388         164.142         -51.0392         164.144        -0.015359         145.266
0.586                   -1.71053        -168.139         -50.9042         161.464         -50.9046         161.466       -0.0155275         145.192
0.587                   -1.74697        -168.763         -50.7702          158.79         -50.7705         158.792       -0.0156983         145.117
0.588                    -1.7839         -169.39         -50.6367         156.119         -50.6371         156.121       -0.0158715         145.042
0.589                   -1.82133        -170.019         -50.5038         153.451         -50.5041         153.453        -0.016047         144.967
0.59                    -1.85927        -170.651         -50.3713         150.786         -50.3716         150.788        -0.016225         144.892
0.591                   -1.89772        -171.286         -50.2392         148.123         -50.2395         148.126       -0.0164055         144.816
0.592                   -1.93669        -171.924         -50.1075         145.463         -50.1078         145.465       -0.0165886         144.741
0.593                    -1.9762        -172.565         -49.9761         142.805         -49.9764         142.807       -0.0167743         144.665
0.594                   -2.01624        -173.208          -49.845         140.149         -49.8452         140.151       -0.0169626         144.589
0.595                   -2.05683        -173.855         -49.7142         137.494         -49.7143         137.496       -0.0171536         144.513
0.596                   -2.09797        -174.505         -49.5835          134.84         -49.5836         134.842       -0.0173475         144.437
0.597                   -2.13969        -175.158          -49.453         132.188         -49.4531          132.19       -0.0175442          144.36
0.598                   -2.18199        -175.815         -49.3227         129.536         -49.3228         129.538       -0.0177438         144.284
0.599                   -2.22489        -176.475         -49.1924         126.885         -49.1925         126.886       -0.0179464         144.207
0.6                      -2.2684        -177.138         -49.0623         124.233         -49.0624         124.235        -0.018152          144.13
0.601                   -2.31254        -177.805         -48.9323         121.582         -48.9323         121.583       -0.0183608         144.052
0.602                   -2.35732        -178.476         -48.8023          118.93         -48.8023         118.931       -0.0185728         143.975
0.603                   -2.40277        -179.151         -48.6724         116.277         -48.6724         116.279        -0.018788         143.897
0.604                    -2.4489        -179.829         -48.5425         113.624         -48.5425         113.625       -0.0190067          143.82
0.605                   -2.49575         179.488         -48.4127         110.969         -48.4127          110.97       -0.0192288         143.742
0.606                   -2.54333         178.801         -48.2829         108.313         -48.2829         108.314       -0.0194545         143.663
0.607                   -2.59168          178.11         -48.1531         105.655         -48.1531         105.655       -0.0196838         143.585
0.608                   -2.64082         177.414         -48.0234         102.994         -48.0234         102.995       -0.0199169         143.506
0.609                   -2.69078         176.714         -47.8938         100.332         -47.8937         100.332       -0.0201538         143.427
0.61                     -2.7416         176.009         -47.7642          97.667         -47.7641         97.6675       -0.0203946         143.348
0.611                   -2.79332           175.3         -47.6347         94.9993         -47.6346         94.9997       -0.0206396         143.269
0.612                   -2.84597         174.586         -47.5052         92.3288         -47.5052         92.3291       -0.0208887          143.19
0.613                    -2.8996         173.867         -47.3759         89.6551         -47.3759         89.6553       -0.0211421          143.11
0.614                   -2.95426         173.143         -47.2467         86.9782         -47.2467         86.9783       -0.0213999          143.03
0.615                   -3.00998         172.414         -47.1177         84.2979         -47.1176         84.2979       -0.0216623          142.95
0.616                   -3.06683         171.679         -46.9888          81.614         -46.9888          81.614       -0.0219293         142.869
0.617                   -3.12486          170.94         -46.8602         78.9264         -46.8601         78.9263       -0.0222012         142.789
0.618                   -3.18413         170.195         -46.7318         76.2351         -46.7317         76.2349       -0.0224779         142.708
0.619                    -3.2447         169.446         -46.6036         73.5398         -46.6035         73.5396       -0.0227597         142.627
0.62                    -3.30663         168.691         -46.4757         70.8407         -46.4756         70.8404       -0.0230466         142.546
0.621                   -3.36999         167.931         -46.3481         68.1375         -46.3481         68.1371       -0.0233389         142.464
0.622                   -3.43486         167.166         -46.2209         65.4303         -46.2209         65.4299       -0.0236366         142.382
0.623                    -3.5013         166.396         -46.0941         62.7191         -46.0941         62.7187       -0.0239398           142.3
0.624                    -3.5694         165.621         -45.9677         60.0039         -45.9677         60.0034       -0.0242487         142.218
0.625                   -3.63922         164.841         -45.8418         57.2847         -45.8417         57.2842       -0.0245633         142.135
0.626                   -3.71086         164.058         -45.7163         54.5615         -45.7163          54.561       -0.0248837         142.053
0.627                   -3.78438          163.27         -45.5914         51.8345         -45.5913          51.834       -0.0252101          141.97
0.628                   -3.85988         162.478          -45.467         49.1037          -45.467         49.1032       -0.0255424         141.886
0.629                   -3.93744         161.683         -45.3432         46.3693         -45.3432         46.3688       -0.0258807         141.803
