! TOUCHSTONE file generated by CST MICROWAVE STUDIO
! Date and time: Fri Oct  2 17:13:48 2020
! Project name: Scenario_1_Free_Space_out_of_line.cst
! Parameters = {Lambda=346.42; Step_1=17.321; dy1=295.617; dx1=173; L_HA=400; MT=2.54; Rad_Dielectric=30; Rad_Lower=7.3; Rad_Upper=30; a_HA=580; a_WG=246; b_HA=500; b_WG=121; c_HA=0; c_WG=187; d_feed=85; h_feed=15; h_lower=18; h_upper=40}
! Header version: 2018
! Port assignment regex: !\s*Touchstone port\s*([0-9]+)\s*=\s*(CST MWS port|CST DS port)\s*([0-9]+|Zmin|Zmax)\s*\(\"(.*)\"\)(\s*mode\s*([0-9]+))?.*
! Touchstone port assignment:
! Touchstone port 1 = CST MWS port 1 ("")
! Touchstone port 2 = CST MWS port 2 ("")
# GHz S DB R 50
0.5                     -0.14749        -122.745         -62.9446         124.443         -62.9446         124.443      -0.00626387         151.103
0.501                  -0.153937        -123.199         -62.7795         122.867         -62.7796         122.867      -0.00632129         151.037
0.502                  -0.160588        -123.654         -62.6138         121.293         -62.6139         121.293      -0.00637952         150.971
0.503                  -0.167444        -124.111         -62.4475         119.721         -62.4477         119.721      -0.00643857         150.906
0.504                  -0.174505        -124.569         -62.2806         118.151         -62.2808         118.152      -0.00649842          150.84
0.505                  -0.181774        -125.029         -62.1132         116.583         -62.1135         116.584      -0.00655908         150.774
0.506                  -0.189253         -125.49         -61.9454         115.017         -61.9457         115.017      -0.00662055         150.708
0.507                  -0.196942        -125.953         -61.7771         113.452         -61.7775         113.452      -0.00668282         150.643
0.508                  -0.204843        -126.417         -61.6085         111.888         -61.6089         111.888      -0.00674589         150.577
0.509                  -0.212958        -126.883         -61.4396         110.324           -61.44         110.325      -0.00680978          150.51
0.51                   -0.221288        -127.351         -61.2704         108.762         -61.2708         108.763      -0.00687447         150.444
0.511                  -0.229836         -127.82         -61.1009           107.2         -61.1014         107.201      -0.00693996         150.378
0.512                  -0.238603        -128.291         -60.9313         105.639         -60.9318         105.639      -0.00700627         150.312
0.513                   -0.24759        -128.764         -60.7615         104.078         -60.7621         104.078      -0.00707338         150.245
0.514                    -0.2568        -129.238         -60.5917         102.517         -60.5922         102.517      -0.00714131         150.179
0.515                  -0.266234        -129.714         -60.4217         100.955         -60.4222         100.956      -0.00721005         150.112
0.516                  -0.275895        -130.192         -60.2517         99.3933         -60.2523         99.3939      -0.00727961         150.046
0.517                  -0.285784        -130.671         -60.0817         97.8309         -60.0823         97.8315      -0.00734999         149.979
0.518                  -0.295903        -131.152         -59.9118         96.2677         -59.9124         96.2683      -0.00742119         149.912
0.519                  -0.306254        -131.634         -59.7419         94.7035         -59.7425         94.7042      -0.00749323         149.845
0.52                   -0.316839        -132.119         -59.5722         93.1382         -59.5728         93.1389       -0.0075661         149.778
0.521                  -0.327661        -132.605         -59.4026         91.5716         -59.4032         91.5724      -0.00763981         149.711
0.522                  -0.338722        -133.093         -59.2331         90.0035         -59.2337         90.0043      -0.00771437         149.644
0.523                  -0.350023        -133.582         -59.0639         88.4337         -59.0645         88.4346      -0.00778979         149.577
0.524                  -0.361567        -134.074         -58.8949         86.8621         -58.8956          86.863      -0.00786606         149.509
0.525                  -0.373357        -134.567         -58.7262         85.2886         -58.7269         85.2895       -0.0079432         149.442
0.526                  -0.385395        -135.062         -58.5579         83.7129         -58.5585         83.7139      -0.00802123         149.374
0.527                  -0.397682        -135.559         -58.3898         82.1349         -58.3904         82.1359      -0.00810013         149.307
0.528                  -0.410223        -136.058         -58.2221         80.5545         -58.2227         80.5556      -0.00817994         149.239
0.529                  -0.423019        -136.558         -58.0549         78.9716         -58.0554         78.9727      -0.00826065         149.171
0.53                   -0.436073        -137.061          -57.888         77.3859         -57.8886         77.3871      -0.00834228         149.103
0.531                  -0.449387        -137.565         -57.7216         75.7975         -57.7222         75.7987      -0.00842484         149.036
0.532                  -0.462965        -138.071         -57.5557         74.2061         -57.5563         74.2073      -0.00850834         148.967
0.533                   -0.47681        -138.579         -57.3903         72.6117         -57.3908          72.613       -0.0085928         148.899
0.534                  -0.490923        -139.089         -57.2255         71.0142          -57.226         71.0155      -0.00867823         148.831
0.535                  -0.505309        -139.601         -57.0612         69.4134         -57.0617         69.4147      -0.00876464         148.763
0.536                  -0.519971        -140.115         -56.8975         67.8093          -56.898         67.8107      -0.00885205         148.694
0.537                  -0.534911        -140.631         -56.7344         66.2018         -56.7349         66.2032      -0.00894047         148.626
0.538                  -0.550132        -141.149          -56.572         64.5908         -56.5724         64.5923      -0.00902993         148.557
0.539                  -0.565639        -141.669         -56.4102         62.9763         -56.4106         62.9779      -0.00912043         148.488
0.54                   -0.581434        -142.191         -56.2491         61.3582         -56.2495         61.3598      -0.00921201         148.419
0.541                  -0.597522        -142.715         -56.0888         59.7365         -56.0892         59.7381      -0.00930467          148.35
0.542                  -0.613905        -143.241         -55.9292          58.111         -55.9295         58.1127      -0.00939844         148.281
0.543                  -0.630588        -143.769         -55.7703         56.4818         -55.7707         56.4836      -0.00949334         148.212
0.544                  -0.647573          -144.3         -55.6123         54.8489         -55.6126         54.8507      -0.00958938         148.143
0.545                  -0.664867        -144.832          -55.455         53.2122         -55.4553          53.214       -0.0096866         148.073
0.546                  -0.682471        -145.367         -55.2986         51.5718         -55.2989         51.5736      -0.00978502         148.004
0.547                   -0.70039        -145.903          -55.143         49.9275         -55.1432         49.9294      -0.00988465         147.934
0.548                   -0.71863        -146.442         -54.9883         48.2795         -54.9885         48.2814      -0.00998553         147.864
0.549                  -0.737193        -146.983         -54.8344         46.6277         -54.8347         46.6296       -0.0100877         147.795
0.55                   -0.756085        -147.527         -54.6815         44.9721         -54.6817          44.974       -0.0101911         147.725
0.551                  -0.775309        -148.072         -54.5295         43.3128         -54.5297         43.3148       -0.0102959         147.655
0.552                  -0.794872         -148.62         -54.3784         41.6498         -54.3786         41.6518        -0.010402         147.584
0.553                  -0.814777         -149.17         -54.2283         39.9832         -54.2285         39.9852       -0.0105096         147.514
0.554                   -0.83503        -149.723         -54.0792         38.3129         -54.0793         38.3149       -0.0106185         147.444
0.555                  -0.855636        -150.277          -53.931         36.6391         -53.9311         36.6411       -0.0107289         147.373
0.556                    -0.8766        -150.834         -53.7838         34.9618         -53.7839         34.9639       -0.0108407         147.302
0.557                  -0.897928        -151.394         -53.6377         33.2811         -53.6377         33.2831       -0.0109541         147.232
0.558                  -0.919625        -151.956         -53.4925          31.597         -53.4926          31.599        -0.011069         147.161
0.559                  -0.941697         -152.52         -53.3484         29.9096         -53.3484         29.9116       -0.0111855          147.09
0.56                   -0.964149        -153.086         -53.2054          28.219         -53.2053         28.2211       -0.0113036         147.018
0.561                  -0.986989        -153.655         -53.0633         26.5253         -53.0633         26.5273       -0.0114234         146.947
0.562                   -1.01022        -154.227         -52.9224         24.8286         -52.9223         24.8306       -0.0115448         146.876
0.563                   -1.03385        -154.801         -52.7824         23.1289         -52.7824         23.1309        -0.011668         146.804
0.564                   -1.05789        -155.378         -52.6436         21.4264         -52.6435         21.4284        -0.011793         146.732
0.565                   -1.08234        -155.957         -52.5058         19.7212         -52.5057         19.7232       -0.0119198          146.66
0.566                   -1.10721        -156.538         -52.3691         18.0133          -52.369         18.0153       -0.0120484         146.588
0.567                   -1.13251        -157.122         -52.2335          16.303         -52.2333          16.305       -0.0121789         146.516
0.568                   -1.15824        -157.709         -52.0989         14.5902         -52.0988         14.5922       -0.0123114         146.444
0.569                   -1.18441        -158.299         -51.9655         12.8752         -51.9653         12.8771       -0.0124459         146.372
0.57                    -1.21104        -158.891         -51.8331         11.1579         -51.8329         11.1599       -0.0125823         146.299
0.571                   -1.23812        -159.485         -51.7017         9.43866         -51.7015         9.44055       -0.0127209         146.226
0.572                   -1.26566        -160.083         -51.5715         7.71745         -51.5712         7.71931       -0.0128616         146.154
0.573                   -1.29368        -160.683         -51.4423          5.9944          -51.442         5.99624       -0.0130044         146.081
0.574                   -1.32218        -161.285         -51.3142         4.26966         -51.3139         4.27147       -0.0131495         146.008
0.575                   -1.35118        -161.891         -51.1871         2.54334         -51.1868         2.54511       -0.0132968         145.934
0.576                   -1.38067        -162.499          -51.061        0.815547         -51.0608        0.817286       -0.0134465         145.861
0.577                   -1.41067         -163.11          -50.936       -0.913592         -50.9358       -0.911887       -0.0135985         145.787
0.578                    -1.4412        -163.724         -50.8121        -2.64396         -50.8118         -2.6423       -0.0137529         145.714
0.579                   -1.47225        -164.341         -50.6891        -4.37545         -50.6888        -4.37382       -0.0139098          145.64
0.58                    -1.50384         -164.96         -50.5672        -6.10795         -50.5669        -6.10636       -0.0140692         145.566
0.581                   -1.53598        -165.583         -50.4463        -7.84134         -50.4459        -7.83979       -0.0142312         145.491
0.582                   -1.56868        -166.208         -50.3263        -9.57552          -50.326        -9.57401       -0.0143958         145.417
0.583                   -1.60195        -166.836         -50.2073        -11.3104          -50.207        -11.3089       -0.0145631         145.343
0.584                    -1.6358        -167.467         -50.0893        -13.0458          -50.089        -13.0444       -0.0147331         145.268
0.585                   -1.67024        -168.101         -49.9722        -14.7818         -49.9719        -14.7804       -0.0149059         145.193
0.586                    -1.7053        -168.737         -49.8561        -16.5181         -49.8557        -16.5167       -0.0150816         145.118
0.587                   -1.74096        -169.377         -49.7409        -18.2547         -49.7405        -18.2534       -0.0152601         145.043
0.588                   -1.77726         -170.02         -49.6265        -19.9915         -49.6262        -19.9902       -0.0154417         144.967
0.589                    -1.8142        -170.666         -49.5131        -21.7284         -49.5127        -21.7272       -0.0156262         144.892
0.59                    -1.85179        -171.314         -49.4005        -23.4654         -49.4001        -23.4642       -0.0158138         144.816
0.591                   -1.89005        -171.966         -49.2887        -25.2023         -49.2884        -25.2012       -0.0160045          144.74
0.592                     -1.929        -172.621         -49.1778        -26.9392         -49.1775        -26.9381       -0.0161984         144.664
0.593                   -1.96864        -173.278         -49.0677        -28.6758         -49.0674        -28.6748       -0.0163955         144.588
0.594                   -2.00899        -173.939         -48.9584        -30.4123         -48.9581        -30.4113       -0.0165959         144.512
0.595                   -2.05006        -174.603         -48.8499        -32.1484         -48.8495        -32.1474       -0.0167997         144.435
0.596                   -2.09188        -175.269         -48.7421        -33.8842         -48.7418        -33.8833       -0.0170069         144.358
0.597                   -2.13445        -175.939         -48.6351        -35.6196         -48.6347        -35.6187       -0.0172175         144.281
0.598                   -2.17779        -176.612         -48.5288        -37.3546         -48.5284        -37.3537       -0.0174316         144.204
0.599                   -2.22192        -177.288         -48.4231        -39.0891         -48.4228        -39.0882       -0.0176494         144.127
0.6                     -2.26685        -177.967         -48.3182         -40.823         -48.3179        -40.8222       -0.0178707         144.049
0.601                    -2.3126        -178.649          -48.214        -42.5565         -48.2136        -42.5557       -0.0180958         143.972
0.602                   -2.35918        -179.333         -48.1103        -44.2893           -48.11        -44.2886       -0.0183246         143.894
0.603                   -2.40663         179.979         -48.0074        -46.0216         -48.0071        -46.0209       -0.0185572         143.816
0.604                   -2.45494         179.288          -47.905        -47.7532         -47.9047        -47.7526       -0.0187936         143.737
0.605                   -2.50415         178.594         -47.8032        -49.4842          -47.803        -49.4836       -0.0190339         143.659
0.606                   -2.55427         177.897         -47.7021        -51.2146         -47.7018         -51.214       -0.0192782          143.58
0.607                   -2.60531         177.197         -47.6014        -52.9444         -47.6012        -52.9438       -0.0195266         143.501
0.608                   -2.65731         176.494         -47.5013        -54.6735         -47.5011        -54.6729       -0.0197789         143.422
0.609                   -2.71028         175.789         -47.4018        -56.4019         -47.4016        -56.4014       -0.0200355         143.343
0.61                    -2.76423          175.08         -47.3028        -58.1297         -47.3025        -58.1292       -0.0202961         143.263
0.611                    -2.8192         174.368         -47.2043        -59.8569          -47.204        -59.8564        -0.020561         143.184
0.612                   -2.87519         173.654         -47.1062        -61.5834          -47.106         -61.583       -0.0208302         143.104
0.613                   -2.93224         172.937         -47.0087        -63.3093         -47.0084        -63.3089       -0.0211037         143.023
0.614                   -2.99037         172.217         -46.9116        -65.0347         -46.9114        -65.0343       -0.0213816         142.943
0.615                   -3.04959         171.495         -46.8149        -66.7594         -46.8147         -66.759       -0.0216639         142.862
0.616                   -3.10994         170.769         -46.7187        -68.4836         -46.7185        -68.4832       -0.0219507         142.781
0.617                   -3.17143         170.041         -46.6229        -70.2072         -46.6227        -70.2069        -0.022242           142.7
0.618                   -3.23409         169.311         -46.5275        -71.9303         -46.5274          -71.93       -0.0225379         142.619
0.619                   -3.29795         168.578         -46.4326        -73.6529         -46.4324        -73.6526       -0.0228383         142.537
0.62                    -3.36302         167.842          -46.338         -75.375         -46.3379        -75.3748       -0.0231435         142.456
0.621                   -3.42934         167.104         -46.2438        -77.0967         -46.2437        -77.0965       -0.0234534         142.374
0.622                   -3.49692         166.364           -46.15         -78.818         -46.1499        -78.8178        -0.023768         142.291
0.623                    -3.5658         165.622         -46.0566        -80.5388         -46.0565        -80.5387       -0.0240874         142.209
0.624                   -3.63601         164.877         -45.9635        -82.2593         -45.9634        -82.2592       -0.0244117         142.126
0.625                   -3.70756          164.13         -45.8708        -83.9795         -45.8707        -83.9793       -0.0247409         142.043
0.626                   -3.78049         163.382         -45.7785        -85.6993         -45.7784        -85.6992        -0.025075          141.96
0.627                   -3.85482         162.631         -45.6865        -87.4189         -45.6864        -87.4188       -0.0254141         141.876
0.628                   -3.93059         161.879         -45.5948        -89.1382         -45.5947        -89.1381       -0.0257582         141.792
0.629                   -4.00781         161.125         -45.5035        -90.8572         -45.5034        -90.8572       -0.0261075         141.708
