! TOUCHSTONE file generated by CST MICROWAVE STUDIO
! Date and time: Fri Oct  2 16:32:43 2020
! Project name: Scenario_1_Free_Space_out_of_line.cst
! Parameters = {Lambda=346.42; Step_1=17.321; dy1=295.617; dx1=346; L_HA=400; MT=2.54; Rad_Dielectric=30; Rad_Lower=7.3; Rad_Upper=30; a_HA=580; a_WG=246; b_HA=500; b_WG=121; c_HA=0; c_WG=187; d_feed=85; h_feed=15; h_lower=18; h_upper=40}
! Header version: 2018
! Port assignment regex: !\s*Touchstone port\s*([0-9]+)\s*=\s*(CST MWS port|CST DS port)\s*([0-9]+|Zmin|Zmax)\s*\(\"(.*)\"\)(\s*mode\s*([0-9]+))?.*
! Touchstone port assignment:
! Touchstone port 1 = CST MWS port 1 ("")
! Touchstone port 2 = CST MWS port 2 ("")
# GHz S DB R 50
0.5                    -0.150329         -122.64         -62.5482         44.5987         -62.5477         44.5995      -0.00681971          151.11
0.501                  -0.156372        -123.079          -62.433         42.3058         -62.4323         42.3048      -0.00688672         151.045
0.502                  -0.162576         -123.52          -62.312         40.0265         -62.3112         40.0239      -0.00695442          150.98
0.503                  -0.168943        -123.963         -62.1855         37.7624         -62.1846         37.7582      -0.00702279         150.914
0.504                  -0.175477        -124.408         -62.0538         35.5146         -62.0527          35.509      -0.00709184         150.849
0.505                   -0.18218        -124.855         -61.9172         33.2842         -61.9159         33.2774      -0.00716159         150.783
0.506                  -0.189054        -125.304         -61.7758         31.0724         -61.7744         31.0644      -0.00723204         150.717
0.507                  -0.196103        -125.755         -61.6301         28.8797         -61.6284         28.8707       -0.0073032         150.652
0.508                  -0.203329        -126.208         -61.4802         26.7069         -61.4784          26.697      -0.00737507         150.586
0.509                  -0.210735        -126.663         -61.3265         24.5545         -61.3245         24.5438      -0.00744766          150.52
0.51                   -0.218325         -127.12         -61.1692         22.4227         -61.1671         22.4113      -0.00752098         150.454
0.511                  -0.226101        -127.578         -61.0086         20.3118         -61.0063         20.2999      -0.00759504         150.388
0.512                  -0.234066        -128.039          -60.845         18.2219         -60.8426         18.2095      -0.00766984         150.322
0.513                  -0.242223        -128.502         -60.6786         16.1529          -60.676         16.1401       -0.0077454         150.256
0.514                  -0.250577        -128.967         -60.5096         14.1047          -60.507         14.0916      -0.00782171         150.189
0.515                  -0.259129        -129.434         -60.3384          12.077         -60.3356         12.0637       -0.0078988         150.123
0.516                  -0.267884        -129.903         -60.1651         10.0696         -60.1622         10.0562      -0.00797666         150.056
0.517                  -0.276844        -130.374           -59.99         8.08209          -59.987         8.06851       -0.0080553          149.99
0.518                  -0.286014        -130.848         -59.8132         6.11393         -59.8101         6.10032      -0.00813475         149.923
0.519                  -0.295396        -131.323          -59.635         4.16464         -59.6318         4.15106      -0.00821499         149.856
0.52                   -0.304995        -131.801         -59.4555         2.23367         -59.4522         2.22015      -0.00829604          149.79
0.521                  -0.314814         -132.28         -59.2749        0.320391         -59.2715        0.306991      -0.00837792         149.723
0.522                  -0.324857        -132.762         -59.0934        -1.57582           -59.09        -1.58907      -0.00846063         149.656
0.523                  -0.335127        -133.246         -58.9111        -3.45563         -58.9076        -3.46869      -0.00854417         149.589
0.524                   -0.34563        -133.733         -58.7282        -5.31974         -58.7247        -5.33258      -0.00862857         149.521
0.525                  -0.356367        -134.221         -58.5448        -7.16885         -58.5413        -7.18144      -0.00871382         149.454
0.526                  -0.367345        -134.712         -58.3611        -9.00366         -58.3575        -9.01599      -0.00879994         149.387
0.527                  -0.378566        -135.205          -58.177        -10.8249         -58.1734         -10.837      -0.00888694         149.319
0.528                  -0.390035          -135.7         -57.9929        -12.6333         -57.9893        -12.6451      -0.00897483         149.252
0.529                  -0.401757        -136.198         -57.8086        -14.4296          -57.805        -14.4411      -0.00906362         149.184
0.53                   -0.413735        -136.697         -57.6245        -16.2145         -57.6209        -16.2256      -0.00915332         149.116
0.531                  -0.425975        -137.199         -57.4404        -17.9888         -57.4368        -17.9996      -0.00924394         149.049
0.532                  -0.438481        -137.704         -57.2566        -19.7531          -57.253        -19.7635      -0.00933549         148.981
0.533                  -0.451257        -138.211          -57.073        -21.5081         -57.0695        -21.5182      -0.00942799         148.913
0.534                  -0.464308         -138.72         -56.8898        -23.2545         -56.8863        -23.2643      -0.00952144         148.844
0.535                  -0.477639        -139.231          -56.707        -24.9931         -56.7035        -25.0025      -0.00961586         148.776
0.536                  -0.491256        -139.745         -56.5247        -26.7244         -56.5212        -26.7334      -0.00971126         148.708
0.537                  -0.505162        -140.262         -56.3428        -28.4491         -56.3395        -28.4578      -0.00980765         148.639
0.538                  -0.519364         -140.78         -56.1616        -30.1678         -56.1583        -30.1762      -0.00990504         148.571
0.539                  -0.533866        -141.301         -55.9809        -31.8812         -55.9777        -31.8893       -0.0100034         148.502
0.54                   -0.548674        -141.825         -55.8009        -33.5899         -55.7977        -33.5976       -0.0101029         148.434
0.541                  -0.563793        -142.351         -55.6216        -35.2944         -55.6185        -35.3017       -0.0102034         148.365
0.542                  -0.579228        -142.879          -55.443        -36.9953           -55.44        -37.0023       -0.0103049         148.296
0.543                  -0.594986         -143.41         -55.2652        -38.6931         -55.2622        -38.6998       -0.0104075         148.227
0.544                  -0.611072        -143.944         -55.0882        -40.3884         -55.0852        -40.3948       -0.0105112         148.158
0.545                  -0.627492         -144.48         -54.9119        -42.0816         -54.9091        -42.0877        -0.010616         148.088
0.546                  -0.644252        -145.018         -54.7365        -43.7734         -54.7338        -43.7792       -0.0107218         148.019
0.547                  -0.661358        -145.559          -54.562         -45.464         -54.5593        -45.4696       -0.0108289         147.949
0.548                  -0.678816        -146.103         -54.3883        -47.1541         -54.3858        -47.1594        -0.010937          147.88
0.549                  -0.696633        -146.649         -54.2156         -48.844         -54.2131         -48.849       -0.0110463          147.81
0.55                   -0.714814        -147.197         -54.0437        -50.5342         -54.0413        -50.5389       -0.0111568          147.74
0.551                  -0.733367        -147.748         -53.8728         -52.225         -53.8705        -52.2295       -0.0112685          147.67
0.552                  -0.752297        -148.302         -53.7029        -53.9169         -53.7007        -53.9211       -0.0113814           147.6
0.553                  -0.771613        -148.859         -53.5339        -55.6102         -53.5318        -55.6142       -0.0114955          147.53
0.554                   -0.79132        -149.418         -53.3659        -57.3053         -53.3639        -57.3091       -0.0116108          147.46
0.555                  -0.811426        -149.979         -53.1989        -59.0025          -53.197         -59.006       -0.0117274         147.389
0.556                  -0.831938        -150.544          -53.033        -60.7021         -53.0312        -60.7054       -0.0118452         147.319
0.557                  -0.852863        -151.111          -52.868        -62.4044         -52.8663        -62.4076       -0.0119644         147.248
0.558                  -0.874209         -151.68         -52.7041        -64.1098         -52.7025        -64.1128       -0.0120848         147.177
0.559                  -0.895983        -152.252         -52.5412        -65.8184         -52.5397        -65.8212       -0.0122066         147.106
0.56                   -0.918192        -152.827         -52.3794        -67.5306          -52.378        -67.5332       -0.0123297         147.035
0.561                  -0.940845        -153.405         -52.2187        -69.2466         -52.2174         -69.249       -0.0124542         146.964
0.562                   -0.96395        -153.985          -52.059        -70.9666         -52.0578        -70.9689       -0.0125801         146.893
0.563                  -0.987514        -154.568         -51.9004        -72.6908         -51.8993        -72.6929       -0.0127074         146.821
0.564                   -1.01155        -155.154         -51.7429        -74.4194         -51.7419        -74.4213       -0.0128361          146.75
0.565                   -1.03605        -155.742         -51.5865        -76.1526         -51.5856        -76.1544       -0.0129662         146.678
0.566                   -1.06105        -156.333         -51.4312        -77.8905         -51.4304        -77.8922       -0.0130978         146.606
0.567                   -1.08653        -156.927         -51.2771        -79.6333         -51.2763        -79.6348       -0.0132309         146.534
0.568                   -1.11252        -157.524          -51.124        -81.3811         -51.1234        -81.3825       -0.0133656         146.462
0.569                   -1.13902        -158.123         -50.9721        -83.1341         -50.9716        -83.1354       -0.0135017          146.39
0.57                    -1.16604        -158.725         -50.8213        -84.8923         -50.8209        -84.8935       -0.0136394         146.317
0.571                   -1.19359        -159.329         -50.6717        -86.6559         -50.6713        -86.6569       -0.0137787         146.245
0.572                   -1.22167        -159.937         -50.5232        -88.4249         -50.5229        -88.4258       -0.0139196         146.172
0.573                   -1.25031        -160.547         -50.3759        -90.1993         -50.3757        -90.2001       -0.0140621         146.099
0.574                    -1.2795         -161.16         -50.2297        -91.9792         -50.2296          -91.98       -0.0142063         146.027
0.575                   -1.30926        -161.776         -50.0847        -93.7648         -50.0847        -93.7654       -0.0143522         145.953
0.576                    -1.3396        -162.394         -49.9408        -95.5558         -49.9409        -95.5564       -0.0144997          145.88
0.577                   -1.37052        -163.015         -49.7982        -97.3525         -49.7983         -97.353        -0.014649         145.807
0.578                   -1.40205        -163.639         -49.6566        -99.1548         -49.6568        -99.1552       -0.0148001         145.733
0.579                   -1.43418        -164.265         -49.5163        -100.963         -49.5166        -100.963        -0.014953         145.659
0.58                    -1.46693        -164.895         -49.3771        -102.776         -49.3775        -102.776       -0.0151077         145.586
0.581                   -1.50031        -165.526         -49.2391        -104.595         -49.2395        -104.595       -0.0152642         145.512
0.582                   -1.53433        -166.161         -49.1023        -106.419         -49.1028        -106.419       -0.0154226         145.437
0.583                     -1.569        -166.798         -48.9666        -108.249         -48.9672        -108.249       -0.0155829         145.363
0.584                   -1.60434        -167.438         -48.8321        -110.084         -48.8327        -110.084       -0.0157452         145.288
0.585                   -1.64035        -168.081         -48.6988        -111.924         -48.6995        -111.924       -0.0159095         145.214
0.586                   -1.67704        -168.727         -48.5666        -113.769         -48.5673        -113.769       -0.0160757         145.139
0.587                   -1.71444        -169.375         -48.4356         -115.62         -48.4364         -115.62        -0.016244         145.064
0.588                   -1.75254        -170.025         -48.3058        -117.475         -48.3065        -117.475       -0.0164144         144.989
0.589                   -1.79136        -170.679         -48.1771        -119.335         -48.1779        -119.335       -0.0165869         144.913
0.59                    -1.83092        -171.334         -48.0495          -121.2         -48.0503          -121.2       -0.0167616         144.838
0.591                   -1.87122        -171.993          -47.923        -123.069         -47.9239        -123.069       -0.0169384         144.762
0.592                   -1.91228        -172.654         -47.7977        -124.943         -47.7986        -124.943       -0.0171175         144.686
0.593                   -1.95412        -173.317         -47.6735        -126.821         -47.6744        -126.821       -0.0172988          144.61
0.594                   -1.99673        -173.984         -47.5503        -128.703         -47.5513        -128.703       -0.0174825         144.534
0.595                   -2.04015        -174.652         -47.4283         -130.59         -47.4293        -130.589       -0.0176685         144.458
0.596                   -2.08437        -175.323         -47.3073        -132.479         -47.3083        -132.479       -0.0178568         144.381
0.597                   -2.12942        -175.997         -47.1874        -134.373         -47.1884        -134.372       -0.0180477         144.304
0.598                    -2.1753        -176.673         -47.0685         -136.27         -47.0696        -136.269        -0.018241         144.227
0.599                   -2.22203        -177.351         -46.9507         -138.17         -46.9518        -138.169       -0.0184368          144.15
0.6                     -2.26963        -178.032         -46.8339        -140.073         -46.8349        -140.073       -0.0186352         144.073
0.601                   -2.31811        -178.715          -46.718         -141.98         -46.7191        -141.979       -0.0188363         143.995
0.602                   -2.36748          -179.4         -46.6032        -143.889         -46.6043        -143.888         -0.01904         143.917
0.603                   -2.41775         179.912         -46.4893          -145.8         -46.4904        -145.799       -0.0192464         143.839
0.604                   -2.46895         179.223         -46.3763        -147.714         -46.3774        -147.713       -0.0194556         143.761
0.605                   -2.52108         178.531         -46.2643         -149.63         -46.2653        -149.629       -0.0196677         143.683
0.606                   -2.57416         177.837         -46.1531        -151.548         -46.1542        -151.547       -0.0198826         143.604
0.607                   -2.62821         177.141         -46.0428        -153.468         -46.0439        -153.467       -0.0201005         143.525
0.608                   -2.68323         176.443         -45.9334        -155.389         -45.9344        -155.389       -0.0203214         143.446
0.609                   -2.73925         175.742         -45.8248        -157.312         -45.8258        -157.312       -0.0205454         143.367
0.61                    -2.79629          175.04          -45.717        -159.237          -45.718        -159.236       -0.0207725         143.288
0.611                   -2.85434         174.336           -45.61        -161.162          -45.611        -161.161       -0.0210028         143.208
0.612                   -2.91344         173.631         -45.5037        -163.088         -45.5047        -163.088       -0.0212364         143.128
0.613                    -2.9736         172.923         -45.3981        -165.015         -45.3991        -165.015       -0.0214733         143.048
0.614                   -3.03483         172.214         -45.2933        -166.943         -45.2942        -166.942       -0.0217135         142.967
0.615                   -3.09715         171.503         -45.1891        -168.871           -45.19         -168.87       -0.0219573         142.887
0.616                   -3.16058         170.791         -45.0856          -170.8         -45.0865        -170.799       -0.0222046         142.806
0.617                   -3.22512         170.077         -44.9827        -172.728         -44.9836        -172.728       -0.0224556         142.725
0.618                   -3.29081         169.362         -44.8804        -174.657         -44.8812        -174.656       -0.0227102         142.644
0.619                   -3.35765         168.645         -44.7787        -176.586         -44.7795        -176.585       -0.0229687         142.562
0.62                    -3.42566         167.927         -44.6775        -178.514         -44.6783        -178.513        -0.023231          142.48
0.621                   -3.49487         167.208         -44.5769         179.558         -44.5776         179.559       -0.0234973         142.398
0.622                   -3.56527         166.488         -44.4767         177.631         -44.4774         177.632       -0.0237677         142.316
0.623                    -3.6369         165.766          -44.377         175.704         -44.3777         175.705       -0.0240422         142.233
0.624                   -3.70978         165.044         -44.2778         173.778         -44.2784         173.779       -0.0243209          142.15
0.625                   -3.78391         164.321          -44.179         171.853         -44.1796         171.853        -0.024604         142.067
0.626                   -3.85931         163.598         -44.0805         169.928         -44.0811         169.929       -0.0248915         141.984
0.627                   -3.93601         162.873         -43.9825         168.005          -43.983         168.006       -0.0251836           141.9
0.628                   -4.01402         162.148         -43.8848         166.083         -43.8853         166.084       -0.0254804         141.816
0.629                   -4.09336         161.423         -43.7874         164.162         -43.7879         164.163        -0.025782         141.732
