! TOUCHSTONE file generated by CST MICROWAVE STUDIO
! Date and time: Fri Oct  2 16:40:33 2020
! Project name: Scenario_1_Free_Space_out_of_line.cst
! Parameters = {Lambda=346.42; Step_1=17.321; dy1=295.617; dx1=520; L_HA=400; MT=2.54; Rad_Dielectric=30; Rad_Lower=7.3; Rad_Upper=30; a_HA=580; a_WG=246; b_HA=500; b_WG=121; c_HA=0; c_WG=187; d_feed=85; h_feed=15; h_lower=18; h_upper=40}
! Header version: 2018
! Port assignment regex: !\s*Touchstone port\s*([0-9]+)\s*=\s*(CST MWS port|CST DS port)\s*([0-9]+|Zmin|Zmax)\s*\(\"(.*)\"\)(\s*mode\s*([0-9]+))?.*
! Touchstone port assignment:
! Touchstone port 1 = CST MWS port 1 ("")
! Touchstone port 2 = CST MWS port 2 ("")
# GHz S DB R 50
0.5                    -0.147299        -122.601         -63.6212        -47.2071         -63.6212        -47.2071      -0.00653375         151.138
0.501                  -0.153118        -123.063         -63.4941        -49.0631         -63.4982        -49.0311      -0.00659634         151.072
0.502                    -0.1592        -123.527         -63.3639        -50.9251         -63.3721        -50.8625      -0.00665952         151.007
0.503                  -0.165546        -123.992         -63.2306        -52.7926         -63.2429         -52.701       -0.0067233         150.941
0.504                  -0.172155        -124.458         -63.0943        -54.6651         -63.1106         -54.546      -0.00678769         150.876
0.505                  -0.179029        -124.926          -62.955        -56.5423         -62.9753        -56.3972      -0.00685271          150.81
0.506                  -0.186166        -125.395         -62.8128        -58.4238         -62.8369        -58.2541      -0.00691838         150.745
0.507                  -0.193568        -125.865         -62.6677        -60.3092         -62.6956        -60.1165       -0.0069847         150.679
0.508                  -0.201234        -126.337         -62.5198        -62.1982         -62.5514        -61.9838       -0.0070517         150.613
0.509                  -0.209166         -126.81         -62.3691        -64.0903         -62.4043        -63.8558      -0.00711939         150.547
0.51                   -0.217362        -127.284         -62.2157        -65.9854         -62.2545        -65.7321      -0.00718778         150.481
0.511                  -0.225824         -127.76         -62.0597        -67.8832         -62.1018        -67.6124       -0.0072569         150.415
0.512                  -0.234551        -128.237         -61.9012        -69.7833         -61.9465        -69.4964      -0.00732676         150.349
0.513                  -0.243544        -128.716         -61.7401        -71.6857         -61.7885         -71.384      -0.00739738         150.282
0.514                  -0.252803        -129.196         -61.5767          -73.59          -61.628        -73.2747      -0.00746877         150.216
0.515                  -0.262327        -129.677         -61.4109        -75.4961          -61.465        -75.1685      -0.00754095         150.149
0.516                  -0.272118        -130.159         -61.2428        -77.4039         -61.2995        -77.0652      -0.00761393         150.083
0.517                  -0.282176        -130.643         -61.0726        -79.3133         -61.1317        -78.9645      -0.00768774         150.016
0.518                    -0.2925        -131.129         -60.9003         -81.224         -60.9617        -80.8663      -0.00776239         149.949
0.519                  -0.303091        -131.616          -60.726        -83.1361         -60.7895        -82.7705      -0.00783789         149.883
0.52                   -0.313949        -132.104         -60.5498        -85.0496         -60.6152        -84.6771      -0.00791427         149.816
0.521                  -0.325074        -132.593         -60.3717        -86.9643         -60.4388        -86.5859      -0.00799155         149.749
0.522                  -0.336467        -133.084         -60.1919        -88.8804         -60.2606        -88.4969      -0.00806974         149.682
0.523                  -0.348128        -133.577         -60.0105        -90.7977         -60.0805        -90.4101      -0.00814885         149.615
0.524                  -0.360056         -134.07         -59.8274        -92.7164         -59.8986        -92.3255      -0.00822892         149.547
0.525                  -0.372254        -134.566         -59.6429        -94.6365         -59.7151        -94.2432      -0.00830995          149.48
0.526                   -0.38472        -135.063          -59.457        -96.5581           -59.53         -96.163      -0.00839197         149.412
0.527                  -0.397455        -135.561         -59.2698        -98.4812         -59.3434        -98.0852      -0.00847499         149.345
0.528                  -0.410459        -136.061         -59.0814        -100.406         -59.1554         -100.01      -0.00855903         149.277
0.529                  -0.423734        -136.562         -58.8918        -102.333         -58.9662        -101.937      -0.00864412          149.21
0.53                   -0.437279        -137.065         -58.7012        -104.261         -58.7756        -103.866      -0.00873027         149.142
0.531                  -0.451096        -137.569         -58.5097        -106.192          -58.584        -105.799       -0.0088175         149.074
0.532                  -0.465184        -138.075         -58.3173        -108.125         -58.3913        -107.734      -0.00890583         149.006
0.533                  -0.479544        -138.582         -58.1241         -110.06         -58.1977        -109.672      -0.00899528         148.938
0.534                  -0.494177        -139.091         -57.9302        -111.998         -58.0033        -111.613      -0.00908588         148.869
0.535                  -0.509085        -139.602         -57.7357        -113.938          -57.808        -113.557      -0.00917763         148.801
0.536                  -0.524266        -140.114         -57.5407        -115.882         -57.6121        -115.505      -0.00927057         148.733
0.537                  -0.539724        -140.628         -57.3452        -117.829         -57.4156        -117.456      -0.00936472         148.664
0.538                  -0.555458        -141.143         -57.1494        -119.779         -57.2187        -119.412      -0.00946009         148.596
0.539                  -0.571469         -141.66         -56.9534        -121.732         -57.0213        -121.371      -0.00955671         148.527
0.54                   -0.587759        -142.179         -56.7571        -123.689         -56.8236        -123.334      -0.00965459         148.458
0.541                   -0.60433          -142.7         -56.5607         -125.65         -56.6256        -125.301      -0.00975377         148.389
0.542                  -0.621182        -143.222         -56.3643        -127.615         -56.4276        -127.273      -0.00985426          148.32
0.543                  -0.638316        -143.746          -56.168        -129.584         -56.2294         -129.25      -0.00995608         148.251
0.544                  -0.655735        -144.272         -55.9718        -131.558         -56.0313        -131.231       -0.0100593         148.181
0.545                   -0.67344        -144.799         -55.7758        -133.536         -55.8333        -133.218       -0.0101638         148.112
0.546                  -0.691433        -145.329         -55.5801        -135.518         -55.6355        -135.209       -0.0102698         148.043
0.547                  -0.709716         -145.86         -55.3847        -137.506          -55.438        -137.205       -0.0103772         147.973
0.548                  -0.728291        -146.394         -55.1898        -139.498         -55.2409        -139.207        -0.010486         147.903
0.549                   -0.74716        -146.929         -54.9954        -141.496         -55.0442        -141.214       -0.0105963         147.833
0.55                   -0.766325        -147.466         -54.8015        -143.499          -54.848        -143.227       -0.0107082         147.763
0.551                   -0.78579        -148.005         -54.6083        -145.507         -54.6524        -145.246       -0.0108215         147.693
0.552                  -0.805556        -148.546         -54.4159         -147.52         -54.4575         -147.27       -0.0109364         147.623
0.553                  -0.825626        -149.089         -54.2242        -149.539         -54.2634          -149.3       -0.0110529         147.553
0.554                  -0.846004        -149.635         -54.0334        -151.563         -54.0701        -151.335       -0.0111709         147.482
0.555                  -0.866693        -150.182         -53.8435        -153.593         -53.8778        -153.377       -0.0112906         147.412
0.556                  -0.887696        -150.732         -53.6546        -155.628         -53.6864        -155.424       -0.0114119         147.341
0.557                  -0.909017        -151.283         -53.4668        -157.669          -53.496        -157.477        -0.011535          147.27
0.558                  -0.930659        -151.837         -53.2801        -159.715         -53.3068        -159.536       -0.0116597           147.2
0.559                  -0.952627        -152.394         -53.0945        -161.767         -53.1188        -161.601       -0.0117861         147.129
0.56                   -0.974925        -152.952         -52.9101        -163.824          -52.932        -163.671       -0.0119143         147.057
0.561                  -0.997557        -153.513         -52.7271        -165.886         -52.7465        -165.747       -0.0120443         146.986
0.562                   -1.02053        -154.076         -52.5454        -167.954         -52.5624        -167.828       -0.0121761         146.915
0.563                   -1.04384        -154.642          -52.365        -170.027         -52.3797        -169.915       -0.0123098         146.843
0.564                   -1.06751         -155.21         -52.1861        -172.105         -52.1985        -172.007       -0.0124453         146.771
0.565                   -1.09153         -155.78         -52.0086        -174.188         -52.0189        -174.104       -0.0125827           146.7
0.566                   -1.11591        -156.353         -51.8327        -176.276         -51.8408        -176.206       -0.0127221         146.628
0.567                   -1.14066        -156.929         -51.6583        -178.368         -51.6643        -178.312       -0.0128634         146.556
0.568                   -1.16578        -157.507         -51.4855         179.535         -51.4895         179.577       -0.0130067         146.483
0.569                   -1.19128        -158.088         -51.3143         177.434         -51.3164         177.461        -0.013152         146.411
0.57                    -1.21717        -158.672         -51.1447         175.329          -51.145         175.342       -0.0132993         146.338
0.571                   -1.24346        -159.258         -50.9768          173.22         -50.9754         173.219       -0.0134488         146.266
0.572                   -1.27015        -159.848         -50.8106         171.107         -50.8075         171.092       -0.0136003         146.193
0.573                   -1.29725         -160.44         -50.6461         168.991         -50.6415         168.962       -0.0137541          146.12
0.574                   -1.32477        -161.035         -50.4834         166.871         -50.4773         166.829       -0.0139099         146.047
0.575                   -1.35271        -161.633         -50.3224         164.749         -50.3149         164.693        -0.014068         145.974
0.576                    -1.3811        -162.233         -50.1631         162.624         -50.1544         162.555       -0.0142284           145.9
0.577                   -1.40993        -162.837         -50.0056         160.497         -49.9958         160.414        -0.014391         145.827
0.578                   -1.43923        -163.444         -49.8498         158.367          -49.839         158.272       -0.0145559         145.753
0.579                   -1.46899        -164.054         -49.6958         156.236          -49.684         156.128       -0.0147232         145.679
0.58                    -1.49923        -164.667         -49.5435         154.103         -49.5309         153.983       -0.0148929         145.605
0.581                   -1.52996        -165.284          -49.393         151.968         -49.3797         151.837        -0.015065         145.531
0.582                    -1.5612        -165.904         -49.2442         149.833         -49.2302          149.69       -0.0152395         145.457
0.583                   -1.59296        -166.527         -49.0971         147.696         -49.0826         147.543       -0.0154165         145.382
0.584                   -1.62524        -167.153         -48.9517         145.559         -48.9368         145.396       -0.0155961         145.308
0.585                   -1.65807        -167.783         -48.8079         143.421         -48.7927         143.248       -0.0157782         145.233
0.586                   -1.69146        -168.416         -48.6658         141.283         -48.6504         141.101       -0.0159629         145.158
0.587                   -1.72542        -169.052         -48.5254         139.145         -48.5098         138.955       -0.0161503         145.083
0.588                   -1.75997        -169.693         -48.3865         137.007         -48.3709         136.809       -0.0163403         145.008
0.589                   -1.79513        -170.336         -48.2491          134.87         -48.2336         134.665       -0.0165331         144.932
0.59                     -1.8309        -170.983         -48.1133         132.733         -48.0979         132.521       -0.0167286         144.857
0.591                   -1.86732        -171.634          -47.979         130.597         -47.9637         130.379        -0.016927         144.781
0.592                   -1.90439        -172.289         -47.8462         128.462         -47.8311         128.239       -0.0171281         144.705
0.593                   -1.94214        -172.947         -47.7148         126.327            -47.7           126.1       -0.0173322         144.629
0.594                   -1.98058        -173.609         -47.5847         124.195         -47.5703         123.964       -0.0175392         144.552
0.595                   -2.01973        -174.275          -47.456         122.063          -47.442         121.829       -0.0177491         144.476
0.596                   -2.05962        -174.944         -47.3285         119.933          -47.315         119.696       -0.0179621         144.399
0.597                   -2.10027        -175.618         -47.2023         117.805         -47.1893         117.566       -0.0181781         144.322
0.598                   -2.14169        -176.295         -47.0773         115.678         -47.0649         115.438       -0.0183973         144.245
0.599                   -2.18392        -176.976         -46.9535         113.552         -46.9416         113.312       -0.0186195         144.168
0.6                     -2.22697        -177.661         -46.8308         111.429         -46.8195         111.189        -0.018845         144.091
0.601                   -2.27087         -178.35         -46.7092         109.307         -46.6985         109.068       -0.0190737         144.013
0.602                   -2.31564        -179.042         -46.5885         107.187         -46.5785          106.95       -0.0193057         143.935
0.603                   -2.36131        -179.739         -46.4689         105.069         -46.4595         104.834       -0.0195411         143.857
0.604                    -2.4079         179.561         -46.3502         102.953         -46.3415          102.72       -0.0197798         143.779
0.605                   -2.45545         178.856         -46.2324         100.838         -46.2243         100.609       -0.0200219         143.701
0.606                   -2.50397         178.148         -46.1154         98.7253          -46.108            98.5       -0.0202676         143.622
0.607                    -2.5535         177.436         -45.9993         96.6142         -45.9925         96.3933       -0.0205168         143.543
0.608                   -2.60407          176.72         -45.8839         94.5048         -45.8778         94.2888       -0.0207695         143.464
0.609                    -2.6557         176.001         -45.7692         92.3969         -45.7638         92.1863       -0.0210259         143.385
0.61                    -2.70844         175.277         -45.6552         90.2906         -45.6504         90.0858        -0.021286         143.305
0.611                   -2.76229          174.55         -45.5419         88.1857         -45.5377         87.9871       -0.0215499         143.226
0.612                   -2.81731         173.819         -45.4292         86.0821         -45.4255         85.8902       -0.0218175         143.146
0.613                   -2.87352         173.085         -45.3171         83.9798         -45.3139         83.7949        -0.022089         143.066
0.614                   -2.93096         172.347         -45.2055         81.8787         -45.2028         81.7011       -0.0223644         142.985
0.615                   -2.98965         171.605         -45.0944         79.7785         -45.0922         79.6086       -0.0226438         142.905
0.616                   -3.04964          170.86         -44.9838         77.6793         -44.9821         77.5173       -0.0229272         142.824
0.617                   -3.11095         170.112         -44.8737         75.5809         -44.8724          75.427       -0.0232147         142.743
0.618                   -3.17362          169.36          -44.764         73.4832         -44.7631         73.3376       -0.0235064         142.662
0.619                   -3.23769         168.606         -44.6547          71.386         -44.6541         71.2489       -0.0238022          142.58
0.62                     -3.3032         167.848         -44.5458         69.2892         -44.5455         69.1607       -0.0241024         142.499
0.621                   -3.37017         167.088         -44.4372         67.1926         -44.4372         67.0729       -0.0244068         142.417
0.622                   -3.43865         166.324          -44.329         65.0962         -44.3292         64.9852       -0.0247157         142.334
0.623                   -3.50867         165.559         -44.2211         62.9998         -44.2215         62.8976        -0.025029         142.252
0.624                   -3.58027          164.79         -44.1135         60.9033         -44.1141         60.8099       -0.0253468         142.169
0.625                   -3.65348          164.02         -44.0063         58.8065         -44.0069         58.7219       -0.0256693         142.086
0.626                   -3.72835         163.247         -43.8993         56.7093            -43.9         56.6334       -0.0259964         142.003
0.627                    -3.8049         162.473         -43.7926         54.6116         -43.7933         54.5442       -0.0263282          141.92
0.628                   -3.88319         161.697         -43.6861         52.5132         -43.6868         52.4543       -0.0266648         141.836
0.629                   -3.96323          160.92         -43.5799          50.414         -43.5806         50.3635       -0.0270063         141.752
