! TOUCHSTONE file generated by CST MICROWAVE STUDIO
! Date and time: Fri Oct  2 16:54:06 2020
! Project name: Scenario_1_Free_Space_out_of_line.cst
! Parameters = {Lambda=346.42; Step_1=17.321; dy1=295.617; dx1=693; L_HA=400; MT=2.54; Rad_Dielectric=30; Rad_Lower=7.3; Rad_Upper=30; a_HA=580; a_WG=246; b_HA=500; b_WG=121; c_HA=0; c_WG=187; d_feed=85; h_feed=15; h_lower=18; h_upper=40}
! Header version: 2018
! Port assignment regex: !\s*Touchstone port\s*([0-9]+)\s*=\s*(CST MWS port|CST DS port)\s*([0-9]+|Zmin|Zmax)\s*\(\"(.*)\"\)(\s*mode\s*([0-9]+))?.*
! Touchstone port assignment:
! Touchstone port 1 = CST MWS port 1 ("")
! Touchstone port 2 = CST MWS port 2 ("")
# GHz S DB R 50
0.5                    -0.149292         -122.51         -64.4017         -139.01         -64.4017         -139.01      -0.00667796         151.152
0.501                  -0.153423        -122.938         -64.2734        -141.133         -64.2732        -141.133      -0.00673738         151.086
0.502                  -0.157749        -123.369         -64.1413        -143.262          -64.141        -143.263      -0.00679754         151.021
0.503                  -0.162276        -123.802         -64.0054        -145.396          -64.005        -145.398      -0.00685844         150.956
0.504                  -0.167006        -124.238         -63.8659        -147.536         -63.8653        -147.538      -0.00692009          150.89
0.505                  -0.171944        -124.676         -63.7228         -149.68         -63.7221        -149.682       -0.0069825         150.825
0.506                  -0.177096        -125.117         -63.5761        -151.828         -63.5753         -151.83      -0.00704567         150.759
0.507                  -0.182465         -125.56         -63.4261        -153.979         -63.4251        -153.981      -0.00710962         150.693
0.508                  -0.188055        -126.006         -63.2726        -156.132         -63.2716        -156.135      -0.00717435         150.628
0.509                  -0.193872        -126.455          -63.116        -158.288         -63.1148        -158.291      -0.00723987         150.562
0.51                    -0.19992        -126.906         -62.9562        -160.445         -62.9549        -160.448       -0.0073062         150.496
0.511                  -0.206203         -127.36         -62.7934        -162.604          -62.792        -162.607      -0.00737333          150.43
0.512                  -0.212726        -127.816         -62.6276        -164.763         -62.6262        -164.766      -0.00744129         150.364
0.513                  -0.219494        -128.275         -62.4591        -166.923         -62.4576        -166.926      -0.00751007         150.298
0.514                  -0.226512        -128.736         -62.2879        -169.083         -62.2863        -169.086       -0.0075797         150.231
0.515                  -0.233783          -129.2         -62.1141        -171.243         -62.1125        -171.246      -0.00765017         150.165
0.516                  -0.241314        -129.666         -61.9379        -173.402         -61.9362        -173.405      -0.00772149         150.099
0.517                  -0.249108        -130.135         -61.7594        -175.561         -61.7576        -175.565      -0.00779369         150.032
0.518                  -0.257171        -130.607         -61.5787         -177.72         -61.5769        -177.723      -0.00786677         149.965
0.519                  -0.265508        -131.081         -61.3959        -179.878         -61.3941        -179.881      -0.00794073         149.899
0.52                   -0.274122        -131.558         -61.2112         177.965         -61.2094         177.962      -0.00801559         149.832
0.521                   -0.28302        -132.037         -61.0247         175.808         -61.0228         175.805      -0.00809136         149.765
0.522                  -0.292206        -132.519         -60.8366         173.652         -60.8346         173.649      -0.00816806         149.698
0.523                  -0.301685        -133.004         -60.6468         171.497         -60.6449         171.494      -0.00824568         149.631
0.524                  -0.311462        -133.491         -60.4556         169.342         -60.4537         169.339      -0.00832425         149.564
0.525                  -0.321543        -133.981         -60.2632         167.187         -60.2612         167.185      -0.00840377         149.497
0.526                  -0.331931        -134.473         -60.0695         165.033         -60.0675         165.031      -0.00848425         149.429
0.527                  -0.342633        -134.968         -59.8747         162.879         -59.8728         162.877      -0.00856572         149.362
0.528                  -0.353652        -135.465          -59.679         160.725         -59.6771         160.723      -0.00864817         149.294
0.529                  -0.364995        -135.965         -59.4825         158.571         -59.4806         158.569      -0.00873163         149.227
0.53                   -0.376666        -136.468         -59.2852         156.416         -59.2833         156.414       -0.0088161         149.159
0.531                  -0.388671        -136.973         -59.0874         154.261         -59.0855         154.259      -0.00890159         149.091
0.532                  -0.401014        -137.481          -58.889         152.105         -58.8871         152.103      -0.00898813         149.023
0.533                    -0.4137        -137.991         -58.6902         149.948         -58.6883         149.945      -0.00907572         148.955
0.534                  -0.426735        -138.504         -58.4911         147.789         -58.4893         147.787      -0.00916437         148.887
0.535                  -0.440124        -139.019         -58.2919         145.629         -58.2901         145.627      -0.00925411         148.819
0.536                  -0.453872        -139.537         -58.0925         143.467         -58.0908         143.465      -0.00934493         148.751
0.537                  -0.467984        -140.057         -57.8932         141.303         -57.8915         141.301      -0.00943687         148.682
0.538                  -0.482465         -140.58         -57.6939         139.137         -57.6923         139.135      -0.00952992         148.614
0.539                   -0.49732        -141.106         -57.4949         136.968         -57.4933         136.966      -0.00962411         148.545
0.54                   -0.512554        -141.634         -57.2961         134.797         -57.2946         134.795      -0.00971946         148.477
0.541                  -0.528172        -142.165         -57.0977         132.622         -57.0962         132.621      -0.00981596         148.408
0.542                   -0.54418        -142.698         -56.8998         130.445         -56.8984         130.443      -0.00991365         148.339
0.543                  -0.560583        -143.233         -56.7024         128.264          -56.701         128.263       -0.0100125          148.27
0.544                  -0.577385        -143.771         -56.5057          126.08         -56.5043         126.078       -0.0101126         148.201
0.545                  -0.594592        -144.312         -56.3097         123.892         -56.3083          123.89        -0.010214         148.131
0.546                  -0.612209        -144.855         -56.1144           121.7         -56.1131         121.699       -0.0103165         148.062
0.547                   -0.63024          -145.4           -55.92         119.504         -55.9188         119.503       -0.0104204         147.993
0.548                  -0.648691        -145.948         -55.7265         117.305         -55.7254         117.304       -0.0105255         147.923
0.549                  -0.667567        -146.499         -55.5341         115.101          -55.533           115.1       -0.0106319         147.853
0.55                   -0.686873        -147.052         -55.3426         112.893         -55.3416         112.892       -0.0107396         147.783
0.551                  -0.706613        -147.607         -55.1524          110.68         -55.1514         110.679       -0.0108487         147.713
0.552                  -0.726793        -148.165         -54.9633         108.463         -54.9623         108.462       -0.0109591         147.643
0.553                  -0.747417        -148.725         -54.7754         106.242         -54.7746         106.241       -0.0110708         147.573
0.554                  -0.768492        -149.287         -54.5889         104.017         -54.5881         104.016        -0.011184         147.503
0.555                   -0.79002        -149.852         -54.4037         101.787         -54.4029         101.786       -0.0112985         147.432
0.556                  -0.812008        -150.419         -54.2199         99.5522         -54.2192         99.5515       -0.0114145         147.362
0.557                   -0.83446        -150.989         -54.0376         97.3134         -54.0369         97.3128        -0.011532         147.291
0.558                  -0.857381        -151.561         -53.8567         95.0704         -53.8561         95.0698       -0.0116509          147.22
0.559                  -0.880775        -152.135         -53.6774         92.8231         -53.6769         92.8227       -0.0117713          147.15
0.56                   -0.904648        -152.712         -53.4997         90.5718         -53.4992         90.5714       -0.0118932         147.079
0.561                  -0.929005        -153.291         -53.3236         88.3165         -53.3231         88.3162       -0.0120166         147.007
0.562                   -0.95385        -153.872         -53.1491         86.0573         -53.1486         86.0571       -0.0121416         146.936
0.563                  -0.979188        -154.456         -52.9762         83.7943         -52.9758         83.7942       -0.0122682         146.865
0.564                   -1.00502        -155.042         -52.8051         81.5278         -52.8047         81.5278       -0.0123964         146.793
0.565                   -1.03136         -155.63         -52.6356         79.2579         -52.6353          79.258       -0.0125262         146.721
0.566                   -1.05821        -156.221         -52.4679         76.9848         -52.4676         76.9849       -0.0126576         146.649
0.567                   -1.08556        -156.814         -52.3018         74.7086         -52.3016         74.7088       -0.0127907         146.577
0.568                   -1.11343        -157.409         -52.1376         72.4296         -52.1374         72.4299       -0.0129255         146.505
0.569                   -1.14183        -158.006          -51.975          70.148         -51.9749         70.1484       -0.0130621         146.433
0.57                    -1.17075        -158.605         -51.8142         67.8639         -51.8141         67.8644       -0.0132004         146.361
0.571                    -1.2002        -159.207         -51.6552         65.5776         -51.6551         65.5782       -0.0133404         146.288
0.572                   -1.23018        -159.811         -51.4979         63.2893         -51.4978           63.29       -0.0134823         146.215
0.573                   -1.26071        -160.417         -51.3423         60.9993         -51.3422         61.0001        -0.013626         146.143
0.574                   -1.29178        -161.025         -51.1884         58.7078         -51.1884         58.7086       -0.0137716          146.07
0.575                    -1.3234        -161.636         -51.0362         56.4149         -51.0362         56.4158        -0.013919         145.997
0.576                   -1.35557        -162.249         -50.8857          54.121         -50.8857          54.122       -0.0140684         145.923
0.577                   -1.38831        -162.864         -50.7368         51.8262         -50.7369         51.8273       -0.0142197          145.85
0.578                    -1.4216        -163.481         -50.5896         49.5308         -50.5896         49.5319       -0.0143731         145.776
0.579                   -1.45547          -164.1         -50.4439         47.2349          -50.444         47.2361       -0.0145284         145.703
0.58                    -1.48991        -164.721         -50.2999         44.9388         -50.2999         44.9401       -0.0146858         145.629
0.581                   -1.52493        -165.345         -50.1573         42.6427         -50.1574         42.6441       -0.0148452         145.555
0.582                   -1.56053        -165.971         -50.0163         40.3468         -50.0164         40.3482       -0.0150068          145.48
0.583                   -1.59672        -166.599         -49.8767         38.0513         -49.8768         38.0527       -0.0151705         145.406
0.584                   -1.63351        -167.229         -49.7385         35.7563         -49.7386         35.7578       -0.0153364         145.331
0.585                   -1.67089        -167.861         -49.6017         33.4619         -49.6018         33.4635       -0.0155046         145.257
0.586                   -1.70888        -168.495         -49.4663         31.1685         -49.4663         31.1701        -0.015675         145.182
0.587                   -1.74748        -169.132         -49.3321          28.876         -49.3322         28.8777       -0.0158477         145.107
0.588                    -1.7867         -169.77         -49.1991         26.5847         -49.1992         26.5864       -0.0160228         145.032
0.589                   -1.82653        -170.411         -49.0674         24.2946         -49.0674         24.2963       -0.0162002         144.956
0.59                      -1.867        -171.054         -48.9367         22.0058         -48.9368         22.0076         -0.01638         144.881
0.591                    -1.9081        -171.699         -48.8072         19.7185         -48.8073         19.7203       -0.0165624         144.805
0.592                   -1.94984        -172.347         -48.6787         17.4327         -48.6788         17.4345       -0.0167472         144.729
0.593                   -1.99223        -172.996         -48.5512         15.1485         -48.5513         15.1503       -0.0169346         144.653
0.594                   -2.03527        -173.648         -48.4246          12.866         -48.4247         12.8677       -0.0171246         144.577
0.595                   -2.07897        -174.301          -48.299         10.5851          -48.299         10.5868       -0.0173173           144.5
0.596                   -2.12334        -174.957         -48.1741         8.30585         -48.1741         8.30759       -0.0175127         144.424
0.597                   -2.16838        -175.616         -48.0501         6.02837         -48.0501         6.03009       -0.0177108         144.347
0.598                   -2.21411        -176.276         -47.9268          3.7526         -47.9267          3.7543       -0.0179117          144.27
0.599                   -2.26052        -176.939         -47.8041         1.47853         -47.8041          1.4802       -0.0181155         144.193
0.6                     -2.30764        -177.604         -47.6821       -0.793862         -47.6821        -0.79222       -0.0183222         144.115
0.601                   -2.35546        -178.271         -47.5607        -3.06461         -47.5607          -3.063       -0.0185319         144.038
0.602                     -2.404         -178.94         -47.4399        -5.33376         -47.4398         -5.3322       -0.0187446          143.96
0.603                   -2.45327        -179.612         -47.3195        -7.60137         -47.3194        -7.59985       -0.0189603         143.882
0.604                   -2.50327         179.714         -47.1996        -9.86751         -47.1995        -9.86604       -0.0191793         143.804
0.605                   -2.55402         179.038         -47.0801        -12.1323           -47.08        -12.1308       -0.0194015         143.725
0.606                   -2.60553         178.359          -46.961        -14.3957         -46.9609        -14.3943       -0.0196269         143.646
0.607                   -2.65781         177.678         -46.8422        -16.6579         -46.8421        -16.6566       -0.0198557         143.568
0.608                   -2.71086         176.995         -46.7237         -18.919         -46.7236        -18.9178       -0.0200879         143.489
0.609                   -2.76471         176.309         -46.6055        -21.1791         -46.6053         -21.178       -0.0203236         143.409
0.61                    -2.81936         175.621         -46.4875        -23.4384         -46.4873        -23.4372       -0.0205629          143.33
0.611                   -2.87483          174.93         -46.3697        -25.6968         -46.3694        -25.6958       -0.0208058          143.25
0.612                   -2.93114         174.237          -46.252        -27.9546         -46.2518        -27.9537       -0.0210524          143.17
0.613                   -2.98829         173.541         -46.1345         -30.212         -46.1342        -30.2111       -0.0213028          143.09
0.614                   -3.04631         172.843          -46.017         -32.469         -46.0168        -32.4681       -0.0215572          143.01
0.615                   -3.10521         172.143         -45.8997        -34.7257         -45.8995         -34.725       -0.0218155         142.929
0.616                     -3.165         171.439         -45.7824        -36.9824         -45.7822        -36.9818       -0.0220778         142.848
0.617                   -3.22571         170.734         -45.6652        -39.2392         -45.6649        -39.2386       -0.0223444         142.767
0.618                   -3.28736         170.025          -45.548        -41.4962         -45.5477        -41.4957       -0.0226151         142.686
0.619                   -3.34996         169.314         -45.4307        -43.7536         -45.4305        -43.7532       -0.0228903         142.604
0.62                    -3.41354           168.6         -45.3135        -46.0115         -45.3132        -46.0112       -0.0231699         142.522
0.621                   -3.47811         167.884         -45.1963        -48.2702          -45.196        -48.2699        -0.023454          142.44
0.622                    -3.5437         167.165          -45.079        -50.5296         -45.0787        -50.5294       -0.0237428         142.358
0.623                   -3.61034         166.443         -44.9617        -52.7901         -44.9614          -52.79       -0.0240365         142.275
0.624                   -3.67805         165.718         -44.8443        -55.0518          -44.844        -55.0517        -0.024335         142.192
0.625                   -3.74686         164.991         -44.7269        -57.3147         -44.7266        -57.3147       -0.0246385         142.109
0.626                   -3.81679         164.261         -44.6094        -59.5791         -44.6091        -59.5791       -0.0249472         142.026
0.627                   -3.88788         163.528         -44.4919        -61.8451         -44.4916        -61.8452       -0.0252612         141.942
0.628                   -3.96015         162.793         -44.3744        -64.1128         -44.3741        -64.1129       -0.0255806         141.858
0.629                   -4.03364         162.054         -44.2568        -66.3824         -44.2565        -66.3826       -0.0259056         141.774
