! TOUCHSTONE file generated by CST MICROWAVE STUDIO
! Date and time: Fri Oct  2 19:08:26 2020
! Project name: Scenario_1_Free_Space_out_of_line.cst
! Parameters = {Lambda=346.42; Step_1=17.321; dy1=295.617; dx1=866; L_HA=400; MT=2.54; Rad_Dielectric=30; Rad_Lower=7.3; Rad_Upper=30; a_HA=580; a_WG=246; b_HA=500; b_WG=121; c_HA=0; c_WG=187; d_feed=85; h_feed=15; h_lower=18; h_upper=40}
! Header version: 2018
! Port assignment regex: !\s*Touchstone port\s*([0-9]+)\s*=\s*(CST MWS port|CST DS port)\s*([0-9]+|Zmin|Zmax)\s*\(\"(.*)\"\)(\s*mode\s*([0-9]+))?.*
! Touchstone port assignment:
! Touchstone port 1 = CST MWS port 1 ("")
! Touchstone port 2 = CST MWS port 2 ("")
# GHz S DB R 50
0.5                    -0.147488        -122.521         -64.8447         127.005         -64.9495         125.606      -0.00656365         151.152
0.501                  -0.156302         -122.95         -64.8538         124.218         -64.9541         122.759      -0.00662414         151.087
0.502                  -0.165169        -123.381         -64.8522         121.395         -64.9471         119.879      -0.00668549         151.021
0.503                  -0.174091        -123.814         -64.8394         118.541         -64.9282          116.97      -0.00674771         150.956
0.504                  -0.183073        -124.249         -64.8151         115.659         -64.8971         114.039       -0.0068108          150.89
0.505                  -0.192119        -124.686          -64.779         112.756         -64.8535          111.09      -0.00687477         150.825
0.506                  -0.201232        -125.125          -64.731         109.836         -64.7973         108.129      -0.00693962         150.759
0.507                  -0.210417        -125.566         -64.6709         106.905         -64.7287         105.163      -0.00700538         150.693
0.508                  -0.219678         -126.01         -64.5989         103.968         -64.6475         102.197      -0.00707204         150.627
0.509                  -0.229019        -126.455         -64.5149         101.031         -64.5542         99.2364      -0.00713962         150.561
0.51                   -0.238444        -126.903         -64.4191         98.0993         -64.4489         96.2872      -0.00720811         150.495
0.511                  -0.247958        -127.353         -64.3119         95.1773          -64.332         93.3542      -0.00727754         150.429
0.512                  -0.257566        -127.805         -64.1936         92.2701          -64.204          90.442      -0.00734791         150.363
0.513                  -0.267272         -128.26         -64.0646          89.382         -64.0654          87.555      -0.00741923         150.297
0.514                  -0.277081        -128.717         -63.9254         86.5169         -63.9168         84.6968      -0.00749151         150.231
0.515                  -0.286999        -129.176         -63.7766         83.6784         -63.7588         81.8705      -0.00756475         150.164
0.516                  -0.297029        -129.638         -63.6186         80.8694         -63.5921          79.079      -0.00763898         150.098
0.517                  -0.307178        -130.102         -63.4522         78.0925         -63.4172         76.3243      -0.00771418         150.031
0.518                  -0.317451        -130.568         -63.2778         75.3497         -63.2348         73.6081      -0.00779039         149.964
0.519                  -0.327852        -131.037         -63.0962         72.6427         -63.0457         70.9316       -0.0078676         149.897
0.52                   -0.338389        -131.509         -62.9079         69.9726         -62.8504         68.2954      -0.00794583         149.831
0.521                  -0.349066        -131.983         -62.7136         67.3402         -62.6496         65.6999      -0.00802508         149.764
0.522                  -0.359889        -132.459         -62.5137         64.7457         -62.4438          63.145      -0.00810537         149.697
0.523                  -0.370865        -132.938          -62.309         62.1892         -62.2337         60.6303      -0.00818671          149.63
0.524                  -0.381999         -133.42            -62.1         59.6704         -62.0198         58.1551       -0.0082691         149.562
0.525                  -0.393297        -133.904          -61.887         57.1888         -61.8026         55.7186      -0.00835257         149.495
0.526                  -0.404767         -134.39         -61.6708         54.7434         -61.5826         53.3195      -0.00843711         149.428
0.527                  -0.416414         -134.88         -61.4516         52.3333         -61.3601         50.9565      -0.00852275          149.36
0.528                  -0.428245        -135.372         -61.2299         49.9573         -61.1357         48.6283      -0.00860948         149.293
0.529                  -0.440268        -135.867         -61.0062         47.6141         -60.9096         46.3333      -0.00869733         149.225
0.53                   -0.452488        -136.364         -60.7807         45.3022         -60.6823         44.0698      -0.00878631         149.157
0.531                  -0.464913        -136.864         -60.5538         43.0202         -60.4539         41.8363      -0.00887642         149.089
0.532                   -0.47755        -137.367         -60.3257         40.7665         -60.2249         39.6308      -0.00896768         149.021
0.533                  -0.490407        -137.873         -60.0969         38.5395         -59.9954         37.4518       -0.0090601         148.953
0.534                  -0.503491        -138.381         -59.8674         36.3375         -59.7656         35.2974       -0.0091537         148.885
0.535                  -0.516809        -138.893         -59.6376         34.1588         -59.5358          33.166      -0.00924848         148.817
0.536                   -0.53037        -139.407         -59.4076         32.0019         -59.3061         31.0557      -0.00934446         148.748
0.537                  -0.544181        -139.924         -59.1776          29.865         -59.0767          28.965      -0.00944166          148.68
0.538                   -0.55825        -140.444         -58.9477         27.7466         -58.8478          26.892      -0.00954008         148.611
0.539                  -0.572586        -140.966         -58.7182          25.645         -58.6194         24.8352      -0.00963974         148.543
0.54                   -0.587196        -141.492         -58.4891         23.5588         -58.3917          22.793      -0.00974065         148.474
0.541                   -0.60209        -142.021         -58.2605         21.4862         -58.1647         20.7638      -0.00984283         148.405
0.542                  -0.617276        -142.552         -58.0326         19.4259         -57.9386         18.7461      -0.00994628         148.336
0.543                  -0.632762        -143.086         -57.8054         17.3763         -57.7133         16.7385        -0.010051         148.267
0.544                  -0.648558        -143.624         -57.5791         15.3361         -57.4891         14.7394       -0.0101571         148.198
0.545                  -0.664672        -144.164         -57.3536         13.3038         -57.2659         12.7475       -0.0102645         148.128
0.546                  -0.681114        -144.707          -57.129         11.2782         -57.0438         10.7615       -0.0103732         148.059
0.547                  -0.697893        -145.254         -56.9055         9.25785         -56.8228          8.7801       -0.0104833          147.99
0.548                  -0.715018        -145.803          -56.683         7.24157         -56.6029         6.80203       -0.0105947          147.92
0.549                  -0.732499        -146.355         -56.4616         5.22814         -56.3843         4.82609       -0.0107076          147.85
0.55                   -0.750345        -146.911         -56.2413         3.21636         -56.1668         2.85111       -0.0108218          147.78
0.551                  -0.768566        -147.469         -56.0222         1.20512         -55.9506        0.875975       -0.0109375          147.71
0.552                  -0.787173         -148.03         -55.8042       -0.806697         -55.7357         -1.1004       -0.0110545          147.64
0.553                  -0.806175        -148.595         -55.5875        -2.82014         -55.5221        -3.07907       -0.0111731          147.57
0.554                  -0.825582        -149.162          -55.372        -4.83622         -55.3097        -5.06102       -0.0112931           147.5
0.555                  -0.845404        -149.733         -55.1579        -6.85593         -55.0987        -7.04724       -0.0114146         147.429
0.556                  -0.865652        -150.306         -54.9449         -8.8802          -54.889        -9.03865       -0.0115376         147.359
0.557                  -0.886336        -150.883         -54.7334          -10.91         -54.6807        -11.0362       -0.0116621         147.288
0.558                  -0.907467        -151.462         -54.5231        -12.9461         -54.4737        -13.0406       -0.0117881         147.217
0.559                  -0.929056        -152.045         -54.3142        -14.9894         -54.2681        -15.0529       -0.0119157         147.146
0.56                   -0.951112         -152.63         -54.1067        -17.0407         -54.0639        -17.0737       -0.0120449         147.075
0.561                  -0.973647        -153.219         -53.9006        -19.1007         -53.8611        -19.1039       -0.0121757         147.004
0.562                  -0.996672         -153.81         -53.6959        -21.1703         -53.6597        -21.1441       -0.0123081         146.933
0.563                    -1.0202        -154.405         -53.4926          -23.25         -53.4597        -23.1951       -0.0124421         146.861
0.564                   -1.04423        -155.002         -53.2908        -25.3406         -53.2612        -25.2576       -0.0125778          146.79
0.565                   -1.06879        -155.603         -53.0905        -27.4427         -53.0642        -27.3321       -0.0127152         146.718
0.566                   -1.09389        -156.206         -52.8917        -29.5569         -52.8687        -29.4192       -0.0128542         146.646
0.567                   -1.11953        -156.813         -52.6945        -31.6838         -52.6746        -31.5196        -0.012995         146.574
0.568                   -1.14572        -157.422         -52.4988        -33.8238         -52.4821        -33.6338       -0.0131375         146.502
0.569                   -1.17248        -158.034         -52.3047        -35.9775         -52.2912        -35.7622       -0.0132817          146.43
0.57                    -1.19982        -158.649         -52.1122        -38.1453         -52.1018        -37.9054       -0.0134278         146.357
0.571                   -1.22775        -159.267         -51.9214        -40.3277         -51.9141        -40.0636       -0.0135756         146.285
0.572                   -1.25628        -159.888         -51.7323        -42.5251         -51.7279        -42.2375       -0.0137253         146.212
0.573                   -1.28543        -160.512         -51.5449        -44.7377         -51.5434        -44.4272       -0.0138768         146.139
0.574                   -1.31519        -161.138         -51.3592        -46.9659         -51.3606        -46.6331       -0.0140302         146.066
0.575                   -1.34559        -161.767         -51.1753        -49.2099         -51.1796        -48.8556       -0.0141854         145.993
0.576                   -1.37664        -162.399         -50.9933        -51.4701         -51.0002        -51.0948       -0.0143426          145.92
0.577                   -1.40835        -163.034         -50.8131        -53.7464         -50.8227        -53.3509       -0.0145018         145.846
0.578                   -1.44072        -163.671         -50.6348        -56.0393         -50.6469        -55.6242       -0.0146629         145.773
0.579                   -1.47378        -164.311         -50.4584        -58.3486          -50.473        -57.9147        -0.014826         145.699
0.58                    -1.50752        -164.953          -50.284        -60.6745          -50.301        -60.2225       -0.0149911         145.625
0.581                   -1.54197        -165.598         -50.1116         -63.017         -50.1309        -62.5477       -0.0151583         145.551
0.582                   -1.57713        -166.246         -49.9413         -65.376         -49.9627        -64.8902       -0.0153276         145.477
0.583                   -1.61301        -166.895          -49.773        -67.7516         -49.7964          -67.25       -0.0154989         145.403
0.584                   -1.64963        -167.548         -49.6068        -70.1436         -49.6322        -69.6271       -0.0156724         145.328
0.585                   -1.68699        -168.202         -49.4427        -72.5518           -49.47        -72.0213        -0.015848         145.254
0.586                   -1.72511         -168.86         -49.2809         -74.976         -49.3099        -74.4323       -0.0160258         145.179
0.587                     -1.764        -169.519         -49.1212         -77.416         -49.1519        -76.8601       -0.0162059         145.104
0.588                   -1.80366         -170.18         -48.9637        -79.8715         -48.9959        -79.3043       -0.0163881         145.029
0.589                   -1.84411        -170.844         -48.8085        -82.3422         -48.8421        -81.7647       -0.0165727         144.953
0.59                    -1.88536         -171.51         -48.6555        -84.8278         -48.6905        -84.2409       -0.0167595         144.878
0.591                   -1.92741        -172.178         -48.5049        -87.3277          -48.541        -86.7324       -0.0169487         144.802
0.592                   -1.97028        -172.848         -48.3565        -89.8417         -48.3937         -89.239       -0.0171403         144.726
0.593                   -2.01398         -173.52         -48.2104        -92.3691         -48.2486        -91.7601       -0.0173342          144.65
0.594                   -2.05852        -174.194         -48.0667        -94.9096         -48.1057        -94.2953       -0.0175306         144.574
0.595                    -2.1039         -174.87         -47.9252        -97.4625          -47.965        -96.8439       -0.0177294         144.498
0.596                   -2.15014        -175.547         -47.7861        -100.027         -47.8265        -99.4056       -0.0179308         144.421
0.597                   -2.19724        -176.226         -47.6493        -102.603         -47.6901         -101.98       -0.0181347         144.344
0.598                   -2.24522        -176.907         -47.5147         -105.19          -47.556        -104.565       -0.0183411         144.267
0.599                   -2.29408         -177.59         -47.3824        -107.787          -47.424        -107.162       -0.0185502          144.19
0.6                     -2.34383        -178.274         -47.2524        -110.393         -47.2942         -109.77       -0.0187619         144.113
0.601                   -2.39449         -178.96         -47.1245        -113.008         -47.1665        -112.387       -0.0189763         144.035
0.602                   -2.44605        -179.647         -46.9989        -115.631         -47.0408        -115.013       -0.0191934         143.958
0.603                   -2.49852         179.665         -46.8754        -118.261         -46.9172        -117.647       -0.0194133          143.88
0.604                   -2.55192         178.975         -46.7539        -120.898         -46.7957         -120.29        -0.019636         143.802
0.605                   -2.60626         178.284         -46.6346        -123.541         -46.6761        -122.939       -0.0198615         143.723
0.606                   -2.66153         177.592         -46.5172        -126.189         -46.5583        -125.595       -0.0200899         143.645
0.607                   -2.71776         176.899         -46.4017        -128.841         -46.4425        -128.256       -0.0203212         143.566
0.608                   -2.77493         176.205         -46.2881        -131.498         -46.3284        -130.921       -0.0205555         143.487
0.609                   -2.83308         175.509         -46.1764        -134.158         -46.2161        -133.591       -0.0207929         143.408
0.61                    -2.89219         174.813         -46.0663         -136.82         -46.1055        -136.265       -0.0210333         143.329
0.611                   -2.95228         174.116         -45.9579        -139.484         -45.9964        -138.941       -0.0212768         143.249
0.612                   -3.01335         173.418         -45.8511         -142.15         -45.8888        -141.619       -0.0215235         143.169
0.613                   -3.07541          172.72         -45.7458        -144.816         -45.7827        -144.299       -0.0217734         143.089
0.614                   -3.13848         172.021         -45.6419        -147.482          -45.678         -146.98       -0.0220266         143.009
0.615                   -3.20255         171.321         -45.5393        -150.148         -45.5746         -149.66       -0.0222831         142.929
0.616                   -3.26762         170.621         -45.4379        -152.813         -45.4723        -152.341        -0.022543         142.848
0.617                   -3.33372          169.92         -45.3378        -155.477         -45.3712         -155.02       -0.0228064         142.767
0.618                   -3.40084         169.219         -45.2387        -158.138         -45.2711        -157.698       -0.0230732         142.686
0.619                     -3.469         168.517         -45.1405        -160.798         -45.1719        -160.374       -0.0233436         142.604
0.62                    -3.53819         167.816         -45.0433        -163.454         -45.0736        -163.048       -0.0236177         142.523
0.621                   -3.60843         167.114         -44.9469        -166.107         -44.9761        -165.719       -0.0238955         142.441
0.622                   -3.67972         166.411         -44.8512        -168.757         -44.8793        -168.387        -0.024177         142.358
0.623                   -3.75206         165.709         -44.7561        -171.403         -44.7831        -171.051       -0.0244624         142.276
0.624                   -3.82547         165.007         -44.6616        -174.045         -44.6874        -173.711       -0.0247517         142.193
0.625                   -3.89996         164.305         -44.5676        -176.682         -44.5921        -176.367        -0.025045          142.11
0.626                   -3.97553         163.602         -44.4739        -179.315         -44.4972        -179.018       -0.0253423         142.027
0.627                   -4.05218           162.9         -44.3805         178.057         -44.4027         178.336       -0.0256439         141.944
0.628                   -4.12993         162.198         -44.2874         175.434         -44.3083         175.694       -0.0259497          141.86
0.629                   -4.20878         161.496         -44.1945         172.817         -44.2141         173.058       -0.0262599         141.776
