! TOUCHSTONE file generated by CST MICROWAVE STUDIO
! Date and time: Fri Oct  2 18:55:05 2020
! Project name: Scenario_1_Free_Space_out_of_line.cst
! Parameters = {Lambda=346.42; Step_1=17.321; dy1=295.617; dx1=1039; L_HA=400; MT=2.54; Rad_Dielectric=30; Rad_Lower=7.3; Rad_Upper=30; a_HA=580; a_WG=246; b_HA=500; b_WG=121; c_HA=0; c_WG=187; d_feed=85; h_feed=15; h_lower=18; h_upper=40}
! Header version: 2018
! Port assignment regex: !\s*Touchstone port\s*([0-9]+)\s*=\s*(CST MWS port|CST DS port)\s*([0-9]+|Zmin|Zmax)\s*\(\"(.*)\"\)(\s*mode\s*([0-9]+))?.*
! Touchstone port assignment:
! Touchstone port 1 = CST MWS port 1 ("")
! Touchstone port 2 = CST MWS port 2 ("")
# GHz S DB R 50
0.5                    -0.148529        -122.462         -65.6643         30.3858         -65.5866         30.2247      -0.00665488         151.167
0.501                  -0.152876        -122.901         -65.5539         27.9055         -65.4828         27.6557      -0.00670907         151.102
0.502                  -0.157439        -123.341         -65.4381         25.4133         -65.3727         25.0777      -0.00676422         151.036
0.503                  -0.162222        -123.784         -65.3167         22.9104         -65.2565         22.4922      -0.00682034         150.971
0.504                  -0.167229        -124.229           -65.19         20.3982         -65.1343         19.9008      -0.00687742         150.906
0.505                  -0.172464        -124.676         -65.0579         17.8779         -65.0063          17.305      -0.00693548          150.84
0.506                  -0.177929        -125.126         -64.9206         15.3506         -64.8725         14.7062      -0.00699452         150.774
0.507                  -0.183629        -125.577         -64.7782         12.8174         -64.7331         12.1057      -0.00705455         150.709
0.508                  -0.189568        -126.031         -64.6308         10.2794         -64.5884         9.50469      -0.00711557         150.643
0.509                  -0.195749        -126.487         -64.4787         7.73757         -64.4384         6.90432       -0.0071776         150.577
0.51                   -0.202176        -126.946         -64.3218         5.19272         -64.2834         4.30556      -0.00724065         150.511
0.511                  -0.208853        -127.406         -64.1605         2.64571         -64.1236         1.70928      -0.00730471         150.445
0.512                  -0.215784        -127.869         -63.9949       0.0972475         -63.9592        -0.88375      -0.00736979         150.379
0.513                  -0.222972        -128.334         -63.8251        -2.45203         -63.7904        -3.47288      -0.00743591         150.313
0.514                  -0.230422        -128.801         -63.6514        -5.00158         -63.6175        -6.05759      -0.00750307         150.246
0.515                  -0.238137        -129.271          -63.474        -7.55094         -63.4408        -8.63744      -0.00757128          150.18
0.516                  -0.246121        -129.743          -63.293        -10.0997         -63.2603        -11.2121      -0.00764055         150.114
0.517                  -0.254378        -130.217         -63.1087        -12.6477         -63.0765        -13.7815      -0.00771089         150.047
0.518                  -0.262913        -130.693         -62.9213        -15.1945         -62.8894        -16.3453      -0.00778229         149.981
0.519                  -0.271728        -131.172         -62.7309        -17.7402         -62.6994        -18.9037      -0.00785478         149.914
0.52                   -0.280829        -131.653         -62.5379        -20.2845         -62.5067        -21.4567      -0.00792837         149.847
0.521                  -0.290219        -132.136         -62.3423        -22.8276         -62.3115        -24.0043      -0.00800305          149.78
0.522                  -0.299901        -132.621         -62.1444        -25.3694         -62.1141         -26.547      -0.00807884         149.713
0.523                  -0.309881        -133.109         -61.9445        -27.9102         -61.9145        -29.0848      -0.00815575         149.646
0.524                  -0.320162        -133.599         -61.7427          -30.45         -61.7132        -31.6182      -0.00823378         149.579
0.525                  -0.330749        -134.091         -61.5391        -32.9891         -61.5102        -34.1477      -0.00831295         149.512
0.526                  -0.341644        -134.586         -61.3341        -35.5277         -61.3058        -36.6735      -0.00839327         149.444
0.527                  -0.352853        -135.082         -61.1278        -38.0662         -61.1001        -39.1961      -0.00847474         149.377
0.528                  -0.364379        -135.581         -60.9203        -40.6048         -60.8934        -41.7162      -0.00855738         149.309
0.529                  -0.376227        -136.082         -60.7119        -43.1438         -60.6858        -44.2341      -0.00864119         149.242
0.53                     -0.3884        -136.586         -60.5028        -45.6837         -60.4776        -46.7505      -0.00872619         149.174
0.531                  -0.400903        -137.092          -60.293        -48.2248         -60.2688        -49.2659      -0.00881238         149.106
0.532                  -0.413739          -137.6         -60.0829        -50.7674         -60.0597        -51.7808      -0.00889978         149.038
0.533                  -0.426913         -138.11         -59.8724         -53.312         -59.8504        -54.2958       -0.0089884          148.97
0.534                  -0.440429        -138.623         -59.6619         -55.859          -59.641        -56.8115      -0.00907825         148.902
0.535                  -0.454291        -139.137         -59.4515        -58.4086         -59.4318        -59.3283      -0.00916933         148.834
0.536                  -0.468503        -139.654         -59.2412        -60.9613         -59.2228        -61.8469      -0.00926167         148.766
0.537                  -0.483069        -140.174         -59.0314        -63.5173         -59.0142        -64.3678      -0.00935527         148.697
0.538                  -0.497994        -140.695          -58.822        -66.0771         -58.8061        -66.8913      -0.00945014         148.629
0.539                   -0.51328        -141.219         -58.6132         -68.641         -58.5986        -69.4181      -0.00954629          148.56
0.54                   -0.528933        -141.745         -58.4052        -71.2091         -58.3918        -71.9486      -0.00964375         148.492
0.541                  -0.544956        -142.273         -58.1981        -73.7819          -58.186        -74.4831      -0.00974251         148.423
0.542                  -0.561353        -142.804          -57.992        -76.3594         -57.9811         -77.022       -0.0098426         148.354
0.543                  -0.578129        -143.336          -57.787         -78.942         -57.7773        -79.5658      -0.00994402         148.285
0.544                  -0.595287        -143.871         -57.5832        -81.5298         -57.5747        -82.1148       -0.0100468         148.216
0.545                  -0.612831        -144.408         -57.3808        -84.1229         -57.3734        -84.6691       -0.0101509         148.146
0.546                  -0.630766        -144.948         -57.1798        -86.7214         -57.1735        -87.2291       -0.0102564         148.077
0.547                  -0.649095        -145.489         -56.9803        -89.3254          -56.975         -89.795       -0.0103633         148.008
0.548                  -0.667822        -146.033         -56.7825         -91.935          -56.778        -92.3669       -0.0104717         147.938
0.549                  -0.686951        -146.579         -56.5863        -94.5502         -56.5827         -94.945       -0.0105814         147.868
0.55                   -0.706487        -147.127         -56.3919        -97.1708         -56.3891        -97.5294       -0.0106925         147.799
0.551                  -0.726433        -147.678         -56.1993        -99.7969         -56.1972         -100.12       -0.0108051         147.729
0.552                  -0.746792         -148.23         -56.0086        -102.428         -56.0071        -102.717       -0.0109192         147.659
0.553                  -0.767569        -148.785         -55.8199        -105.065         -55.8189         -105.32       -0.0110348         147.588
0.554                  -0.788768        -149.342         -55.6331        -107.707         -55.6326         -107.93       -0.0111518         147.518
0.555                  -0.810392        -149.901         -55.4484        -110.353         -55.4482        -110.546       -0.0112704         147.448
0.556                  -0.832445        -150.462         -55.2658        -113.005         -55.2659        -113.168       -0.0113904         147.377
0.557                  -0.854931        -151.026         -55.0853        -115.661         -55.0856        -115.795       -0.0115121         147.307
0.558                  -0.877854        -151.591         -54.9069        -118.321         -54.9073        -118.429       -0.0116353         147.236
0.559                  -0.901218        -152.159         -54.7307        -120.984         -54.7311        -121.068         -0.01176         147.165
0.56                   -0.925025        -152.729         -54.5566        -123.652          -54.557        -123.712       -0.0118864         147.094
0.561                  -0.949281        -153.301         -54.3847        -126.323          -54.385        -126.361       -0.0120144         147.023
0.562                  -0.973987        -153.876         -54.2149        -128.997         -54.2151        -129.015        -0.012144         146.952
0.563                  -0.999149        -154.452         -54.0473        -131.673         -54.0473        -131.673       -0.0122753          146.88
0.564                   -1.02477        -155.031         -53.8818        -134.352         -53.8816        -134.335       -0.0124083         146.809
0.565                   -1.05085        -155.611         -53.7184        -137.033         -53.7179        -137.001       -0.0125429         146.737
0.566                    -1.0774        -156.194          -53.557        -139.715         -53.5563        -139.671       -0.0126793         146.665
0.567                   -1.10442         -156.78         -53.3977        -142.399         -53.3966        -142.344       -0.0128174         146.593
0.568                   -1.13191        -157.367         -53.2403        -145.084          -53.239        -145.019       -0.0129573         146.521
0.569                   -1.15988        -157.956         -53.0849         -147.77         -53.0833        -147.697        -0.013099         146.449
0.57                    -1.18833        -158.548         -52.9313        -150.455         -52.9294        -150.376       -0.0132424         146.377
0.571                   -1.21727        -159.142         -52.7796        -153.142         -52.7774        -153.058       -0.0133877         146.304
0.572                   -1.24669        -159.738         -52.6296        -155.827         -52.6272        -155.741       -0.0135349         146.231
0.573                    -1.2766        -160.336         -52.4814        -158.513         -52.4788        -158.425       -0.0136839         146.159
0.574                   -1.30701        -160.936         -52.3347        -161.198          -52.332        -161.109       -0.0138349         146.086
0.575                   -1.33791        -161.539         -52.1897        -163.882         -52.1867        -163.794       -0.0139877         146.013
0.576                   -1.36932        -162.143         -52.0461        -166.564         -52.0431         -166.48       -0.0141426         145.939
0.577                   -1.40124         -162.75         -51.9039        -169.246         -51.9008        -169.165       -0.0142994         145.866
0.578                   -1.43366        -163.359          -51.763        -171.926           -51.76        -171.849       -0.0144582         145.792
0.579                    -1.4666        -163.971         -51.6234        -174.604         -51.6204        -174.534       -0.0146191         145.719
0.58                    -1.50005        -164.584         -51.4849        -177.281         -51.4821        -177.217        -0.014782         145.645
0.581                   -1.53403          -165.2         -51.3475        -179.956         -51.3449          -179.9       -0.0149471         145.571
0.582                   -1.56853        -165.818         -51.2112         177.371         -51.2088         177.419       -0.0151143         145.497
0.583                   -1.60356        -166.439         -51.0757         174.699         -51.0737         174.739       -0.0152836         145.422
0.584                   -1.63912        -167.062         -50.9411          172.03         -50.9395          172.06       -0.0154552         145.348
0.585                   -1.67522        -167.687         -50.8073         169.363         -50.8061         169.383        -0.015629         145.273
0.586                   -1.71187        -168.314         -50.6741         166.697         -50.6734         166.707       -0.0158051         145.199
0.587                   -1.74906        -168.944         -50.5416         164.033         -50.5415         164.033       -0.0159834         145.124
0.588                    -1.7868        -169.576         -50.4096         161.371         -50.4101          161.36       -0.0161642         145.048
0.589                    -1.8251        -170.211         -50.2781         158.711         -50.2792         158.689       -0.0163473         144.973
0.59                    -1.86397        -170.848          -50.147         156.052         -50.1488          156.02       -0.0165328         144.898
0.591                    -1.9034        -171.488         -50.0162         153.395         -50.0187         153.352       -0.0167208         144.822
0.592                    -1.9434         -172.13         -49.8857         150.739          -49.889         150.685       -0.0169114         144.746
0.593                   -1.98399        -172.775         -49.7554         148.084         -49.7594          148.02       -0.0171044          144.67
0.594                   -2.02516        -173.423         -49.6253          145.43         -49.6301         145.357       -0.0173001         144.594
0.595                   -2.06692        -174.073         -49.4952         142.777         -49.5009         142.694       -0.0174985         144.518
0.596                   -2.10929        -174.726         -49.3652         140.124         -49.3718         140.032       -0.0176995         144.441
0.597                   -2.15226        -175.382         -49.2353         137.472         -49.2427         137.371       -0.0179033         144.364
0.598                   -2.19585        -176.041         -49.1053          134.82         -49.1135         134.711       -0.0181099         144.287
0.599                   -2.24007        -176.702         -48.9752         132.169         -48.9843         132.052       -0.0183194          144.21
0.6                     -2.28493        -177.367         -48.8451         129.516          -48.855         129.393       -0.0185318         144.133
0.601                   -2.33042        -178.034         -48.7148         126.864         -48.7255         126.734       -0.0187472         144.055
0.602                   -2.37658        -178.705         -48.5844         124.211         -48.5959         124.075       -0.0189656         143.977
0.603                   -2.42341        -179.379         -48.4538         121.556          -48.466         121.416       -0.0191872           143.9
0.604                   -2.47092         179.944         -48.3231         118.901          -48.336         118.756       -0.0194119         143.821
0.605                   -2.51912         179.263         -48.1921         116.244         -48.2057         116.096       -0.0196398         143.743
0.606                   -2.56804         178.579          -48.061         113.586         -48.0751         113.434       -0.0198711         143.665
0.607                   -2.61769         177.892         -47.9296         110.926         -47.9443         110.772       -0.0201059         143.586
0.608                   -2.66809         177.201          -47.798         108.264         -47.8133         108.108        -0.020344         143.507
0.609                   -2.71925         176.506         -47.6663         105.599         -47.6819         105.443       -0.0205858         143.428
0.61                     -2.7712         175.807         -47.5343         102.932         -47.5504         102.776       -0.0208312         143.348
0.611                   -2.82397         175.104         -47.4022         100.262         -47.4186         100.107       -0.0210804         143.269
0.612                   -2.87757         174.397         -47.2699         97.5898         -47.2865         97.4358       -0.0213335         143.189
0.613                   -2.93204         173.686         -47.1374         94.9142         -47.1542         94.7622       -0.0215905         143.109
0.614                    -2.9874          172.97         -47.0049         92.2355         -47.0218          92.086       -0.0218516         143.028
0.615                   -3.04369         172.251         -46.8722         89.5533         -46.8891          89.407       -0.0221168         142.948
0.616                   -3.10095         171.526         -46.7395         86.8676         -46.7564         86.7251       -0.0223864         142.867
0.617                   -3.15921         170.797         -46.6068         84.1784         -46.6235         84.0401       -0.0226604         142.786
0.618                   -3.21852         170.063          -46.474         81.4853         -46.4905         81.3519        -0.022939         142.705
0.619                   -3.27892         169.324         -46.3413         78.7885         -46.3575         78.6603       -0.0232223         142.623
0.62                    -3.34046          168.58         -46.2087         76.0877         -46.2245         75.9652       -0.0235105         142.541
0.621                    -3.4032         167.831         -46.0762          73.383         -46.0915         73.2664       -0.0238037         142.459
0.622                    -3.4672         167.077         -45.9438         70.6743         -45.9586          70.564       -0.0241021         142.377
0.623                   -3.53251         166.318         -45.8117         67.9615         -45.8259         67.8579       -0.0244059         142.295
0.624                   -3.59921         165.553         -45.6798         65.2447         -45.6933         65.1479       -0.0247152         142.212
0.625                   -3.66738         164.782         -45.5482          62.524          -45.561         62.4342       -0.0250303         142.129
0.626                   -3.73708         164.007         -45.4169         59.7992          -45.429         59.7166       -0.0253513         142.045
0.627                   -3.80841         163.225          -45.286         57.0706         -45.2972         56.9952       -0.0256785         141.962
0.628                   -3.88146         162.439         -45.1556         54.3382         -45.1659         54.2701        -0.026012         141.878
0.629                   -3.95632         161.647         -45.0256          51.602          -45.035         51.5412       -0.0263522         141.794
