! TOUCHSTONE file generated by CST MICROWAVE STUDIO
! Date and time: Fri Oct  2 18:45:40 2020
! Project name: Scenario_1_Free_Space_out_of_line.cst
! Parameters = {Lambda=346.42; Step_1=17.321; dy1=278.276; dx1=173; L_HA=400; MT=2.54; Rad_Dielectric=30; Rad_Lower=7.3; Rad_Upper=30; a_HA=580; a_WG=246; b_HA=500; b_WG=121; c_HA=0; c_WG=187; d_feed=85; h_feed=15; h_lower=18; h_upper=40}
! Header version: 2018
! Port assignment regex: !\s*Touchstone port\s*([0-9]+)\s*=\s*(CST MWS port|CST DS port)\s*([0-9]+|Zmin|Zmax)\s*\(\"(.*)\"\)(\s*mode\s*([0-9]+))?.*
! Touchstone port assignment:
! Touchstone port 1 = CST MWS port 1 ("")
! Touchstone port 2 = CST MWS port 2 ("")
# GHz S DB R 50
0.5                    -0.146573        -122.661         -62.3332         129.436         -62.3332         129.436      -0.00627442         151.112
0.501                  -0.152911        -123.094         -62.1445         128.107         -62.1446         128.109      -0.00632103         151.047
0.502                   -0.15924        -123.529         -61.9568         126.767          -61.957          126.77      -0.00636851         150.981
0.503                  -0.165565        -123.965         -61.7702         125.417         -61.7704         125.421      -0.00641689         150.916
0.504                  -0.171896        -124.405         -61.5845         124.055         -61.5848          124.06      -0.00646617          150.85
0.505                  -0.178244        -124.847         -61.3999         122.683         -61.4002         122.689      -0.00651636         150.785
0.506                  -0.184622        -125.291         -61.2161           121.3         -61.2164         121.308      -0.00656748         150.719
0.507                  -0.191046        -125.738         -61.0333         119.908         -61.0336         119.916      -0.00661954         150.653
0.508                  -0.197535        -126.188         -60.8514         118.505         -60.8516         118.513      -0.00667256         150.587
0.509                  -0.204108        -126.641         -60.6703         117.092         -60.6705         117.101      -0.00672654         150.521
0.51                   -0.210786        -127.097         -60.4901          115.67         -60.4902         115.679      -0.00678151         150.455
0.511                  -0.217593        -127.556         -60.3106         114.237         -60.3107         114.247      -0.00683748         150.389
0.512                  -0.224551        -128.019          -60.132         112.796          -60.132         112.806      -0.00689445         150.322
0.513                  -0.231686        -128.484         -59.9541         111.345          -59.954         111.355      -0.00695245         150.256
0.514                  -0.239021        -128.953          -59.777         109.885         -59.7769         109.895      -0.00701149          150.19
0.515                   -0.24658        -129.424         -59.6007         108.415         -59.6004         108.426      -0.00707158         150.123
0.516                  -0.254388        -129.899         -59.4251         106.937         -59.4247         106.948      -0.00713274         150.056
0.517                  -0.262465        -130.377         -59.2502         105.451         -59.2497         105.461      -0.00719498          149.99
0.518                  -0.270833        -130.858          -59.076         103.955         -59.0754         103.965      -0.00725832         149.923
0.519                  -0.279511        -131.342         -58.9026         102.451         -58.9019         102.461      -0.00732277         149.856
0.52                   -0.288517        -131.829         -58.7299         100.939         -58.7291         100.949      -0.00738835         149.789
0.521                  -0.297865        -132.319         -58.5578         99.4192         -58.5569         99.4286      -0.00745507         149.722
0.522                  -0.307569        -132.812         -58.3865         97.8911         -58.3855         97.9002      -0.00752295         149.655
0.523                   -0.31764        -133.307         -58.2159         96.3551         -58.2148         96.3639        -0.007592         149.588
0.524                  -0.328086        -133.805          -58.046         94.8115         -58.0448         94.8199      -0.00766224          149.52
0.525                  -0.338916        -134.305         -57.8768         93.2604         -57.8755         93.2685      -0.00773369         149.453
0.526                  -0.350133        -134.807         -57.7084          91.702         -57.7069         91.7096      -0.00780636         149.385
0.527                  -0.361741        -135.312         -57.5406         90.1363          -57.539         90.1436      -0.00788027         149.318
0.528                  -0.373742        -135.819         -57.3735         88.5637         -57.3718         88.5705      -0.00795543          149.25
0.529                  -0.386137        -136.328         -57.2072         86.9841         -57.2054         86.9906      -0.00803186         149.182
0.53                   -0.398925        -136.839         -57.0416         85.3979         -57.0397         85.4039      -0.00810958         149.114
0.531                  -0.412104        -137.352         -56.8767         83.8051         -56.8747         83.8107       -0.0081886         149.046
0.532                  -0.425672        -137.867         -56.7126          82.206         -56.7105         82.2111      -0.00826894         148.978
0.533                  -0.439626        -138.384         -56.5492         80.6006          -56.547         80.6053      -0.00835061          148.91
0.534                  -0.453962        -138.902         -56.3865         78.9892         -56.3843         78.9934      -0.00843365         148.842
0.535                  -0.468676        -139.422         -56.2247         77.3719         -56.2224         77.3757      -0.00851805         148.773
0.536                  -0.483764        -139.944         -56.0636         75.7488         -56.0612         75.7522      -0.00860384         148.705
0.537                  -0.499223        -140.468         -55.9032         74.1202         -55.9008         74.1232      -0.00869104         148.636
0.538                  -0.515049        -140.994         -55.7437         72.4863         -55.7412         72.4888      -0.00877966         148.567
0.539                  -0.531237        -141.521         -55.5849         70.8471         -55.5825         70.8492      -0.00886972         148.499
0.54                   -0.547785         -142.05          -55.427         69.2029         -55.4245         69.2046      -0.00896124          148.43
0.541                  -0.564688         -142.58         -55.2699         67.5538         -55.2673         67.5551      -0.00905424         148.361
0.542                  -0.581943        -143.112         -55.1136            65.9          -55.111          65.901      -0.00914873         148.291
0.543                  -0.599549        -143.646         -54.9581         64.2416         -54.9555         64.2423      -0.00924473         148.222
0.544                  -0.617503        -144.182         -54.8035         62.5789         -54.8009         62.5792      -0.00934226         148.153
0.545                  -0.635802        -144.719         -54.6497         60.9121         -54.6471          60.912      -0.00944135         148.083
0.546                  -0.654446        -145.258         -54.4968         59.2411         -54.4941         59.2407        -0.009542         148.014
0.547                  -0.673434        -145.799         -54.3447         57.5664         -54.3421         57.5657      -0.00964423         147.944
0.548                  -0.692764        -146.342         -54.1935         55.8879         -54.1909         55.8869      -0.00974807         147.874
0.549                  -0.712436        -146.886         -54.0432         54.2059         -54.0406         54.2047      -0.00985354         147.804
0.55                   -0.732451        -147.432         -53.8938         52.5206         -53.8912         52.5191      -0.00996064         147.734
0.551                  -0.752809         -147.98         -53.7453         50.8321         -53.7427         50.8304       -0.0100694         147.664
0.552                  -0.773512         -148.53         -53.5977         49.1406         -53.5951         49.1387       -0.0101799         147.594
0.553                   -0.79456        -149.082         -53.4509         47.4463         -53.4485         47.4441        -0.010292         147.524
0.554                  -0.815956        -149.635         -53.3051         45.7492         -53.3027         45.7469       -0.0104059         147.453
0.555                  -0.837701        -150.191         -53.1602         44.0497         -53.1578         44.0472       -0.0105215         147.382
0.556                  -0.859798        -150.749         -53.0162         42.3477         -53.0139         42.3452       -0.0106388         147.312
0.557                  -0.882251        -151.309         -52.8732         40.6436         -52.8709         40.6409       -0.0107579         147.241
0.558                  -0.905061         -151.87          -52.731         38.9374         -52.7288         38.9346       -0.0108789          147.17
0.559                  -0.928234        -152.434         -52.5898         37.2294         -52.5876         37.2265       -0.0110016         147.099
0.56                   -0.951772            -153         -52.4495         35.5196         -52.4474         35.5166       -0.0111262         147.027
0.561                   -0.97568        -153.568         -52.3101         33.8081         -52.3081         33.8051       -0.0112526         146.956
0.562                  -0.999962        -154.138         -52.1716         32.0953         -52.1697         32.0922       -0.0113809         146.884
0.563                   -1.02462        -154.711         -52.0341         30.3811         -52.0322          30.378       -0.0115111         146.813
0.564                   -1.04967        -155.286         -51.8975         28.6658         -51.8956         28.6627       -0.0116432         146.741
0.565                   -1.07511        -155.863         -51.7618         26.9494           -51.76         26.9463       -0.0117772         146.669
0.566                   -1.10094        -156.442          -51.627         25.2321         -51.6253          25.229       -0.0119132         146.597
0.567                   -1.12717        -157.024         -51.4931          23.514         -51.4915          23.511       -0.0120512         146.525
0.568                   -1.15381        -157.608         -51.3601         21.7952         -51.3585         21.7923       -0.0121911         146.453
0.569                   -1.18086        -158.194          -51.228         20.0759         -51.2265         20.0731       -0.0123331          146.38
0.57                    -1.20834        -158.783         -51.0968         18.3562         -51.0954         18.3535       -0.0124771         146.308
0.571                   -1.23625        -159.374         -50.9665         16.6362         -50.9651         16.6335       -0.0126232         146.235
0.572                   -1.26459        -159.968          -50.837         14.9159         -50.8358         14.9134       -0.0127713         146.162
0.573                   -1.29337        -160.564         -50.7085         13.1956         -50.7073         13.1931       -0.0129216         146.089
0.574                   -1.32261        -161.163         -50.5807         11.4752         -50.5796         11.4728        -0.013074         146.016
0.575                    -1.3523        -161.764         -50.4539         9.75483         -50.4528         9.75263       -0.0132285         145.942
0.576                   -1.38246        -162.368         -50.3278         8.03466         -50.3269          8.0326       -0.0133852         145.869
0.577                    -1.4131        -162.974         -50.2026         6.31472         -50.2017          6.3128       -0.0135441         145.795
0.578                   -1.44423        -163.584         -50.0783         4.59509         -50.0774         4.59332       -0.0137052         145.722
0.579                   -1.47585        -164.195         -49.9547         2.87584         -49.9539         2.87421       -0.0138686         145.648
0.58                    -1.50798         -164.81         -49.8319         1.15703         -49.8312         1.15556       -0.0140342         145.574
0.581                   -1.54062        -165.427         -49.7099       -0.561286         -49.7092       -0.562599       -0.0142021         145.499
0.582                   -1.57379        -166.047         -49.5887        -2.27904          -49.588         -2.2802       -0.0143724         145.425
0.583                   -1.60749         -166.67         -49.4682         -3.9962         -49.4676         -3.9972        -0.014545          145.35
0.584                   -1.64174        -167.295         -49.3485        -5.71271         -49.3479        -5.71355       -0.0147201         145.276
0.585                   -1.67655        -167.924         -49.2295        -7.42854          -49.229        -7.42922       -0.0148975         145.201
0.586                   -1.71193        -168.555         -49.1112        -9.14365         -49.1108        -9.14417       -0.0150774         145.126
0.587                   -1.74788        -169.189         -48.9936         -10.858         -48.9932        -10.8584       -0.0152598         145.051
0.588                   -1.78444        -169.826         -48.8768        -12.5716         -48.8764        -12.5718       -0.0154447         144.975
0.589                   -1.82159        -170.466         -48.7606        -14.2844         -48.7602        -14.2845       -0.0156322           144.9
0.59                    -1.85937        -171.108          -48.645        -15.9964         -48.6447        -15.9964       -0.0158223         144.824
0.591                   -1.89777        -171.754         -48.5302        -17.7076         -48.5299        -17.7074        -0.016015         144.748
0.592                   -1.93682        -172.402         -48.4159         -19.418         -48.4157        -19.4177       -0.0162105         144.672
0.593                   -1.97653        -173.054         -48.3023        -21.1276         -48.3021        -21.1271       -0.0164087         144.596
0.594                   -2.01691        -173.708         -48.1893        -22.8364         -48.1891        -22.8358       -0.0166097         144.519
0.595                   -2.05798        -174.366         -48.0769        -24.5443         -48.0767        -24.5437       -0.0168136         144.443
0.596                   -2.09975        -175.026         -47.9651        -26.2515         -47.9649        -26.2507       -0.0170204         144.366
0.597                   -2.14224         -175.69         -47.8539        -27.9579         -47.8537        -27.9571       -0.0172302         144.289
0.598                   -2.18545        -176.356         -47.7432        -29.6636          -47.743        -29.6626        -0.017443         144.212
0.599                   -2.22942        -177.025         -47.6331        -31.3685         -47.6329        -31.3675        -0.017659         144.134
0.6                     -2.27415        -177.698         -47.5235        -33.0728         -47.5233        -33.0717       -0.0178782         144.057
0.601                   -2.31966        -178.373         -47.4144        -34.7763         -47.4142        -34.7752       -0.0181006         143.979
0.602                   -2.36597        -179.051         -47.3058        -36.4793         -47.3057        -36.4781       -0.0183264         143.901
0.603                    -2.4131        -179.733         -47.1978        -38.1816         -47.1976        -38.1804       -0.0185557         143.823
0.604                   -2.46106         179.583         -47.0902        -39.8834           -47.09        -39.8821       -0.0187885         143.744
0.605                   -2.50987         178.895         -46.9831        -41.5846         -46.9829        -41.5834       -0.0190249         143.666
0.606                   -2.55955         178.205         -46.8765        -43.2854         -46.8763        -43.2842       -0.0192651         143.587
0.607                   -2.61012         177.512         -46.7704        -44.9858         -46.7701        -44.9845       -0.0195092         143.508
0.608                   -2.66159         176.815         -46.6647        -46.6857         -46.6644        -46.6845       -0.0197572         143.429
0.609                     -2.714         176.116         -46.5594        -48.3853         -46.5591        -48.3841       -0.0200092         143.349
0.61                    -2.76736         175.414         -46.4546        -50.0847         -46.4543        -50.0835       -0.0202655          143.27
0.611                   -2.82168         174.709         -46.3502        -51.7838         -46.3499        -51.7827        -0.020526          143.19
0.612                     -2.877         174.001         -46.2462        -53.4827         -46.2459        -53.4817        -0.020791          143.11
0.613                   -2.93332          173.29         -46.1427        -55.1815         -46.1423        -55.1805       -0.0210605          143.03
0.614                   -2.99069         172.577         -46.0395        -56.8802         -46.0391        -56.8793       -0.0213347         142.949
0.615                   -3.04911          171.86         -45.9368        -58.5789         -45.9363        -58.5781       -0.0216137         142.868
0.616                   -3.10861         171.141         -45.8344        -60.2776          -45.834        -60.2769       -0.0218976         142.787
0.617                   -3.16921         170.419         -45.7325        -61.9764          -45.732        -61.9758       -0.0221865         142.706
0.618                   -3.23094         169.695         -45.6309        -63.6754         -45.6304        -63.6749       -0.0224805         142.625
0.619                   -3.29382         168.968         -45.5297        -65.3745         -45.5291        -65.3741       -0.0227798         142.543
0.62                    -3.35788         168.238         -45.4289        -67.0739         -45.4283        -67.0736       -0.0230845         142.461
0.621                   -3.42314         167.506         -45.3284        -68.7735         -45.3278        -68.7734       -0.0233947         142.379
0.622                   -3.48963         166.771         -45.2284        -70.4736         -45.2278        -70.4736       -0.0237104         142.296
0.623                   -3.55737         166.034         -45.1287         -72.174         -45.1281        -72.1741       -0.0240318         142.213
0.624                   -3.62639         165.295         -45.0294        -73.8748         -45.0287        -73.8751       -0.0243589         142.131
0.625                   -3.69672         164.553         -44.9305        -75.5761         -44.9298        -75.5766       -0.0246919         142.047
0.626                   -3.76838         163.809         -44.8319         -77.278         -44.8312        -77.2786       -0.0250308         141.964
0.627                    -3.8414         163.064         -44.7337        -78.9804          -44.733        -78.9812       -0.0253757          141.88
0.628                   -3.91582         162.316         -44.6359        -80.6834         -44.6351        -80.6844       -0.0257267         141.796
0.629                   -3.99166         161.566         -44.5385        -82.3871         -44.5377        -82.3882       -0.0260837         141.712
