! TOUCHSTONE file generated by CST MICROWAVE STUDIO
! Date and time: Fri Oct  2 16:40:24 2020
! Project name: Scenario_1_Free_Space_out_of_line.cst
! Parameters = {Lambda=346.42; Step_1=17.321; dy1=278.276; dx1=520; L_HA=400; MT=2.54; Rad_Dielectric=30; Rad_Lower=7.3; Rad_Upper=30; a_HA=580; a_WG=246; b_HA=500; b_WG=121; c_HA=0; c_WG=187; d_feed=85; h_feed=15; h_lower=18; h_upper=40}
! Header version: 2018
! Port assignment regex: !\s*Touchstone port\s*([0-9]+)\s*=\s*(CST MWS port|CST DS port)\s*([0-9]+|Zmin|Zmax)\s*\(\"(.*)\"\)(\s*mode\s*([0-9]+))?.*
! Touchstone port assignment:
! Touchstone port 1 = CST MWS port 1 ("")
! Touchstone port 2 = CST MWS port 2 ("")
# GHz S DB R 50
0.5                    -0.147629        -122.594         -63.3524        -43.5014         -63.3524        -43.5014       -0.0065516         151.145
0.501                  -0.151973        -123.031         -63.1636        -45.2743         -63.1637        -45.2742      -0.00659806         151.079
0.502                  -0.156534        -123.471         -62.9742        -47.0495         -62.9743        -47.0493      -0.00664569         151.014
0.503                  -0.161317        -123.913         -62.7842         -48.827         -62.7844        -48.8268      -0.00669451         150.948
0.504                  -0.166327        -124.358         -62.5936        -50.6073         -62.5939        -50.6069      -0.00674451         150.883
0.505                  -0.171571        -124.806         -62.4026        -52.3905          -62.403        -52.3901       -0.0067957         150.817
0.506                  -0.177054        -125.256         -62.2111        -54.1768         -62.2116        -54.1763       -0.0068481         150.751
0.507                  -0.182781        -125.709         -62.0193        -55.9666         -62.0198         -55.966      -0.00690171         150.685
0.508                  -0.188758        -126.164         -61.8271        -57.7599         -61.8277        -57.7593      -0.00695655          150.62
0.509                  -0.194992        -126.622         -61.6346        -59.5571         -61.6352        -59.5565      -0.00701261         150.554
0.51                   -0.201486        -127.082         -61.4419        -61.3584         -61.4425        -61.3577      -0.00706991         150.487
0.511                  -0.208248        -127.545         -61.2489         -63.164         -61.2496        -63.1632      -0.00712846         150.421
0.512                  -0.215283         -128.01         -61.0558        -64.9741         -61.0565        -64.9733      -0.00718827         150.355
0.513                  -0.222595        -128.478         -60.8626        -66.7889         -60.8633         -66.788      -0.00724934         150.289
0.514                  -0.230191        -128.948         -60.6693        -68.6086         -60.6701        -68.6077      -0.00731169         150.222
0.515                  -0.238076        -129.421          -60.476        -70.4334         -60.4768        -70.4325      -0.00737532         150.156
0.516                  -0.246255        -129.897         -60.2827        -72.2635         -60.2834        -72.2626      -0.00744024         150.089
0.517                  -0.254734        -130.374         -60.0894        -74.0991         -60.0902        -74.0982      -0.00750648         150.023
0.518                  -0.263517        -130.854         -59.8962        -75.9404          -59.897        -75.9394      -0.00757402         149.956
0.519                   -0.27261        -131.337         -59.7032        -77.7875          -59.704        -77.7865      -0.00764289         149.889
0.52                   -0.282017        -131.822         -59.5103        -79.6405         -59.5111        -79.6395       -0.0077131         149.822
0.521                  -0.291744        -132.309         -59.3177        -81.4997         -59.3185        -81.4986      -0.00778465         149.755
0.522                  -0.301794        -132.799         -59.1253        -83.3651         -59.1261        -83.3641      -0.00785756         149.688
0.523                  -0.312174        -133.291         -58.9332        -85.2369          -58.934        -85.2359      -0.00793184         149.621
0.524                  -0.322887        -133.786         -58.7415        -87.1152         -58.7423        -87.1141       -0.0080075         149.554
0.525                  -0.333938        -134.282         -58.5501        -89.0001         -58.5509         -88.999      -0.00808455         149.486
0.526                   -0.34533        -134.781         -58.3592        -90.8917         -58.3599        -90.8906        -0.008163         149.419
0.527                  -0.357069        -135.283         -58.1687        -92.7901         -58.1694         -92.789      -0.00824287         149.351
0.528                  -0.369157        -135.786         -57.9787        -94.6953         -57.9795        -94.6941      -0.00832417         149.284
0.529                  -0.381599        -136.292         -57.7893        -96.6073           -57.79        -96.6062       -0.0084069         149.216
0.53                   -0.394398          -136.8         -57.6004        -98.5263         -57.6011        -98.5252      -0.00849109         149.148
0.531                  -0.407558         -137.31         -57.4122        -100.452         -57.4129        -100.451      -0.00857674          149.08
0.532                  -0.421082        -137.822         -57.2246        -102.385         -57.2252        -102.384      -0.00866388         149.012
0.533                  -0.434973        -138.337         -57.0377        -104.325         -57.0383        -104.324       -0.0087525         148.944
0.534                  -0.449233        -138.853         -56.8515        -106.272         -56.8521        -106.271      -0.00884264         148.876
0.535                  -0.463866        -139.372         -56.6661        -108.226         -56.6667        -108.225      -0.00893429         148.808
0.536                  -0.478875        -139.893         -56.4815        -110.187          -56.482        -110.186      -0.00902748         148.739
0.537                   -0.49426        -140.415         -56.2977        -112.154         -56.2982        -112.153      -0.00912222         148.671
0.538                  -0.510025         -140.94         -56.1148        -114.129         -56.1153        -114.128      -0.00921852         148.602
0.539                  -0.526171        -141.467         -55.9327         -116.11         -55.9332        -116.109      -0.00931641         148.533
0.54                   -0.542701        -141.995         -55.7516        -118.097          -55.752        -118.097      -0.00941589         148.464
0.541                  -0.559615        -142.526         -55.5714        -120.092         -55.5718        -120.091      -0.00951698         148.396
0.542                  -0.576915        -143.059         -55.3923        -122.092         -55.3926        -122.092      -0.00961971         148.327
0.543                  -0.594601        -143.593         -55.2141        -124.099         -55.2144        -124.099      -0.00972408         148.257
0.544                  -0.612676        -144.129         -55.0369        -126.112         -55.0372        -126.112      -0.00983012         148.188
0.545                  -0.631139        -144.668         -54.8608        -128.132         -54.8611        -128.131      -0.00993784         148.119
0.546                  -0.649991        -145.208         -54.6858        -130.157         -54.6861        -130.156       -0.0100473         148.049
0.547                  -0.669232        -145.749         -54.5119        -132.187         -54.5121        -132.187       -0.0101584          147.98
0.548                  -0.688863        -146.293         -54.3391        -134.224         -54.3393        -134.223       -0.0102713          147.91
0.549                  -0.708884        -146.839         -54.1674        -136.265         -54.1676        -136.265       -0.0103859          147.84
0.55                   -0.729294        -147.386         -53.9969        -138.312          -53.997        -138.312       -0.0105024          147.77
0.551                  -0.750092        -147.935         -53.8275        -140.363         -53.8276        -140.363       -0.0106206           147.7
0.552                  -0.771279        -148.486         -53.6593         -142.42         -53.6594         -142.42       -0.0107407          147.63
0.553                  -0.792854        -149.038         -53.4923        -144.481         -53.4924        -144.481       -0.0108626          147.56
0.554                  -0.814816        -149.593         -53.3265        -146.546         -53.3265        -146.546       -0.0109864         147.489
0.555                  -0.837163        -150.149         -53.1619        -148.615         -53.1619        -148.615        -0.011112         147.419
0.556                  -0.859896        -150.707         -52.9984        -150.688         -52.9984        -150.688       -0.0112397         147.348
0.557                  -0.883013        -151.266         -52.8362        -152.765         -52.8362        -152.765       -0.0113692         147.277
0.558                  -0.906513        -151.828         -52.6752        -154.845         -52.6751        -154.846       -0.0115008         147.207
0.559                  -0.930395        -152.391         -52.5153        -156.928         -52.5153        -156.929       -0.0116343         147.136
0.56                   -0.954657        -152.956         -52.3567        -159.015         -52.3566        -159.015       -0.0117699         147.064
0.561                  -0.979298        -153.523         -52.1993        -161.104         -52.1992        -161.104       -0.0119076         146.993
0.562                   -1.00432        -154.091          -52.043        -163.195         -52.0429        -163.196       -0.0120474         146.922
0.563                   -1.02971        -154.661         -51.8879        -165.289         -51.8878         -165.29       -0.0121893          146.85
0.564                   -1.05549        -155.234         -51.7339        -167.385         -51.7338        -167.386       -0.0123334         146.779
0.565                   -1.08163        -155.807         -51.5811        -169.482          -51.581        -169.483       -0.0124797         146.707
0.566                   -1.10815        -156.383         -51.4295        -171.582         -51.4293        -171.583       -0.0126283         146.635
0.567                   -1.13505        -156.961         -51.2789        -173.682         -51.2787        -173.683       -0.0127792         146.563
0.568                   -1.16231        -157.541         -51.1294        -175.784         -51.1292        -175.785       -0.0129325         146.491
0.569                   -1.18995        -158.122          -50.981        -177.887         -50.9808        -177.888       -0.0130882         146.418
0.57                    -1.21796        -158.706         -50.8337        -179.991         -50.8335        -179.992       -0.0132464         146.346
0.571                   -1.24634        -159.292         -50.6874         177.905         -50.6872         177.903       -0.0134071         146.273
0.572                    -1.2751         -159.88         -50.5421           175.8         -50.5419         175.798       -0.0135704           146.2
0.573                   -1.30423         -160.47         -50.3978         173.694         -50.3976         173.693       -0.0137364         146.128
0.574                   -1.33373        -161.062         -50.2544         171.589         -50.2542         171.587       -0.0139052         146.054
0.575                   -1.36361        -161.656          -50.112         169.483         -50.1118         169.481       -0.0140768         145.981
0.576                   -1.39386        -162.253         -49.9705         167.377         -49.9703         167.376       -0.0142513         145.908
0.577                    -1.4245        -162.852         -49.8299         165.272         -49.8297          165.27       -0.0144289         145.834
0.578                   -1.45552        -163.453         -49.6901         163.167         -49.6899         163.165       -0.0146095         145.761
0.579                   -1.48692        -164.057         -49.5512         161.062          -49.551          161.06       -0.0147934         145.687
0.58                    -1.51872        -164.663          -49.413         158.957         -49.4128         158.956       -0.0149807         145.613
0.581                   -1.55091        -165.272         -49.2757         156.854         -49.2755         156.852       -0.0151712         145.539
0.582                    -1.5835        -165.884         -49.1391          154.75         -49.1388         154.749       -0.0153652         145.464
0.583                    -1.6165        -166.499         -49.0032         152.648         -49.0029         152.646       -0.0155625          145.39
0.584                   -1.64991        -167.116          -48.868         150.546         -48.8677         150.544       -0.0157627         145.315
0.585                   -1.68374        -167.736         -48.7334         148.444         -48.7332         148.443       -0.0159655          145.24
0.586                     -1.718         -168.36         -48.5995         146.344         -48.5993         146.342       -0.0161697         145.165
0.587                   -1.75271        -168.986         -48.4662         144.244          -48.466         144.242       -0.0163734          145.09
0.588                   -1.78786        -169.616         -48.3335         142.145         -48.3333         142.143       -0.0165735         145.014
0.589                   -1.82347        -170.249         -48.2014         140.047         -48.2012         140.045       -0.0167653         144.938
0.59                    -1.85956        -170.885         -48.0698         137.949         -48.0696         137.947       -0.0169424         144.862
0.591                   -1.89613        -171.525         -47.9387         135.852         -47.9385         135.851       -0.0170981         144.786
0.592                    -1.9332        -172.168         -47.8081         133.756         -47.8079         133.754        -0.017229          144.71
0.593                    -1.9708        -172.815          -47.678          131.66         -47.6778         131.659       -0.0173402         144.634
0.594                   -2.00892        -173.465         -47.5484         129.565         -47.5482         129.564       -0.0174462         144.557
0.595                    -2.0476         -174.12         -47.4192         127.471          -47.419         127.469       -0.0175653         144.481
0.596                   -2.08685        -174.778         -47.2904         125.376         -47.2902         125.375       -0.0177099         144.405
0.597                   -2.12669         -175.44          -47.162         123.283         -47.1618         123.281       -0.0178831         144.329
0.598                   -2.16714        -176.107          -47.034         121.189         -47.0338         121.188       -0.0180811         144.252
0.599                   -2.20823        -176.777         -46.9064         119.096         -46.9062         119.095       -0.0182978         144.175
0.6                     -2.24999        -177.452         -46.7791         117.003         -46.7789         117.002       -0.0185278         144.098
0.601                   -2.29243        -178.131         -46.6522          114.91          -46.652         114.909       -0.0187668         144.021
0.602                   -2.33558        -178.815         -46.5256         112.817         -46.5255         112.816       -0.0190123         143.943
0.603                   -2.37948        -179.503         -46.3994         110.725         -46.3992         110.723       -0.0192626         143.866
0.604                   -2.42416         179.805         -46.2735         108.631         -46.2733          108.63       -0.0195167         143.787
0.605                   -2.46964         179.107         -46.1479         106.538         -46.1477         106.537        -0.019774         143.709
0.606                   -2.51596         178.406         -46.0226         104.444         -46.0225         104.443       -0.0200343         143.631
0.607                   -2.56315         177.699         -45.8977          102.35         -45.8975         102.349       -0.0202974         143.552
0.608                   -2.61126         176.988          -45.773         100.255         -45.7729         100.254       -0.0205634         143.473
0.609                   -2.66031         176.272         -45.6487         98.1594         -45.6485         98.1585       -0.0208322         143.394
0.61                    -2.71035         175.551         -45.5247         96.0631         -45.5245         96.0622       -0.0211039         143.315
0.611                   -2.76142         174.825          -45.401          93.966         -45.4008         93.9652       -0.0213787         143.235
0.612                   -2.81355         174.095         -45.2776          91.868         -45.2774         91.8672       -0.0216565         143.155
0.613                    -2.8668          173.36         -45.1545          89.769         -45.1544         89.7682       -0.0219376         143.075
0.614                    -2.9212          172.62         -45.0318         87.6688         -45.0316         87.6681       -0.0222219         142.995
0.615                   -2.97681         171.875         -44.9094         85.5675         -44.9092         85.5668       -0.0225097         142.915
0.616                   -3.03366         171.125         -44.7873          83.465         -44.7872         83.4643        -0.022801         142.834
0.617                   -3.09181         170.371         -44.6656         81.3611         -44.6655         81.3604       -0.0230959         142.753
0.618                   -3.15131         169.612         -44.5443         79.2558         -44.5441         79.2552       -0.0233945         142.672
0.619                   -3.21219         168.849         -44.4233         77.1491         -44.4232         77.1485       -0.0236968          142.59
0.62                    -3.27453         168.081         -44.3028         75.0409         -44.3026         75.0403       -0.0240031         142.508
0.621                   -3.33836          167.31         -44.1826         72.9311         -44.1824         72.9305       -0.0243133         142.427
0.622                   -3.40374         166.534         -44.0628         70.8198         -44.0627         70.8192       -0.0246275         142.344
0.623                   -3.47072         165.754         -43.9435         68.7068         -43.9434         68.7062        -0.024946         142.262
0.624                   -3.53935          164.97         -43.8246         66.5921         -43.8245         66.5916       -0.0252686         142.179
0.625                   -3.60969         164.183         -43.7062         64.4758          -43.706         64.4753       -0.0255956         142.096
0.626                   -3.68178         163.392         -43.5882         62.3578         -43.5881         62.3573        -0.025927         142.013
0.627                   -3.75569         162.598         -43.4708         60.2381         -43.4706         60.2376       -0.0262629          141.93
0.628                   -3.83146         161.801         -43.3538         58.1167         -43.3537         58.1162       -0.0266035         141.846
0.629                   -3.90914         161.002         -43.2374         55.9936         -43.2372         55.9931       -0.0269487         141.762
