! TOUCHSTONE file generated by CST MICROWAVE STUDIO
! Date and time: Fri Oct  2 16:54:19 2020
! Project name: Scenario_1_Free_Space_out_of_line.cst
! Parameters = {Lambda=346.42; Step_1=17.321; dy1=278.276; dx1=693; L_HA=400; MT=2.54; Rad_Dielectric=30; Rad_Lower=7.3; Rad_Upper=30; a_HA=580; a_WG=246; b_HA=500; b_WG=121; c_HA=0; c_WG=187; d_feed=85; h_feed=15; h_lower=18; h_upper=40}
! Header version: 2018
! Port assignment regex: !\s*Touchstone port\s*([0-9]+)\s*=\s*(CST MWS port|CST DS port)\s*([0-9]+|Zmin|Zmax)\s*\(\"(.*)\"\)(\s*mode\s*([0-9]+))?.*
! Touchstone port assignment:
! Touchstone port 1 = CST MWS port 1 ("")
! Touchstone port 2 = CST MWS port 2 ("")
# GHz S DB R 50
0.5                    -0.149192        -122.522         -64.0911        -135.664         -64.2073        -135.779      -0.00666891         151.148
0.501                   -0.15162        -122.949         -63.9743        -137.913         -64.0938         -137.95      -0.00672984         151.083
0.502                  -0.154312        -123.378         -63.8528        -140.163         -63.9758        -140.127      -0.00679145         151.018
0.503                   -0.15727         -123.81         -63.7267        -142.414         -63.8535        -142.309      -0.00685374         150.953
0.504                  -0.160498        -124.245          -63.596        -144.663         -63.7269        -144.494      -0.00691673         150.887
0.505                  -0.164001        -124.681         -63.4609         -146.91         -63.5961        -146.683      -0.00698042         150.821
0.506                  -0.167781        -125.121         -63.3216        -149.154         -63.4612        -148.874      -0.00704483         150.756
0.507                  -0.171844        -125.563         -63.1782        -151.395         -63.3222        -151.066      -0.00710996          150.69
0.508                  -0.176194        -126.007         -63.0308        -153.631         -63.1792        -153.259      -0.00717582         150.624
0.509                  -0.180833        -126.454         -62.8796        -155.863         -63.0325        -155.452      -0.00724242         150.559
0.51                   -0.185766        -126.904         -62.7248        -158.089          -62.882        -157.645      -0.00730977         150.493
0.511                  -0.190997        -127.356         -62.5664         -160.31         -62.7278        -159.836      -0.00737789         150.427
0.512                   -0.19653        -127.811         -62.4048        -162.524         -62.5702        -162.026      -0.00744678          150.36
0.513                  -0.202368        -128.268         -62.2399        -164.732         -62.4092        -164.214      -0.00751645         150.294
0.514                  -0.208517        -128.728         -62.0721        -166.933          -62.245          -166.4      -0.00758692         150.228
0.515                  -0.214979        -129.191         -61.9015        -169.127         -62.0777        -168.582      -0.00765819         150.162
0.516                  -0.221759        -129.656         -61.7281        -171.314         -61.9075        -170.762      -0.00773028         150.095
0.517                  -0.228861        -130.124         -61.5523        -173.494         -61.7343        -172.938      -0.00780319         150.029
0.518                  -0.236288        -130.594         -61.3741        -175.668         -61.5586        -175.111      -0.00787694         149.962
0.519                  -0.244045        -131.067         -61.1938        -177.834         -61.3802        -177.281      -0.00795154         149.895
0.52                   -0.252135        -131.543         -61.0114        -179.993         -61.1995        -179.446      -0.00802701         149.829
0.521                  -0.260563        -132.021         -60.8271         177.854         -61.0165         178.391      -0.00810334         149.762
0.522                  -0.269333        -132.502         -60.6411         175.707         -60.8313         176.233      -0.00818056         149.695
0.523                  -0.278448        -132.985         -60.4535         173.566         -60.6442         174.078      -0.00825868         149.628
0.524                  -0.287912        -133.471         -60.2645         171.432         -60.4552         171.926      -0.00833771          149.56
0.525                  -0.297729         -133.96         -60.0741         169.302         -60.2644         169.778      -0.00841766         149.493
0.526                  -0.307903        -134.452         -59.8825         167.178         -60.0721         167.632      -0.00849855         149.426
0.527                  -0.318438        -134.946         -59.6899         165.059         -59.8783          165.49      -0.00858038         149.358
0.528                  -0.329339        -135.442         -59.4964         162.943         -59.6832          163.35      -0.00866318         149.291
0.529                  -0.340608        -135.942          -59.302         160.832         -59.4869         161.213      -0.00874695         149.223
0.53                   -0.352249        -136.444         -59.1069         158.724         -59.2894         159.078      -0.00883171         149.156
0.531                  -0.364267        -136.948         -58.9112         156.619          -59.091         156.944      -0.00891747         149.088
0.532                  -0.376666        -137.455          -58.715         154.517         -58.8918         154.812      -0.00900425          149.02
0.533                  -0.389448        -137.965         -58.5184         152.417         -58.6918         152.681      -0.00909206         148.952
0.534                  -0.402618        -138.478         -58.3215         150.318         -58.4911         150.551      -0.00918091         148.884
0.535                  -0.416181        -138.993         -58.1245          148.22           -58.29         148.422      -0.00927083         148.815
0.536                  -0.430138        -139.511         -57.9273         146.124         -58.0884         146.293      -0.00936182         148.747
0.537                  -0.444495        -140.031         -57.7301         144.027         -57.8866         144.163      -0.00945391         148.679
0.538                  -0.459255        -140.554         -57.5329         141.931         -57.6845         142.033       -0.0095471          148.61
0.539                  -0.474422         -141.08         -57.3359         139.833         -57.4823         139.902      -0.00964141         148.542
0.54                       -0.49        -141.608         -57.1391         137.735         -57.2801         137.769      -0.00973686         148.473
0.541                  -0.505991        -142.139         -56.9426         135.635          -57.078         135.636      -0.00983347         148.404
0.542                    -0.5224        -142.672         -56.7465         133.534          -56.876           133.5      -0.00993125         148.335
0.543                  -0.539231        -143.208         -56.5508          131.43         -56.6743         131.361       -0.0100302         148.266
0.544                  -0.556488        -143.747         -56.3556         129.323          -56.473         129.221       -0.0101304         148.197
0.545                  -0.574173        -144.288          -56.161         127.213         -56.2721         127.077       -0.0102318         148.127
0.546                  -0.592291        -144.832         -55.9671           125.1         -56.0718          124.93       -0.0103344         148.058
0.547                  -0.610845        -145.378         -55.7738         122.984          -55.872          122.78       -0.0104383         147.989
0.548                  -0.629838        -145.927         -55.5813         120.863         -55.6729         120.626       -0.0105435         147.919
0.549                  -0.649275        -146.478         -55.3896         118.738         -55.4746         118.467         -0.01065         147.849
0.55                    -0.66916        -147.032         -55.1988         116.608         -55.2771         116.305       -0.0107578         147.779
0.551                  -0.689494        -147.589          -55.009         114.474         -55.0806         114.138       -0.0108669         147.709
0.552                  -0.710283        -148.148         -54.8201         112.334          -54.885         111.967       -0.0109774         147.639
0.553                   -0.73153        -148.709         -54.6322         110.189         -54.6905         109.791       -0.0110892         147.569
0.554                  -0.753238        -149.273         -54.4455         108.039         -54.4971          107.61       -0.0112025         147.499
0.555                  -0.775411         -149.84         -54.2599         105.883         -54.3049         105.424       -0.0113171         147.428
0.556                  -0.798053        -150.409         -54.0754         103.722          -54.114         103.233       -0.0114332         147.358
0.557                  -0.821167         -150.98         -53.8922         101.554         -53.9243         101.037       -0.0115508         147.287
0.558                  -0.844756        -151.554         -53.7102         99.3807         -53.7361         98.8356       -0.0116698         147.216
0.559                  -0.868825        -152.131         -53.5296         97.2012         -53.5493         96.6289       -0.0117904         147.145
0.56                   -0.893377         -152.71         -53.3503         95.0155         -53.3639         94.4169       -0.0119125         147.074
0.561                  -0.918415        -153.291         -53.1724         92.8237         -53.1801         92.1997       -0.0120361         147.003
0.562                  -0.943943        -153.874         -52.9959         90.6258         -52.9979         89.9774       -0.0121613         146.932
0.563                  -0.969965        -154.461         -52.8208         88.4218         -52.8173         87.7499       -0.0122881          146.86
0.564                  -0.996485        -155.049         -52.6472         86.2116         -52.6384         85.5173       -0.0124165         146.789
0.565                   -1.02351         -155.64         -52.4752         83.9955         -52.4612         83.2798       -0.0125465         146.717
0.566                   -1.05103        -156.233         -52.3046         81.7733         -52.2858         81.0376       -0.0126783         146.645
0.567                   -1.07907        -156.829         -52.1356         79.5454         -52.1121         78.7907       -0.0128117         146.573
0.568                   -1.10761        -157.427         -51.9682         77.3116         -51.9403         76.5393       -0.0129469         146.501
0.569                   -1.13667        -158.027         -51.8024         75.0723         -51.7703         74.2836       -0.0130838         146.429
0.57                    -1.16626        -158.629         -51.6381         72.8276         -51.6021         72.0238       -0.0132225         146.356
0.571                   -1.19636        -159.234         -51.4755         70.5775         -51.4359         69.7602        -0.013363         146.284
0.572                     -1.227        -159.841         -51.3146         68.3224         -51.2715          67.493       -0.0135053         146.211
0.573                   -1.25816        -160.451         -51.1552         66.0623          -51.109         65.2223       -0.0136495         146.138
0.574                   -1.28987        -161.062         -50.9975         63.7976         -50.9484         62.9485       -0.0137956         146.065
0.575                   -1.32211        -161.676         -50.8414         61.5284         -50.7898         60.6719       -0.0139436         145.992
0.576                   -1.35489        -162.293         -50.6869          59.255          -50.633         58.3926       -0.0140935         145.919
0.577                   -1.38823        -162.911         -50.5341         56.9775         -50.4782         56.1111       -0.0142455         145.845
0.578                   -1.42212        -163.532         -50.3829         54.6963         -50.3253         53.8275       -0.0143995         145.771
0.579                   -1.45656        -164.155         -50.2333         52.4117         -50.1742         51.5422       -0.0145555         145.698
0.58                    -1.49157         -164.78         -50.0852         50.1237          -50.025         49.2554       -0.0147136         145.624
0.581                   -1.52714        -165.407         -49.9388         47.8329         -49.8777         46.9674       -0.0148738          145.55
0.582                   -1.56329        -166.037         -49.7939         45.5393         -49.7321         44.6786       -0.0150362         145.475
0.583                   -1.60001        -166.669         -49.6505         43.2432         -49.5884         42.3891       -0.0152008         145.401
0.584                   -1.63731        -167.302         -49.5086          40.945         -49.4464         40.0993       -0.0153676         145.327
0.585                    -1.6752        -167.939         -49.3682         38.6449         -49.3062         37.8094       -0.0155366         145.252
0.586                   -1.71367        -168.577         -49.2293         36.3431         -49.1676         35.5198        -0.015708         145.177
0.587                   -1.75275        -169.217         -49.0917           34.04         -49.0307         33.2306       -0.0158817         145.102
0.588                   -1.79243         -169.86         -48.9555         31.7357         -48.8954         30.9421       -0.0160577         145.027
0.589                   -1.83272        -170.505         -48.8207         29.4304         -48.7616         28.6544       -0.0162362         144.951
0.59                    -1.87362        -171.151         -48.6871         27.1246         -48.6293          26.368       -0.0164172         144.876
0.591                   -1.91514          -171.8         -48.5548         24.8182         -48.4985         24.0828       -0.0166006           144.8
0.592                   -1.95728        -172.452         -48.4237         22.5117         -48.3691         21.7992       -0.0167866         144.724
0.593                   -2.00006        -173.105         -48.2938         20.2052         -48.2411         19.5172       -0.0169752         144.648
0.594                   -2.04349         -173.76          -48.165         17.8988         -48.1143         17.2371       -0.0171664         144.572
0.595                   -2.08755        -174.418         -48.0372         15.5928         -47.9888          14.959       -0.0173603         144.495
0.596                   -2.13227        -175.078         -47.9105         13.2874         -47.8644          12.683        -0.017557         144.418
0.597                   -2.17766         -175.74         -47.7848         10.9827         -47.7412         10.4092       -0.0177564         144.342
0.598                   -2.22371        -176.404           -47.66          8.6788          -47.619          8.1377       -0.0179586         144.264
0.599                   -2.27044         -177.07          -47.536         6.37594         -47.4978         5.86859       -0.0181637         144.187
0.6                     -2.31786        -177.739         -47.4129          4.0742         -47.3776         3.60191       -0.0183718          144.11
0.601                   -2.36597        -178.409         -47.2906         1.77369         -47.2582          1.3377       -0.0185828         144.032
0.602                   -2.41479        -179.082          -47.169       -0.525491         -47.1396        -0.92402       -0.0187969         143.954
0.603                   -2.46432        -179.757         -47.0481        -2.82326         -47.0218        -3.18324       -0.0190141         143.876
0.604                   -2.51457         179.566         -46.9278        -5.11955         -46.9047        -5.43997       -0.0192344         143.798
0.605                   -2.56556         178.887         -46.8081        -7.41431         -46.7883        -7.69423       -0.0194579          143.72
0.606                    -2.6173         178.205          -46.689        -9.70749         -46.6724        -9.94607       -0.0196847         143.641
0.607                   -2.66979         177.521         -46.5703        -11.9991          -46.557        -12.1956       -0.0199149         143.562
0.608                   -2.72304         176.835         -46.4521         -14.289         -46.4421        -14.4427       -0.0201484         143.483
0.609                   -2.77708         176.147         -46.3343        -16.5773         -46.3276        -16.6877       -0.0203854         143.404
0.61                    -2.83191         175.457         -46.2168         -18.864         -46.2135        -18.9305       -0.0206259         143.324
0.611                   -2.88755         174.764         -46.0996        -21.1491         -46.0997        -21.1714       -0.0208701         143.244
0.612                   -2.94401         174.069         -45.9828        -23.4327         -45.9862        -23.4103       -0.0211179         143.165
0.613                    -3.0013         173.371         -45.8661        -25.7147         -45.8729        -25.6475       -0.0213694         143.084
0.614                   -3.05945         172.672         -45.7497        -27.9952         -45.7598        -27.8831       -0.0216248         143.004
0.615                   -3.11846          171.97         -45.6334        -30.2743         -45.6467        -30.1173        -0.021884         142.923
0.616                   -3.17835         171.265         -45.5173        -32.5521         -45.5338        -32.3501       -0.0221473         142.842
0.617                   -3.23915         170.559         -45.4012        -34.8286         -45.4209        -34.5817       -0.0224146         142.761
0.618                   -3.30086          169.85         -45.2853         -37.104         -45.3081        -36.8125       -0.0226861          142.68
0.619                   -3.36351         169.138         -45.1693        -39.3782         -45.1952        -39.0424       -0.0229617         142.598
0.62                    -3.42712         168.424         -45.0534        -41.6515         -45.0823        -41.2718       -0.0232417         142.516
0.621                   -3.49171         167.708         -44.9375         -43.924         -44.9693        -43.5007       -0.0235262         142.434
0.622                    -3.5573         166.989         -44.8216        -46.1957         -44.8561        -45.7295       -0.0238151         142.352
0.623                   -3.62391         166.268         -44.7056        -48.4667         -44.7429        -47.9582       -0.0241087         142.269
0.624                   -3.69157         165.544         -44.5896        -50.7373         -44.6295        -50.1872       -0.0244069         142.186
0.625                   -3.76031         164.818         -44.4735        -53.0075         -44.5159        -52.4166         -0.02471         142.103
0.626                   -3.83014         164.089         -44.3573        -55.2774         -44.4021        -54.6466        -0.025018          142.02
0.627                    -3.9011         163.358          -44.241        -57.5473         -44.2881        -56.8774       -0.0253311         141.936
0.628                   -3.97321         162.625         -44.1247        -59.8172         -44.1739        -59.1093       -0.0256493         141.852
0.629                   -4.04651         161.889         -44.0082        -62.0873         -44.0595        -61.3424       -0.0259728         141.768
