! TOUCHSTONE file generated by CST MICROWAVE STUDIO
! Date and time: Fri Oct  2 19:08:37 2020
! Project name: Scenario_1_Free_Space_out_of_line.cst
! Parameters = {Lambda=346.42; Step_1=17.321; dy1=278.276; dx1=866; L_HA=400; MT=2.54; Rad_Dielectric=30; Rad_Lower=7.3; Rad_Upper=30; a_HA=580; a_WG=246; b_HA=500; b_WG=121; c_HA=0; c_WG=187; d_feed=85; h_feed=15; h_lower=18; h_upper=40}
! Header version: 2018
! Port assignment regex: !\s*Touchstone port\s*([0-9]+)\s*=\s*(CST MWS port|CST DS port)\s*([0-9]+|Zmin|Zmax)\s*\(\"(.*)\"\)(\s*mode\s*([0-9]+))?.*
! Touchstone port assignment:
! Touchstone port 1 = CST MWS port 1 ("")
! Touchstone port 2 = CST MWS port 2 ("")
# GHz S DB R 50
0.5                    -0.147834          -122.6         -64.9422         127.712         -64.9422         127.712      -0.00656304         151.168
0.501                  -0.154279        -123.022         -64.9103         125.822          -64.911         125.818      -0.00662248         151.103
0.502                  -0.160839        -123.448          -64.875         123.902         -64.8763         123.893      -0.00668283         151.038
0.503                  -0.167519        -123.876         -64.8359         121.952         -64.8379         121.938      -0.00674409         150.972
0.504                  -0.174326        -124.306          -64.793         119.971         -64.7955         119.953      -0.00680627         150.907
0.505                  -0.181263        -124.739          -64.746          117.96         -64.7491         117.937      -0.00686939         150.841
0.506                  -0.188336        -125.175         -64.6947          115.92         -64.6983         115.891      -0.00693343         150.776
0.507                  -0.195551        -125.613         -64.6389         113.851          -64.643         113.817      -0.00699843          150.71
0.508                  -0.202913        -126.054         -64.5784         111.753         -64.5829         111.714      -0.00706437         150.644
0.509                  -0.210427        -126.497         -64.5131         109.627          -64.518         109.583      -0.00713128         150.578
0.51                     -0.2181        -126.944         -64.4426         107.474         -64.4479         107.425      -0.00719916         150.512
0.511                  -0.225935        -127.392         -64.3669         105.295         -64.3725          105.24      -0.00726801         150.446
0.512                  -0.233941        -127.844         -64.2857         103.091         -64.2916         103.031      -0.00733785          150.38
0.513                  -0.242121        -128.298          -64.199         100.863          -64.205         100.797      -0.00740869         150.314
0.514                  -0.250482        -128.754         -64.1065         98.6113         -64.1127         98.5402      -0.00748053         150.247
0.515                   -0.25903        -129.214          -64.008         96.3381         -64.0144         96.2618      -0.00755338         150.181
0.516                  -0.267771        -129.676         -63.9036         94.0444         -63.9101         93.9629      -0.00762725         150.114
0.517                   -0.27671        -130.141         -63.7931         91.7314         -63.7996          91.645      -0.00770216         150.048
0.518                  -0.285855        -130.608         -63.6763         89.4007         -63.6828         89.3094       -0.0077781         149.981
0.519                  -0.295211        -131.079         -63.5532         87.0537         -63.5597         86.9578       -0.0078551         149.914
0.52                   -0.304784        -131.552         -63.4238         84.6918         -63.4302         84.5914      -0.00793315         149.848
0.521                  -0.314581        -132.027         -63.2881         82.3165         -63.2943          82.212      -0.00801227         149.781
0.522                  -0.324608        -132.506         -63.1459         79.9294          -63.152         79.8209      -0.00809246         149.714
0.523                  -0.334871        -132.987         -62.9974         77.5319         -63.0032         77.4197      -0.00817375         149.647
0.524                  -0.345378        -133.471         -62.8425         75.1255         -62.8481         75.0099      -0.00825613         149.579
0.525                  -0.356134        -133.958         -62.6813         72.7115         -62.6867         72.5929      -0.00833962         149.512
0.526                  -0.367146        -134.448          -62.514         70.2914          -62.519         70.1701      -0.00842422         149.445
0.527                  -0.378422         -134.94         -62.3404         67.8665         -62.3452         67.7428      -0.00850996         149.377
0.528                  -0.389968        -135.435         -62.1609         65.4381         -62.1653         65.3123      -0.00859683          149.31
0.529                   -0.40179        -135.933         -61.9754         63.0072         -61.9795         62.8797      -0.00868485         149.242
0.53                   -0.413896        -136.434         -61.7842         60.5749          -61.788         60.4462      -0.00877403         149.174
0.531                  -0.426292        -136.938         -61.5874         58.1424         -61.5908         58.0126      -0.00886438         149.106
0.532                  -0.438986        -137.444         -61.3851         55.7103         -61.3881           55.58      -0.00895591         149.038
0.533                  -0.451984        -137.953         -61.1775         53.2794         -61.1802         53.1489      -0.00904863          148.97
0.534                  -0.465295        -138.465         -60.9649         50.8505         -60.9672         50.7202      -0.00914255         148.902
0.535                  -0.478924         -138.98         -60.7474         48.4241         -60.7494         48.2942       -0.0092377         148.834
0.536                  -0.492879        -139.498         -60.5252         46.0005         -60.5268         45.8715      -0.00933406         148.766
0.537                  -0.507168        -140.018         -60.2985         43.5802         -60.2998         43.4524      -0.00943167         148.697
0.538                  -0.521798        -140.541         -60.0675         41.1632         -60.0685         41.0369      -0.00953053         148.629
0.539                  -0.536776        -141.067         -59.8325         38.7497         -59.8332         38.6253      -0.00963065          148.56
0.54                   -0.552109        -141.596         -59.5937         36.3397         -59.5941         36.2175      -0.00973204         148.491
0.541                  -0.567806        -142.128         -59.3512         33.9331         -59.3514         33.8134      -0.00983473         148.423
0.542                  -0.583873        -142.662         -59.1054         31.5296         -59.1053         31.4127      -0.00993871         148.354
0.543                  -0.600318          -143.2         -58.8563         29.1291         -58.8561         29.0151        -0.010044         148.285
0.544                  -0.617149         -143.74         -58.6043         26.7309         -58.6039         26.6204       -0.0101506         148.215
0.545                  -0.634373        -144.282         -58.3496         24.3349          -58.349         24.2278       -0.0102586         148.146
0.546                  -0.651998        -144.828         -58.0923         21.9403         -58.0915         21.8371       -0.0103679         148.077
0.547                  -0.670032        -145.376         -57.8327         19.5466         -57.8318         19.4474       -0.0104786         148.007
0.548                  -0.688482        -145.927          -57.571         17.1531           -57.57         17.0582       -0.0105906         147.938
0.549                  -0.707356        -146.481         -57.3073         14.7591         -57.3063         14.6687       -0.0107041         147.868
0.55                   -0.726661        -147.038          -57.042         12.3639         -57.0409         12.2782        -0.010819         147.798
0.551                  -0.746406        -147.597         -56.7752          9.9667          -56.774         9.88591       -0.0109353         147.728
0.552                  -0.766599        -148.159          -56.507         7.56661         -56.5059         7.49088        -0.011053         147.658
0.553                  -0.787246        -148.724         -56.2378          5.1628         -56.2366         5.09232       -0.0111722         147.588
0.554                  -0.808356        -149.291         -55.9677         2.75438         -55.9665         2.68932       -0.0112928         147.518
0.555                  -0.829937        -149.861         -55.6969        0.340473         -55.6958        0.280982        -0.011415         147.447
0.556                  -0.851996        -150.434         -55.4256        -2.07983         -55.4245        -2.13359       -0.0115386         147.377
0.557                  -0.874542        -151.009          -55.154        -4.50742          -55.153        -4.55532       -0.0116637         147.306
0.558                  -0.897581        -151.587         -54.8823         -6.9432         -54.8813        -6.98509       -0.0117904         147.235
0.559                  -0.921122        -152.168         -54.6107        -9.38806         -54.6098        -9.42381       -0.0119187         147.164
0.56                   -0.945173        -152.751         -54.3394        -11.8428         -54.3386        -11.8723       -0.0120485         147.093
0.561                  -0.969741        -153.337         -54.0686        -14.3084          -54.068        -14.3315       -0.0121799         147.022
0.562                  -0.994834        -153.926         -53.7986        -16.7856          -53.798        -16.8022       -0.0123129         146.951
0.563                   -1.02046        -154.516         -53.5295        -19.2751          -53.529        -19.2851       -0.0124475         146.879
0.564                   -1.04663         -155.11         -53.2615        -21.7776         -53.2611         -21.781       -0.0125837         146.808
0.565                   -1.07334        -155.706         -52.9949        -24.2939         -52.9946        -24.2906       -0.0127216         146.736
0.566                   -1.10061        -156.304         -52.7299        -26.8246         -52.7296        -26.8145       -0.0128612         146.664
0.567                   -1.12845        -156.905         -52.4667        -29.3702         -52.4665        -29.3532       -0.0130025         146.592
0.568                   -1.15685        -157.508         -52.2054        -31.9312         -52.2053        -31.9072       -0.0131455          146.52
0.569                   -1.18584        -158.114         -51.9465        -34.5079         -51.9464        -34.4769       -0.0132902         146.448
0.57                    -1.21541        -158.722         -51.6899        -37.1007         -51.6899        -37.0627       -0.0134367         146.376
0.571                   -1.24557        -159.332         -51.4361        -39.7098         -51.4361        -39.6648       -0.0135849         146.303
0.572                   -1.27634        -159.945         -51.1852        -42.3352         -51.1851        -42.2833        -0.013735          146.23
0.573                   -1.30772         -160.56         -50.9375        -44.9771         -50.9373        -44.9182       -0.0138868         146.158
0.574                   -1.33971        -161.178         -50.6931        -47.6353         -50.6929        -47.5694       -0.0140406         146.085
0.575                   -1.37232        -161.797         -50.4522        -50.3096          -50.452        -50.2368       -0.0141961         146.012
0.576                   -1.40557        -162.419         -50.2152        -52.9996         -50.2148        -52.9201       -0.0143536         145.938
0.577                   -1.43945        -163.043         -49.9822        -55.7049         -49.9817        -55.6187        -0.014513         145.865
0.578                   -1.47399        -163.669         -49.7534         -58.425         -49.7527        -58.3322       -0.0146743         145.791
0.579                   -1.50917        -164.297          -49.529        -61.1591         -49.5281        -61.0599       -0.0148375         145.718
0.58                    -1.54501        -164.928         -49.3092        -63.9065         -49.3081         -63.801       -0.0150028         145.644
0.581                   -1.58152         -165.56         -49.0942        -66.6662         -49.0928        -66.5546         -0.01517          145.57
0.582                   -1.61871        -166.194         -48.8841        -69.4372         -48.8824        -69.3197       -0.0153393         145.496
0.583                   -1.65658        -166.831          -48.679        -72.2185          -48.677        -72.0953       -0.0155107         145.422
0.584                   -1.69513        -167.469         -48.4791        -75.0087         -48.4767        -74.8801       -0.0156841         145.347
0.585                   -1.73438         -168.11         -48.2845        -77.8066         -48.2817        -77.6728       -0.0158596         145.272
0.586                   -1.77433        -168.752         -48.0953        -80.6108         -48.0921        -80.4722       -0.0160373         145.198
0.587                   -1.81499        -169.396         -47.9115        -83.4199         -47.9079        -83.2767       -0.0162172         145.123
0.588                   -1.85637        -170.042         -47.7332        -86.2323         -47.7292        -86.0849       -0.0163992         145.048
0.589                   -1.89847         -170.69         -47.5604        -89.0467         -47.5559        -88.8953       -0.0165835         144.972
0.59                     -1.9413         -171.34         -47.3931        -91.8614         -47.3882        -91.7064       -0.0167701         144.897
0.591                   -1.98486        -171.991         -47.2313        -94.6749         -47.2259        -94.5167       -0.0169589         144.821
0.592                   -2.02917        -172.644          -47.075        -97.4856          -47.069        -97.3246       -0.0171501         144.745
0.593                   -2.07423        -173.299          -46.924        -100.292         -46.9176        -100.129       -0.0173436         144.669
0.594                   -2.12004        -173.955         -46.7783        -103.093         -46.7714        -102.927       -0.0175395         144.593
0.595                   -2.16662        -174.613         -46.6379        -105.887         -46.6304        -105.719       -0.0177379         144.517
0.596                   -2.21396        -175.273         -46.5024        -108.672         -46.4945        -108.503       -0.0179387          144.44
0.597                   -2.26208        -175.934          -46.372        -111.447         -46.3636        -111.277        -0.018142         144.363
0.598                   -2.31099        -176.597         -46.2462        -114.212         -46.2374        -114.041       -0.0183479         144.287
0.599                   -2.36068        -177.261         -46.1251        -116.964         -46.1158        -116.793       -0.0185563         144.209
0.6                     -2.41117        -177.926         -46.0084        -119.703         -45.9986        -119.532       -0.0187673         144.132
0.601                   -2.46246        -178.593         -45.8959        -122.428         -45.8857        -122.258        -0.018981         144.055
0.602                   -2.51456        -179.262         -45.7874        -125.139         -45.7769        -124.968       -0.0191974         143.977
0.603                   -2.56748        -179.931         -45.6828        -127.834         -45.6718        -127.664       -0.0194165         143.899
0.604                   -2.62122         179.398         -45.5817        -130.512         -45.5704        -130.344       -0.0196384         143.821
0.605                   -2.67579         178.725          -45.484        -133.174         -45.4724        -133.007       -0.0198632         143.743
0.606                   -2.73119         178.052         -45.3895        -135.819         -45.3775        -135.654       -0.0200908         143.664
0.607                   -2.78744         177.377         -45.2979        -138.447         -45.2857        -138.283       -0.0203214         143.585
0.608                   -2.84454         176.701          -45.209        -141.057         -45.1965        -140.895       -0.0205549         143.506
0.609                    -2.9025         176.024         -45.1226        -143.649           -45.11         -143.49       -0.0207915         143.427
0.61                    -2.96133         175.346         -45.0386        -146.224         -45.0257        -146.067       -0.0210312         143.348
0.611                   -3.02102         174.666         -44.9566        -148.781         -44.9435        -148.627       -0.0212739         143.268
0.612                    -3.0816         173.986         -44.8764        -151.321         -44.8633        -151.169       -0.0215199         143.189
0.613                   -3.14306         173.304          -44.798        -153.844         -44.7847        -153.695       -0.0217692         143.108
0.614                   -3.20542         172.622          -44.721        -156.349         -44.7077        -156.203       -0.0220217         143.028
0.615                   -3.26868         171.938         -44.6454        -158.838          -44.632        -158.695       -0.0222777         142.948
0.616                   -3.33286         171.254         -44.5709        -161.311         -44.5574        -161.171        -0.022537         142.867
0.617                   -3.39795         170.569         -44.4973        -163.768         -44.4839        -163.631       -0.0227999         142.786
0.618                   -3.46398         169.882         -44.4245         -166.21         -44.4111        -166.076       -0.0230664         142.705
0.619                   -3.53094         169.195         -44.3524        -168.637          -44.339        -168.507       -0.0233365         142.623
0.62                    -3.59885         168.507         -44.2807         -171.05         -44.2675        -170.923       -0.0236103         142.542
0.621                   -3.66772         167.819         -44.2095        -173.449         -44.1963        -173.325        -0.023888          142.46
0.622                   -3.73756         167.129         -44.1384        -175.835         -44.1253        -175.715       -0.0241695         142.378
0.623                   -3.80837         166.439         -44.0674        -178.209         -44.0545        -178.092        -0.024455         142.295
0.624                   -3.88018         165.747         -43.9965         179.429         -43.9837         179.543       -0.0247445         142.212
0.625                   -3.95298         165.056         -43.9254         177.079         -43.9128         177.189       -0.0250381         142.129
0.626                   -4.02679         164.363         -43.8541         174.738         -43.8416         174.845        -0.025336         142.046
0.627                   -4.10162          163.67         -43.7824         172.408         -43.7702         172.511       -0.0256382         141.963
0.628                   -4.17749         162.976         -43.7104         170.087         -43.6984         170.187       -0.0259449         141.879
0.629                   -4.25441         162.281         -43.6379         167.774         -43.6261         167.871        -0.026256         141.795
