! TOUCHSTONE file generated by CST MICROWAVE STUDIO
! Date and time: Fri Oct  2 18:55:13 2020
! Project name: Scenario_1_Free_Space_out_of_line.cst
! Parameters = {Lambda=346.42; Step_1=17.321; dy1=278.276; dx1=1039; L_HA=400; MT=2.54; Rad_Dielectric=30; Rad_Lower=7.3; Rad_Upper=30; a_HA=580; a_WG=246; b_HA=500; b_WG=121; c_HA=0; c_WG=187; d_feed=85; h_feed=15; h_lower=18; h_upper=40}
! Header version: 2018
! Port assignment regex: !\s*Touchstone port\s*([0-9]+)\s*=\s*(CST MWS port|CST DS port)\s*([0-9]+|Zmin|Zmax)\s*\(\"(.*)\"\)(\s*mode\s*([0-9]+))?.*
! Touchstone port assignment:
! Touchstone port 1 = CST MWS port 1 ("")
! Touchstone port 2 = CST MWS port 2 ("")
# GHz S DB R 50
0.5                    -0.149064        -122.522         -65.5057         32.7254         -65.5057         32.7254      -0.00665202         151.174
0.501                  -0.152926         -122.96         -65.3702         30.4721         -65.3709         30.4779      -0.00671735         151.109
0.502                  -0.157024          -123.4         -65.2315         28.2039         -65.2329         28.2151      -0.00678322         151.043
0.503                  -0.161364        -123.843         -65.0896          25.921         -65.0917         25.9374      -0.00684966         150.978
0.504                  -0.165948        -124.288         -64.9445         23.6238         -64.9473          23.645      -0.00691666         150.912
0.505                   -0.17078        -124.735         -64.7963         21.3128         -64.7998         21.3386      -0.00698424         150.847
0.506                  -0.175864        -125.185          -64.645         18.9882         -64.6491         19.0183      -0.00705239         150.781
0.507                  -0.181204        -125.637         -64.4905         16.6506         -64.4953         16.6846      -0.00712114         150.715
0.508                  -0.186803        -126.091         -64.3331         14.3001         -64.3385         14.3378      -0.00719048          150.65
0.509                  -0.192666        -126.548         -64.1727         11.9372         -64.1786         11.9782      -0.00726043         150.584
0.51                   -0.198795        -127.007         -64.0094         9.56219         -64.0159          9.6063      -0.00733099         150.518
0.511                  -0.205195        -127.468         -63.8432         7.17539         -63.8502         7.22232      -0.00740218         150.452
0.512                   -0.21187        -127.932         -63.6743         4.77711         -63.6818         4.82658        -0.007474         150.386
0.513                  -0.218823        -128.398         -63.5027         2.36762         -63.5106         2.41939      -0.00754647         150.319
0.514                  -0.226058        -128.866         -63.3284      -0.0527916         -63.3367      0.00100997      -0.00761958         150.253
0.515                  -0.233579        -129.337         -63.1516        -2.48388         -63.1603        -2.42828      -0.00769336         150.187
0.516                  -0.241389        -129.809         -62.9724        -4.92541         -62.9815        -4.86825      -0.00776781          150.12
0.517                  -0.249493        -130.285         -62.7909        -7.37715         -62.8002        -7.31865      -0.00784294         150.054
0.518                  -0.257894        -130.762         -62.6071        -9.83891         -62.6167        -9.77929      -0.00791876         149.987
0.519                  -0.266595        -131.242         -62.4211        -12.3105          -62.431          -12.25      -0.00799528          149.92
0.52                   -0.275601        -131.724         -62.2332        -14.7917         -62.2432        -14.7305      -0.00807252         149.854
0.521                  -0.284916        -132.209         -62.0433        -17.2825         -62.0535        -17.2207      -0.00815048         149.787
0.522                  -0.294542        -132.695         -61.8516        -19.7826          -61.862        -19.7205      -0.00822918          149.72
0.523                  -0.304484        -133.184         -61.6582        -22.2919         -61.6687        -22.2297      -0.00830862         149.653
0.524                  -0.314745        -133.676         -61.4633        -24.8104         -61.4738        -24.7481      -0.00838882         149.586
0.525                  -0.325329        -134.169          -61.267        -27.3379         -61.2775        -27.2758      -0.00846979         149.518
0.526                  -0.336239        -134.665         -61.0693        -29.8743         -61.0798        -29.8125      -0.00855155         149.451
0.527                   -0.34748        -135.163         -60.8704        -32.4196         -60.8809        -32.3582       -0.0086341         149.384
0.528                  -0.359054        -135.664         -60.6705        -34.9736         -60.6809        -34.9128      -0.00871746         149.316
0.529                  -0.370966        -136.166         -60.4697        -37.5363         -60.4799        -37.4762      -0.00880165         149.249
0.53                   -0.383219        -136.671          -60.268        -40.1077         -60.2781        -40.0483      -0.00888666         149.181
0.531                  -0.395816        -137.178         -60.0657        -42.6875         -60.0756        -42.6291      -0.00897253         149.113
0.532                  -0.408761        -137.687         -59.8628        -45.2759         -59.8726        -45.2185      -0.00905926         149.045
0.533                  -0.422057        -138.199         -59.6596        -47.8726         -59.6691        -47.8163      -0.00914687         148.977
0.534                  -0.435708        -138.712         -59.4561        -50.4776         -59.4653        -50.4226      -0.00923537         148.909
0.535                  -0.449718        -139.228         -59.2524        -53.0908         -59.2614        -53.0371      -0.00932478         148.841
0.536                  -0.464089        -139.746         -59.0487        -55.7121         -59.0574        -55.6598      -0.00941511         148.773
0.537                  -0.478825        -140.266         -58.8451        -58.3413         -58.8535        -58.2906      -0.00950638         148.704
0.538                  -0.493929        -140.789         -58.6418        -60.9785         -58.6498        -60.9294      -0.00959861         148.636
0.539                  -0.509406        -141.314         -58.4388        -63.6233         -58.4465        -63.5759      -0.00969181         148.567
0.54                   -0.525256         -141.84         -58.2363        -66.2758         -58.2437          -66.23        -0.009786         148.498
0.541                  -0.541486        -142.369         -58.0345        -68.9356         -58.0414        -68.8916       -0.0098812          148.43
0.542                  -0.558096          -142.9         -57.8333        -71.6025         -57.8399        -71.5605      -0.00997742         148.361
0.543                  -0.575091        -143.433          -57.633        -74.2765         -57.6392        -74.2363       -0.0100747         148.292
0.544                  -0.592473        -143.969         -57.4336        -76.9572         -57.4394         -76.919        -0.010173         148.222
0.545                  -0.610246        -144.506         -57.2353        -79.6444         -57.2407        -79.6082       -0.0102724         148.153
0.546                  -0.628414        -145.046         -57.0381        -82.3378         -57.0431        -82.3036        -0.010373         148.084
0.547                  -0.646977        -145.588         -56.8421        -85.0371         -56.8468         -85.005       -0.0104746         148.014
0.548                  -0.665941        -146.131         -56.6475         -87.742         -56.6518         -87.712       -0.0105774         147.945
0.549                  -0.685308        -146.677         -56.4544        -90.4522         -56.4583        -90.4244       -0.0106813         147.875
0.55                    -0.70508        -147.225         -56.2627        -93.1674         -56.2662        -93.1417       -0.0107865         147.805
0.551                  -0.725261        -147.775         -56.0726         -95.887         -56.0757        -95.8635       -0.0108929         147.735
0.552                  -0.745853        -148.328         -55.8841        -98.6109         -55.8869        -98.5896       -0.0110005         147.665
0.553                   -0.76686        -148.882         -55.6974        -101.339         -55.6998        -101.319       -0.0111093         147.595
0.554                  -0.788284        -149.438         -55.5124         -104.07         -55.5145        -104.053       -0.0112195         147.525
0.555                  -0.810128        -149.997         -55.3292        -106.804          -55.331        -106.789        -0.011331         147.455
0.556                  -0.832395        -150.557         -55.1479         -109.54         -55.1493        -109.527       -0.0114438         147.384
0.557                  -0.855087         -151.12         -54.9684        -112.279         -54.9696        -112.268        -0.011558         147.313
0.558                  -0.878207        -151.684         -54.7909        -115.019         -54.7918         -115.01       -0.0116736         147.243
0.559                  -0.901759        -152.251         -54.6153         -117.76         -54.6159        -117.754       -0.0117906         147.172
0.56                   -0.925744         -152.82         -54.4416        -120.502          -54.442        -120.498       -0.0119091         147.101
0.561                  -0.950166        -153.391         -54.2699        -123.245           -54.27        -123.242       -0.0120291          147.03
0.562                  -0.975026        -153.964         -54.1002        -125.987         -54.1001        -125.987       -0.0121506         146.958
0.563                   -1.00033        -154.539         -53.9324        -128.729         -53.9321         -128.73       -0.0122737         146.887
0.564                   -1.02607        -155.116         -53.7665         -131.47          -53.766        -131.473       -0.0123983         146.815
0.565                   -1.05227        -155.695         -53.6025         -134.21         -53.6019        -134.214       -0.0125247         146.744
0.566                   -1.07891        -156.276         -53.4405        -136.948         -53.4397        -136.954       -0.0126527         146.672
0.567                   -1.10601         -156.86         -53.2803        -139.684         -53.2794        -139.691       -0.0127824           146.6
0.568                   -1.13356        -157.445         -53.1219        -142.417         -53.1209        -142.426       -0.0129139         146.528
0.569                   -1.16157        -158.032         -52.9654        -145.148         -52.9643        -145.158       -0.0130472         146.456
0.57                    -1.19004        -158.622         -52.8105        -147.875         -52.8093        -147.887       -0.0131824         146.383
0.571                   -1.21897        -159.214         -52.6574        -150.599         -52.6561        -150.612       -0.0133194         146.311
0.572                   -1.24837        -159.808         -52.5059         -153.32         -52.5046        -153.334       -0.0134584         146.238
0.573                   -1.27824        -160.404          -52.356        -156.037         -52.3546        -156.052       -0.0135994         146.165
0.574                   -1.30858        -161.002         -52.2076         -158.75         -52.2062        -158.765       -0.0137424         146.092
0.575                    -1.3394        -161.602         -52.0607        -161.459         -52.0593        -161.475       -0.0138876         146.019
0.576                    -1.3707        -162.205         -51.9152        -164.163         -51.9138         -164.18       -0.0140349         145.946
0.577                   -1.40248        -162.809          -51.771        -166.863         -51.7696         -166.88       -0.0141844         145.873
0.578                   -1.43474        -163.416         -51.6281        -169.559         -51.6267        -169.576       -0.0143361         145.799
0.579                   -1.46749        -164.026         -51.4864         -172.25          -51.485        -172.268       -0.0144902         145.726
0.58                    -1.50074        -164.637         -51.3458        -174.936         -51.3445        -174.954       -0.0146467         145.652
0.581                   -1.53448        -165.251         -51.2063        -177.618          -51.205        -177.636       -0.0148056         145.578
0.582                   -1.56873        -165.867         -51.0677         179.705         -51.0665         179.686        -0.014967         145.504
0.583                   -1.60348        -166.485         -50.9301         177.032          -50.929         177.014        -0.015131         145.429
0.584                   -1.63874        -167.106         -50.7934         174.364         -50.7923         174.345       -0.0152976         145.355
0.585                   -1.67451        -167.729         -50.6575         171.699         -50.6564         171.682       -0.0154668          145.28
0.586                    -1.7108        -168.355         -50.5222          169.04         -50.5212         169.022       -0.0156388         145.205
0.587                   -1.74762        -168.983         -50.3877         166.384         -50.3867         166.367       -0.0158136          145.13
0.588                   -1.78497        -169.614         -50.2537         163.732         -50.2528         163.715       -0.0159913         145.055
0.589                   -1.82286        -170.247         -50.1203         161.084         -50.1195         161.067       -0.0161718          144.98
0.59                    -1.86129        -170.883         -49.9874         158.439         -49.9866         158.423       -0.0163554         144.904
0.591                   -1.90027        -171.522         -49.8549         155.797         -49.8542         155.782       -0.0165419         144.829
0.592                    -1.9398        -172.163         -49.7227         153.159         -49.7222         153.145       -0.0167316         144.753
0.593                    -1.9799        -172.807         -49.5909         150.523         -49.5904          150.51       -0.0169243         144.677
0.594                   -2.02058        -173.454         -49.4594          147.89          -49.459         147.877       -0.0171202           144.6
0.595                   -2.06184        -174.104         -49.3282         145.259         -49.3277         145.247       -0.0173194         144.524
0.596                   -2.10369        -174.757         -49.1971          142.63         -49.1967         142.619       -0.0175218         144.447
0.597                   -2.14614        -175.412         -49.0661         140.003         -49.0658         139.993       -0.0177276         144.371
0.598                    -2.1892        -176.071         -48.9353         137.377         -48.9351         137.368       -0.0179367         144.294
0.599                    -2.2329        -176.733         -48.8046         134.753         -48.8044         134.744       -0.0181492         144.217
0.6                     -2.27722        -177.398         -48.6739         132.129         -48.6738         132.121       -0.0183651         144.139
0.601                   -2.32221        -178.067         -48.5433         129.506         -48.5432         129.499       -0.0185846         144.062
0.602                   -2.36786        -178.739         -48.4127         126.882         -48.4127         126.876       -0.0188075         143.984
0.603                   -2.41419        -179.414         -48.2821         124.259         -48.2821         124.254       -0.0190341         143.906
0.604                   -2.46122         179.907         -48.1515         121.635         -48.1515         121.631       -0.0192643         143.828
0.605                   -2.50897         179.225         -48.0208         119.011         -48.0208         119.007       -0.0194982         143.749
0.606                   -2.55745         178.539         -47.8901         116.385         -47.8902         116.383       -0.0197358         143.671
0.607                    -2.6067         177.849         -47.7594         113.758         -47.7594         113.757       -0.0199771         143.592
0.608                   -2.65673         177.155         -47.6286          111.13         -47.6286         111.129       -0.0202224         143.513
0.609                   -2.70756         176.457         -47.4977           108.5         -47.4978           108.5       -0.0204715         143.434
0.61                    -2.75923         175.756         -47.3668         105.867         -47.3669         105.868       -0.0207245         143.354
0.611                   -2.81175          175.05         -47.2359         103.232          -47.236         103.234       -0.0209816         143.274
0.612                   -2.86517         174.339         -47.1049         100.595          -47.105         100.597       -0.0212428         143.195
0.613                   -2.91951         173.625         -46.9739         97.9544         -46.9741         97.9569       -0.0215081         143.114
0.614                   -2.97481         172.906          -46.843         95.3107         -46.8431         95.3139       -0.0217777         143.034
0.615                    -3.0311         172.183          -46.712         92.6638         -46.7121         92.6674       -0.0220515         142.953
0.616                   -3.08843         171.455         -46.5811         90.0133         -46.5812         90.0174       -0.0223298         142.873
0.617                   -3.14683         170.722         -46.4502          87.359         -46.4503         87.3636       -0.0226125         142.792
0.618                   -3.20636         169.985         -46.3194         84.7008         -46.3195         84.7059       -0.0228998          142.71
0.619                   -3.26706         169.243         -46.1887         82.0386         -46.1888          82.044       -0.0231917         142.629
0.62                    -3.32897         168.496         -46.0582         79.3722         -46.0582         79.3779       -0.0234884         142.547
0.621                   -3.39216         167.744         -45.9278         76.7015         -45.9278         76.7074       -0.0237899         142.465
0.622                   -3.45668         166.988         -45.7976         74.0264         -45.7976         74.0325       -0.0240963         142.383
0.623                    -3.5226         166.226         -45.6676         71.3467         -45.6676         71.3531       -0.0244077           142.3
0.624                   -3.58997          165.46         -45.5379         68.6626         -45.5379         68.6691       -0.0247242         142.217
0.625                   -3.65887         164.689         -45.4085         65.9738         -45.4085         65.9804       -0.0250459         142.134
0.626                   -3.72936         163.914         -45.2795         63.2805         -45.2794         63.2871       -0.0253729         142.051
0.627                   -3.80152         163.133         -45.1508         60.5826         -45.1507         60.5891       -0.0257053         141.967
0.628                   -3.87542         162.348         -45.0225           57.88         -45.0224         57.8866       -0.0260432         141.883
0.629                   -3.95115         161.559         -44.8947          55.173         -44.8946         55.1794       -0.0263866         141.799
