! TOUCHSTONE file generated by CST MICROWAVE STUDIO
! Date and time: Fri Oct  2 18:45:49 2020
! Project name: Scenario_1_Free_Space_out_of_line.cst
! Parameters = {Lambda=346.42; Step_1=17.321; dy1=260.935; dx1=173; L_HA=400; MT=2.54; Rad_Dielectric=30; Rad_Lower=7.3; Rad_Upper=30; a_HA=580; a_WG=246; b_HA=500; b_WG=121; c_HA=0; c_WG=187; d_feed=85; h_feed=15; h_lower=18; h_upper=40}
! Header version: 2018
! Port assignment regex: !\s*Touchstone port\s*([0-9]+)\s*=\s*(CST MWS port|CST DS port)\s*([0-9]+|Zmin|Zmax)\s*\(\"(.*)\"\)(\s*mode\s*([0-9]+))?.*
! Touchstone port assignment:
! Touchstone port 1 = CST MWS port 1 ("")
! Touchstone port 2 = CST MWS port 2 ("")
# GHz S DB R 50
0.5                    -0.146907         -122.63         -61.7234         133.831         -61.7234         133.831      -0.00627366         151.094
0.501                  -0.153623        -123.083         -61.6102         131.784         -61.6051         131.777      -0.00633314         151.028
0.502                   -0.16052        -123.537         -61.4915         129.754         -61.4814         129.741      -0.00639301         150.963
0.503                  -0.167601        -123.993         -61.3676         127.741         -61.3528         127.724      -0.00645327         150.897
0.504                  -0.174867        -124.451         -61.2387         125.746         -61.2193         125.727      -0.00651394         150.831
0.505                  -0.182321         -124.91         -61.1052         123.771         -61.0814         123.752      -0.00657503         150.766
0.506                  -0.189965         -125.37         -60.9671         121.816         -60.9394         121.798      -0.00663655           150.7
0.507                    -0.1978        -125.833          -60.825         119.882         -60.7934         119.867      -0.00669852         150.634
0.508                  -0.205829        -126.297          -60.679          117.97         -60.6439         117.958      -0.00676096         150.568
0.509                  -0.214055        -126.762         -60.5294          116.08          -60.491         116.072      -0.00682388         150.502
0.51                   -0.222479         -127.23         -60.3765         114.211          -60.335         114.209      -0.00688729         150.436
0.511                  -0.231103        -127.698         -60.2205         112.366         -60.1763          112.37      -0.00695121         150.369
0.512                   -0.23993        -128.169         -60.0617         110.542          -60.015         110.553      -0.00701565         150.303
0.513                  -0.248963        -128.641         -59.9004         108.741         -59.8514         108.758      -0.00708063         150.237
0.514                  -0.258204        -129.115         -59.7368         106.962         -59.6857         106.986      -0.00714617          150.17
0.515                  -0.267655        -129.591         -59.5711         105.204         -59.5182         105.236      -0.00721228         150.104
0.516                  -0.277319        -130.069         -59.4035         103.468         -59.3491         103.508      -0.00727899         150.037
0.517                  -0.287198        -130.548         -59.2342         101.752         -59.1785           101.8      -0.00734629          149.97
0.518                  -0.297295        -131.029         -59.0636         100.057         -59.0067         100.113      -0.00741422         149.903
0.519                  -0.307614        -131.512         -58.8916         98.3824         -58.8338         98.4452       -0.0074828         149.837
0.52                   -0.318156        -131.996         -58.7185         96.7266           -58.66         96.7967      -0.00755203          149.77
0.521                  -0.328924        -132.482         -58.5445         95.0894         -58.4854         95.1666      -0.00762194         149.702
0.522                  -0.339922        -132.971         -58.3698         93.4702         -58.3103         93.5542      -0.00769254         149.635
0.523                  -0.351152        -133.461         -58.1944         91.8683         -58.1346         91.9588      -0.00776386         149.568
0.524                  -0.362618        -133.952         -58.0184         90.2829         -57.9587         90.3796      -0.00783592         149.501
0.525                  -0.374322        -134.446         -57.8421         88.7134         -57.7824         88.8158      -0.00790873         149.433
0.526                  -0.386267        -134.942         -57.6656          87.159         -57.6061         87.2668      -0.00798232         149.366
0.527                  -0.398458        -135.439         -57.4889         85.6189         -57.4297         85.7317       -0.0080567         149.298
0.528                  -0.410896        -135.938         -57.3121         84.0926         -57.2534         84.2099      -0.00813189          149.23
0.529                  -0.423586         -136.44         -57.1353         82.5791         -57.0772         82.7005      -0.00820792         149.163
0.53                   -0.436531        -136.943         -56.9587         81.0778         -56.9012         81.2028      -0.00828482         149.095
0.531                  -0.449734        -137.448         -56.7823         79.5879         -56.7256         79.7161      -0.00836259         149.027
0.532                  -0.463198        -137.955         -56.6061         78.1087         -56.5502         78.2397      -0.00844126         148.959
0.533                  -0.476929        -138.464         -56.4303         76.6396         -56.3753         76.7728      -0.00852086          148.89
0.534                  -0.490928        -138.975         -56.2548         75.1797         -56.2009         75.3148      -0.00860141         148.822
0.535                  -0.505201        -139.488         -56.0798         73.7285         -56.0269          73.865      -0.00868293         148.754
0.536                   -0.51975        -140.003         -55.9053         72.2852         -55.8535         72.4226      -0.00876545         148.685
0.537                   -0.53458         -140.52         -55.7313         70.8491         -55.6807         70.9871      -0.00884899         148.617
0.538                  -0.549695        -141.039         -55.5579         69.4197         -55.5086         69.5579      -0.00893357         148.548
0.539                  -0.565099         -141.56         -55.3851         67.9963         -55.3371         68.1342      -0.00901922         148.479
0.54                   -0.580796        -142.084          -55.213         66.5782         -55.1663         66.7154      -0.00910597          148.41
0.541                  -0.596791        -142.609         -55.0416         65.1648         -54.9962         65.3011      -0.00919384         148.341
0.542                  -0.613087        -143.137         -54.8709         63.7557         -54.8269         63.8906      -0.00928286         148.272
0.543                  -0.629689        -143.666         -54.7009         62.3501         -54.6583         62.4833      -0.00937306         148.203
0.544                  -0.646602        -144.198         -54.5317         60.9475         -54.4905         61.0787      -0.00946445         148.133
0.545                  -0.663831        -144.732         -54.3632         59.5475         -54.3236         59.6763      -0.00955708         148.064
0.546                  -0.681379        -145.268         -54.1956         58.1493         -54.1574         58.2755      -0.00965097         147.994
0.547                  -0.699253        -145.806         -54.0288         56.7526         -53.9921         56.8759      -0.00974614         147.925
0.548                  -0.717456        -146.346         -53.8628         55.3569         -53.8276         55.4769      -0.00984263         147.855
0.549                  -0.735995        -146.889         -53.6977         53.9616          -53.664         54.0782      -0.00994047         147.785
0.55                   -0.754873        -147.434         -53.5334         52.5662         -53.5013         52.6792       -0.0100397         147.715
0.551                  -0.774097        -147.981           -53.37         51.1704         -53.3395         51.2795       -0.0101403         147.645
0.552                  -0.793671         -148.53         -53.2076         49.7737         -53.1785         49.8786       -0.0102424         147.575
0.553                    -0.8136        -149.081          -53.046         48.3756         -53.0185         48.4763       -0.0103459         147.504
0.554                  -0.833892        -149.635         -52.8853         46.9758         -52.8593          47.072       -0.0104509         147.434
0.555                  -0.854551        -150.191         -52.7255         45.5738         -52.7011         45.6654       -0.0105575         147.363
0.556                  -0.875582         -150.75         -52.5667         44.1692         -52.5438         44.2561       -0.0106656         147.292
0.557                  -0.896992         -151.31         -52.4088         42.7618         -52.3874         42.8438       -0.0107754         147.221
0.558                  -0.918788        -151.874         -52.2519          41.351         -52.2319         41.4281       -0.0108868          147.15
0.559                  -0.940974        -152.439         -52.0959         39.9366         -52.0774         40.0087       -0.0109998         147.079
0.56                   -0.963557        -153.007         -51.9408         38.5183         -51.9238         38.5852       -0.0111146         147.008
0.561                  -0.986543        -153.577         -51.7868         37.0957         -51.7712         37.1574       -0.0112311         146.937
0.562                   -1.00994        -154.149         -51.6337         35.6685         -51.6195          35.725       -0.0113494         146.865
0.563                   -1.03375        -154.724         -51.4815         34.2364         -51.4688         34.2876       -0.0114694         146.793
0.564                   -1.05799        -155.302         -51.3304         32.7991         -51.3191         32.8451       -0.0115914         146.722
0.565                   -1.08266        -155.882         -51.1802         31.3564         -51.1703         31.3971       -0.0117152          146.65
0.566                   -1.10776        -156.464         -51.0311          29.908         -51.0225         29.9435        -0.011841         146.578
0.567                   -1.13331        -157.049         -50.8829         28.4537         -50.8756         28.4839       -0.0119688         146.506
0.568                   -1.15931        -157.636         -50.7357         26.9932         -50.7297         27.0182       -0.0120985         146.433
0.569                   -1.18577        -158.225         -50.5896         25.5264         -50.5849         25.5462       -0.0122303         146.361
0.57                    -1.21269        -158.817         -50.4445         24.0529          -50.441         24.0677       -0.0123642         146.288
0.571                   -1.24009        -159.412         -50.3003         22.5727          -50.298         22.5825       -0.0125003         146.215
0.572                   -1.26798        -160.009         -50.1573         21.0856         -50.1561         21.0904       -0.0126385         146.143
0.573                   -1.29635        -160.609         -50.0152         19.5913         -50.0152         19.5913       -0.0127789          146.07
0.574                   -1.32522        -161.211         -49.8742         18.0897         -49.8753          18.085       -0.0129216         145.996
0.575                    -1.3546        -161.816         -49.7342         16.5807         -49.7364         16.5714       -0.0130666         145.923
0.576                   -1.38449        -162.423         -49.5952         15.0642         -49.5984         15.0505        -0.013214          145.85
0.577                   -1.41491        -163.033         -49.4574         13.5401         -49.4615          13.522       -0.0133638         145.776
0.578                   -1.44586        -163.645         -49.3205         12.0082         -49.3257         11.9859        -0.013516         145.702
0.579                   -1.47735         -164.26         -49.1847         10.4684         -49.1908         10.4421       -0.0136707         145.628
0.58                    -1.50939        -164.878           -49.05         8.92078         -49.0569          8.8906        -0.013828         145.554
0.581                   -1.54199        -165.498         -48.9164         7.36515         -48.9241         7.33129       -0.0139878          145.48
0.582                   -1.57517        -166.121         -48.7838         5.80151         -48.7923         5.76414       -0.0141503         145.405
0.583                   -1.60892        -166.747         -48.6523         4.22981         -48.6616         4.18913       -0.0143154         145.331
0.584                   -1.64326        -167.375         -48.5219         2.65005         -48.5318         2.60624       -0.0144833         145.256
0.585                    -1.6782        -168.005         -48.3925         1.06221         -48.4031         1.01547        -0.014654         145.181
0.586                   -1.71375        -168.639         -48.2642       -0.533702         -48.2755       -0.583162       -0.0148276         145.106
0.587                   -1.74993        -169.275          -48.137        -2.13766         -48.1488        -2.18964        -0.015004         145.031
0.588                   -1.78673        -169.913         -48.0109        -3.74963         -48.0233        -3.80392       -0.0151834         144.956
0.589                   -1.82418        -170.554         -47.8859        -5.36958         -47.8987        -5.42595       -0.0153658          144.88
0.59                    -1.86228        -171.198         -47.7619        -6.99743         -47.7752        -7.05568       -0.0155512         144.804
0.591                   -1.90105        -171.845         -47.6391        -8.63311         -47.6527        -8.69302       -0.0157398         144.728
0.592                   -1.94049        -172.494         -47.5173        -10.2765         -47.5312        -10.3379       -0.0159315         144.652
0.593                   -1.98062        -173.146         -47.3966        -11.9276         -47.4108        -11.9902       -0.0161265         144.576
0.594                   -2.02145          -173.8         -47.2769        -13.5863         -47.2914        -13.6498       -0.0163247         144.499
0.595                   -2.06299        -174.458         -47.1584        -15.2523          -47.173        -15.3166       -0.0165263         144.423
0.596                   -2.10527        -175.118         -47.0409        -16.9256         -47.0556        -16.9905       -0.0167313         144.346
0.597                   -2.14827         -175.78         -46.9244        -18.6061         -46.9393        -18.6713       -0.0169398         144.269
0.598                   -2.19203        -176.445          -46.809        -20.2935         -46.8239        -20.3589       -0.0171518         144.192
0.599                   -2.23656        -177.113         -46.6947        -21.9878         -46.7095        -22.0531       -0.0173673         144.114
0.6                     -2.28186        -177.783         -46.5813        -23.6887         -46.5962        -23.7536       -0.0175866         144.037
0.601                   -2.32796        -178.456          -46.469         -25.396         -46.4838        -25.4605       -0.0178095         143.959
0.602                   -2.37487        -179.132         -46.3578        -27.1096         -46.3723        -27.1733       -0.0180362         143.881
0.603                   -2.42259         -179.81         -46.2475        -28.8292         -46.2619         -28.892       -0.0182668         143.803
0.604                   -2.47115         179.509         -46.1382        -30.5546         -46.1524        -30.6164       -0.0185012         143.725
0.605                   -2.52057         178.825         -46.0299        -32.2856         -46.0438        -32.3461       -0.0187397         143.646
0.606                   -2.57085         178.139         -45.9225        -34.0219         -45.9361         -34.081       -0.0189821         143.567
0.607                   -2.62201          177.45         -45.8161        -35.7634         -45.8293        -35.8209       -0.0192287         143.488
0.608                   -2.67408         176.759         -45.7106        -37.5098         -45.7235        -37.5654       -0.0194795         143.409
0.609                   -2.72706         176.065          -45.606        -39.2607         -45.6184        -39.3144       -0.0197345          143.33
0.61                    -2.78097         175.369         -45.5023         -41.016         -45.5143        -41.0677       -0.0199939          143.25
0.611                   -2.83583          174.67         -45.3995        -42.7754          -45.411        -42.8249       -0.0202576          143.17
0.612                   -2.89166         173.969         -45.2975        -44.5387         -45.3085        -44.5857       -0.0205258          143.09
0.613                   -2.94847         173.265         -45.1964        -46.3054         -45.2068        -46.3501       -0.0207985          143.01
0.614                   -3.00629         172.559          -45.096        -48.0755         -45.1058        -48.1175       -0.0210759         142.929
0.615                   -3.06513          171.85         -44.9964        -49.8485         -45.0056        -49.8879       -0.0213579         142.849
0.616                   -3.12501         171.139         -44.8976        -51.6243         -44.9062        -51.6609       -0.0216447         142.768
0.617                   -3.18595         170.425         -44.7995        -53.4025         -44.8074        -53.4363       -0.0219364         142.687
0.618                   -3.24798          169.71         -44.7021        -55.1829         -44.7093        -55.2137       -0.0222329         142.605
0.619                   -3.31111         168.992         -44.6053        -56.9651         -44.6119         -56.993       -0.0225345         142.524
0.62                    -3.37536         168.271         -44.5092        -58.7489         -44.5151        -58.7738       -0.0228411         142.442
0.621                   -3.44075         167.549         -44.4138        -60.5341         -44.4189        -60.5559       -0.0231529         142.359
0.622                   -3.50731         166.824         -44.3189        -62.3203         -44.3233         -62.339         -0.02347         142.277
0.623                   -3.57507         166.097         -44.2245        -64.1073         -44.2282        -64.1228       -0.0237923         142.194
0.624                   -3.64403         165.369         -44.1307        -65.8947         -44.1336        -65.9071       -0.0241201         142.112
0.625                   -3.71423         164.638         -44.0374        -67.6824         -44.0396        -67.6917       -0.0244533         142.028
0.626                   -3.78569         163.905         -43.9445        -69.4701          -43.946        -69.4762       -0.0247921         141.945
0.627                   -3.85843          163.17         -43.8521        -71.2574         -43.8528        -71.2605       -0.0251366         141.861
0.628                   -3.93249         162.434         -43.7601        -73.0442         -43.7601        -73.0442       -0.0254868         141.777
0.629                   -4.00788         161.695         -43.6684        -74.8303         -43.6677        -74.8272       -0.0258429         141.693
