! TOUCHSTONE file generated by CST MICROWAVE STUDIO
! Date and time: Fri Oct  2 16:32:25 2020
! Project name: Scenario_1_Free_Space_out_of_line.cst
! Parameters = {Lambda=346.42; Step_1=17.321; dy1=260.935; dx1=346; L_HA=400; MT=2.54; Rad_Dielectric=30; Rad_Lower=7.3; Rad_Upper=30; a_HA=580; a_WG=246; b_HA=500; b_WG=121; c_HA=0; c_WG=187; d_feed=85; h_feed=15; h_lower=18; h_upper=40}
! Header version: 2018
! Port assignment regex: !\s*Touchstone port\s*([0-9]+)\s*=\s*(CST MWS port|CST DS port)\s*([0-9]+|Zmin|Zmax)\s*\(\"(.*)\"\)(\s*mode\s*([0-9]+))?.*
! Touchstone port assignment:
! Touchstone port 1 = CST MWS port 1 ("")
! Touchstone port 2 = CST MWS port 2 ("")
# GHz S DB R 50
0.5                    -0.148968        -122.597         -61.8793         53.3669         -61.8793         53.3669        -0.006743         151.136
0.501                  -0.155792        -123.035          -61.896         53.1352         -61.8963         53.1365      -0.00681965         151.071
0.502                  -0.162761        -123.475         -61.9122         52.9668         -61.9128         52.9696      -0.00689662         151.005
0.503                  -0.169878        -123.917         -61.9273         52.8695         -61.9284         52.8741      -0.00697393          150.94
0.504                  -0.177143         -124.36         -61.9408          52.852         -61.9422         52.8587       -0.0070516         150.875
0.505                  -0.184559        -124.805         -61.9516         52.9237         -61.9535          52.933      -0.00712963         150.809
0.506                   -0.19213        -125.253         -61.9588         53.0953         -61.9611         53.1075      -0.00720804         150.743
0.507                  -0.199856        -125.702         -61.9608         53.3781         -61.9635         53.3938      -0.00728683         150.678
0.508                  -0.207741        -126.153         -61.9558         53.7844          -61.959         53.8041      -0.00736604         150.612
0.509                  -0.215786        -126.605         -61.9415         54.3268         -61.9452         54.3513      -0.00744565         150.546
0.51                   -0.223995         -127.06          -61.915         55.0184         -61.9192         55.0486       -0.0075257          150.48
0.511                   -0.23237        -127.517         -61.8728         55.8718         -61.8774         55.9086       -0.0076062         150.414
0.512                  -0.240914        -127.975         -61.8104         56.8983         -61.8154         56.9428      -0.00768715         150.348
0.513                  -0.249628        -128.436         -61.7225         58.1064         -61.7277         58.1597      -0.00776857         150.282
0.514                  -0.258517        -128.898         -61.6027         59.5003         -61.6081         59.5638      -0.00785048         150.216
0.515                  -0.267583        -129.362         -61.4436         61.0775          -61.449         61.1523      -0.00793289          150.15
0.516                  -0.276828        -129.829          -61.237         62.8261         -61.2421         62.9135      -0.00801582         150.083
0.517                  -0.286256        -130.297         -60.9739         64.7222         -60.9783         64.8231      -0.00809928         150.017
0.518                   -0.29587        -130.768         -60.6451         66.7267         -60.6484         66.8418      -0.00818328          149.95
0.519                  -0.305673         -131.24         -60.2415         68.7843         -60.2434         68.9136      -0.00826785         149.884
0.52                   -0.315668        -131.715         -59.7553         70.8222         -59.7552         70.9651      -0.00835299         149.817
0.521                  -0.325858        -132.192         -59.1803         72.7514         -59.1777         72.9067      -0.00843872          149.75
0.522                  -0.336247         -132.67         -58.5126         74.4696         -58.5071         74.6353      -0.00852505         149.683
0.523                  -0.346838        -133.151         -57.7513         75.8645         -57.7423         76.0378      -0.00861201         149.616
0.524                  -0.357635        -133.635         -56.8982         76.8172         -56.8853         76.9945      -0.00869962         149.549
0.525                  -0.368642         -134.12          -55.958         77.2036          -55.941          77.381      -0.00878787         149.482
0.526                  -0.379861        -134.607         -54.9388         76.8952         -54.9173         77.0677       -0.0088768         149.414
0.527                  -0.391298        -135.097         -53.8519         75.7558         -53.8257         75.9179      -0.00896642         149.347
0.528                  -0.402955        -135.589         -52.7138         73.6412         -52.6828         73.7859      -0.00905675          149.28
0.529                  -0.414838        -136.083         -51.5482         70.4009         -51.5125         70.5199       -0.0091478         149.212
0.53                   -0.426949        -136.579         -50.3896         65.8929         -50.3498         65.9764       -0.0092396         149.144
0.531                  -0.439293        -137.078         -49.2866         60.0207         -49.2438         60.0585      -0.00933214         149.077
0.532                  -0.451876        -137.579         -48.3017         52.7989          -48.258         52.7824      -0.00942545         149.009
0.533                    -0.4647        -138.083         -47.5034         44.4325         -47.4614          44.359      -0.00951952         148.941
0.534                  -0.477771        -138.588         -46.9465         35.3537         -46.9092         35.2297      -0.00961437         148.873
0.535                  -0.491092        -139.096         -46.6502         26.1473         -46.6197          25.988      -0.00971003         148.805
0.536                   -0.50467        -139.607         -46.5895         17.3747         -46.5665         17.1986      -0.00980654         148.736
0.537                  -0.518507         -140.12         -46.7085         9.41408         -46.6924         9.23758      -0.00990393         148.668
0.538                   -0.53261        -140.635         -46.9439         2.41762         -46.9334         2.25129       -0.0100022         148.599
0.539                  -0.546985        -141.153         -47.2415        -3.63373         -47.2352        -3.78453       -0.0101014         148.531
0.54                   -0.561635        -141.673         -47.5626        -8.84848         -47.5593         -8.9821       -0.0102016         148.462
0.541                  -0.576567        -142.196         -47.8825        -13.3635         -47.8812        -13.4804       -0.0103027         148.393
0.542                  -0.591786        -142.721         -48.1868        -17.3109          -48.187        -17.4125       -0.0104048         148.325
0.543                  -0.607298        -143.249         -48.4683         -20.805         -48.4693         -20.893       -0.0105078         148.256
0.544                  -0.623109        -143.779         -48.7235        -23.9395         -48.7251        -24.0157       -0.0106118         148.186
0.545                  -0.639224        -144.312         -48.9518        -26.7891         -48.9537        -26.8551       -0.0107169         148.117
0.546                   -0.65565        -144.848         -49.1538        -29.4126         -49.1559        -29.4699        -0.010823         148.048
0.547                  -0.672393        -145.386         -49.3308        -31.8563         -49.3329        -31.9061       -0.0109302         147.979
0.548                   -0.68946        -145.926         -49.4845        -34.1565         -49.4865        -34.1998       -0.0110384         147.909
0.549                  -0.706856         -146.47         -49.6166        -36.3417         -49.6185        -36.3794       -0.0111478         147.839
0.55                    -0.72459        -147.016         -49.7288        -38.4345         -49.7307        -38.4675       -0.0112583          147.77
0.551                  -0.742666        -147.565         -49.8228        -40.4529         -49.8246        -40.4817       -0.0113699           147.7
0.552                  -0.761094        -148.116         -49.9001        -42.4113         -49.9018        -42.4365       -0.0114827          147.63
0.553                  -0.779879        -148.671         -49.9621        -44.3212         -49.9637        -44.3433       -0.0115967         147.559
0.554                   -0.79903        -149.228         -50.0102         -46.192         -50.0116        -46.2113        -0.011712         147.489
0.555                  -0.818553        -149.787         -50.0453        -48.0313         -50.0466        -48.0481       -0.0118284         147.419
0.556                  -0.838457         -150.35         -50.0687        -49.8452         -50.0699        -49.8599       -0.0119462         147.348
0.557                   -0.85875        -150.915         -50.0811        -51.6388         -50.0822        -51.6517       -0.0120652         147.278
0.558                   -0.87944        -151.484         -50.0836        -53.4164         -50.0845        -53.4276       -0.0121855         147.207
0.559                  -0.900534        -152.055         -50.0767        -55.1815         -50.0775        -55.1912       -0.0123071         147.136
0.56                   -0.922043        -152.629         -50.0612        -56.9369          -50.062        -56.9453       -0.0124302         147.065
0.561                  -0.943974        -153.206         -50.0378         -58.685         -50.0384        -58.6923       -0.0125546         146.994
0.562                  -0.966336        -153.785         -50.0069        -60.4278         -50.0075        -60.4341       -0.0126804         146.923
0.563                  -0.989138        -154.368         -49.9691        -62.1672         -49.9697        -62.1725       -0.0128076         146.851
0.564                   -1.01239        -154.953          -49.925        -63.9043         -49.9254        -63.9089       -0.0129363          146.78
0.565                    -1.0361        -155.542         -49.8748        -65.6406         -49.8752        -65.6444       -0.0130665         146.708
0.566                   -1.06028        -156.133          -49.819         -67.377         -49.8193        -67.3801       -0.0131982         146.637
0.567                   -1.08494        -156.728          -49.758        -69.1143         -49.7583        -69.1169       -0.0133315         146.565
0.568                   -1.11009        -157.325         -49.6921        -70.8532         -49.6923        -70.8553       -0.0134663         146.493
0.569                   -1.13574        -157.926         -49.6216        -72.5945         -49.6217        -72.5961       -0.0136027          146.42
0.57                     -1.1619        -158.529         -49.5467        -74.3386         -49.5469        -74.3398       -0.0137407         146.348
0.571                   -1.18858        -159.135         -49.4679         -76.086          -49.468        -76.0869       -0.0138804         146.276
0.572                   -1.21579        -159.745         -49.3852         -77.837         -49.3853        -77.8376       -0.0140217         146.203
0.573                   -1.24355        -160.357          -49.299         -79.592         -49.2991        -79.5923       -0.0141648          146.13
0.574                   -1.27186        -160.973         -49.2095        -81.3513         -49.2095        -81.3513       -0.0143096         146.057
0.575                   -1.30074        -161.591         -49.1168         -83.115         -49.1168        -83.1148       -0.0144561         145.984
0.576                   -1.33019        -162.213         -49.0212        -84.8834         -49.0212        -84.8829       -0.0146044         145.911
0.577                   -1.36024        -162.837         -48.9229        -86.6565         -48.9228         -86.656       -0.0147546         145.838
0.578                   -1.39089        -163.465         -48.8219        -88.4347         -48.8218         -88.434       -0.0149066         145.764
0.579                   -1.42216        -164.095         -48.7186        -90.2179         -48.7185         -90.217       -0.0150605         145.691
0.58                    -1.45406        -164.729          -48.613        -92.0062         -48.6129        -92.0053       -0.0152163         145.617
0.581                    -1.4866        -165.366         -48.5053        -93.7998         -48.5052        -93.7987       -0.0153741         145.543
0.582                   -1.51979        -166.006         -48.3957        -95.5986         -48.3956        -95.5975       -0.0155338         145.469
0.583                   -1.55366        -166.648         -48.2842        -97.4027         -48.2841        -97.4015       -0.0156955         145.394
0.584                   -1.58821        -167.294         -48.1711        -99.2121          -48.171        -99.2109       -0.0158593          145.32
0.585                   -1.62345        -167.943         -48.0564        -101.027         -48.0563        -101.026       -0.0160251         145.245
0.586                   -1.65941        -168.595         -47.9403        -102.847         -47.9402        -102.846       -0.0161931         145.171
0.587                   -1.69609         -169.25         -47.8229        -104.672         -47.8227        -104.671       -0.0163631         145.096
0.588                   -1.73352        -169.908         -47.7043        -106.503         -47.7041        -106.501       -0.0165354          145.02
0.589                    -1.7717        -170.568         -47.5846        -108.338         -47.5844        -108.337       -0.0167099         144.945
0.59                    -1.81065        -171.232         -47.4639        -110.179         -47.4637        -110.178       -0.0168866          144.87
0.591                   -1.85039        -171.898         -47.3423        -112.025         -47.3421        -112.024       -0.0170656         144.794
0.592                   -1.89094        -172.568         -47.2199        -113.876         -47.2197        -113.875       -0.0172469         144.718
0.593                    -1.9323         -173.24         -47.0969        -115.732         -47.0967        -115.731       -0.0174305         144.642
0.594                   -1.97449        -173.915         -46.9732        -117.593         -46.9731        -117.592       -0.0176165         144.566
0.595                   -2.01754        -174.593         -46.8491        -119.459         -46.8489        -119.457        -0.017805          144.49
0.596                   -2.06145        -175.274         -46.7245        -121.329         -46.7244        -121.328       -0.0179959         144.413
0.597                   -2.10625        -175.957         -46.5996        -123.203         -46.5995        -123.202       -0.0181893         144.337
0.598                   -2.15194        -176.643         -46.4745        -125.083         -46.4743        -125.081       -0.0183853          144.26
0.599                   -2.19856        -177.332         -46.3491        -126.966          -46.349        -126.965       -0.0185838         144.183
0.6                     -2.24611        -178.023         -46.2237        -128.853         -46.2235        -128.852       -0.0187849         144.105
0.601                   -2.29461        -178.717         -46.0982        -130.745         -46.0981        -130.744       -0.0189887         144.028
0.602                   -2.34408        -179.413         -45.9728         -132.64         -45.9726        -132.639       -0.0191952          143.95
0.603                   -2.39453         179.888         -45.8474        -134.539         -45.8473        -134.538       -0.0194045         143.872
0.604                   -2.44599         179.187         -45.7223        -136.442         -45.7221        -136.441       -0.0196165         143.794
0.605                   -2.49847         178.484         -45.5973        -138.348         -45.5971        -138.347       -0.0198314         143.716
0.606                   -2.55199         177.779         -45.4726        -140.257         -45.4725        -140.256       -0.0200491         143.637
0.607                   -2.60656         177.071         -45.3483        -142.169         -45.3481        -142.168       -0.0202698         143.559
0.608                   -2.66221         176.361         -45.2243        -144.083         -45.2242        -144.083       -0.0204934          143.48
0.609                   -2.71896         175.649         -45.1007        -146.001         -45.1006            -146         -0.02072         143.401
0.61                    -2.77681         174.936         -44.9777         -147.92         -44.9776         -147.92       -0.0209497         143.321
0.611                   -2.83579          174.22         -44.8551        -149.842          -44.855        -149.842       -0.0211825         143.242
0.612                   -2.89592         173.503         -44.7331        -151.766          -44.733        -151.765       -0.0214184         143.162
0.613                   -2.95721         172.784         -44.6117        -153.691         -44.6116        -153.691       -0.0216576         143.082
0.614                   -3.01968         172.064          -44.491        -155.618         -44.4909        -155.618          -0.0219         143.002
0.615                   -3.08336         171.342         -44.3708        -157.547         -44.3708        -157.546       -0.0221458         142.921
0.616                   -3.14825         170.619         -44.2514        -159.476         -44.2513        -159.476       -0.0223949         142.841
0.617                   -3.21437         169.894         -44.1327        -161.407         -44.1326        -161.406       -0.0226475          142.76
0.618                   -3.28174         169.169         -44.0147        -163.338         -44.0146        -163.337       -0.0229035         142.679
0.619                   -3.35039         168.442         -43.8974        -165.269         -43.8974        -165.269       -0.0231631         142.597
0.62                    -3.42032         167.715          -43.781        -167.201         -43.7809          -167.2       -0.0234263         142.515
0.621                   -3.49155         166.986         -43.6653        -169.132         -43.6652        -169.132       -0.0236932         142.434
0.622                   -3.56411         166.258         -43.5504        -171.064         -43.5503        -171.064       -0.0239638         142.351
0.623                     -3.638         165.528         -43.4363        -172.995         -43.4362        -172.995       -0.0242382         142.269
0.624                   -3.71324         164.799          -43.323        -174.926         -43.3229        -174.925       -0.0245165         142.186
0.625                   -3.78985         164.069         -43.2105        -176.855         -43.2104        -176.855       -0.0247988         142.103
0.626                   -3.86784         163.339         -43.0988        -178.784         -43.0987        -178.784       -0.0250851          142.02
0.627                   -3.94724          162.61         -42.9879         179.288         -42.9879         179.288       -0.0253754         141.937
0.628                   -4.02805          161.88         -42.8778         177.362         -42.8778         177.362         -0.02567         141.853
0.629                   -4.11029         161.151         -42.7686         175.437         -42.7686         175.437       -0.0259688         141.769
