! TOUCHSTONE file generated by CST MICROWAVE STUDIO
! Date and time: Fri Oct  2 16:54:28 2020
! Project name: Scenario_1_Free_Space_out_of_line.cst
! Parameters = {Lambda=346.42; Step_1=17.321; dy1=260.935; dx1=693; L_HA=400; MT=2.54; Rad_Dielectric=30; Rad_Lower=7.3; Rad_Upper=30; a_HA=580; a_WG=246; b_HA=500; b_WG=121; c_HA=0; c_WG=187; d_feed=85; h_feed=15; h_lower=18; h_upper=40}
! Header version: 2018
! Port assignment regex: !\s*Touchstone port\s*([0-9]+)\s*=\s*(CST MWS port|CST DS port)\s*([0-9]+|Zmin|Zmax)\s*\(\"(.*)\"\)(\s*mode\s*([0-9]+))?.*
! Touchstone port assignment:
! Touchstone port 1 = CST MWS port 1 ("")
! Touchstone port 2 = CST MWS port 2 ("")
# GHz S DB R 50
0.5                    -0.148602        -122.588         -64.1023         -132.74         -64.1023         -132.74      -0.00666413         151.142
0.501                  -0.154022         -123.03          -63.892        -134.627         -63.8921         -134.63      -0.00673645         151.077
0.502                  -0.159651        -123.475         -63.6816        -136.526         -63.6818        -136.531      -0.00680937         151.012
0.503                  -0.165491        -123.922         -63.4711        -138.438         -63.4715        -138.444      -0.00688287         150.946
0.504                  -0.171545         -124.37         -63.2607        -140.361         -63.2612        -140.369      -0.00695695         150.881
0.505                  -0.177814         -124.82         -63.0504        -142.296         -63.0509        -142.305      -0.00703161         150.815
0.506                    -0.1843        -125.272         -62.8403        -144.243         -62.8408        -144.253      -0.00710685         150.749
0.507                  -0.191004        -125.726         -62.6303        -146.202         -62.6309        -146.212      -0.00718265         150.684
0.508                  -0.197928        -126.182         -62.4206        -148.173         -62.4212        -148.183      -0.00725901         150.618
0.509                  -0.205074        -126.639         -62.2113        -150.156         -62.2119        -150.166      -0.00733593         150.552
0.51                   -0.212443        -127.099         -62.0023         -152.15         -62.0029         -152.16      -0.00741339         150.486
0.511                  -0.220038         -127.56         -61.7938        -154.157         -61.7943        -154.166      -0.00749141          150.42
0.512                   -0.22786        -128.024         -61.5858        -156.175         -61.5862        -156.184      -0.00756996         150.354
0.513                  -0.235911        -128.489         -61.3783        -158.204         -61.3787        -158.212      -0.00764904         150.288
0.514                  -0.244193        -128.956         -61.1715        -160.245         -61.1718        -160.253      -0.00772866         150.221
0.515                  -0.252707        -129.425         -60.9653        -162.297         -60.9655        -162.304      -0.00780879         150.155
0.516                  -0.261456        -129.896         -60.7599        -164.361           -60.76        -164.366      -0.00788944         150.088
0.517                  -0.270442        -130.369         -60.5553        -166.435         -60.5552        -166.439       -0.0079706         150.022
0.518                  -0.279666        -130.844         -60.3515         -168.52         -60.3513        -168.523      -0.00805226         149.955
0.519                  -0.289131        -131.321         -60.1486        -170.615         -60.1482        -170.618      -0.00813442         149.888
0.52                   -0.298839          -131.8         -59.9466        -172.721         -59.9461        -172.722      -0.00821708         149.822
0.521                  -0.308791        -132.281         -59.7456        -174.837          -59.745        -174.837      -0.00830022         149.755
0.522                  -0.318989        -132.764         -59.5457        -176.962         -59.5449        -176.961      -0.00838385         149.688
0.523                  -0.329437        -133.249         -59.3468        -179.097         -59.3459        -179.095      -0.00846796         149.621
0.524                  -0.340136        -133.736         -59.1491         178.759          -59.148         178.762      -0.00855254         149.554
0.525                  -0.351088        -134.226         -58.9526         176.606         -58.9513         176.609       -0.0086376         149.486
0.526                  -0.362296        -134.717         -58.7572         174.444         -58.7558         174.449      -0.00872312         149.419
0.527                  -0.373762         -135.21         -58.5631         172.274         -58.5615          172.28      -0.00880911         149.352
0.528                  -0.385488        -135.706         -58.3703         170.097         -58.3686         170.103      -0.00889557         149.284
0.529                  -0.397478        -136.203         -58.1787         167.911         -58.1769         167.918       -0.0089825         149.217
0.53                   -0.409734        -136.703         -57.9885         165.719         -57.9865         165.726      -0.00906989         149.149
0.531                  -0.422258        -137.205         -57.7997          163.52         -57.7975         163.527      -0.00915775         149.081
0.532                  -0.435053        -137.709         -57.6122         161.314         -57.6099         161.322      -0.00924609         149.013
0.533                  -0.448122        -138.215          -57.426         159.102         -57.4237          159.11       -0.0093349         148.945
0.534                  -0.461469        -138.723         -57.2413         156.885         -57.2389         156.893      -0.00942419         148.877
0.535                  -0.475095        -139.234          -57.058         154.662         -57.0554          154.67      -0.00951398         148.809
0.536                  -0.489006        -139.747         -56.8761         152.434         -56.8735         152.443      -0.00960427         148.741
0.537                  -0.503203        -140.262         -56.6956         150.202         -56.6929          150.21      -0.00969507         148.672
0.538                   -0.51769        -140.779         -56.5165         147.965         -56.5138         147.973      -0.00978641         148.604
0.539                  -0.532471        -141.299         -56.3388         145.725          -56.336         145.733      -0.00987829         148.535
0.54                    -0.54755        -141.821         -56.1626         143.481         -56.1597         143.489      -0.00997073         148.466
0.541                  -0.562931        -142.346         -55.9877         141.233         -55.9848         141.241       -0.0100638         148.398
0.542                  -0.578618        -142.872         -55.8141         138.983         -55.8113         138.991       -0.0101574         148.329
0.543                  -0.594615        -143.402          -55.642         136.731         -55.6392         136.738       -0.0102517          148.26
0.544                  -0.610926        -143.933         -55.4712         134.476         -55.4684         134.483       -0.0103467          148.19
0.545                  -0.627557        -144.467         -55.3017         132.219         -55.2989         132.225       -0.0104424         148.121
0.546                  -0.644513        -145.004         -55.1335         129.961         -55.1308         129.966       -0.0105388         148.052
0.547                  -0.661798        -145.543         -54.9666         127.701         -54.9639         127.706        -0.010636         147.982
0.548                  -0.679418        -146.085         -54.8009          125.44         -54.7983         125.445       -0.0107341         147.913
0.549                  -0.697378        -146.629         -54.6364         123.178         -54.6339         123.182       -0.0108331         147.843
0.55                   -0.715686        -147.175         -54.4732         120.916         -54.4707         120.919        -0.010933         147.773
0.551                  -0.734346        -147.725          -54.311         118.652         -54.3087         118.656       -0.0110339         147.703
0.552                  -0.753366        -148.277         -54.1501         116.389         -54.1478         116.392       -0.0111359         147.633
0.553                  -0.772753        -148.831         -53.9902         114.125         -53.9881         114.128        -0.011239         147.563
0.554                  -0.792513        -149.389         -53.8313         111.862         -53.8293         111.864       -0.0113432         147.493
0.555                  -0.812655        -149.949         -53.6735         109.598         -53.6717           109.6       -0.0114488         147.422
0.556                  -0.833186        -150.512         -53.5167         107.335          -53.515         107.336       -0.0115557         147.352
0.557                  -0.854115        -151.077         -53.3608         105.072         -53.3592         105.073        -0.011664         147.281
0.558                   -0.87545        -151.646         -53.2059         102.809         -53.2044          102.81       -0.0117738          147.21
0.559                  -0.897201        -152.217         -53.0519         100.547         -53.0505         100.548       -0.0118852         147.139
0.56                   -0.919378        -152.791         -52.8987         98.2849         -52.8975         98.2856       -0.0119982         147.068
0.561                  -0.941989        -153.368         -52.7464         96.0236         -52.7453         96.0242        -0.012113         146.997
0.562                  -0.965047        -153.947         -52.5948         93.7628         -52.5939         93.7633       -0.0122296         146.925
0.563                  -0.988561         -154.53          -52.444         91.5026         -52.4432          91.503        -0.012348         146.854
0.564                   -1.01254        -155.116          -52.294         89.2429         -52.2933         89.2433       -0.0124684         146.782
0.565                   -1.03701        -155.704         -52.1447         86.9836         -52.1441          86.984       -0.0125909          146.71
0.566                   -1.06196        -156.296         -51.9961         84.7249         -51.9956         84.7253       -0.0127155         146.639
0.567                   -1.08742         -156.89         -51.8481         82.4665         -51.8478          82.467       -0.0128422         146.567
0.568                    -1.1134        -157.488         -51.7008         80.2086         -51.7006         80.2091       -0.0129712         146.494
0.569                   -1.13991        -158.089         -51.5541          77.951          -51.554         77.9516       -0.0131025         146.422
0.57                    -1.16697        -158.692         -51.4081         75.6936          -51.408         75.6943       -0.0132362          146.35
0.571                   -1.19458        -159.299         -51.2626         73.4364         -51.2625         73.4373       -0.0133723         146.277
0.572                   -1.22277        -159.908         -51.1176         71.1794         -51.1177         71.1804       -0.0135109         146.204
0.573                   -1.25156         -160.52         -50.9733         68.9225         -50.9734         68.9236       -0.0136519         146.131
0.574                   -1.28094        -161.136         -50.8294         66.6655         -50.8296         66.6668       -0.0137955         146.058
0.575                   -1.31095        -161.754         -50.6861         64.4084         -50.6864         64.4098       -0.0139417         145.985
0.576                    -1.3416        -162.376         -50.5434         62.1512         -50.5436         62.1528       -0.0140904         145.912
0.577                    -1.3729            -163         -50.4011         59.8938         -50.4014         59.8955       -0.0142418         145.838
0.578                   -1.40487        -163.627         -50.2594          57.636         -50.2597         57.6378       -0.0143958         145.764
0.579                   -1.43753        -164.257         -50.1181         55.3779         -50.1185         55.3798       -0.0145524         145.691
0.58                    -1.47088        -164.889         -49.9773         53.1193         -49.9777         53.1213       -0.0147116         145.617
0.581                   -1.50495        -165.524         -49.8371         50.8602         -49.8375         50.8623       -0.0148735         145.543
0.582                   -1.53976        -166.162         -49.6973         48.6005         -49.6977         48.6028       -0.0150381         145.468
0.583                   -1.57531        -166.803         -49.5581         46.3402         -49.5584         46.3425       -0.0152052         145.394
0.584                   -1.61162        -167.445         -49.4193         44.0792         -49.4196         44.0816        -0.015375         145.319
0.585                    -1.6487        -168.091          -49.281         41.8175         -49.2814         41.8199       -0.0155474         145.245
0.586                   -1.68657        -168.738         -49.1432          39.555         -49.1436         39.5575       -0.0157223          145.17
0.587                   -1.72523        -169.388         -49.0059         37.2917         -49.0063         37.2942       -0.0158999         145.095
0.588                    -1.7647         -170.04         -48.8692         35.0277         -48.8695         35.0301         -0.01608         145.019
0.589                   -1.80499        -170.694         -48.7329         32.7628         -48.7332         32.7651       -0.0162627         144.944
0.59                     -1.8461         -171.35         -48.5972          30.497         -48.5974         30.4993       -0.0164479         144.868
0.591                   -1.88805        -172.007         -48.4619         28.2304         -48.4621         28.2327       -0.0166356         144.792
0.592                   -1.93083        -172.667         -48.3272          25.963         -48.3274         25.9651       -0.0168258         144.717
0.593                   -1.97445        -173.327          -48.193         23.6948         -48.1932         23.6968       -0.0170186          144.64
0.594                   -2.01891         -173.99         -48.0594         21.4257         -48.0595         21.4276       -0.0172138         144.564
0.595                   -2.06421        -174.653         -47.9262         19.1559         -47.9263         19.1576       -0.0174115         144.488
0.596                   -2.11035        -175.318         -47.7937         16.8853         -47.7937         16.8868       -0.0176118         144.411
0.597                   -2.15733        -175.984         -47.6616          14.614         -47.6616         14.6153       -0.0178145         144.334
0.598                   -2.20513        -176.651         -47.5301          12.342         -47.5301         12.3432       -0.0180197         144.257
0.599                   -2.25377        -177.319         -47.3992         10.0694         -47.3991         10.0704       -0.0182275          144.18
0.6                     -2.30323        -177.988         -47.2688         7.79622         -47.2687         7.79704       -0.0184377         144.103
0.601                   -2.35349        -178.657         -47.1389         5.52255         -47.1388         5.52319       -0.0186506         144.025
0.602                   -2.40456        -179.328         -47.0096         3.24844         -47.0095         3.24888        -0.018866         143.947
0.603                   -2.45642        -179.999         -46.8809        0.973946         -46.8807        0.974206        -0.019084         143.869
0.604                   -2.50907         179.329         -46.7527        -1.30086         -46.7525        -1.30078       -0.0193046         143.791
0.605                   -2.56248         178.657          -46.625        -3.57591         -46.6248          -3.576       -0.0195279         143.713
0.606                   -2.61665         177.984         -46.4979        -5.85113         -46.4977        -5.85138       -0.0197539         143.634
0.607                   -2.67158          177.31         -46.3713        -8.12645         -46.3711        -8.12686       -0.0199827         143.555
0.608                   -2.72724         176.635         -46.2452        -10.4018         -46.2451        -10.4023       -0.0202143         143.476
0.609                   -2.78363          175.96         -46.1197        -12.6771         -46.1195        -12.6778       -0.0204488         143.397
0.61                    -2.84075         175.284         -45.9947        -14.9523         -45.9945        -14.9531       -0.0206862         143.317
0.611                   -2.89857         174.607         -45.8702        -17.2274           -45.87        -17.2282       -0.0209267         143.238
0.612                   -2.95711         173.928         -45.7461        -19.5022          -45.746        -19.5031       -0.0211702         143.158
0.613                   -3.01636         173.249         -45.6226        -21.7767         -45.6224        -21.7777       -0.0214169         143.078
0.614                   -3.07631         172.569         -45.4995        -24.0508         -45.4994        -24.0518       -0.0216669         142.997
0.615                   -3.13696         171.887         -45.3769        -26.3246         -45.3768        -26.3256       -0.0219202         142.917
0.616                   -3.19832         171.204         -45.2548        -28.5979         -45.2546        -28.5989        -0.022177         142.836
0.617                   -3.26039          170.52          -45.133        -30.8707         -45.1329        -30.8717       -0.0224373         142.755
0.618                   -3.32319         169.833         -45.0117        -33.1431         -45.0116         -33.144       -0.0227013         142.673
0.619                   -3.38671         169.145         -44.8908        -35.4149         -44.8907        -35.4157       -0.0229691         142.592
0.62                    -3.45098         168.455         -44.7703        -37.6861         -44.7702        -37.6869       -0.0232407          142.51
0.621                     -3.516         167.763         -44.6501        -39.9568           -44.65        -39.9575       -0.0235165         142.428
0.622                    -3.5818         167.068         -44.5303        -42.2269         -44.5302        -42.2275       -0.0237964         142.345
0.623                    -3.6484         166.371         -44.4108        -44.4964         -44.4108        -44.4969       -0.0240806         142.263
0.624                   -3.71582         165.671         -44.2917        -46.7654         -44.2916        -46.7657       -0.0243692          142.18
0.625                   -3.78409         164.969         -44.1729        -49.0339         -44.1728         -49.034       -0.0246626         142.097
0.626                   -3.85324         164.264         -44.0543        -51.3019         -44.0542        -51.3018       -0.0249607         142.013
0.627                   -3.92329         163.555          -43.936        -53.5694          -43.936        -53.5692       -0.0252637          141.93
0.628                   -3.99429         162.844          -43.818        -55.8366         -43.8179        -55.8361       -0.0255719         141.846
0.629                   -4.06627          162.13         -43.7002        -58.1033         -43.7002        -58.1027       -0.0258854         141.761
