! TOUCHSTONE file generated by CST MICROWAVE STUDIO
! Date and time: Fri Oct  2 19:08:46 2020
! Project name: Scenario_1_Free_Space_out_of_line.cst
! Parameters = {Lambda=346.42; Step_1=17.321; dy1=260.935; dx1=866; L_HA=400; MT=2.54; Rad_Dielectric=30; Rad_Lower=7.3; Rad_Upper=30; a_HA=580; a_WG=246; b_HA=500; b_WG=121; c_HA=0; c_WG=187; d_feed=85; h_feed=15; h_lower=18; h_upper=40}
! Header version: 2018
! Port assignment regex: !\s*Touchstone port\s*([0-9]+)\s*=\s*(CST MWS port|CST DS port)\s*([0-9]+|Zmin|Zmax)\s*\(\"(.*)\"\)(\s*mode\s*([0-9]+))?.*
! Touchstone port assignment:
! Touchstone port 1 = CST MWS port 1 ("")
! Touchstone port 2 = CST MWS port 2 ("")
# GHz S DB R 50
0.5                    -0.146652        -122.389         -64.9293         130.398         -64.9293         130.398      -0.00650814         151.169
0.501                  -0.153067        -122.797         -64.9019         128.585         -64.9014         128.585      -0.00656524         151.104
0.502                  -0.159561        -123.209         -64.8715         126.742         -64.8705         126.742      -0.00662329         151.039
0.503                  -0.166139        -123.624         -64.8378         124.867         -64.8364         124.868      -0.00668228         150.974
0.504                  -0.172809        -124.043         -64.8006         122.961         -64.7988         122.962      -0.00674224         150.908
0.505                   -0.17958        -124.464         -64.7598         121.025         -64.7575         121.026      -0.00680315         150.843
0.506                  -0.186457        -124.888         -64.7151         119.058         -64.7124          119.06      -0.00686504         150.777
0.507                  -0.193449        -125.316         -64.6664          117.06         -64.6632         117.062       -0.0069279         150.712
0.508                  -0.200564        -125.747         -64.6134         115.031         -64.6098         115.035      -0.00699175         150.646
0.509                  -0.207808        -126.181         -64.5558         112.973         -64.5518         112.978      -0.00705658          150.58
0.51                   -0.215189        -126.618         -64.4936         110.886         -64.4892         110.892      -0.00712241         150.514
0.511                  -0.222716        -127.058         -64.4265          108.77         -64.4217         108.777      -0.00718925         150.448
0.512                  -0.230396        -127.501         -64.3542         106.626          -64.349         106.634      -0.00725709         150.382
0.513                  -0.238236        -127.948         -64.2767         104.456         -64.2711         104.465      -0.00732595         150.316
0.514                  -0.246245        -128.397         -64.1937         102.258         -64.1877         102.269      -0.00739583          150.25
0.515                   -0.25443         -128.85          -64.105         100.036         -64.0987         100.049      -0.00746675         150.184
0.516                  -0.262799        -129.306         -64.0104         97.7899         -64.0039         97.8039       -0.0075387         150.117
0.517                   -0.27136        -129.766         -63.9099         95.5208         -63.9031         95.5364       -0.0076117         150.051
0.518                  -0.280122        -130.228         -63.8033         93.2301         -63.7962         93.2475      -0.00768575         149.984
0.519                  -0.289092        -130.694         -63.6904         90.9192          -63.683         90.9383      -0.00776086         149.918
0.52                   -0.298278        -131.163         -63.5712         88.5895         -63.5636         88.6104      -0.00783705         149.851
0.521                  -0.307688        -131.634         -63.4456         86.2424         -63.4378         86.2651      -0.00791431         149.784
0.522                  -0.317331         -132.11         -63.3135         83.8794         -63.3055          83.904      -0.00799265         149.717
0.523                  -0.327214        -132.588         -63.1748          81.502         -63.1667         81.5284      -0.00807209          149.65
0.524                  -0.337346        -133.069         -63.0296         79.1117         -63.0213           79.14      -0.00815262         149.583
0.525                  -0.347735        -133.554         -62.8778         76.7101         -62.8694         76.7401      -0.00823427         149.516
0.526                   -0.35839        -134.042         -62.7195         74.2986          -62.711         74.3304      -0.00831704         149.449
0.527                  -0.369318        -134.533         -62.5546         71.8787         -62.5462         71.9122      -0.00840093         149.382
0.528                  -0.380527        -135.027         -62.3834         69.4519         -62.3749         69.4869      -0.00848595         149.314
0.529                  -0.392027        -135.524         -62.2057         67.0194         -62.1972         67.0559      -0.00857212         149.247
0.53                   -0.403825        -136.025         -62.0218         64.5825         -62.0134         64.6205      -0.00865945         149.179
0.531                   -0.41593        -136.528         -61.8318         62.1425         -61.8234         62.1818      -0.00874793         149.112
0.532                   -0.42835        -137.035         -61.6358         59.7005         -61.6274          59.741      -0.00883759         149.044
0.533                  -0.441094        -137.544         -61.4339         57.2575         -61.4256         57.2991      -0.00892843         148.976
0.534                  -0.454169        -138.057         -61.2263         54.8144         -61.2181         54.8569      -0.00902046         148.908
0.535                  -0.467585        -138.573         -61.0131         52.3719         -61.0051         52.4153      -0.00911369          148.84
0.536                  -0.481349        -139.092         -60.7947         49.9309         -60.7868         49.9749      -0.00920813         148.772
0.537                  -0.495469        -139.614         -60.5711         47.4918         -60.5634         47.5363      -0.00930379         148.703
0.538                  -0.509955        -140.139         -60.3426          45.055          -60.335         45.0999      -0.00940068         148.635
0.539                  -0.524815        -140.667         -60.1093          42.621          -60.102         42.6661      -0.00949882         148.567
0.54                   -0.540057        -141.198         -59.8716         40.1899         -59.8644         40.2351       -0.0095982         148.498
0.541                  -0.555689        -141.733         -59.6295         37.7619         -59.6226         37.8069      -0.00969885         148.429
0.542                  -0.571719         -142.27         -59.3834         35.3368         -59.3767         35.3815      -0.00980077         148.361
0.543                  -0.588156         -142.81         -59.1335         32.9145          -59.127         32.9589      -0.00990397         148.292
0.544                  -0.605008        -143.353         -58.8799          30.495         -58.8737         30.5387       -0.0100085         148.223
0.545                  -0.622284        -143.899          -58.623         28.0777          -58.617         28.1207       -0.0101143         148.154
0.546                  -0.639991        -144.448         -58.3628         25.6623         -58.3571         25.7044       -0.0102214         148.085
0.547                  -0.658137        -144.999         -58.0998         23.2483         -58.0943         23.2894       -0.0103299         148.015
0.548                  -0.676732        -145.554          -57.834         20.8351         -57.8287          20.875       -0.0104397         147.946
0.549                  -0.695782        -146.111         -57.5657          18.422         -57.5607         18.4606       -0.0105508         147.876
0.55                   -0.715296        -146.672         -57.2951         16.0084         -57.2903         16.0456       -0.0106633         147.807
0.551                  -0.735282        -147.235         -57.0224         13.5934         -57.0179          13.629       -0.0107773         147.737
0.552                  -0.755747        -147.801         -56.7479         11.1762         -56.7437         11.2101       -0.0108926         147.667
0.553                  -0.776701        -148.369         -56.4718         8.75592         -56.4678           8.788       -0.0110093         147.597
0.554                  -0.798149         -148.94         -56.1942         6.33165         -56.1905         6.36181       -0.0111274         147.527
0.555                  -0.820101        -149.514         -55.9154         3.90245         -55.9121         3.93058       -0.0112469         147.457
0.556                  -0.842564        -150.091         -55.6357         1.46734         -55.6326         1.49334        -0.011368         147.387
0.557                  -0.865545         -150.67         -55.3552       -0.974668         -55.3523       -0.950883       -0.0114904         147.316
0.558                  -0.889052        -151.252         -55.0741        -3.42457         -55.0715        -3.40309       -0.0116144         147.246
0.559                  -0.913093        -151.836         -54.7926        -5.88336         -54.7904        -5.86426       -0.0117398         147.175
0.56                   -0.937674        -152.423         -54.5111        -8.35203         -54.5091        -8.33538       -0.0118668         147.104
0.561                  -0.962804        -153.013         -54.2296        -10.8316          -54.228        -10.8174       -0.0119953         147.033
0.562                  -0.988489        -153.605         -53.9485        -13.3229         -53.9472        -13.3113       -0.0121253         146.962
0.563                   -1.01474        -154.199         -53.6679         -15.827         -53.6669        -15.8181       -0.0122568         146.891
0.564                   -1.04155        -154.796         -53.3882        -18.3448         -53.3875        -18.3385         -0.01239          146.82
0.565                   -1.06895        -155.395         -53.1094         -20.877          -53.109        -20.8734       -0.0125247         146.748
0.566                   -1.09693        -155.997         -52.8319        -23.4245         -52.8319        -23.4236        -0.012661         146.677
0.567                   -1.12549        -156.601          -52.556         -25.988         -52.5563        -25.9898        -0.012799         146.605
0.568                   -1.15466        -157.207         -52.2818        -28.5682         -52.2824        -28.5727       -0.0129386         146.533
0.569                   -1.18443        -157.815         -52.0096        -31.1656         -52.0106        -31.1728       -0.0130799         146.461
0.57                    -1.21481        -158.426         -51.7396        -33.7807          -51.741        -33.7906       -0.0132228         146.389
0.571                    -1.2458        -159.038         -51.4723         -36.414          -51.474        -36.4265       -0.0133674         146.317
0.572                   -1.27742        -159.653         -51.2077        -39.0656         -51.2098        -39.0808       -0.0135138         146.245
0.573                   -1.30967         -160.27         -50.9461        -41.7358         -50.9487        -41.7535       -0.0136619         146.172
0.574                   -1.34255        -160.889         -50.6879        -44.4246         -50.6909        -44.4448       -0.0138117           146.1
0.575                   -1.37608         -161.51         -50.4333        -47.1319         -50.4367        -47.1545       -0.0139633         146.027
0.576                   -1.41025        -162.133         -50.1826        -49.8575         -50.1864        -49.8824       -0.0141167         145.954
0.577                   -1.44507        -162.758          -49.936         -52.601         -49.9402        -52.6281        -0.014272         145.881
0.578                   -1.48056        -163.385         -49.6937        -55.3619         -49.6983         -55.391        -0.014429         145.808
0.579                    -1.5167        -164.014          -49.456        -58.1395         -49.4611        -58.1706        -0.014588         145.734
0.58                    -1.55352        -164.644         -49.2232         -60.933         -49.2288         -60.966       -0.0147488         145.661
0.581                   -1.59102        -165.277         -48.9955        -63.7416         -49.0015        -63.7762       -0.0149115         145.587
0.582                   -1.62919        -165.911          -48.773         -66.564         -48.7795        -66.6002       -0.0150762         145.513
0.583                   -1.66805        -166.547         -48.5561        -69.3991          -48.563        -69.4366       -0.0152429         145.439
0.584                   -1.70761        -167.184         -48.3447        -72.2455         -48.3521        -72.2842       -0.0154115         145.365
0.585                   -1.74786        -167.824         -48.1392        -75.1017         -48.1471        -75.1414       -0.0155821         145.291
0.586                   -1.78881        -168.464         -47.9397        -77.9661          -47.948        -78.0067       -0.0157548         145.216
0.587                   -1.83047        -169.107         -47.7461        -80.8371         -47.7549        -80.8784       -0.0159295         145.142
0.588                   -1.87284        -169.751         -47.5587        -83.7129         -47.5679        -83.7546       -0.0161063         145.067
0.589                   -1.91593        -170.396         -47.3775        -86.5917         -47.3871        -86.6337       -0.0162852         144.992
0.59                    -1.95974        -171.043         -47.2025        -89.4716         -47.2125        -89.5138       -0.0164663         144.917
0.591                   -2.00428        -171.691         -47.0337        -92.3508         -47.0442        -92.3929       -0.0166496         144.842
0.592                   -2.04955        -172.341         -46.8711        -95.2274         -46.8819        -95.2693       -0.0168351         144.766
0.593                   -2.09556        -172.992         -46.7147        -98.0995         -46.7258         -98.141       -0.0170228         144.691
0.594                    -2.1423        -173.645         -46.5643        -100.965         -46.5758        -101.006       -0.0172128         144.615
0.595                    -2.1898        -174.299         -46.4198        -103.823         -46.4316        -103.863        -0.017405         144.539
0.596                   -2.23804        -174.954         -46.2812        -106.671         -46.2933        -106.711       -0.0175997         144.463
0.597                   -2.28704         -175.61         -46.1482        -109.508         -46.1606        -109.546       -0.0177967         144.386
0.598                    -2.3368        -176.267         -46.0207        -112.331         -46.0333        -112.369       -0.0179961          144.31
0.599                   -2.38732        -176.926         -45.8985        -115.141         -45.9114        -115.177       -0.0181979         144.233
0.6                     -2.43862        -177.586         -45.7814        -117.934         -45.7944         -117.97       -0.0184023         144.156
0.601                   -2.49069        -178.247         -45.6691        -120.711         -45.6824        -120.745       -0.0186091         144.079
0.602                   -2.54354        -178.909         -45.5615        -123.471         -45.5749        -123.503       -0.0188185         144.002
0.603                   -2.59717        -179.572         -45.4582        -126.211         -45.4717        -126.242       -0.0190305         143.924
0.604                   -2.65159         179.764         -45.3591        -128.932         -45.3727        -128.962       -0.0192452         143.847
0.605                   -2.70681         179.099         -45.2639        -131.633         -45.2775        -131.661       -0.0194626         143.769
0.606                   -2.76283         178.433         -45.1722        -134.313          -45.186         -134.34       -0.0196827         143.691
0.607                   -2.81965         177.766          -45.084        -136.973         -45.0977        -136.997       -0.0199055         143.613
0.608                   -2.87729         177.098         -44.9988        -139.611         -45.0126        -139.634       -0.0201313         143.534
0.609                   -2.93574          176.43         -44.9165        -142.227         -44.9302        -142.249       -0.0203598         143.456
0.61                    -2.99501          175.76         -44.8368        -144.823         -44.8505        -144.843       -0.0205914         143.377
0.611                   -3.05511         175.089         -44.7594        -147.396          -44.773        -147.415       -0.0208259         143.298
0.612                   -3.11604         174.418         -44.6842        -149.949         -44.6977        -149.967       -0.0210634         143.218
0.613                   -3.17782         173.746         -44.6109        -152.481         -44.6243        -152.497        -0.021304         143.139
0.614                   -3.24044         173.073         -44.5392        -154.992         -44.5525        -155.007       -0.0215478         143.059
0.615                   -3.30392         172.399          -44.469        -157.484         -44.4821        -157.497       -0.0217948         142.979
0.616                   -3.36826         171.724            -44.4        -159.955          -44.413        -159.967       -0.0220451         142.899
0.617                   -3.43347         171.049         -44.3321        -162.407         -44.3449        -162.418       -0.0222987         142.818
0.618                   -3.49955         170.373          -44.265        -164.841         -44.2776        -164.851       -0.0225557         142.738
0.619                   -3.56652         169.696         -44.1986        -167.257         -44.2111        -167.265       -0.0228162         142.657
0.62                    -3.63438         169.019         -44.1328        -169.655         -44.1451        -169.663       -0.0230802         142.576
0.621                   -3.70314         168.341         -44.0674        -172.037         -44.0794        -172.044       -0.0233478         142.494
0.622                   -3.77282         167.662         -44.0021        -174.403         -44.0139        -174.408       -0.0236192         142.413
0.623                   -3.84341         166.983          -43.937        -176.754         -43.9486        -176.758       -0.0238943         142.331
0.624                   -3.91494         166.303         -43.8718         -179.09         -43.8832        -179.094       -0.0241732         142.249
0.625                    -3.9874         165.622         -43.8065         178.587         -43.8176         178.585       -0.0244561         142.166
0.626                   -4.06082         164.941         -43.7409         176.278         -43.7517         176.276        -0.024743         142.084
0.627                    -4.1352         164.259         -43.6749          173.98         -43.6855         173.979        -0.025034         142.001
0.628                   -4.21055         163.576         -43.6085         171.695         -43.6188         171.694       -0.0253292         141.918
0.629                   -4.28689         162.893         -43.5415         169.419         -43.5516          169.42       -0.0256287         141.834
