! TOUCHSTONE file generated by CST MICROWAVE STUDIO
! Date and time: Fri Oct  2 18:55:21 2020
! Project name: Scenario_1_Free_Space_out_of_line.cst
! Parameters = {Lambda=346.42; Step_1=17.321; dy1=260.935; dx1=1039; L_HA=400; MT=2.54; Rad_Dielectric=30; Rad_Lower=7.3; Rad_Upper=30; a_HA=580; a_WG=246; b_HA=500; b_WG=121; c_HA=0; c_WG=187; d_feed=85; h_feed=15; h_lower=18; h_upper=40}
! Header version: 2018
! Port assignment regex: !\s*Touchstone port\s*([0-9]+)\s*=\s*(CST MWS port|CST DS port)\s*([0-9]+|Zmin|Zmax)\s*\(\"(.*)\"\)(\s*mode\s*([0-9]+))?.*
! Touchstone port assignment:
! Touchstone port 1 = CST MWS port 1 ("")
! Touchstone port 2 = CST MWS port 2 ("")
# GHz S DB R 50
0.5                    -0.148774        -122.504          -65.449         35.2902          -65.449         35.2902      -0.00663496         151.179
0.501                  -0.154546        -122.944         -65.2154         32.7014         -65.2056         32.7466      -0.00670302         151.114
0.502                  -0.160483        -123.386         -64.9849          30.131         -64.9667         30.2154       -0.0067715         151.049
0.503                  -0.166588        -123.829         -64.7575          27.577         -64.7322         27.6951      -0.00684039         150.984
0.504                  -0.172864        -124.275          -64.533         25.0375         -64.5017         25.1843      -0.00690967         150.918
0.505                  -0.179315        -124.722         -64.3114         22.5109         -64.2751         22.6817      -0.00697934         150.853
0.506                  -0.185943        -125.172         -64.0925         19.9956         -64.0522         20.1861      -0.00704939         150.787
0.507                  -0.192752        -125.624         -63.8762         17.4902         -63.8326         17.6965      -0.00711982         150.721
0.508                  -0.199745        -126.077         -63.6624         14.9932         -63.6163          15.212      -0.00719061         150.656
0.509                  -0.206926        -126.533          -63.451         12.5035          -63.403         12.7315      -0.00726176          150.59
0.51                   -0.214297        -126.991         -63.2419         10.0199         -63.1925         10.2542      -0.00733326         150.524
0.511                  -0.221862        -127.451         -63.0349         7.54129         -62.9848         7.77945      -0.00740511         150.458
0.512                  -0.229626        -127.913           -62.83         5.06668         -62.7796         5.30639       -0.0074773         150.392
0.513                   -0.23759        -128.377         -62.6271         2.59514         -62.5768          2.8344      -0.00754984         150.326
0.514                   -0.24576        -128.843         -62.4261        0.125824         -62.3762        0.362839      -0.00762272          150.26
0.515                  -0.254139        -129.311         -62.2268        -2.34209         -62.1777        -2.10887      -0.00769594         150.193
0.516                  -0.262731        -129.782         -62.0293        -4.80934         -61.9812        -4.58127       -0.0077695         150.127
0.517                   -0.27154        -130.255         -61.8334        -7.27663         -61.7865        -7.05486      -0.00784341         150.061
0.518                  -0.280569        -130.729          -61.639        -9.74459         -61.5936        -9.53011      -0.00791767         149.994
0.519                  -0.289824        -131.206         -61.4462        -12.2138         -61.4024        -12.0075      -0.00799229         149.927
0.52                   -0.299307        -131.686         -61.2547        -14.6849         -61.2127        -14.4873      -0.00806728         149.861
0.521                  -0.309025        -132.167         -61.0645        -17.1583         -61.0244          -16.97      -0.00814266         149.794
0.522                   -0.31898        -132.651         -60.8756        -19.6345         -60.8375         -19.456      -0.00821844         149.727
0.523                  -0.329177        -133.137          -60.688         -22.114         -60.6518        -21.9454      -0.00829464          149.66
0.524                  -0.339622        -133.625         -60.5014        -24.5971         -60.4674        -24.4387      -0.00837128         149.593
0.525                  -0.350317        -134.115          -60.316        -27.0843         -60.2841        -26.9362       -0.0084484         149.526
0.526                  -0.361269        -134.608         -60.1317        -29.5758         -60.1019        -29.4379      -0.00852601         149.458
0.527                  -0.372483        -135.103         -59.9484        -32.0719         -59.9206        -31.9443      -0.00860417         149.391
0.528                  -0.383962          -135.6          -59.766         -34.573         -59.7404        -34.4554      -0.00868289         149.324
0.529                  -0.395712          -136.1         -59.5845        -37.0793          -59.561        -36.9716      -0.00876224         149.256
0.53                   -0.407738        -136.602          -59.404         -39.591         -59.3825        -39.4928      -0.00884225         149.188
0.531                  -0.420045        -137.106         -59.2243        -42.1083         -59.2048        -42.0194      -0.00892297         149.121
0.532                  -0.432639        -137.613         -59.0455        -44.6314         -59.0279        -44.5514      -0.00900446         149.053
0.533                  -0.445525        -138.122         -58.8675        -47.1604         -58.8517        -47.0889      -0.00908678         148.985
0.534                  -0.458709        -138.633         -58.6903        -49.6954         -58.6762         -49.632      -0.00916998         148.917
0.535                  -0.472195        -139.147         -58.5138        -52.2366         -58.5014        -52.1809      -0.00925414         148.849
0.536                   -0.48599        -139.663         -58.3381        -54.7841         -58.3273        -54.7355      -0.00933932          148.78
0.537                    -0.5001        -140.182         -58.1631        -57.3378         -58.1539         -57.296       -0.0094256         148.712
0.538                   -0.51453        -140.703         -57.9889        -59.8979         -57.9811        -59.8623      -0.00951303         148.644
0.539                  -0.529286        -141.226         -57.8154        -62.4643         -57.8089        -62.4344       -0.0096017         148.575
0.54                   -0.544374        -141.752         -57.6426         -65.037         -57.6373        -65.0124      -0.00969169         148.506
0.541                  -0.559801         -142.28         -57.4705        -67.6161         -57.4663        -67.5962      -0.00978305         148.438
0.542                  -0.575572        -142.811         -57.2991        -70.2015          -57.296        -70.1859      -0.00987588         148.369
0.543                  -0.591694        -143.344         -57.1285        -72.7931         -57.1262        -72.7813      -0.00997023           148.3
0.544                  -0.608173        -143.879         -56.9585        -75.3908         -56.9571        -75.3824       -0.0100662         148.231
0.545                  -0.625016        -144.417         -56.7892        -77.9946         -56.7886        -77.9891       -0.0101638         148.161
0.546                  -0.642229        -144.957         -56.6207        -80.6044         -56.6206        -80.6014       -0.0102631         148.092
0.547                  -0.659819          -145.5         -56.4529        -83.2201         -56.4533        -83.2191       -0.0103642         148.022
0.548                  -0.677793        -146.045         -56.2858        -85.8414         -56.2867        -85.8422       -0.0104672         147.953
0.549                  -0.696156        -146.593         -56.1194        -88.4684         -56.1207        -88.4704        -0.010572         147.883
0.55                   -0.714917        -147.143         -55.9538        -91.1007         -55.9553        -91.1037       -0.0106788         147.813
0.551                  -0.734081        -147.696         -55.7889        -93.7382         -55.7906        -93.7419       -0.0107875         147.743
0.552                  -0.753656        -148.251         -55.6248        -96.3808         -55.6266        -96.3848       -0.0108982         147.673
0.553                  -0.773648        -148.808         -55.4615        -99.0282         -55.4633        -99.0323       -0.0110109         147.603
0.554                  -0.794065        -149.368         -55.2989         -101.68         -55.3006        -101.684       -0.0111256         147.533
0.555                  -0.814913         -149.93         -55.1372        -104.337         -55.1387         -104.34       -0.0112423         147.463
0.556                    -0.8362        -150.495         -54.9762        -106.997         -54.9776            -107       -0.0113611         147.392
0.557                  -0.857932        -151.062         -54.8161        -109.662         -54.8172        -109.664       -0.0114819         147.321
0.558                  -0.880116        -151.631         -54.6567         -112.33         -54.6576        -112.332       -0.0116048         147.251
0.559                  -0.902758        -152.203         -54.4982        -115.002         -54.4987        -115.002       -0.0117296          147.18
0.56                   -0.925867        -152.777         -54.3406        -117.676         -54.3406        -117.676       -0.0118565         147.109
0.561                  -0.949448        -153.354         -54.1838        -120.354         -54.1834        -120.353       -0.0119853         147.038
0.562                  -0.973509        -153.933         -54.0278        -123.035         -54.0269        -123.032        -0.012116         146.966
0.563                  -0.998055        -154.514         -53.8727        -125.717         -53.8713        -125.714       -0.0122487         146.895
0.564                   -1.02309        -155.097         -53.7184        -128.402         -53.7165        -128.398       -0.0123833         146.823
0.565                   -1.04863        -155.683          -53.565        -131.089         -53.5626        -131.084       -0.0125197         146.752
0.566                   -1.07467        -156.271         -53.4125        -133.778         -53.4095        -133.771        -0.012658          146.68
0.567                   -1.10123        -156.861         -53.2608        -136.467         -53.2573         -136.46       -0.0127981         146.608
0.568                    -1.1283        -157.454           -53.11        -139.158         -53.1059        -139.149         -0.01294         146.536
0.569                   -1.15589        -158.049         -52.9601        -141.849         -52.9553         -141.84       -0.0130836         146.464
0.57                    -1.18401        -158.645          -52.811        -144.541         -52.8057        -144.531       -0.0132289         146.392
0.571                   -1.21266        -159.245         -52.6627        -147.234         -52.6568        -147.223        -0.013376         146.319
0.572                   -1.24185        -159.846         -52.5153        -149.926         -52.5088        -149.915       -0.0135247         146.246
0.573                   -1.27159        -160.449         -52.3687        -152.618         -52.3617        -152.607       -0.0136751         146.174
0.574                   -1.30187        -161.054         -52.2229         -155.31         -52.2154        -155.298       -0.0138272         146.101
0.575                    -1.3327        -161.662         -52.0779        -158.001         -52.0699        -157.989       -0.0139809         146.028
0.576                   -1.36408        -162.271         -51.9337        -160.691         -51.9252        -160.679       -0.0141362         145.955
0.577                   -1.39602        -162.883         -51.7903        -163.381         -51.7814        -163.368       -0.0142931         145.881
0.578                   -1.42852        -163.496         -51.6476        -166.069         -51.6383        -166.056       -0.0144517         145.808
0.579                   -1.46158        -164.112         -51.5056        -168.755         -51.4959        -168.743       -0.0146119         145.734
0.58                     -1.4952        -164.729         -51.3644         -171.44         -51.3543        -171.429       -0.0147737         145.661
0.581                   -1.52939        -165.348         -51.2238        -174.124         -51.2135        -174.112       -0.0149372         145.587
0.582                   -1.56414        -165.969         -51.0839        -176.805         -51.0733        -176.795       -0.0151024         145.513
0.583                   -1.59946        -166.592         -50.9447        -179.485         -50.9338        -179.475       -0.0152692         145.438
0.584                   -1.63535        -167.217         -50.8061         177.838          -50.795         177.847       -0.0154378         145.364
0.585                    -1.6718        -167.844          -50.668         175.163         -50.6568         175.171       -0.0156081         145.289
0.586                   -1.70881        -168.473         -50.5305         172.489         -50.5192         172.497       -0.0157802         145.215
0.587                   -1.74639        -169.103         -50.3936         169.818         -50.3822         169.825       -0.0159541          145.14
0.588                   -1.78453        -169.736         -50.2572          167.15         -50.2458         167.156       -0.0161299         145.065
0.589                   -1.82322         -170.37         -50.1212         164.483         -50.1098         164.488       -0.0163076         144.989
0.59                    -1.86248        -171.006         -49.9858         161.819         -49.9744         161.823       -0.0164873         144.914
0.591                   -1.90228        -171.645         -49.8507         159.158         -49.8394         159.161        -0.016669         144.838
0.592                   -1.94264        -172.285         -49.7161         156.498         -49.7049           156.5       -0.0168528         144.763
0.593                   -1.98355        -172.927         -49.5818         153.841         -49.5707         153.842       -0.0170387         144.687
0.594                     -2.025        -173.571         -49.4478         151.186          -49.437         151.186       -0.0172269         144.611
0.595                     -2.067        -174.218         -49.3142         148.533         -49.3036         148.532       -0.0174174         144.534
0.596                   -2.10954        -174.867         -49.1809         145.883         -49.1705         145.881       -0.0176103         144.458
0.597                   -2.15263        -175.518         -49.0478         143.234         -49.0377         143.231       -0.0178057         144.381
0.598                   -2.19625        -176.171          -48.915         140.587         -48.9051         140.583       -0.0180037         144.304
0.599                   -2.24042        -176.827         -48.7824         137.941         -48.7729         137.937       -0.0182043         144.227
0.6                     -2.28514        -177.485           -48.65         135.298         -48.6408         135.293       -0.0184078          144.15
0.601                    -2.3304        -178.147         -48.5178         132.655         -48.5089          132.65       -0.0186141         144.072
0.602                   -2.37622        -178.811         -48.3858         130.014         -48.3772         130.008       -0.0188234         143.995
0.603                    -2.4226        -179.478         -48.2538         127.374         -48.2456         127.367       -0.0190359         143.917
0.604                   -2.46956         179.851          -48.122         124.735         -48.1142         124.728       -0.0192517         143.839
0.605                    -2.5171         179.177         -47.9903         122.097         -47.9829         122.089       -0.0194708         143.761
0.606                   -2.56524         178.499         -47.8587         119.459         -47.8517         119.451       -0.0196934         143.682
0.607                     -2.614         177.818         -47.7272         116.822         -47.7205         116.814       -0.0199197         143.603
0.608                    -2.6634         177.133         -47.5957         114.185         -47.5895         114.176       -0.0201498         143.524
0.609                   -2.71347         176.443         -47.4643         111.547         -47.4585         111.539       -0.0203839         143.445
0.61                    -2.76423         175.749         -47.3329          108.91         -47.3275         108.901        -0.020622         143.366
0.611                   -2.81573         175.051         -47.2016         106.272         -47.1966         106.263       -0.0208644         143.286
0.612                     -2.868         174.347         -47.0703         103.633         -47.0657         103.625       -0.0211112         143.206
0.613                   -2.92108         173.639         -46.9391         100.993         -46.9349         100.985       -0.0213626         143.126
0.614                   -2.97501         172.926         -46.8079         98.3524         -46.8041         98.3447       -0.0216186         143.046
0.615                   -3.02986         172.207         -46.6768         95.7102         -46.6733         95.7028       -0.0218796         142.966
0.616                   -3.08567         171.483         -46.5457         93.0664         -46.5426         93.0594       -0.0221456         142.885
0.617                    -3.1425         170.753         -46.4147         90.4209         -46.4119         90.4142       -0.0224167         142.804
0.618                   -3.20042         170.018         -46.2837         87.7733         -46.2813         87.7671       -0.0226932         142.723
0.619                   -3.25951         169.276         -46.1529         85.1235         -46.1507         85.1177       -0.0229752         142.641
0.62                    -3.31982         168.529         -46.0221         82.4713         -46.0202         82.4661       -0.0232629         142.559
0.621                   -3.38144         167.776         -45.8915         79.8165         -45.8899         79.8118       -0.0235563         142.477
0.622                   -3.44444         167.018         -45.7609         77.1589         -45.7596         77.1548       -0.0238556         142.395
0.623                    -3.5089         166.253         -45.6306         74.4984         -45.6295         74.4948        -0.024161         142.313
0.624                   -3.57491         165.483         -45.5004         71.8348         -45.4995         71.8317       -0.0244725          142.23
0.625                   -3.64256         164.707         -45.3704         69.1679         -45.3697         69.1654       -0.0247902         142.147
0.626                   -3.71192         163.926         -45.2406         66.4976         -45.2401         66.4956       -0.0251143         142.064
0.627                   -3.78309          163.14         -45.1111         63.8237         -45.1108         63.8224       -0.0254449          141.98
0.628                   -3.85615         162.349         -44.9818         61.1463         -44.9817         61.1455       -0.0257819         141.897
0.629                   -3.93119         161.553         -44.8529         58.4651         -44.8529         58.4648       -0.0261255         141.813
