! TOUCHSTONE file generated by CST MICROWAVE STUDIO
! Date and time: Fri Oct  2 18:47:16 2020
! Project name: Scenario_1_Free_Space_out_of_line.cst
! Parameters = {Lambda=346.42; Step_1=17.321; dy1=243.594; dx1=173; L_HA=400; MT=2.54; Rad_Dielectric=30; Rad_Lower=7.3; Rad_Upper=30; a_HA=580; a_WG=246; b_HA=500; b_WG=121; c_HA=0; c_WG=187; d_feed=85; h_feed=15; h_lower=18; h_upper=40}
! Header version: 2018
! Port assignment regex: !\s*Touchstone port\s*([0-9]+)\s*=\s*(CST MWS port|CST DS port)\s*([0-9]+|Zmin|Zmax)\s*\(\"(.*)\"\)(\s*mode\s*([0-9]+))?.*
! Touchstone port assignment:
! Touchstone port 1 = CST MWS port 1 ("")
! Touchstone port 2 = CST MWS port 2 ("")
# GHz S DB R 50
0.5                    -0.147013        -122.565         -61.1416         137.986         -61.1416         137.986      -0.00622455          151.15
0.501                  -0.153543        -123.014         -61.0448         135.433         -61.0448         135.432      -0.00628412         151.085
0.502                  -0.160258        -123.465         -60.9381          132.91         -60.9381         132.909      -0.00634395          151.02
0.503                  -0.167159        -123.918         -60.8222         130.421         -60.8221          130.42      -0.00640406         150.955
0.504                  -0.174251        -124.373         -60.6975         127.969         -60.6975         127.968      -0.00646446         150.889
0.505                  -0.181534        -124.829         -60.5648         125.558         -60.5647         125.556      -0.00652518         150.824
0.506                  -0.189012        -125.287         -60.4246         123.188         -60.4246         123.187      -0.00658622         150.758
0.507                  -0.196687        -125.746         -60.2777         120.862         -60.2776          120.86      -0.00664761         150.693
0.508                  -0.204561        -126.208         -60.1246          118.58         -60.1245         118.578      -0.00670937         150.627
0.509                  -0.212637        -126.671         -59.9659         116.344         -59.9658         116.342       -0.0067715         150.561
0.51                   -0.220918        -127.137         -59.8023         114.154         -59.8021         114.151      -0.00683404         150.495
0.511                  -0.229406        -127.604         -59.6343         112.008         -59.6341         112.006      -0.00689699         150.429
0.512                  -0.238104        -128.072         -59.4625         109.909         -59.4623         109.906      -0.00696038         150.363
0.513                  -0.247014        -128.543         -59.2874         107.854         -59.2872         107.851      -0.00702422         150.297
0.514                   -0.25614        -129.015         -59.1094         105.842         -59.1092          105.84      -0.00708854         150.231
0.515                  -0.265484         -129.49          -58.929         103.874         -58.9288         103.871      -0.00715335         150.164
0.516                  -0.275049        -129.966         -58.7467         101.948         -58.7464         101.945      -0.00721868         150.098
0.517                  -0.284838        -130.444         -58.5628         100.062         -58.5625         100.059      -0.00728453         150.032
0.518                  -0.294854        -130.924         -58.3776         98.2149         -58.3773          98.212      -0.00735094         149.965
0.519                  -0.305099        -131.406         -58.1915         96.4059         -58.1912         96.4029      -0.00741793         149.898
0.52                   -0.315577         -131.89         -58.0047         94.6331         -58.0044         94.6301      -0.00748551         149.832
0.521                  -0.326291        -132.376         -57.8176         92.8951         -57.8173         92.8921       -0.0075537         149.765
0.522                  -0.337244        -132.863         -57.6303         91.1903           -57.63         91.1874      -0.00762253         149.698
0.523                   -0.34844        -133.353         -57.4431         89.5173         -57.4427         89.5143      -0.00769201         149.631
0.524                   -0.35988        -133.844         -57.2561         87.8744         -57.2557         87.8715      -0.00776218         149.564
0.525                  -0.371569        -134.338         -57.0695         86.2603         -57.0691         86.2574      -0.00783304         149.496
0.526                   -0.38351        -134.833         -56.8835         84.6734         -56.8831         84.6706      -0.00790464         149.429
0.527                  -0.395707        -135.331         -56.6981         83.1123         -56.6977         83.1095      -0.00797697         149.362
0.528                  -0.408162         -135.83         -56.5135         81.5756         -56.5131         81.5729      -0.00805008         149.294
0.529                  -0.420879        -136.332         -56.3298         80.0619         -56.3294         80.0593      -0.00812398         149.227
0.53                   -0.433862        -136.835         -56.1471           78.57         -56.1467         78.5674       -0.0081987         149.159
0.531                  -0.447114        -137.341         -55.9654         77.0985          -55.965         77.0959      -0.00827426         149.091
0.532                   -0.46064        -137.849         -55.7848         75.6462         -55.7844         75.6436      -0.00835069         149.023
0.533                  -0.474442        -138.358         -55.6053         74.2118         -55.6049         74.2094        -0.008428         148.955
0.534                  -0.488524         -138.87         -55.4271         72.7944         -55.4267          72.792      -0.00850623         148.887
0.535                  -0.502891        -139.384           -55.25         71.3927         -55.2496         71.3903       -0.0085854         148.819
0.536                  -0.517546        -139.899         -55.0742         70.0057         -55.0738         70.0034      -0.00866554         148.751
0.537                  -0.532493        -140.417         -54.8997         68.6323         -54.8993         68.6301      -0.00874667         148.682
0.538                  -0.547736        -140.937         -54.7265         67.2717         -54.7261         67.2695      -0.00882882         148.614
0.539                   -0.56328         -141.46         -54.5546         65.9228         -54.5542         65.9207      -0.00891201         148.545
0.54                   -0.579128        -141.984          -54.384         64.5848         -54.3836         64.5828      -0.00899628         148.476
0.541                  -0.595284         -142.51         -54.2146         63.2568         -54.2143         63.2549      -0.00908165         148.407
0.542                  -0.611754        -143.039         -54.0466          61.938         -54.0463         61.9361      -0.00916815         148.338
0.543                  -0.628541         -143.57         -53.8799         60.6275         -53.8796         60.6257      -0.00925581         148.269
0.544                   -0.64565        -144.102         -53.7145         59.3247         -53.7142         59.3229      -0.00934465           148.2
0.545                  -0.663085        -144.638         -53.5504         58.0288           -53.55         58.0271      -0.00943471         148.131
0.546                  -0.680851        -145.175         -53.3876          56.739         -53.3872         56.7374      -0.00952601         148.062
0.547                  -0.698953        -145.714          -53.226         55.4548         -53.2256         55.4532      -0.00961859         147.992
0.548                  -0.717396        -146.256         -53.0656         54.1755         -53.0653         54.1739      -0.00971247         147.922
0.549                  -0.736183          -146.8         -52.9065         52.9004         -52.9062         52.8989      -0.00980769         147.853
0.55                   -0.755321        -147.346         -52.7487          51.629         -52.7483         51.6276      -0.00990428         147.783
0.551                  -0.774814        -147.895          -52.592         50.3607         -52.5917         50.3593       -0.0100023         147.713
0.552                  -0.794668        -148.445         -52.4365         49.0949         -52.4362         49.0936       -0.0101017         147.643
0.553                  -0.814887        -148.998         -52.2821         47.8311         -52.2818         47.8299       -0.0102026         147.573
0.554                  -0.835477        -149.553         -52.1289         46.5689         -52.1286         46.5677        -0.010305         147.502
0.555                  -0.856443        -150.111         -51.9768         45.3077         -51.9766         45.3066       -0.0104089         147.432
0.556                  -0.877792        -150.671         -51.8259          44.047         -51.8256          44.046       -0.0105144         147.361
0.557                  -0.899527        -151.233         -51.6759         42.7865         -51.6757         42.7855       -0.0106214         147.291
0.558                  -0.921656        -151.797         -51.5271         41.5256         -51.5269         41.5246       -0.0107302          147.22
0.559                  -0.944184        -152.364         -51.3793          40.264         -51.3791         40.2631       -0.0108405         147.149
0.56                   -0.967116        -152.933         -51.2325         39.0012         -51.2323         39.0003       -0.0109526         147.078
0.561                  -0.990459        -153.505         -51.0867         37.7368         -51.0865          37.736       -0.0110665         147.006
0.562                   -1.01422        -154.079         -50.9419         36.4706         -50.9417         36.4698       -0.0111821         146.935
0.563                    -1.0384        -154.655         -50.7981          35.202         -50.7979         35.2013       -0.0112995         146.864
0.564                   -1.06302        -155.233         -50.6552         33.9309          -50.655         33.9302       -0.0114188         146.792
0.565                   -1.08807        -155.814         -50.5132         32.6567          -50.513         32.6561         -0.01154          146.72
0.566                   -1.11356        -156.398          -50.372         31.3792         -50.3719         31.3786       -0.0116631         146.648
0.567                    -1.1395        -156.984         -50.2318         30.0981         -50.2317         30.0976       -0.0117882         146.576
0.568                    -1.1659        -157.572         -50.0924         28.8131         -50.0923         28.8126       -0.0119154         146.504
0.569                   -1.19276        -158.163         -49.9539         27.5239         -49.9538         27.5234       -0.0120445         146.432
0.57                    -1.22009        -158.756         -49.8162         26.2301         -49.8161         26.2297       -0.0121758          146.36
0.571                    -1.2479        -159.351         -49.6793         24.9316         -49.6792         24.9312       -0.0123092         146.287
0.572                   -1.27619         -159.95         -49.5431          23.628          -49.543         23.6276       -0.0124448         146.214
0.573                   -1.30498         -160.55         -49.4078         22.3191         -49.4077         22.3188       -0.0125826         146.141
0.574                   -1.33426        -161.153         -49.2731         21.0047         -49.2731         21.0044       -0.0127227         146.068
0.575                   -1.36406        -161.759         -49.1392         19.6844         -49.1392         19.6842        -0.012865         145.995
0.576                   -1.39437        -162.367         -49.0061         18.3582          -49.006          18.358       -0.0130098         145.922
0.577                    -1.4252        -162.977         -48.8736         17.0257         -48.8735         17.0255       -0.0131569         145.849
0.578                   -1.45657         -163.59         -48.7418         15.6867         -48.7417         15.6866       -0.0133065         145.775
0.579                   -1.48848        -164.206         -48.6107         14.3411         -48.6106          14.341       -0.0134586         145.701
0.58                    -1.52094        -164.824         -48.4802         12.9886         -48.4802         12.9885       -0.0136133         145.627
0.581                   -1.55395        -165.444         -48.3503         11.6291         -48.3503          11.629       -0.0137705         145.553
0.582                   -1.58754        -166.068         -48.2211         10.2623         -48.2211         10.2623       -0.0139304         145.479
0.583                    -1.6217        -166.693         -48.0925          8.8882         -48.0925          8.8882       -0.0140929         145.405
0.584                   -1.65644        -167.321         -47.9645         7.50647         -47.9645          7.5065       -0.0142582          145.33
0.585                   -1.69179        -167.952         -47.8371         6.11703         -47.8371         6.11708       -0.0144263         145.255
0.586                   -1.72773        -168.586         -47.7103         4.71971         -47.7103         4.71978       -0.0145973         145.181
0.587                    -1.7643        -169.222          -47.584         3.31438          -47.584         3.31447       -0.0147711         145.106
0.588                   -1.80148         -169.86         -47.4583         1.90089         -47.4583         1.90101       -0.0149479          145.03
0.589                   -1.83931        -170.501         -47.3331        0.479141         -47.3331        0.479281       -0.0151277         144.955
0.59                    -1.87778        -171.145         -47.2084       -0.951003         -47.2085       -0.950842       -0.0153105         144.879
0.591                   -1.91691        -171.791         -47.0843        -2.38965         -47.0844        -2.38947       -0.0154965         144.804
0.592                    -1.9567         -172.44         -46.9607        -3.83689         -46.9608        -3.83669       -0.0156856         144.728
0.593                   -1.99718        -173.091         -46.8376        -5.29283         -46.8377        -5.29261        -0.015878         144.652
0.594                   -2.03834        -173.745          -46.715        -6.75755         -46.7151        -6.75731       -0.0160736         144.576
0.595                   -2.08021        -174.402         -46.5929        -8.23112          -46.593        -8.23087       -0.0162726         144.499
0.596                   -2.12279        -175.061         -46.4713        -9.71361         -46.4714        -9.71334       -0.0164749         144.423
0.597                    -2.1661        -175.722         -46.3501        -11.2051         -46.3502        -11.2048       -0.0166808         144.346
0.598                   -2.21015        -176.386         -46.2295        -12.7056         -46.2296        -12.7053       -0.0168901         144.269
0.599                   -2.25495        -177.053         -46.1093        -14.2152         -46.1094        -14.2149        -0.017103         144.192
0.6                     -2.30052        -177.723         -45.9895        -15.7338         -45.9897        -15.7335       -0.0173196         144.114
0.601                   -2.34686        -178.395         -45.8703        -17.2617         -45.8704        -17.2613       -0.0175399         144.037
0.602                     -2.394        -179.069         -45.7515        -18.7986         -45.7516        -18.7983       -0.0177639         143.959
0.603                   -2.44194        -179.746         -45.6331        -20.3447         -45.6333        -20.3444       -0.0179918         143.881
0.604                    -2.4907         179.574         -45.5153           -21.9         -45.5154        -21.8996       -0.0182236         143.803
0.605                    -2.5403         178.892         -45.3978        -23.4643          -45.398         -23.464       -0.0184593         143.725
0.606                   -2.59074         178.208         -45.2808        -25.0378          -45.281        -25.0375       -0.0186991         143.646
0.607                   -2.64205         177.521         -45.1643        -26.6204         -45.1645          -26.62        -0.018943         143.568
0.608                   -2.69424         176.831         -45.0483         -28.212         -45.0484        -28.2116        -0.019191         143.489
0.609                   -2.74732         176.139         -44.9326        -29.8126         -44.9328        -29.8122       -0.0194433          143.41
0.61                    -2.80132         175.445         -44.8175        -31.4221         -44.8176        -31.4217       -0.0196999          143.33
0.611                   -2.85624         174.748         -44.7028        -33.0404         -44.7029          -33.04       -0.0199609         143.251
0.612                   -2.91211         174.049         -44.5885        -34.6676         -44.5887        -34.6672       -0.0202263         143.171
0.613                   -2.96894         173.347         -44.4748        -36.3034         -44.4749         -36.303       -0.0204963         143.091
0.614                   -3.02675         172.643         -44.3614        -37.9477         -44.3616        -37.9473       -0.0207708         143.011
0.615                   -3.08556         171.937         -44.2486        -39.6006         -44.2488        -39.6002         -0.02105          142.93
0.616                   -3.14539         171.228         -44.1362        -41.2618         -44.1364        -41.2614        -0.021334          142.85
0.617                   -3.20625         170.517         -44.0243        -42.9312         -44.0245        -42.9308       -0.0216228         142.769
0.618                   -3.26816         169.804         -43.9129        -44.6087         -43.9131        -44.6083       -0.0219165         142.688
0.619                   -3.33115         169.089          -43.802        -46.2941         -43.8021        -46.2937       -0.0222152         142.607
0.62                    -3.39523         168.371         -43.6915        -47.9873         -43.6917        -47.9869        -0.022519         142.525
0.621                   -3.46042         167.651         -43.5816        -49.6881         -43.5817        -49.6877       -0.0228279         142.443
0.622                   -3.52675          166.93         -43.4721        -51.3964         -43.4723         -51.396        -0.023142         142.361
0.623                   -3.59423         166.206         -43.3632        -53.1119         -43.3633        -53.1115       -0.0234614         142.279
0.624                    -3.6629          165.48         -43.2547        -54.8344         -43.2549         -54.834       -0.0237863         142.196
0.625                   -3.73276         164.752         -43.1468        -56.5638          -43.147        -56.5634       -0.0241166         142.114
0.626                   -3.80385         164.023         -43.0394        -58.2998         -43.0396        -58.2994       -0.0244524         142.031
0.627                   -3.87618         163.291         -42.9326        -60.0423         -42.9327        -60.0419       -0.0247939         141.947
0.628                   -3.94979         162.558         -42.8262        -61.7909         -42.8264        -61.7906       -0.0251412         141.864
0.629                   -4.02469         161.823         -42.7205        -63.5455         -42.7206        -63.5452       -0.0254943          141.78
