! TOUCHSTONE file generated by CST MICROWAVE STUDIO
! Date and time: Fri Oct  2 16:32:17 2020
! Project name: Scenario_1_Free_Space_out_of_line.cst
! Parameters = {Lambda=346.42; Step_1=17.321; dy1=243.594; dx1=346; L_HA=400; MT=2.54; Rad_Dielectric=30; Rad_Lower=7.3; Rad_Upper=30; a_HA=580; a_WG=246; b_HA=500; b_WG=121; c_HA=0; c_WG=187; d_feed=85; h_feed=15; h_lower=18; h_upper=40}
! Header version: 2018
! Port assignment regex: !\s*Touchstone port\s*([0-9]+)\s*=\s*(CST MWS port|CST DS port)\s*([0-9]+|Zmin|Zmax)\s*\(\"(.*)\"\)(\s*mode\s*([0-9]+))?.*
! Touchstone port assignment:
! Touchstone port 1 = CST MWS port 1 ("")
! Touchstone port 2 = CST MWS port 2 ("")
# GHz S DB R 50
0.5                    -0.148417         -122.67         -61.6692         56.6665         -61.5692         57.3854      -0.00670611         151.111
0.501                  -0.155266        -123.117         -61.6727          53.401         -61.4013         56.7283      -0.00678212         151.046
0.502                  -0.162296        -123.566         -61.6499         50.1179         -61.2283          56.048      -0.00685849         150.981
0.503                   -0.16951        -124.017         -61.6009         46.8371           -61.05         55.3429      -0.00693524         150.916
0.504                  -0.176906        -124.469         -61.5264         43.5782         -60.8664         54.6111      -0.00701237          150.85
0.505                  -0.184487        -124.922         -61.4275         40.3593         -60.6776         53.8507       -0.0070899         150.785
0.506                  -0.192252        -125.377         -61.3056         37.1967         -60.4837         53.0598      -0.00716786         150.719
0.507                  -0.200202        -125.834         -61.1627          34.104         -60.2846         52.2365      -0.00724625         150.653
0.508                  -0.208338        -126.292         -61.0008         31.0927         -60.0804         51.3789      -0.00732509         150.588
0.509                  -0.216661        -126.751         -60.8221         28.1712         -59.8713         50.4848      -0.00740439         150.522
0.51                   -0.225171        -127.212         -60.6287         25.3454         -59.6575         49.5522      -0.00748418         150.456
0.511                  -0.233869        -127.674         -60.4229         22.6188         -59.4389         48.5793      -0.00756447          150.39
0.512                  -0.242757        -128.139         -60.2068          19.993         -59.2159         47.5639      -0.00764528         150.324
0.513                  -0.251835        -128.604         -59.9822         17.4674         -58.9887         46.5043      -0.00772661         150.257
0.514                  -0.261104        -129.071         -59.7511         15.0402         -58.7574         45.3983      -0.00780849         150.191
0.515                  -0.270566         -129.54         -59.5149         12.7082         -58.5225         44.2443      -0.00789094         150.125
0.516                  -0.280221        -130.011         -59.2752         10.4677          -58.284         43.0405      -0.00797396         150.058
0.517                  -0.290071        -130.483         -59.0333           8.314         -58.0425         41.7852      -0.00805759         149.992
0.518                  -0.300117        -130.957           -58.79         6.24215         -57.7982         40.4769      -0.00814182         149.925
0.519                   -0.31036        -131.433         -58.5465         4.24695         -57.5516         39.1142      -0.00822669         149.859
0.52                   -0.320803         -131.91         -58.3035         2.32313          -57.303         37.6961       -0.0083122         149.792
0.521                  -0.331445        -132.389         -58.0616        0.465427          -57.053         36.2214      -0.00839837         149.725
0.522                   -0.34229         -132.87         -57.8214        -1.33132         -56.8019         34.6894      -0.00848523         149.658
0.523                  -0.353339        -133.353         -57.5833        -3.07211         -56.5502         33.0995      -0.00857278         149.591
0.524                  -0.364593        -133.837         -57.3476        -4.76173         -56.2985         31.4516      -0.00866105         149.524
0.525                  -0.376055        -134.324         -57.1146        -6.40475         -56.0473         29.7455      -0.00875004         149.457
0.526                  -0.387726        -134.812         -56.8846        -8.00549         -55.7972         27.9817      -0.00883979         149.389
0.527                  -0.399609        -135.302         -56.6576          -9.568         -55.5486         26.1607       -0.0089303         149.322
0.528                  -0.411706        -135.794         -56.4339        -11.0961         -55.3021         24.2837       -0.0090216         149.254
0.529                  -0.424019        -136.288         -56.2133        -12.5934         -55.0584         22.3519      -0.00911369         149.187
0.53                    -0.43655        -136.784         -55.9961        -14.0631         -54.8178          20.367      -0.00920661         149.119
0.531                  -0.449303        -137.282         -55.7821        -15.5085         -54.5809          18.331      -0.00930036         149.051
0.532                   -0.46228        -137.782         -55.5715        -16.9322         -54.3482         16.2465      -0.00939497         148.983
0.533                  -0.475484        -138.284          -55.364        -18.3372         -54.1202         14.1161      -0.00949045         148.915
0.534                  -0.488918        -138.788         -55.1598        -19.7257         -53.8973         11.9427      -0.00958682         148.847
0.535                  -0.502585        -139.294         -54.9587        -21.1002         -53.6798          9.7299      -0.00968409         148.779
0.536                  -0.516488        -139.802         -54.7606        -22.4628         -53.4682         7.48107       -0.0097823          148.71
0.537                  -0.530631        -140.313         -54.5655        -23.8153         -53.2626         5.20003      -0.00988145         148.642
0.538                  -0.545017        -140.825         -54.3734        -25.1598         -53.0633          2.8907      -0.00998156         148.573
0.539                   -0.55965         -141.34          -54.184        -26.4978         -52.8705        0.557098       -0.0100827         148.505
0.54                   -0.574535        -141.857         -53.9974        -27.8309         -52.6843        -1.79668       -0.0101848         148.436
0.541                  -0.589674        -142.377         -53.8134        -29.1606         -52.5047        -4.16657       -0.0102879         148.367
0.542                  -0.605073        -142.899         -53.6319        -30.4883         -52.3316        -6.54855        -0.010392         148.298
0.543                  -0.620736        -143.423         -53.4529        -31.8152         -52.1651        -8.93868       -0.0104972         148.229
0.544                  -0.636668        -143.949         -53.2762        -33.1425         -52.0049        -11.3332       -0.0106035          148.16
0.545                  -0.652873        -144.478         -53.1018        -34.4712          -51.851        -13.7286       -0.0107109         148.091
0.546                  -0.669356        -145.009         -52.9296        -35.8024         -51.7029        -16.1214       -0.0108194         148.021
0.547                  -0.686124        -145.543         -52.7594        -37.1369         -51.5606        -18.5085       -0.0109291         147.952
0.548                  -0.703181         -146.08         -52.5913        -38.4757         -51.4237        -20.8873       -0.0110399         147.882
0.549                  -0.720533        -146.619          -52.425        -39.8195         -51.2918         -23.255       -0.0111518         147.813
0.55                   -0.738186         -147.16         -52.2606         -41.169         -51.1647        -25.6096        -0.011265         147.743
0.551                  -0.756146        -147.704         -52.0979        -42.5251         -51.0419         -27.949       -0.0113794         147.673
0.552                   -0.77442        -148.251          -51.937        -43.8882         -50.9231        -30.2716        -0.011495         147.603
0.553                  -0.793015          -148.8         -51.7776         -45.259         -50.8079        -32.5761       -0.0116119         147.532
0.554                  -0.811937        -149.352         -51.6197         -46.638          -50.696        -34.8614       -0.0117301         147.462
0.555                  -0.831194        -149.907         -51.4633        -48.0257          -50.587        -37.1266       -0.0118495         147.392
0.556                  -0.850792        -150.465         -51.3082        -49.4227         -50.4805        -39.3713       -0.0119703         147.321
0.557                  -0.870741        -151.025         -51.1545        -50.8292         -50.3763        -41.5949       -0.0120924          147.25
0.558                  -0.891047        -151.589         -51.0021        -52.2458         -50.2739        -43.7974       -0.0122159          147.18
0.559                   -0.91172        -152.155         -50.8508        -53.6727         -50.1731        -45.9786       -0.0123408         147.109
0.56                   -0.932768        -152.724         -50.7007        -55.1104         -50.0735        -48.1389       -0.0124671         147.038
0.561                  -0.954199        -153.296         -50.5517         -56.559          -49.975        -50.2784       -0.0125948         146.967
0.562                  -0.976023        -153.871         -50.4038        -58.0189         -49.8772        -52.3976       -0.0127239         146.895
0.563                   -0.99825        -154.449         -50.2568        -59.4903         -49.7799         -54.497       -0.0128546         146.824
0.564                   -1.02089         -155.03         -50.1109        -60.9735         -49.6829        -56.5772       -0.0129867         146.752
0.565                   -1.04395        -155.614         -49.9658        -62.4686         -49.5861        -58.6387       -0.0131204          146.68
0.566                   -1.06745        -156.202         -49.8216        -63.9758         -49.4891        -60.6824       -0.0132555         146.609
0.567                   -1.09138        -156.792         -49.6782        -65.4952          -49.392         -62.709       -0.0133923         146.537
0.568                   -1.11578        -157.386         -49.5356        -67.0271         -49.2945        -64.7192       -0.0135306         146.465
0.569                   -1.14064        -157.982         -49.3938        -68.5714         -49.1964        -66.7139       -0.0136706         146.392
0.57                    -1.16598        -158.582         -49.2528        -70.1283         -49.0978        -68.6939       -0.0138122          146.32
0.571                   -1.19181        -159.185         -49.1125        -71.6979         -48.9985        -70.6599       -0.0139555         146.247
0.572                   -1.21814        -159.792         -48.9728        -73.2801         -48.8984        -72.6129       -0.0141004         146.175
0.573                   -1.24499        -160.402         -48.8339        -74.8751         -48.7974        -74.5536       -0.0142471         146.102
0.574                   -1.27237        -161.015         -48.6955        -76.4828         -48.6955        -76.4828       -0.0143954         146.029
0.575                   -1.30029        -161.631         -48.5578        -78.1032         -48.5927        -78.4013       -0.0145456         145.956
0.576                   -1.32877        -162.251         -48.4208        -79.7363         -48.4889          -80.31       -0.0146975         145.882
0.577                   -1.35782        -162.874         -48.2843        -81.3821          -48.384        -82.2095       -0.0148513         145.809
0.578                   -1.38745          -163.5         -48.1484        -83.0405         -48.2781        -84.1007       -0.0150069         145.735
0.579                   -1.41769         -164.13         -48.0132        -84.7114         -48.1711        -85.9841       -0.0151644         145.662
0.58                    -1.44855        -164.763         -47.8784        -86.3947         -48.0631        -87.8606       -0.0153237         145.588
0.581                   -1.48003          -165.4         -47.7443        -88.0903          -47.954        -89.7308        -0.015485         145.514
0.582                   -1.51217         -166.04         -47.6107        -89.7982         -47.8438        -91.5954       -0.0156483          145.44
0.583                   -1.54497        -166.683         -47.4777         -91.518         -47.7326        -93.4549       -0.0158135         145.365
0.584                   -1.57845         -167.33         -47.3453        -93.2498         -47.6204        -95.3099       -0.0159807         145.291
0.585                   -1.61263        -167.981         -47.2134        -94.9933         -47.5072        -97.1611       -0.0161499         145.216
0.586                   -1.64753        -168.634         -47.0821        -96.7483          -47.393         -99.009       -0.0163213         145.141
0.587                   -1.68317        -169.291         -46.9513        -98.5147         -47.2778        -100.854       -0.0164947         145.066
0.588                   -1.71956        -169.952         -46.8212        -100.292         -47.1618        -102.697       -0.0166702         144.991
0.589                   -1.75672        -170.616         -46.6916        -102.081         -47.0449        -104.538       -0.0168479         144.916
0.59                    -1.79467        -171.283         -46.5626         -103.88         -46.9271        -106.377       -0.0170278          144.84
0.591                   -1.83342        -171.953         -46.4342        -105.689         -46.8086        -108.216       -0.0172099         144.765
0.592                   -1.87301        -172.627         -46.3064        -107.509         -46.6893        -110.054       -0.0173943         144.689
0.593                   -1.91345        -173.304         -46.1793        -109.338         -46.5694        -111.892       -0.0175809         144.613
0.594                   -1.95476        -173.985         -46.0527        -111.177         -46.4487         -113.73       -0.0177699         144.536
0.595                   -1.99695        -174.668         -45.9268        -113.025         -46.3275        -115.568       -0.0179612          144.46
0.596                   -2.04006        -175.355         -45.8015        -114.883         -46.2057        -117.407        -0.018155         144.383
0.597                   -2.08409        -176.045         -45.6769        -116.748         -46.0835        -119.247       -0.0183511         144.307
0.598                   -2.12908        -176.738          -45.553        -118.623         -45.9607        -121.089       -0.0185497          144.23
0.599                   -2.17504        -177.434         -45.4297        -120.505         -45.8376        -122.932       -0.0187508         144.153
0.6                     -2.22199        -178.133         -45.3071        -122.394         -45.7142        -124.777       -0.0189544         144.075
0.601                   -2.26996        -178.835         -45.1852        -124.291         -45.5905        -126.624       -0.0191606         143.998
0.602                   -2.31896         -179.54         -45.0641        -126.195         -45.4665        -128.473       -0.0193694          143.92
0.603                   -2.36902         179.753         -44.9436        -128.106         -45.3424        -130.324       -0.0195809         143.842
0.604                   -2.42015         179.042         -44.8239        -130.022         -45.2182        -132.178       -0.0197951         143.764
0.605                   -2.47239          178.33         -44.7049        -131.945         -45.0939        -134.034        -0.020012         143.686
0.606                   -2.52575         177.614         -44.5866        -133.873         -44.9696        -135.893       -0.0202317         143.607
0.607                   -2.58025         176.897         -44.4691        -135.805         -44.8453        -137.754       -0.0204542         143.528
0.608                   -2.63591         176.177         -44.3524        -137.743         -44.7212        -139.618       -0.0206796         143.449
0.609                   -2.69276         175.454         -44.2364        -139.685         -44.5972        -141.485       -0.0209078          143.37
0.61                    -2.75082          174.73         -44.1212         -141.63         -44.4733        -143.354       -0.0211391         143.291
0.611                    -2.8101         174.004         -44.0068        -143.579         -44.3498        -145.227       -0.0213733         143.211
0.612                   -2.87063         173.275         -43.8931        -145.532         -44.2265        -147.102       -0.0216107         143.131
0.613                   -2.93243         172.545         -43.7802        -147.487         -44.1036         -148.98       -0.0218511         143.051
0.614                   -2.99552         171.814         -43.6681        -149.444          -43.981         -150.86       -0.0220947         142.971
0.615                   -3.05991         171.081         -43.5567        -151.404         -43.8589        -152.743       -0.0223415          142.89
0.616                   -3.12563         170.346         -43.4461        -153.365         -43.7373        -154.628       -0.0225915          142.81
0.617                    -3.1927         169.611         -43.3363        -155.327         -43.6161        -156.516       -0.0228449         142.729
0.618                   -3.26113         168.874         -43.2272         -157.29         -43.4956        -158.406       -0.0231017         142.647
0.619                   -3.33095         168.137         -43.1189        -159.254         -43.3756        -160.299        -0.023362         142.566
0.62                    -3.40217         167.399         -43.0113        -161.218         -43.2562        -162.193       -0.0236257         142.484
0.621                    -3.4748          166.66         -42.9044        -163.182         -43.1375        -164.089        -0.023893         142.402
0.622                   -3.54887         165.921         -42.7983        -165.146         -43.0195        -165.987       -0.0241639          142.32
0.623                   -3.62439         165.182         -42.6928        -167.109         -42.9021        -167.886       -0.0244386         142.238
0.624                   -3.70138         164.443         -42.5881        -169.071         -42.7855        -169.787        -0.024717         142.155
0.625                   -3.77985         163.704         -42.4841        -171.032         -42.6697        -171.688       -0.0249993         142.072
0.626                   -3.85981         162.965         -42.3807        -172.991         -42.5546        -173.591       -0.0252855         141.989
0.627                   -3.94128         162.228          -42.278        -174.948         -42.4403        -175.495       -0.0255757         141.905
0.628                   -4.02427          161.49         -42.1759        -176.904         -42.3269        -177.399       -0.0258699         141.821
0.629                   -4.10879         160.754         -42.0744        -178.857         -42.2142        -179.304       -0.0261684         141.737
