! TOUCHSTONE file generated by CST MICROWAVE STUDIO
! Date and time: Fri Oct  2 16:40:06 2020
! Project name: Scenario_1_Free_Space_out_of_line.cst
! Parameters = {Lambda=346.42; Step_1=17.321; dy1=243.594; dx1=520; L_HA=400; MT=2.54; Rad_Dielectric=30; Rad_Lower=7.3; Rad_Upper=30; a_HA=580; a_WG=246; b_HA=500; b_WG=121; c_HA=0; c_WG=187; d_feed=85; h_feed=15; h_lower=18; h_upper=40}
! Header version: 2018
! Port assignment regex: !\s*Touchstone port\s*([0-9]+)\s*=\s*(CST MWS port|CST DS port)\s*([0-9]+|Zmin|Zmax)\s*\(\"(.*)\"\)(\s*mode\s*([0-9]+))?.*
! Touchstone port assignment:
! Touchstone port 1 = CST MWS port 1 ("")
! Touchstone port 2 = CST MWS port 2 ("")
# GHz S DB R 50
0.5                    -0.147571        -122.431         -62.8846        -36.5585         -62.8846        -36.5585      -0.00656366         151.144
0.501                  -0.152752        -122.869         -62.6883        -38.3074         -62.6883        -38.3065      -0.00661419         151.079
0.502                  -0.158092        -123.309          -62.492        -40.0594         -62.4921        -40.0577      -0.00666525         151.014
0.503                  -0.163597        -123.752         -62.2958        -41.8146         -62.2959        -41.8122      -0.00671688         150.948
0.504                   -0.16927        -124.197         -62.0997        -43.5732         -62.0999        -43.5701      -0.00676908         150.883
0.505                  -0.175118        -124.644         -61.9038        -45.3355          -61.904        -45.3318       -0.0068219         150.817
0.506                  -0.181144        -125.093         -61.7081        -47.1016         -61.7082        -47.0973      -0.00687535         150.752
0.507                  -0.187356        -125.545         -61.5125        -48.8718         -61.5126        -48.8669      -0.00692946         150.686
0.508                  -0.193758        -125.999         -61.3171        -50.6461         -61.3172        -50.6408      -0.00698426          150.62
0.509                  -0.200355        -126.456         -61.1219        -52.4248          -61.122         -52.419      -0.00703978         150.554
0.51                   -0.207155        -126.915          -60.927        -54.2079         -60.9269        -54.2018      -0.00709605         150.488
0.511                  -0.214162        -127.376         -60.7323        -55.9958         -60.7322        -55.9893      -0.00715309         150.422
0.512                  -0.221383        -127.839         -60.5378        -57.7885         -60.5377        -57.7817      -0.00721095         150.356
0.513                  -0.228824        -128.305         -60.3436        -59.5862         -60.3434        -59.5791      -0.00726965          150.29
0.514                  -0.236491        -128.774         -60.1498        -61.3889         -60.1495        -61.3816      -0.00732922         150.224
0.515                  -0.244391        -129.245         -59.9562        -63.1969         -59.9558        -63.1894       -0.0073897         150.158
0.516                  -0.252529        -129.718          -59.763        -65.0102         -59.7625        -65.0026      -0.00745113         150.091
0.517                  -0.260914        -130.194         -59.5701         -66.829         -59.5695        -66.8213      -0.00751354         150.025
0.518                  -0.269551        -130.672         -59.3775        -68.6534         -59.3769        -68.6456      -0.00757697         149.958
0.519                  -0.278447        -131.152         -59.1854        -70.4835         -59.1847        -70.4756      -0.00764145         149.891
0.52                    -0.28761        -131.635         -58.9937        -72.3193         -58.9928        -72.3115      -0.00770703         149.824
0.521                  -0.297046        -132.121         -58.8024        -74.1609         -58.8014        -74.1531      -0.00777374         149.757
0.522                  -0.306761        -132.609         -58.6115        -76.0085         -58.6105        -76.0008      -0.00784163         149.691
0.523                  -0.316765        -133.099         -58.4211         -77.862           -58.42        -77.8544      -0.00791073         149.623
0.524                  -0.327062        -133.592         -58.2312        -79.7216           -58.23        -79.7142      -0.00798108         149.556
0.525                  -0.337661        -134.087         -58.0418        -81.5873         -58.0404          -81.58      -0.00805272         149.489
0.526                  -0.348569        -134.585         -57.8529        -83.4591         -57.8515        -83.4521      -0.00812571         149.422
0.527                  -0.359794        -135.085         -57.6646        -85.3371          -57.663        -85.3303      -0.00820007         149.354
0.528                  -0.371341        -135.588         -57.4768        -87.2214         -57.4751        -87.2148      -0.00827584         149.287
0.529                  -0.383219        -136.093         -57.2896        -89.1118         -57.2878        -89.1055      -0.00835308         149.219
0.53                   -0.395434          -136.6          -57.103        -91.0085         -57.1012        -91.0025      -0.00843182         149.151
0.531                  -0.407994         -137.11          -56.917        -92.9115         -56.9151        -92.9057       -0.0085121         149.083
0.532                  -0.420906        -137.622         -56.7317        -94.8206         -56.7297        -94.8152      -0.00859395         149.015
0.533                  -0.434176        -138.137          -56.547        -96.7361          -56.545        -96.7309      -0.00867743         148.947
0.534                  -0.447812        -138.654          -56.363        -98.6577         -56.3609        -98.6529      -0.00876256         148.879
0.535                  -0.461819        -139.173         -56.1797        -100.585         -56.1776        -100.581      -0.00884939         148.811
0.536                  -0.476206        -139.694         -55.9971        -102.519         -55.9949        -102.515      -0.00893795         148.743
0.537                  -0.490978        -140.218         -55.8153        -104.459         -55.8131        -104.456      -0.00902827         148.674
0.538                  -0.506141        -140.744         -55.6343        -106.406          -55.632        -106.402      -0.00912038         148.606
0.539                  -0.521701        -141.273          -55.454        -108.358         -55.4516        -108.355      -0.00921433         148.537
0.54                   -0.537664        -141.803         -55.2745        -110.316         -55.2721        -110.313      -0.00931013         148.468
0.541                  -0.554036        -142.336         -55.0958        -112.279         -55.0934        -112.277      -0.00940781           148.4
0.542                  -0.570821        -142.871          -54.918        -114.249         -54.9156        -114.247      -0.00950739         148.331
0.543                  -0.588025        -143.408          -54.741        -116.224         -54.7386        -116.223      -0.00960891         148.261
0.544                  -0.605653        -143.947         -54.5648        -118.205         -54.5624        -118.204      -0.00971237         148.192
0.545                  -0.623707        -144.488         -54.3896        -120.191         -54.3872         -120.19      -0.00981779         148.123
0.546                  -0.642193        -145.031         -54.2153        -122.183         -54.2129        -122.182      -0.00992518         148.054
0.547                  -0.661114        -145.576         -54.0418         -124.18         -54.0394         -124.18       -0.0100346         147.984
0.548                  -0.680473        -146.123         -53.8693        -126.182         -53.8669        -126.182       -0.0101459         147.915
0.549                  -0.700273        -146.672         -53.6977        -128.189         -53.6954        -128.189       -0.0102593         147.845
0.55                   -0.720515        -147.223         -53.5271        -130.201         -53.5248        -130.201       -0.0103747         147.775
0.551                  -0.741203        -147.775         -53.3575        -132.217         -53.3552        -132.218        -0.010492         147.705
0.552                  -0.762336         -148.33         -53.1888        -134.238         -53.1865        -134.239       -0.0106114         147.635
0.553                  -0.783917        -148.886         -53.0211        -136.264         -53.0189        -136.265       -0.0107327         147.565
0.554                  -0.805946        -149.444         -52.8544        -138.293         -52.8522        -138.295        -0.010856         147.495
0.555                  -0.828422        -150.003         -52.6886        -140.327         -52.6865        -140.329       -0.0109812         147.424
0.556                  -0.851346        -150.565         -52.5239        -142.365         -52.5219        -142.367       -0.0111084         147.354
0.557                  -0.874716        -151.128         -52.3602        -144.407         -52.3582        -144.408       -0.0112375         147.283
0.558                  -0.898531        -151.692         -52.1975        -146.452         -52.1956        -146.454       -0.0113686         147.212
0.559                   -0.92279        -152.258         -52.0359        -148.501          -52.034        -148.502       -0.0115014         147.141
0.56                    -0.94749        -152.826         -51.8752        -150.553         -51.8734        -150.554       -0.0116362          147.07
0.561                  -0.972629        -153.395         -51.7156        -152.608         -51.7138        -152.609       -0.0117727         146.999
0.562                  -0.998205        -153.966          -51.557        -154.666         -51.5552        -154.667       -0.0119111         146.928
0.563                   -1.02421        -154.538         -51.3994        -156.727         -51.3977        -156.728       -0.0120512         146.857
0.564                   -1.05065        -155.112         -51.2428         -158.79         -51.2412        -158.791       -0.0121931         146.785
0.565                   -1.07751        -155.687         -51.0872        -160.856         -51.0857        -160.857       -0.0123367         146.714
0.566                    -1.1048        -156.264         -50.9327        -162.924         -50.9312        -162.925        -0.012482         146.642
0.567                    -1.1325        -156.842         -50.7791        -164.994         -50.7777        -164.995       -0.0126289          146.57
0.568                   -1.16062        -157.422         -50.6266        -167.066         -50.6252        -167.067       -0.0127775         146.498
0.569                   -1.18914        -158.003          -50.475         -169.14         -50.4737        -169.141       -0.0129277         146.426
0.57                    -1.21808        -158.586         -50.3245        -171.216         -50.3232        -171.216       -0.0130794         146.354
0.571                   -1.24741         -159.17         -50.1749        -173.293         -50.1736        -173.293       -0.0132328         146.281
0.572                   -1.27713        -159.756         -50.0262        -175.371          -50.025        -175.371       -0.0133877         146.209
0.573                   -1.30726        -160.344         -49.8785         -177.45         -49.8774         -177.45       -0.0135442         146.136
0.574                   -1.33777        -160.933         -49.7318        -179.531         -49.7307         -179.53       -0.0137022         146.063
0.575                   -1.36866        -161.525          -49.586         178.388         -49.5849         178.389       -0.0138617          145.99
0.576                   -1.39994        -162.117         -49.4411         176.306         -49.4401         176.307       -0.0140227         145.917
0.577                    -1.4316        -162.712         -49.2971         174.224         -49.2961         174.225       -0.0141853         145.844
0.578                   -1.46363        -163.309          -49.154         172.141          -49.153         172.142       -0.0143494         145.771
0.579                   -1.49605        -163.907         -49.0118         170.057         -49.0108         170.059        -0.014515         145.697
0.58                    -1.52884        -164.508         -48.8704         167.974         -48.8695         167.975       -0.0146822         145.623
0.581                     -1.562        -165.111         -48.7299          165.89         -48.7289         165.892        -0.014851          145.55
0.582                   -1.59555        -165.716         -48.5902         163.807         -48.5892         163.808       -0.0150214         145.476
0.583                   -1.62947        -166.323         -48.4513         161.723         -48.4504         161.724       -0.0151934         145.402
0.584                   -1.66377        -166.933         -48.3131          159.64         -48.3122         159.641       -0.0153671         145.327
0.585                   -1.69846        -167.545         -48.1758         157.557         -48.1749         157.558       -0.0155425         145.253
0.586                   -1.73354         -168.16         -48.0392         155.474         -48.0383         155.475       -0.0157196         145.178
0.587                   -1.76901        -168.778         -47.9033         153.392         -47.9025         153.393       -0.0158986         145.103
0.588                   -1.80488        -169.398         -47.7681          151.31         -47.7673         151.311       -0.0160794         145.028
0.589                   -1.84117        -170.021         -47.6336         149.229         -47.6328          149.23       -0.0162622         144.953
0.59                    -1.87788        -170.647         -47.4998         147.149         -47.4991          147.15       -0.0164469         144.878
0.591                   -1.91501        -171.277         -47.3667         145.069         -47.3659          145.07       -0.0166337         144.803
0.592                   -1.95259         -171.91         -47.2341          142.99         -47.2334         142.991       -0.0168226         144.727
0.593                   -1.99063        -172.546         -47.1022         140.912         -47.1015         140.912       -0.0170138         144.651
0.594                   -2.02914        -173.185         -46.9709         138.835         -46.9702         138.835       -0.0172072         144.575
0.595                   -2.06813        -173.828         -46.8401         136.758         -46.8395         136.758        -0.017403         144.499
0.596                   -2.10763        -174.475         -46.7099         134.682         -46.7093         134.682       -0.0176013         144.422
0.597                   -2.14766        -175.126         -46.5802         132.608         -46.5797         132.607       -0.0178021         144.346
0.598                   -2.18823         -175.78          -46.451         130.534         -46.4506         130.533       -0.0180057         144.269
0.599                   -2.22936        -176.439         -46.3222         128.461         -46.3219          128.46        -0.018212         144.192
0.6                     -2.27109        -177.102          -46.194         126.389         -46.1937         126.387       -0.0184212         144.115
0.601                   -2.31343        -177.769         -46.0662         124.317          -46.066         124.316       -0.0186333         144.038
0.602                   -2.35641         -178.44         -45.9388         122.247         -45.9387         122.245       -0.0188486          143.96
0.603                   -2.40007        -179.116         -45.8118         120.177         -45.8118         120.176       -0.0190671         143.883
0.604                   -2.44442        -179.796         -45.6851         118.108         -45.6852         118.107       -0.0192889         143.805
0.605                    -2.4895         179.519         -45.5589          116.04          -45.559         116.039       -0.0195142         143.727
0.606                   -2.53535         178.829         -45.4329         113.973         -45.4332         113.971       -0.0197431         143.648
0.607                   -2.58199         178.135         -45.3073         111.906         -45.3077         111.905       -0.0199756          143.57
0.608                   -2.62946         177.436          -45.182         109.839         -45.1824         109.839        -0.020212         143.491
0.609                    -2.6778         176.732          -45.057         107.773         -45.0575         107.773       -0.0204523         143.412
0.61                    -2.72705         176.023         -44.9322         105.708         -44.9328         105.708       -0.0206968         143.333
0.611                   -2.77724         175.309         -44.8077         103.642         -44.8083         103.643       -0.0209454         143.253
0.612                   -2.82841          174.59         -44.6834         101.577          -44.684         101.578       -0.0211983         143.174
0.613                   -2.88061         173.866         -44.5593         99.5119           -44.56         99.5132       -0.0214558         143.094
0.614                   -2.93387         173.137         -44.4354         97.4464         -44.4361         97.4483       -0.0217178         143.014
0.615                   -2.98825         172.403         -44.3116         95.3806         -44.3124          95.383       -0.0219845         142.934
0.616                   -3.04379         171.664         -44.1881         93.3143         -44.1889         93.3173        -0.022256         142.853
0.617                   -3.10053         170.921         -44.0647         91.2474         -44.0655          91.251       -0.0225326         142.772
0.618                   -3.15852         170.172         -43.9415         89.1796         -43.9422         89.1837       -0.0228142         142.691
0.619                   -3.21781         169.418         -43.8184         87.1108         -43.8191         87.1154        -0.023101          142.61
0.62                    -3.27844          168.66         -43.6955         85.0407         -43.6961         85.0458       -0.0233932         142.529
0.621                   -3.34047         167.897         -43.5728         82.9693         -43.5733         82.9747       -0.0236908         142.447
0.622                   -3.40395         167.129         -43.4502         80.8962         -43.4506         80.9018        -0.023994         142.365
0.623                   -3.46893         166.357         -43.3278         78.8213         -43.3281         78.8271       -0.0243028         142.283
0.624                   -3.53545          165.58         -43.2056         76.7444         -43.2058         76.7502       -0.0246174           142.2
0.625                   -3.60358         164.799         -43.0836         74.6653         -43.0837         74.6709       -0.0249379         142.118
0.626                   -3.67337         164.014         -42.9618         72.5837         -42.9617         72.5892       -0.0252643         142.035
0.627                   -3.74486         163.225         -42.8402         70.4997         -42.8401         70.5048       -0.0255968         141.951
0.628                   -3.81812         162.432         -42.7189         68.4129         -42.7187         68.4175       -0.0259355         141.868
0.629                   -3.89319         161.636         -42.5979         66.3233         -42.5976         66.3273       -0.0262803         141.784
