! TOUCHSTONE file generated by CST MICROWAVE STUDIO
! Date and time: Fri Oct  2 19:08:53 2020
! Project name: Scenario_1_Free_Space_out_of_line.cst
! Parameters = {Lambda=346.42; Step_1=17.321; dy1=243.594; dx1=866; L_HA=400; MT=2.54; Rad_Dielectric=30; Rad_Lower=7.3; Rad_Upper=30; a_HA=580; a_WG=246; b_HA=500; b_WG=121; c_HA=0; c_WG=187; d_feed=85; h_feed=15; h_lower=18; h_upper=40}
! Header version: 2018
! Port assignment regex: !\s*Touchstone port\s*([0-9]+)\s*=\s*(CST MWS port|CST DS port)\s*([0-9]+|Zmin|Zmax)\s*\(\"(.*)\"\)(\s*mode\s*([0-9]+))?.*
! Touchstone port assignment:
! Touchstone port 1 = CST MWS port 1 ("")
! Touchstone port 2 = CST MWS port 2 ("")
# GHz S DB R 50
0.5                     -0.14777        -122.541         -64.7584         132.981         -64.7584         132.981      -0.00660145          151.14
0.501                  -0.153252        -122.995          -64.603         130.818         -64.6024         130.809      -0.00666451         151.075
0.502                  -0.158982        -123.451         -64.4448         128.649         -64.4435         128.632      -0.00672839         151.009
0.503                  -0.164961        -123.909         -64.2838         126.476         -64.2818         126.451      -0.00679311         150.944
0.504                   -0.17119        -124.368         -64.1202         124.299         -64.1176         124.266      -0.00685867         150.878
0.505                  -0.177671        -124.829          -63.954         122.117         -63.9507         122.077      -0.00692506         150.812
0.506                  -0.184406        -125.292         -63.7853          119.93         -63.7814         119.885       -0.0069923         150.747
0.507                  -0.191395        -125.756         -63.6142          117.74         -63.6097         117.688      -0.00706039         150.681
0.508                  -0.198641        -126.222         -63.4408         115.546         -63.4358         115.488      -0.00712935         150.615
0.509                  -0.206144         -126.69         -63.2652         113.347         -63.2596         113.285      -0.00719916         150.549
0.51                   -0.213907        -127.159         -63.0875         111.145         -63.0814         111.078      -0.00726984         150.483
0.511                   -0.22193        -127.629         -62.9078         108.939         -62.9012         108.868       -0.0073414         150.417
0.512                  -0.230215        -128.102         -62.7262         106.729         -62.7192         106.654      -0.00741384         150.351
0.513                  -0.238763        -128.576         -62.5428         104.515         -62.5353         104.436      -0.00748717         150.284
0.514                  -0.247575        -129.052         -62.3577         102.297         -62.3498         102.215      -0.00756139         150.218
0.515                  -0.256653        -129.529          -62.171         100.075         -62.1627         99.9904       -0.0076365         150.152
0.516                  -0.265998        -130.008         -61.9828         97.8486         -61.9742         97.7618      -0.00771253         150.085
0.517                  -0.275612        -130.488         -61.7932         95.6181         -61.7843         95.5292      -0.00778946         150.018
0.518                  -0.285495        -130.971         -61.6022         93.3833         -61.5931         93.2927      -0.00786732         149.952
0.519                  -0.295649        -131.455         -61.4101          91.144         -61.4008         91.0519      -0.00794609         149.885
0.52                   -0.306075         -131.94         -61.2169            88.9         -61.2074         88.8068       -0.0080258         149.818
0.521                  -0.316773        -132.427         -61.0228         86.6513          -61.013         86.5573      -0.00810645         149.751
0.522                  -0.327747        -132.916         -60.8277         84.3977         -60.8178         84.3031      -0.00818805         149.684
0.523                  -0.338995        -133.407         -60.6318          82.139         -60.6219         82.0441      -0.00827059         149.617
0.524                  -0.350521        -133.899         -60.4352         79.8751         -60.4252         79.7801       -0.0083541          149.55
0.525                  -0.362324        -134.393         -60.2381         77.6058         -60.2281         77.5109      -0.00843858         149.482
0.526                  -0.374406        -134.888         -60.0404         75.3309         -60.0304         75.2364      -0.00852403         149.415
0.527                  -0.386768        -135.385         -59.8424         73.0504         -59.8324         72.9565      -0.00861046         149.348
0.528                  -0.399412        -135.884          -59.644          70.764         -59.6341         70.6709      -0.00869789          149.28
0.529                  -0.412338        -136.385         -59.4455         68.4716         -59.4357         68.3795      -0.00878631         149.212
0.53                   -0.425547        -136.887         -59.2468         66.1731         -59.2371         66.0822      -0.00887574         149.144
0.531                   -0.43904        -137.391         -59.0481         63.8684         -59.0386         63.7789      -0.00896619         149.077
0.532                   -0.45282        -137.897         -58.8495         61.5573         -58.8402         61.4693      -0.00905766         149.009
0.533                  -0.466886        -138.404         -58.6511         59.2398         -58.6419         59.1534      -0.00915017         148.941
0.534                   -0.48124        -138.913         -58.4529         56.9157         -58.4439         56.8311      -0.00924371         148.872
0.535                  -0.495883        -139.424          -58.255          54.585         -58.2463         54.5024      -0.00933831         148.804
0.536                  -0.510817        -139.937         -58.0576         52.2476         -58.0492         52.1671      -0.00943397         148.736
0.537                  -0.526042        -140.451         -57.8607         49.9035         -57.8525         49.8252       -0.0095307         148.667
0.538                  -0.541559        -140.968         -57.6643         47.5527         -57.6565         47.4767      -0.00962851         148.599
0.539                  -0.557371        -141.486         -57.4687         45.1951         -57.4611         45.1216      -0.00972741          148.53
0.54                   -0.573477        -142.005         -57.2738         42.8308         -57.2665         42.7598      -0.00982742         148.461
0.541                   -0.58988        -142.527         -57.0797         40.4599         -57.0727         40.3915      -0.00992853         148.393
0.542                   -0.60658         -143.05         -56.8865         38.0823         -56.8798         38.0166       -0.0100308         148.324
0.543                   -0.62358        -143.576         -56.6942         35.6982         -56.6879         35.6352       -0.0101341         148.254
0.544                   -0.64088        -144.103          -56.503         33.3076          -56.497         33.2474       -0.0102387         148.185
0.545                  -0.658481        -144.632         -56.3129         30.9107         -56.3073         30.8534       -0.0103443         148.116
0.546                  -0.676387        -145.163         -56.1239         28.5076         -56.1186         28.4532       -0.0104512         148.047
0.547                  -0.694597        -145.696         -55.9362         26.0984         -55.9312          26.047       -0.0105592         147.977
0.548                  -0.713114        -146.231         -55.7497         23.6834          -55.745         23.6349       -0.0106684         147.907
0.549                  -0.731939        -146.767         -55.5645         21.2627         -55.5601         21.2173       -0.0107789         147.838
0.55                   -0.751075        -147.306         -55.3806         18.8366         -55.3766         18.7941       -0.0108905         147.768
0.551                  -0.770522        -147.847         -55.1982         16.4052         -55.1945         16.3658       -0.0110034         147.698
0.552                  -0.790284         -148.39         -55.0171         13.9689         -55.0137         13.9324       -0.0111175         147.628
0.553                  -0.810362        -148.935         -54.8376         11.5278         -54.8345         11.4943        -0.011233         147.558
0.554                  -0.830759        -149.482         -54.6595         9.08225         -54.6567         9.05171       -0.0113496         147.487
0.555                  -0.851477        -150.031          -54.483         6.63253         -54.4804         6.60491       -0.0114676         147.417
0.556                  -0.872518        -150.582          -54.308         4.17892         -54.3057         4.15418        -0.011587         147.346
0.557                  -0.893886        -151.136         -54.1345         1.72171         -54.1325          1.6998       -0.0117076         147.276
0.558                  -0.915583        -151.692         -53.9626       -0.738795         -53.9608       -0.757922       -0.0118296         147.205
0.559                  -0.937611         -152.25         -53.7922        -3.20228         -53.7907         -3.2187        -0.011953         147.134
0.56                   -0.959976         -152.81         -53.6235        -5.66845         -53.6221        -5.68222       -0.0120777         147.063
0.561                  -0.982679        -153.373         -53.4563        -8.13698         -53.4551        -8.14819       -0.0122039         146.992
0.562                   -1.00572        -153.938         -53.2906        -10.6076         -53.2896        -10.6163       -0.0123315          146.92
0.563                   -1.02912        -154.505         -53.1265        -13.0799         -53.1257        -13.0863       -0.0124606         146.849
0.564                   -1.05286        -155.075          -52.964        -15.5537         -52.9633        -15.5578       -0.0125911         146.777
0.565                   -1.07696        -155.647         -52.8029        -18.0287         -52.8024        -18.0306       -0.0127231         146.706
0.566                   -1.10142        -156.222         -52.6434        -20.5045         -52.6429        -20.5043       -0.0128567         146.634
0.567                   -1.12624        -156.799         -52.4853         -22.981         -52.4849        -22.9788       -0.0129918         146.562
0.568                   -1.15143         -157.38         -52.3286        -25.4578         -52.3284        -25.4538       -0.0131285          146.49
0.569                     -1.177        -157.962         -52.1733        -27.9347         -52.1732        -27.9289       -0.0132668         146.417
0.57                    -1.20296        -158.548         -52.0194        -30.4115         -52.0194        -30.4041       -0.0134067         146.345
0.571                    -1.2293        -159.136         -51.8669        -32.8879         -51.8669         -32.879       -0.0135484         146.272
0.572                   -1.25604        -159.727         -51.7156        -35.3637         -51.7157        -35.3534       -0.0136917           146.2
0.573                   -1.28318        -160.322         -51.5656        -37.8388         -51.5657        -37.8272       -0.0138367         146.127
0.574                   -1.31073        -160.919         -51.4167         -40.313         -51.4169        -40.3003       -0.0139835         146.054
0.575                   -1.33871        -161.519         -51.2691        -42.7861         -51.2692        -42.7724       -0.0141322         145.981
0.576                   -1.36712        -162.122         -51.1225         -45.258         -51.1226        -45.2434       -0.0142826         145.907
0.577                   -1.39596        -162.728          -50.977        -47.7286         -50.9771        -47.7132        -0.014435         145.834
0.578                   -1.42526        -163.338         -50.8325        -50.1978         -50.8326        -50.1818       -0.0145893          145.76
0.579                   -1.45501         -163.95          -50.689        -52.6656         -50.6891         -52.649       -0.0147455         145.687
0.58                    -1.48524        -164.566         -50.5463        -55.1318         -50.5465        -55.1148       -0.0149038         145.613
0.581                   -1.51596        -165.186         -50.4046        -57.5964         -50.4047        -57.5791       -0.0150642         145.539
0.582                   -1.54718        -165.809         -50.2636        -60.0595         -50.2637         -60.042       -0.0152267         145.465
0.583                    -1.5789        -166.435         -50.1234        -62.5211         -50.1235        -62.5034       -0.0153913          145.39
0.584                   -1.61116        -167.065          -49.984         -64.981          -49.984        -64.9634       -0.0155582         145.316
0.585                   -1.64396        -167.699         -49.8452        -67.4395         -49.8452         -67.422       -0.0157274         145.241
0.586                   -1.67733        -168.336          -49.707        -69.8966          -49.707        -69.8792       -0.0158989         145.166
0.587                   -1.71127        -168.977         -49.5695        -72.3523         -49.5694        -72.3351       -0.0160728         145.091
0.588                   -1.74582        -169.622         -49.4324        -74.8066         -49.4324        -74.7898       -0.0162492         145.016
0.589                   -1.78098        -170.271         -49.2959        -77.2598         -49.2958        -77.2434       -0.0164282         144.941
0.59                    -1.81678        -170.924         -49.1598         -79.712         -49.1597         -79.696       -0.0166098         144.865
0.591                   -1.85325        -171.581         -49.0242        -82.1632          -49.024        -82.1477       -0.0167941         144.789
0.592                    -1.8904        -172.242         -48.8889        -84.6136         -48.8888        -84.5986       -0.0169811         144.713
0.593                   -1.92827        -172.907         -48.7541        -87.0633         -48.7539         -87.049        -0.017171         144.637
0.594                   -1.96687        -173.576         -48.6195        -89.5125         -48.6193        -89.4988       -0.0173638         144.561
0.595                   -2.00624        -174.249         -48.4853        -91.9614         -48.4851        -91.9484       -0.0175597         144.485
0.596                   -2.04641        -174.927         -48.3514        -94.4101         -48.3511        -94.3978       -0.0177586         144.408
0.597                    -2.0874        -175.609         -48.2177        -96.8588         -48.2175        -96.8473       -0.0179608         144.331
0.598                   -2.12924        -176.295         -48.0843        -99.3077          -48.084        -99.2969       -0.0181662         144.254
0.599                   -2.17198        -176.985         -47.9511        -101.757         -47.9509        -101.747        -0.018375         144.177
0.6                     -2.21564         -177.68         -47.8181        -104.207         -47.8179        -104.197       -0.0185872         144.099
0.601                   -2.26027        -178.379         -47.6854        -106.657         -47.6852        -106.649        -0.018803         144.022
0.602                   -2.30589        -179.083         -47.5529        -109.109         -47.5526        -109.101       -0.0190223         143.944
0.603                   -2.35254        -179.791         -47.4206        -111.561         -47.4203        -111.554       -0.0192454         143.866
0.604                   -2.40028         179.498         -47.2884        -114.015         -47.2882        -114.008       -0.0194723         143.788
0.605                   -2.44912         178.781         -47.1565         -116.47         -47.1563        -116.464       -0.0197031         143.709
0.606                   -2.49913         178.061         -47.0248        -118.926         -47.0246        -118.922       -0.0199378         143.631
0.607                   -2.55033         177.337         -46.8933        -121.385         -46.8932        -121.381       -0.0201766         143.552
0.608                   -2.60277         176.609         -46.7621        -123.845         -46.7619        -123.841       -0.0204194         143.473
0.609                    -2.6565         175.877         -46.6311        -126.307         -46.6309        -126.304       -0.0206663         143.394
0.61                    -2.71156         175.142         -46.5003        -128.771         -46.5002        -128.769       -0.0209174         143.314
0.611                     -2.768         174.403         -46.3698        -131.238         -46.3697        -131.236       -0.0211728         143.235
0.612                   -2.82585         173.661         -46.2396        -133.707         -46.2395        -133.705       -0.0214324         143.155
0.613                   -2.88516         172.915         -46.1097        -136.178         -46.1096        -136.177       -0.0216962         143.075
0.614                   -2.94597         172.167         -45.9801        -138.651         -45.9801        -138.651       -0.0219644         142.994
0.615                   -3.00832         171.417         -45.8508        -141.127         -45.8509        -141.128       -0.0222368         142.914
0.616                   -3.07226         170.664          -45.722        -143.606          -45.722        -143.607       -0.0225135         142.833
0.617                   -3.13782         169.909         -45.5935        -146.087         -45.5936        -146.088       -0.0227944         142.752
0.618                   -3.20503         169.152         -45.4654        -148.571         -45.4655        -148.572       -0.0230795         142.671
0.619                   -3.27393         168.394         -45.3378        -151.058         -45.3379        -151.059       -0.0233688         142.589
0.62                    -3.34455         167.636         -45.2107        -153.547         -45.2108        -153.548       -0.0236621         142.508
0.621                   -3.41691         166.876          -45.084        -156.038         -45.0842         -156.04       -0.0239596         142.426
0.622                   -3.49104         166.117         -44.9579        -158.532          -44.958        -158.534        -0.024261         142.343
0.623                   -3.56696         165.357         -44.8323        -161.028         -44.8324         -161.03       -0.0245663         142.261
0.624                   -3.64467         164.599         -44.7072        -163.527         -44.7074        -163.529       -0.0248755         142.178
0.625                   -3.72419         163.842         -44.5828        -166.028          -44.583         -166.03       -0.0251884         142.095
0.626                   -3.80552         163.086          -44.459         -168.53         -44.4592        -168.533       -0.0255052         142.012
0.627                   -3.88865         162.332         -44.3358        -171.035          -44.336        -171.037       -0.0258255         141.929
0.628                   -3.97358         161.581         -44.2132        -173.542         -44.2134        -173.544       -0.0261495         141.845
0.629                    -4.0603         160.834         -44.0913         -176.05         -44.0915        -176.052       -0.0264771         141.761
