! TOUCHSTONE file generated by CST MICROWAVE STUDIO
! Date and time: Fri Oct  2 18:55:29 2020
! Project name: Scenario_1_Free_Space_out_of_line.cst
! Parameters = {Lambda=346.42; Step_1=17.321; dy1=243.594; dx1=1039; L_HA=400; MT=2.54; Rad_Dielectric=30; Rad_Lower=7.3; Rad_Upper=30; a_HA=580; a_WG=246; b_HA=500; b_WG=121; c_HA=0; c_WG=187; d_feed=85; h_feed=15; h_lower=18; h_upper=40}
! Header version: 2018
! Port assignment regex: !\s*Touchstone port\s*([0-9]+)\s*=\s*(CST MWS port|CST DS port)\s*([0-9]+|Zmin|Zmax)\s*\(\"(.*)\"\)(\s*mode\s*([0-9]+))?.*
! Touchstone port assignment:
! Touchstone port 1 = CST MWS port 1 ("")
! Touchstone port 2 = CST MWS port 2 ("")
# GHz S DB R 50
0.5                    -0.148579        -122.541         -65.3903         37.5366         -65.3873         37.5433      -0.00665266         151.156
0.501                  -0.152997        -122.984         -65.2787         35.2062         -65.2758         35.2127      -0.00670748         151.091
0.502                  -0.157638        -123.428         -65.1627         32.8603         -65.1598         32.8665      -0.00676325         151.025
0.503                  -0.162506        -123.875         -65.0423         30.4998         -65.0393         30.5058      -0.00681998          150.96
0.504                  -0.167602        -124.324         -64.9174         28.1254         -64.9144         28.1311      -0.00687768         150.895
0.505                   -0.17293        -124.775          -64.788          25.738          -64.785         25.7435      -0.00693635         150.829
0.506                  -0.178494        -125.228         -64.6543         23.3383         -64.6513         23.3436      -0.00699599         150.763
0.507                  -0.184297        -125.683         -64.5162         20.9272         -64.5132         20.9324      -0.00705661         150.698
0.508                  -0.190341         -126.14         -64.3738         18.5055         -64.3708         18.5105      -0.00711822         150.632
0.509                   -0.19663        -126.599         -64.2271         16.0739         -64.2241         16.0786      -0.00718083         150.566
0.51                   -0.203168         -127.06         -64.0763         13.6331         -64.0733         13.6377      -0.00724443           150.5
0.511                  -0.209957        -127.523         -63.9214         11.1837         -63.9184         11.1882      -0.00730903         150.434
0.512                  -0.217002        -127.988         -63.7626         8.72651         -63.7596         8.73081      -0.00737464         150.368
0.513                  -0.224305        -128.455         -63.5998         6.26205         -63.5968         6.26621      -0.00744127         150.302
0.514                  -0.231869        -128.924         -63.4333         3.79088         -63.4303          3.7949      -0.00750892         150.235
0.515                  -0.239699        -129.396         -63.2631         1.31351         -63.2601          1.3174      -0.00757761         150.169
0.516                  -0.247797        -129.869         -63.0894         -1.1696         -63.0865        -1.16582      -0.00764732         150.103
0.517                  -0.256167        -130.345         -62.9123        -3.65802         -62.9094        -3.65437      -0.00771808         150.036
0.518                  -0.264813        -130.822         -62.7319         -6.1514         -62.7291        -6.14786      -0.00778989         149.969
0.519                  -0.273738        -131.302         -62.5485        -8.64943         -62.5456          -8.646      -0.00786275         149.903
0.52                   -0.282946        -131.784          -62.362        -11.1518         -62.3592        -11.1485      -0.00793668         149.836
0.521                  -0.292439        -132.268         -62.1728        -13.6584           -62.17        -13.6552      -0.00801168         149.769
0.522                  -0.302223        -132.754         -61.9809         -16.169         -61.9781        -16.1659      -0.00808775         149.702
0.523                  -0.312299        -133.242         -61.7865        -18.6834         -61.7837        -18.6804      -0.00816492         149.635
0.524                  -0.322673        -133.732         -61.5897        -21.2016          -61.587        -21.1987      -0.00824317         149.568
0.525                  -0.333347        -134.224         -61.3908        -23.7236         -61.3881        -23.7208      -0.00832252           149.5
0.526                  -0.344325        -134.718         -61.1899        -26.2493         -61.1872        -26.2466      -0.00840299         149.433
0.527                  -0.355611        -135.215         -60.9871        -28.7788         -60.9845        -28.7762      -0.00848457         149.366
0.528                  -0.367208        -135.714         -60.7826        -31.3122           -60.78        -31.3097      -0.00856727         149.298
0.529                  -0.379121        -136.214         -60.5765        -33.8494         -60.5741         -33.847      -0.00865111         149.231
0.53                   -0.391353        -136.717         -60.3692        -36.3908         -60.3667        -36.3885      -0.00873609         149.163
0.531                  -0.403907        -137.222         -60.1606        -38.9363         -60.1582        -38.9341      -0.00882222         149.095
0.532                  -0.416788        -137.729          -59.951        -41.4861         -59.9486         -41.484      -0.00890951         149.027
0.533                  -0.429998        -138.239         -59.7405        -44.0405         -59.7382        -44.0385      -0.00899798         148.959
0.534                  -0.443543         -138.75         -59.5292        -46.5995          -59.527        -46.5976      -0.00908762         148.891
0.535                  -0.457425        -139.264         -59.3175        -49.1634         -59.3153        -49.1616      -0.00917844         148.823
0.536                  -0.471649        -139.779         -59.1053        -51.7324         -59.1032        -51.7307      -0.00927047         148.755
0.537                  -0.486218        -140.297         -58.8929        -54.3066         -58.8908         -54.305      -0.00936371         148.686
0.538                  -0.501135        -140.817         -58.6803        -56.8862         -58.6783        -56.8847      -0.00945816         148.618
0.539                  -0.516406        -141.339         -58.4679        -59.4714         -58.4659          -59.47      -0.00955384         148.549
0.54                   -0.532033        -141.863         -58.2556        -62.0624         -58.2537        -62.0611      -0.00965077          148.48
0.541                  -0.548021         -142.39         -58.0437        -64.6592         -58.0418         -64.658      -0.00974894         148.412
0.542                  -0.564373        -142.918         -57.8322        -67.2621         -57.8305         -67.261      -0.00984837         148.343
0.543                  -0.581093        -143.449         -57.6214        -69.8711         -57.6197        -69.8701      -0.00994908         148.274
0.544                  -0.598185        -143.982         -57.4113        -72.4863         -57.4097        -72.4854       -0.0100511         148.204
0.545                  -0.615653        -144.517         -57.2022        -75.1078         -57.2006         -75.107       -0.0101544         148.135
0.546                    -0.6335        -145.054          -56.994        -77.7357         -56.9925        -77.7349        -0.010259         148.066
0.547                  -0.651731        -145.593          -56.787        -80.3698         -56.7856        -80.3692       -0.0103649         147.996
0.548                  -0.670349        -146.134         -56.5812        -83.0103         -56.5799        -83.0097       -0.0104721         147.927
0.549                  -0.689358        -146.678         -56.3768         -85.657         -56.3755        -85.6565       -0.0105807         147.857
0.55                   -0.708762        -147.224         -56.1739        -88.3099         -56.1727        -88.3094       -0.0106907         147.787
0.551                  -0.728565        -147.771         -55.9726        -90.9688         -55.9714        -90.9684        -0.010802         147.717
0.552                   -0.74877        -148.321          -55.773        -93.6336         -55.7718        -93.6333       -0.0109147         147.647
0.553                  -0.769382        -148.874         -55.5751        -96.3042          -55.574         -96.304       -0.0110289         147.577
0.554                  -0.790404        -149.428         -55.3791        -98.9803         -55.3781        -98.9801       -0.0111444         147.507
0.555                   -0.81184        -149.984          -55.185        -101.662         -55.1841        -101.662       -0.0112614         147.437
0.556                  -0.833693        -150.543          -54.993        -104.348         -54.9921        -104.348       -0.0113798         147.366
0.557                  -0.855969        -151.104          -54.803        -107.039         -54.8022        -107.039       -0.0114997         147.295
0.558                   -0.87867        -151.667         -54.6152        -109.735         -54.6144        -109.735        -0.011621         147.225
0.559                  -0.901801        -152.232         -54.4295        -112.434         -54.4288        -112.434       -0.0117439         147.154
0.56                   -0.925364        -152.799         -54.2461        -115.137         -54.2454        -115.137       -0.0118683         147.083
0.561                  -0.949365        -153.369          -54.065        -117.844         -54.0644        -117.844       -0.0119942         147.012
0.562                  -0.973806         -153.94         -53.8862        -120.553         -53.8856        -120.553       -0.0121216          146.94
0.563                  -0.998692        -154.514         -53.7097        -123.265         -53.7091        -123.265       -0.0122506         146.869
0.564                   -1.02403         -155.09         -53.5355        -125.979          -53.535        -125.979       -0.0123812         146.797
0.565                   -1.04981        -155.668         -53.3637        -128.695         -53.3633        -128.695       -0.0125135         146.726
0.566                   -1.07606        -156.249         -53.1942        -131.411         -53.1938        -131.411       -0.0126473         146.654
0.567                   -1.10276        -156.831         -53.0271        -134.129         -53.0268        -134.129       -0.0127828         146.582
0.568                   -1.12993        -157.416         -52.8623        -136.847          -52.862        -136.847       -0.0129199          146.51
0.569                   -1.15756        -158.003         -52.6998        -139.564         -52.6995        -139.564       -0.0130587         146.438
0.57                    -1.18567        -158.592         -52.5396        -142.281         -52.5393        -142.281       -0.0131993         146.366
0.571                   -1.21425        -159.183         -52.3815        -144.997         -52.3814        -144.997       -0.0133416         146.293
0.572                   -1.24332        -159.777         -52.2257        -147.712         -52.2256        -147.712       -0.0134856          146.22
0.573                   -1.27286        -160.373         -52.0721        -150.424         -52.0719        -150.424       -0.0136314         146.148
0.574                    -1.3029        -160.971         -51.9205        -153.135         -51.9204        -153.135        -0.013779         146.075
0.575                   -1.33342        -161.571         -51.7709        -155.843         -51.7708        -155.843       -0.0139285         146.002
0.576                   -1.36445        -162.174         -51.6233        -158.549         -51.6233        -158.548       -0.0140798         145.928
0.577                   -1.39597        -162.779         -51.4776        -161.251         -51.4776        -161.251        -0.014233         145.855
0.578                     -1.428        -163.386         -51.3337         -163.95         -51.3337        -163.949       -0.0143881         145.782
0.579                   -1.46054        -163.996         -51.1916        -166.645         -51.1916        -166.645       -0.0145452         145.708
0.58                    -1.49359        -164.608         -51.0511        -169.336         -51.0511        -169.336       -0.0147042         145.634
0.581                   -1.52716        -165.222         -50.9122        -172.024         -50.9123        -172.023       -0.0148653          145.56
0.582                   -1.56125        -165.838         -50.7749        -174.707         -50.7749        -174.707       -0.0150284         145.486
0.583                   -1.59587        -166.458         -50.6389        -177.386          -50.639        -177.385       -0.0151936         145.412
0.584                   -1.63103        -167.079         -50.5043          179.94         -50.5043          179.94       -0.0153609         145.337
0.585                   -1.66672        -167.703         -50.3709          177.27          -50.371          177.27       -0.0155303         145.263
0.586                   -1.70296        -168.329         -50.2387         174.604         -50.2388         174.605       -0.0157019         145.188
0.587                   -1.73974        -168.958         -50.1075         171.943         -50.1076         171.944       -0.0158757         145.113
0.588                   -1.77708        -169.589         -49.9774         169.287         -49.9775         169.287       -0.0160519         145.038
0.589                   -1.81498        -170.223         -49.8481         166.635         -49.8482         166.635       -0.0162303         144.962
0.59                    -1.85345         -170.86         -49.7197         163.987         -49.7198         163.987        -0.016411         144.887
0.591                    -1.8925        -171.499          -49.592         161.344         -49.5921         161.344       -0.0165942         144.811
0.592                   -1.93212        -172.141          -49.465         158.704         -49.4651         158.704       -0.0167798         144.736
0.593                   -1.97233        -172.786         -49.3385         156.069         -49.3386         156.069       -0.0169679          144.66
0.594                   -2.01314        -173.433         -49.2126         153.438         -49.2127         153.438       -0.0171586         144.583
0.595                   -2.05456        -174.083         -49.0871          150.81         -49.0872          150.81       -0.0173518         144.507
0.596                   -2.09658        -174.736         -48.9619         148.185          -48.962         148.185       -0.0175477          144.43
0.597                   -2.13923        -175.392         -48.8371         145.564         -48.8372         145.564       -0.0177464         144.354
0.598                   -2.18252        -176.051         -48.7125         142.946         -48.7126         142.946       -0.0179478         144.277
0.599                   -2.22644        -176.713         -48.5881          140.33         -48.5882          140.33        -0.018152           144.2
0.6                     -2.27102        -177.378         -48.4638         137.717         -48.4639         137.717       -0.0183592         144.122
0.601                   -2.31626        -178.046         -48.3396         135.106         -48.3396         135.106       -0.0185693         144.045
0.602                   -2.36218        -178.717         -48.2153         132.497         -48.2154         132.497       -0.0187825         143.967
0.603                    -2.4088        -179.392         -48.0911          129.89         -48.0912          129.89       -0.0189988         143.889
0.604                   -2.45612          179.93         -47.9668         127.284         -47.9669         127.284       -0.0192183         143.811
0.605                   -2.50416         179.249         -47.8424         124.678         -47.8424         124.678       -0.0194412         143.733
0.606                   -2.55294         178.564         -47.7179         122.074         -47.7179         122.074       -0.0196673         143.654
0.607                   -2.60247         177.876         -47.5932          119.47         -47.5932          119.47        -0.019897         143.575
0.608                   -2.65278         177.184         -47.4683         116.866         -47.4683         116.865       -0.0201302         143.496
0.609                   -2.70389         176.488         -47.3432         114.261         -47.3432         114.261       -0.0203671         143.417
0.61                    -2.75582         175.788         -47.2178         111.656         -47.2178         111.656       -0.0206078         143.338
0.611                   -2.80858         175.085         -47.0923          109.05         -47.0923          109.05       -0.0208523         143.258
0.612                   -2.86222         174.377         -46.9664         106.443         -46.9664         106.443       -0.0211009         143.178
0.613                   -2.91674         173.665         -46.8404         103.834         -46.8403         103.834       -0.0213535         143.098
0.614                    -2.9722          172.95          -46.714         101.224          -46.714         101.223       -0.0216104         143.018
0.615                    -3.0286          172.23         -46.5874         98.6112         -46.5874         98.6107       -0.0218717         142.937
0.616                     -3.086         171.505         -46.4606         95.9962         -46.4605         95.9956       -0.0221374         142.857
0.617                   -3.14442         170.776         -46.3335         93.3785         -46.3334         93.3779       -0.0224078         142.776
0.618                   -3.20391         170.043         -46.2062         90.7579         -46.2061         90.7573        -0.022683         142.694
0.619                    -3.2645         169.305         -46.0786         88.1341         -46.0786         88.1335       -0.0229631         142.613
0.62                    -3.32625         168.563         -45.9509          85.507         -45.9508         85.5063       -0.0232483         142.531
0.621                   -3.38919         167.815          -45.823         82.8762         -45.8229         82.8755       -0.0235388         142.449
0.622                   -3.45338         167.063          -45.695         80.2415         -45.6949         80.2408       -0.0238346         142.367
0.623                   -3.51887         166.306         -45.5668         77.6028         -45.5667         77.6021        -0.024136         142.284
0.624                   -3.58573         165.545         -45.4385           74.96         -45.4384         74.9593       -0.0244432         142.202
0.625                     -3.654         164.778         -45.3102         72.3128         -45.3101          72.312       -0.0247562         142.119
0.626                   -3.72376         164.007         -45.1819         69.6611         -45.1818         69.6603       -0.0250753         142.035
0.627                   -3.79508          163.23         -45.0536         67.0048         -45.0535          67.004       -0.0254006         141.952
0.628                   -3.86802         162.449         -44.9253         64.3437         -44.9252          64.343       -0.0257323         141.868
0.629                   -3.94266         161.664         -44.7972         61.6779          -44.797         61.6772       -0.0260706         141.784
