! TOUCHSTONE file generated by CST MICROWAVE STUDIO
! Date and time: Fri Oct  2 18:47:25 2020
! Project name: Scenario_1_Free_Space_out_of_line.cst
! Parameters = {Lambda=346.42; Step_1=17.321; dy1=226.253; dx1=173; L_HA=400; MT=2.54; Rad_Dielectric=30; Rad_Lower=7.3; Rad_Upper=30; a_HA=580; a_WG=246; b_HA=500; b_WG=121; c_HA=0; c_WG=187; d_feed=85; h_feed=15; h_lower=18; h_upper=40}
! Header version: 2018
! Port assignment regex: !\s*Touchstone port\s*([0-9]+)\s*=\s*(CST MWS port|CST DS port)\s*([0-9]+|Zmin|Zmax)\s*\(\"(.*)\"\)(\s*mode\s*([0-9]+))?.*
! Touchstone port assignment:
! Touchstone port 1 = CST MWS port 1 ("")
! Touchstone port 2 = CST MWS port 2 ("")
# GHz S DB R 50
0.5                    -0.147191        -122.495         -60.5347         141.954         -60.5347         141.954      -0.00622302          151.16
0.501                  -0.152226         -122.94          -60.353          140.43          -60.353          140.43      -0.00626049         151.094
0.502                  -0.157467        -123.387         -60.1716         138.913         -60.1716         138.913      -0.00629905         151.029
0.503                  -0.162919        -123.836         -59.9903         137.402         -59.9903         137.402      -0.00633871         150.964
0.504                  -0.168584        -124.287         -59.8093         135.896         -59.8093         135.896      -0.00637947         150.898
0.505                  -0.174465         -124.74         -59.6285         134.396         -59.6285         134.396      -0.00642135         150.832
0.506                  -0.180567        -125.195          -59.448           132.9          -59.448           132.9      -0.00646435         150.767
0.507                  -0.186892        -125.652         -59.2679         131.408         -59.2679         131.408      -0.00650848         150.701
0.508                  -0.193443        -126.112         -59.0881          129.92         -59.0881          129.92      -0.00655374         150.635
0.509                  -0.200225        -126.573         -58.9086         128.436         -58.9086         128.436      -0.00660014         150.569
0.51                   -0.207239        -127.036         -58.7296         126.955         -58.7295         126.955      -0.00664769         150.503
0.511                  -0.214491        -127.502         -58.5509         125.477         -58.5509         125.477      -0.00669641         150.437
0.512                  -0.221984        -127.969         -58.3727         124.002         -58.3726         124.002      -0.00674628         150.371
0.513                   -0.22972        -128.439         -58.1948         122.528         -58.1948         122.528      -0.00679734         150.305
0.514                  -0.237704        -128.911         -58.0175         121.056         -58.0175         121.056      -0.00684957         150.239
0.515                  -0.245938        -129.384         -57.8406         119.586         -57.8406         119.586        -0.006903         150.172
0.516                  -0.254428         -129.86         -57.6642         118.117         -57.6642         118.117      -0.00695762         150.106
0.517                  -0.263175        -130.338         -57.4883          116.65         -57.4883          116.65      -0.00701345         150.039
0.518                  -0.272185        -130.818         -57.3129         115.182         -57.3129         115.182       -0.0070705         149.973
0.519                   -0.28146        -131.301          -57.138         113.715          -57.138         113.715      -0.00712877         149.906
0.52                   -0.291004        -131.785         -56.9637         112.249         -56.9636         112.249      -0.00718827         149.839
0.521                  -0.300821        -132.271         -56.7899         110.782         -56.7898         110.782      -0.00724902         149.772
0.522                  -0.310915         -132.76         -56.6166         109.314         -56.6166         109.314      -0.00731102         149.705
0.523                   -0.32129         -133.25         -56.4439         107.846         -56.4439         107.846      -0.00737428         149.638
0.524                  -0.331949        -133.743         -56.2718         106.378         -56.2718         106.378      -0.00743881         149.571
0.525                  -0.342896        -134.238         -56.1003         104.908         -56.1002         104.908      -0.00750462         149.504
0.526                  -0.354135        -134.735         -55.9293         103.437         -55.9293         103.437      -0.00757173         149.437
0.527                   -0.36567        -135.234          -55.759         101.965         -55.7589         101.965      -0.00764013         149.369
0.528                  -0.377505        -135.736         -55.5892          100.49         -55.5892          100.49      -0.00770984         149.302
0.529                  -0.389644        -136.239         -55.4201         99.0146         -55.4201         99.0146      -0.00778088         149.234
0.53                   -0.402091        -136.745         -55.2516         97.5368         -55.2516         97.5367      -0.00785324         149.166
0.531                  -0.414849        -137.253         -55.0837         96.0568         -55.0837         96.0568      -0.00792695         149.098
0.532                  -0.427924        -137.763         -54.9165         94.5746         -54.9165         94.5745      -0.00800201         149.031
0.533                  -0.441318        -138.275         -54.7499         93.0899         -54.7499         93.0899      -0.00807844         148.962
0.534                  -0.455036        -138.789          -54.584         91.6027          -54.584         91.6027      -0.00815624         148.894
0.535                  -0.469082        -139.305         -54.4187         90.1128         -54.4187         90.1127      -0.00823542         148.826
0.536                  -0.483461        -139.824         -54.2542         88.6201         -54.2541           88.62      -0.00831601         148.758
0.537                  -0.498176        -140.345         -54.0903         87.1244         -54.0902         87.1244      -0.00839801          148.69
0.538                  -0.513232        -140.867          -53.927         85.6258          -53.927         85.6258      -0.00848143         148.621
0.539                  -0.528632        -141.392         -53.7645         84.1241         -53.7645         84.1241      -0.00856628         148.552
0.54                   -0.544382         -141.92         -53.6027         82.6192         -53.6027         82.6192      -0.00865259         148.484
0.541                  -0.560485        -142.449         -53.4416          81.111         -53.4416          81.111      -0.00874035         148.415
0.542                  -0.576946        -142.981         -53.2812         79.5995         -53.2812         79.5995      -0.00882959         148.346
0.543                  -0.593769        -143.514         -53.1216         78.0846         -53.1215         78.0846      -0.00892032         148.277
0.544                  -0.610959         -144.05         -52.9626         76.5662         -52.9626         76.5662      -0.00901254         148.208
0.545                  -0.628519        -144.588         -52.8044         75.0444         -52.8044         75.0444      -0.00910629         148.139
0.546                  -0.646455        -145.129          -52.647          73.519          -52.647          73.519      -0.00920156         148.069
0.547                  -0.664771        -145.671         -52.4903           71.99         -52.4903           71.99      -0.00929838             148
0.548                  -0.683472        -146.216         -52.3344         70.4575         -52.3344         70.4574      -0.00939675          147.93
0.549                  -0.702561        -146.763         -52.1792         68.9213         -52.1792         68.9213       -0.0094967         147.861
0.55                   -0.722044        -147.312         -52.0248         67.3815         -52.0248         67.3815      -0.00959825         147.791
0.551                  -0.741925        -147.863         -51.8712         65.8381         -51.8712          65.838      -0.00970139         147.721
0.552                   -0.76221        -148.416         -51.7184          64.291         -51.7183          64.291      -0.00980616         147.651
0.553                  -0.782902        -148.972         -51.5663         62.7403         -51.5663         62.7403      -0.00991257         147.581
0.554                  -0.804006         -149.53          -51.415          61.186          -51.415          61.186       -0.0100206          147.51
0.555                  -0.825528         -150.09         -51.2646         59.6282         -51.2646         59.6282       -0.0101304          147.44
0.556                  -0.847472        -150.652         -51.1149         58.0668         -51.1149         58.0667       -0.0102418          147.37
0.557                  -0.869843        -151.216         -50.9661         56.5018         -50.9661         56.5018       -0.0103549         147.299
0.558                  -0.892646        -151.783          -50.818         54.9334          -50.818         54.9334       -0.0104698         147.228
0.559                  -0.915886        -152.352         -50.6708         53.3615         -50.6708         53.3615       -0.0105864         147.157
0.56                   -0.939568        -152.923         -50.5244         51.7862         -50.5244         51.7862       -0.0107048         147.086
0.561                  -0.963698        -153.496         -50.3788         50.2076         -50.3788         50.2076        -0.010825         147.015
0.562                   -0.98828        -154.071          -50.234         48.6257          -50.234         48.6256       -0.0109469         146.944
0.563                   -1.01332        -154.649           -50.09         47.0405           -50.09         47.0405       -0.0110707         146.873
0.564                   -1.03882        -155.229         -49.9469         45.4522         -49.9469         45.4522       -0.0111964         146.801
0.565                   -1.06479         -155.81         -49.8046         43.8608         -49.8046         43.8608       -0.0113239          146.73
0.566                   -1.09124        -156.395         -49.6631         42.2664         -49.6631         42.2664       -0.0114533         146.658
0.567                   -1.11816        -156.981         -49.5224          40.669         -49.5224          40.669       -0.0115847         146.586
0.568                   -1.14557         -157.57         -49.3826         39.0688         -49.3826         39.0688        -0.011718         146.514
0.569                   -1.17347         -158.16         -49.2435         37.4659         -49.2435         37.4658       -0.0118532         146.442
0.57                    -1.20187        -158.753         -49.1053         35.8602         -49.1053         35.8602       -0.0119905          146.37
0.571                   -1.23076        -159.349         -48.9679         34.2519         -48.9679         34.2519       -0.0121297         146.297
0.572                   -1.26017        -159.946         -48.8313         32.6411         -48.8313         32.6411        -0.012271         146.225
0.573                   -1.29009        -160.546         -48.6955         31.0279         -48.6955         31.0279       -0.0124144         146.152
0.574                   -1.32053        -161.148         -48.5605         29.4123         -48.5605         29.4123       -0.0125599         146.079
0.575                    -1.3515        -161.752         -48.4263         27.7946         -48.4263         27.7946       -0.0127075         146.006
0.576                     -1.383        -162.358         -48.2929         26.1746         -48.2929         26.1746       -0.0128573         145.933
0.577                   -1.41503        -162.967         -48.1602         24.5527         -48.1602         24.5527       -0.0130092          145.86
0.578                   -1.44762        -163.577         -48.0284         22.9288         -48.0284         22.9288       -0.0131634         145.786
0.579                   -1.48075         -164.19         -47.8973          21.303         -47.8973          21.303       -0.0133198         145.712
0.58                    -1.51445        -164.805         -47.7669         19.6755         -47.7669         19.6755       -0.0134785         145.639
0.581                   -1.54871        -165.423         -47.6374         18.0463         -47.6374         18.0463       -0.0136396         145.565
0.582                   -1.58354        -166.043         -47.5085         16.4155         -47.5085         16.4155        -0.013803         145.491
0.583                   -1.61896        -166.664         -47.3804         14.7833         -47.3804         14.7833       -0.0139688         145.417
0.584                   -1.65496        -167.289          -47.253         13.1496          -47.253         13.1496        -0.014137         145.342
0.585                   -1.69156        -167.915         -47.1263         11.5147         -47.1263         11.5147       -0.0143077         145.268
0.586                   -1.72875        -168.544         -47.0003         9.87858         -47.0003         9.87858       -0.0144809         145.193
0.587                   -1.76656        -169.174          -46.875         8.24131          -46.875         8.24132       -0.0146566         145.118
0.588                   -1.80499        -169.807         -46.7503           6.603         -46.7503         6.60301        -0.014835         145.043
0.589                   -1.84404        -170.443         -46.6264         4.96373         -46.6264         4.96374       -0.0150159         144.968
0.59                    -1.88373         -171.08          -46.503         3.32358          -46.503         3.32358       -0.0151996         144.892
0.591                   -1.92406         -171.72         -46.3803         1.68261         -46.3803         1.68261        -0.015386         144.817
0.592                   -1.96504        -172.362         -46.2583       0.0408969         -46.2583       0.0409002       -0.0155751         144.741
0.593                   -2.00669        -173.006         -46.1368        -1.60149         -46.1368        -1.60148       -0.0157671         144.665
0.594                     -2.049        -173.653         -46.0159        -3.24448         -46.0159        -3.24447       -0.0159619         144.589
0.595                   -2.09199        -174.302         -45.8956        -4.88802         -45.8956        -4.88802       -0.0161597         144.513
0.596                   -2.13567        -174.953         -45.7759        -6.53205         -45.7759        -6.53205       -0.0163605         144.437
0.597                   -2.18005        -175.606         -45.6567        -8.17653         -45.6567        -8.17652       -0.0165643          144.36
0.598                   -2.22514        -176.262          -45.538        -9.82139          -45.538        -9.82139       -0.0167711         144.283
0.599                   -2.27094         -176.92         -45.4199        -11.4666         -45.4199        -11.4666       -0.0169812         144.206
0.6                     -2.31748         -177.58         -45.3022        -13.1121         -45.3022        -13.1121       -0.0171944         144.129
0.601                   -2.36475        -178.242         -45.1851        -14.7579         -45.1851        -14.7579       -0.0174109         144.052
0.602                   -2.41278        -178.907         -45.0684        -16.4039         -45.0684        -16.4039       -0.0176308         143.974
0.603                   -2.46157        -179.573         -44.9522        -18.0502         -44.9522        -18.0502        -0.017854         143.896
0.604                   -2.51113         179.758         -44.8364        -19.6966         -44.8364        -19.6966       -0.0180808         143.818
0.605                   -2.56148         179.086          -44.721        -21.3433          -44.721        -21.3433       -0.0183111          143.74
0.606                   -2.61262         178.413         -44.6061          -22.99         -44.6061          -22.99        -0.018545         143.662
0.607                   -2.66458         177.737         -44.4916        -24.6369         -44.4916         -24.637       -0.0187826         143.583
0.608                   -2.71736         177.059         -44.3774         -26.284         -44.3774         -26.284        -0.019024         143.504
0.609                   -2.77098         176.379         -44.2636        -27.9312         -44.2636        -27.9312       -0.0192692         143.425
0.61                    -2.82546         175.696         -44.1502        -29.5786         -44.1502        -29.5786       -0.0195184         143.346
0.611                   -2.88079         175.012         -44.0371        -31.2261         -44.0371        -31.2261       -0.0197716         143.267
0.612                   -2.93701         174.325         -43.9244        -32.8738         -43.9244        -32.8738       -0.0200289         143.187
0.613                   -2.99412         173.636          -43.812        -34.5217          -43.812        -34.5217       -0.0202904         143.107
0.614                   -3.05215         172.944         -43.6999        -36.1698         -43.6999        -36.1698       -0.0205562         143.027
0.615                   -3.11109         172.251          -43.588        -37.8181          -43.588        -37.8181       -0.0208264         142.947
0.616                   -3.17099         171.555         -43.4765        -39.4667         -43.4765        -39.4667       -0.0211012         142.866
0.617                   -3.23184         170.857         -43.3652        -41.1156         -43.3652        -41.1156       -0.0213805         142.786
0.618                   -3.29366         170.157         -43.2543        -42.7648         -43.2542        -42.7648       -0.0216645         142.705
0.619                   -3.35648         169.455         -43.1435        -44.4144         -43.1435        -44.4144       -0.0219533         142.623
0.62                    -3.42031         168.751          -43.033        -46.0644          -43.033        -46.0644        -0.022247         142.542
0.621                   -3.48518         168.045         -42.9228        -47.7148         -42.9228        -47.7149       -0.0225458          142.46
0.622                   -3.55109         167.337         -42.8128        -49.3658         -42.8128        -49.3658       -0.0228498         142.378
0.623                   -3.61807         166.627          -42.703        -51.0173          -42.703        -51.0173        -0.023159         142.296
0.624                   -3.68614         165.914         -42.5934        -52.6694         -42.5934        -52.6695       -0.0234737         142.213
0.625                   -3.75533           165.2          -42.484        -54.3222          -42.484        -54.3223       -0.0237938         142.131
0.626                   -3.82564         164.484         -42.3749        -55.9757         -42.3749        -55.9758       -0.0241197         142.048
0.627                   -3.89711         163.766         -42.2659          -57.63         -42.2659        -57.6301       -0.0244513         141.965
0.628                   -3.96976         163.046         -42.1572        -59.2852         -42.1572        -59.2852       -0.0247889         141.881
0.629                   -4.04361         162.324         -42.0486        -60.9412         -42.0486        -60.9413       -0.0251326         141.797
