! TOUCHSTONE file generated by CST MICROWAVE STUDIO
! Date and time: Fri Oct  2 16:32:09 2020
! Project name: Scenario_1_Free_Space_out_of_line.cst
! Parameters = {Lambda=346.42; Step_1=17.321; dy1=226.253; dx1=346; L_HA=400; MT=2.54; Rad_Dielectric=30; Rad_Lower=7.3; Rad_Upper=30; a_HA=580; a_WG=246; b_HA=500; b_WG=121; c_HA=0; c_WG=187; d_feed=85; h_feed=15; h_lower=18; h_upper=40}
! Header version: 2018
! Port assignment regex: !\s*Touchstone port\s*([0-9]+)\s*=\s*(CST MWS port|CST DS port)\s*([0-9]+|Zmin|Zmax)\s*\(\"(.*)\"\)(\s*mode\s*([0-9]+))?.*
! Touchstone port assignment:
! Touchstone port 1 = CST MWS port 1 ("")
! Touchstone port 2 = CST MWS port 2 ("")
# GHz S DB R 50
0.5                     -0.14726        -122.612         -61.2966         60.8081         -61.2966         60.8081      -0.00664616         151.124
0.501                  -0.154486        -123.053         -61.1335          58.273         -61.1335         58.2731      -0.00672321         151.059
0.502                  -0.161867        -123.496         -60.9645         55.7818         -60.9644         55.7818      -0.00680068         150.994
0.503                  -0.169406        -123.941           -60.79         53.3349           -60.79          53.335      -0.00687859         150.929
0.504                  -0.177105        -124.387         -60.6107         50.9324         -60.6107         50.9325      -0.00695693         150.863
0.505                  -0.184964        -124.835         -60.4273          48.574         -60.4272         48.5742      -0.00703572         150.798
0.506                  -0.192986        -125.285         -60.2401         46.2593         -60.2401         46.2596      -0.00711498         150.732
0.507                  -0.201173        -125.736         -60.0498         43.9875         -60.0497         43.9878      -0.00719469         150.667
0.508                  -0.209525        -126.189         -59.8568         41.7576         -59.8567          41.758      -0.00727489         150.601
0.509                  -0.218045        -126.644         -59.6616         39.5685         -59.6615         39.5689      -0.00735558         150.535
0.51                   -0.226735          -127.1         -59.4644         37.4188         -59.4644         37.4192      -0.00743676          150.47
0.511                  -0.235597        -127.559         -59.2659         35.3072         -59.2658         35.3077      -0.00751845         150.404
0.512                  -0.244632        -128.019         -59.0661         33.2323          -59.066         33.2328      -0.00760066         150.338
0.513                  -0.253843        -128.481         -58.8656         31.1924         -58.8655         31.1929       -0.0076834         150.272
0.514                  -0.263231        -128.944         -58.6644          29.186         -58.6643         29.1865      -0.00776667         150.205
0.515                  -0.272798         -129.41          -58.463         27.2115         -58.4629         27.2121       -0.0078505         150.139
0.516                  -0.282548        -129.877         -58.2614         25.2674         -58.2613         25.2681      -0.00793489         150.073
0.517                  -0.292481        -130.347         -58.0599         23.3521         -58.0598         23.3528      -0.00801985         150.006
0.518                    -0.3026        -130.818         -57.8588          21.464         -57.8587         21.4646      -0.00810539          149.94
0.519                  -0.312907        -131.291          -57.658         19.6015         -57.6579         19.6022      -0.00819152         149.873
0.52                   -0.323406        -131.766         -57.4578         17.7632         -57.4577         17.7639      -0.00827826         149.807
0.521                  -0.334097        -132.243         -57.2583         15.9475         -57.2582         15.9483      -0.00836562          149.74
0.522                  -0.344984        -132.721         -57.0596         14.1531         -57.0595         14.1539      -0.00845361         149.673
0.523                  -0.356069        -133.202         -56.8618         12.3786         -56.8617         12.3794      -0.00854224         149.606
0.524                  -0.367355        -133.685         -56.6649         10.6226         -56.6648         10.6234      -0.00863152         149.539
0.525                  -0.378844         -134.17          -56.469         8.88389         -56.4689         8.88472      -0.00872147         149.472
0.526                  -0.390539        -134.657         -56.2742         7.16114         -56.2742         7.16199       -0.0088121         149.405
0.527                  -0.402444        -135.146         -56.0806         5.45319         -56.0805         5.45405      -0.00890342         149.338
0.528                   -0.41456        -135.637         -55.8881         3.75889          -55.888         3.75975      -0.00899544          149.27
0.529                  -0.426891         -136.13         -55.6968         2.07713         -55.6967         2.07799      -0.00908818         149.203
0.53                   -0.439441        -136.625         -55.5067        0.406845         -55.5066        0.407716      -0.00918166         149.135
0.531                  -0.452211        -137.123         -55.3179        -1.25297         -55.3178         -1.2521      -0.00927588         149.068
0.532                  -0.465206        -137.622         -55.1303        -2.90329         -55.1302        -2.90242      -0.00937085             149
0.533                  -0.478429        -138.124         -54.9439        -4.54505         -54.9439        -4.54417       -0.0094666         148.932
0.534                  -0.491884        -138.628         -54.7589        -6.17913         -54.7588        -6.17826      -0.00956314         148.864
0.535                  -0.505573        -139.134         -54.5751        -7.80639          -54.575        -7.80553      -0.00966048         148.796
0.536                  -0.519501        -139.642         -54.3926        -9.42765         -54.3925        -9.42678      -0.00975863         148.728
0.537                  -0.533672        -140.153         -54.2113        -11.0437         -54.2113        -11.0428      -0.00985762          148.66
0.538                  -0.548089        -140.666         -54.0313        -12.6552         -54.0313        -12.6544      -0.00995746         148.591
0.539                  -0.562756        -141.181         -53.8526         -14.263         -53.8526        -14.2621       -0.0100582         148.523
0.54                   -0.577678        -141.699         -53.6751        -15.8676         -53.6751        -15.8668       -0.0101597         148.454
0.541                  -0.592859        -142.219         -53.4989        -17.4698         -53.4988         -17.469       -0.0102622         148.386
0.542                  -0.608303        -142.741         -53.3239        -19.0702         -53.3238        -19.0694       -0.0103656         148.317
0.543                  -0.624016        -143.266         -53.1501        -20.6693           -53.15        -20.6685       -0.0104699         148.248
0.544                  -0.640001        -143.793         -52.9775        -22.2678         -52.9774         -22.267       -0.0105751         148.179
0.545                  -0.656263        -144.323         -52.8061        -23.8661          -52.806        -23.8653       -0.0106813          148.11
0.546                  -0.672809        -144.855         -52.6358        -25.4648         -52.6358         -25.464       -0.0107885         148.041
0.547                  -0.689642         -145.39         -52.4668        -27.0643         -52.4667        -27.0636       -0.0108967         147.972
0.548                  -0.706769        -145.927         -52.2988        -28.6652         -52.2988        -28.6644       -0.0110059         147.902
0.549                  -0.724194        -146.467         -52.1321        -30.2678          -52.132        -30.2671       -0.0111162         147.833
0.55                   -0.741924        -147.009         -51.9664        -31.8726         -51.9664        -31.8719       -0.0112274         147.763
0.551                  -0.759964        -147.555         -51.8018          -33.48         -51.8018        -33.4793       -0.0113398         147.693
0.552                  -0.778321        -148.102         -51.6383        -35.0903         -51.6383        -35.0897       -0.0114532         147.623
0.553                  -0.797001        -148.653          -51.476         -36.704         -51.4759        -36.7034       -0.0115678         147.553
0.554                   -0.81601        -149.206         -51.3146        -38.3214         -51.3146        -38.3208       -0.0116835         147.483
0.555                  -0.835356        -149.762         -51.1543        -39.9427         -51.1543        -39.9421       -0.0118003         147.413
0.556                  -0.855044        -150.321         -50.9951        -41.5684         -50.9951        -41.5678       -0.0119183         147.343
0.557                  -0.875083        -150.882         -50.8369        -43.1986         -50.8369        -43.1981       -0.0120375         147.272
0.558                  -0.895479        -151.447         -50.6797        -44.8337         -50.6797        -44.8332       -0.0121579         147.202
0.559                  -0.916241        -152.014         -50.5235         -46.474         -50.5235        -46.4735       -0.0122795         147.131
0.56                   -0.937376        -152.584         -50.3683        -48.1195         -50.3683        -48.1191       -0.0124024          147.06
0.561                  -0.958893        -153.157         -50.2141        -49.7707         -50.2141        -49.7702       -0.0125266         146.989
0.562                  -0.980799        -153.733         -50.0608        -51.4276         -50.0608        -51.4272       -0.0126521         146.918
0.563                    -1.0031        -154.312         -49.9086        -53.0905         -49.9086        -53.0901       -0.0127789         146.847
0.564                   -1.02582        -154.894         -49.7572        -54.7596         -49.7572        -54.7592        -0.012907         146.776
0.565                   -1.04895        -155.479         -49.6069         -56.435         -49.6068        -56.4346       -0.0130365         146.704
0.566                    -1.0725        -156.068         -49.4574        -58.1168         -49.4574        -58.1165       -0.0131674         146.633
0.567                   -1.09649        -156.659         -49.3089        -59.8053         -49.3089         -59.805       -0.0132998         146.561
0.568                   -1.12093        -157.253         -49.1613        -61.5005         -49.1613        -61.5002       -0.0134335         146.489
0.569                   -1.14583        -157.851         -49.0147        -63.2025         -49.0147        -63.2022       -0.0135688         146.417
0.57                    -1.17119        -158.451         -48.8689        -64.9114         -48.8689        -64.9111       -0.0137056         146.345
0.571                   -1.19703        -159.055         -48.7241        -66.6272         -48.7241         -66.627       -0.0138438         146.273
0.572                   -1.22336        -159.662         -48.5801        -68.3502         -48.5801          -68.35       -0.0139837           146.2
0.573                    -1.2502        -160.273         -48.4371        -70.0802         -48.4371        -70.0801       -0.0141251         146.128
0.574                   -1.27755        -160.886         -48.2949        -71.8174         -48.2949        -71.8173       -0.0142681         146.055
0.575                   -1.30543        -161.503         -48.1537        -73.5618         -48.1537        -73.5616       -0.0144128         145.982
0.576                   -1.33384        -162.123         -48.0133        -75.3133         -48.0133        -75.3132       -0.0145591         145.909
0.577                   -1.36281        -162.747         -47.8738         -77.072         -47.8738        -77.0719       -0.0147072         145.836
0.578                   -1.39235        -163.374         -47.7352        -78.8378         -47.7352        -78.8377       -0.0148569         145.763
0.579                   -1.42247        -164.004         -47.5975        -80.6108         -47.5975        -80.6107       -0.0150085         145.689
0.58                    -1.45319        -164.638         -47.4606        -82.3909         -47.4606        -82.3908       -0.0151618         145.616
0.581                   -1.48452        -165.275         -47.3247        -84.1779         -47.3246        -84.1779       -0.0153169         145.542
0.582                   -1.51647        -165.916         -47.1896         -85.972         -47.1895         -85.972       -0.0154739         145.468
0.583                   -1.54907         -166.56         -47.0553        -87.7729         -47.0553         -87.773       -0.0156328         145.394
0.584                   -1.58232        -167.207          -46.922        -89.5807         -46.9219        -89.5807       -0.0157936          145.32
0.585                   -1.61625        -167.858         -46.7895        -91.3952         -46.7894        -91.3952       -0.0159564         145.246
0.586                   -1.65087        -168.513         -46.6578        -93.2162         -46.6578        -93.2163       -0.0161211         145.171
0.587                   -1.68621        -169.171         -46.5271        -95.0437         -46.5271        -95.0438       -0.0162879         145.096
0.588                   -1.72227        -169.832         -46.3972        -96.8776         -46.3972        -96.8777       -0.0164568         145.021
0.589                   -1.75908        -170.497         -46.2681        -98.7177         -46.2681        -98.7178       -0.0166277         144.946
0.59                    -1.79665        -171.165           -46.14        -100.564         -46.1399        -100.564       -0.0168009         144.871
0.591                   -1.83501        -171.837         -46.0126        -102.416         -46.0126        -102.416       -0.0169761         144.796
0.592                   -1.87417        -172.512         -45.8862        -104.274         -45.8862        -104.274       -0.0171537          144.72
0.593                   -1.91416         -173.19         -45.7606        -106.137         -45.7605        -106.137       -0.0173334         144.645
0.594                   -1.95499        -173.872         -45.6358        -108.005         -45.6358        -108.006       -0.0175155         144.569
0.595                   -1.99669        -174.558         -45.5119        -109.879         -45.5119        -109.879       -0.0176999         144.493
0.596                   -2.03928        -175.247         -45.3888        -111.758         -45.3888        -111.758       -0.0178867         144.417
0.597                   -2.08277        -175.939         -45.2666        -113.641         -45.2665        -113.642        -0.018076          144.34
0.598                    -2.1272        -176.634         -45.1452        -115.529         -45.1451         -115.53       -0.0182677         144.263
0.599                   -2.17259        -177.333         -45.0246        -117.422         -45.0246        -117.422       -0.0184619         144.187
0.6                     -2.21895        -178.035         -44.9049        -119.318         -44.9048        -119.318       -0.0186587          144.11
0.601                   -2.26631         -178.74         -44.7859        -121.219         -44.7859        -121.219       -0.0188581         144.033
0.602                    -2.3147        -179.448         -44.6678        -123.122         -44.6678        -123.123       -0.0190602         143.955
0.603                   -2.36413         179.841         -44.5505         -125.03         -44.5504         -125.03        -0.019265         143.878
0.604                   -2.41464         179.127          -44.434         -126.94         -44.4339         -126.94       -0.0194726           143.8
0.605                   -2.46625          178.41         -44.3182        -128.854         -44.3182        -128.854       -0.0196829         143.722
0.606                   -2.51898          177.69         -44.2033         -130.77         -44.2033         -130.77       -0.0198962         143.644
0.607                   -2.57285         176.967         -44.0891        -132.688         -44.0891        -132.688       -0.0201123         143.565
0.608                    -2.6279         176.241         -43.9757        -134.609         -43.9757        -134.609       -0.0203314         143.487
0.609                   -2.68414         175.514          -43.863        -136.531          -43.863        -136.531       -0.0205536         143.408
0.61                    -2.74161         174.783         -43.7511        -138.455         -43.7511        -138.456       -0.0207788         143.329
0.611                   -2.80032          174.05         -43.6399        -140.381         -43.6399        -140.381       -0.0210071          143.25
0.612                   -2.86031         173.315         -43.5295        -142.308         -43.5294        -142.308       -0.0212387          143.17
0.613                   -2.92159         172.578         -43.4197        -144.236         -43.4196        -144.236       -0.0214735         143.091
0.614                    -2.9842         171.839         -43.3106        -146.164         -43.3106        -146.165       -0.0217116         143.011
0.615                   -3.04815         171.098         -43.2022        -148.093         -43.2022        -148.094       -0.0219532         142.931
0.616                   -3.11348         170.356         -43.0945        -150.023         -43.0944        -150.023       -0.0221981         142.851
0.617                    -3.1802         169.612         -42.9874        -151.952         -42.9873        -151.952       -0.0224466          142.77
0.618                   -3.24835         168.866         -42.8809        -153.881         -42.8809        -153.881       -0.0226986         142.689
0.619                   -3.31794          168.12         -42.7751         -155.81          -42.775         -155.81       -0.0229542         142.608
0.62                    -3.38899         167.372         -42.6699        -157.738         -42.6698        -157.738       -0.0232136         142.527
0.621                   -3.46154         166.624         -42.5652        -159.665         -42.5652        -159.665       -0.0234767         142.446
0.622                    -3.5356         165.875         -42.4611        -161.591         -42.4611        -161.591       -0.0237437         142.364
0.623                   -3.61119         165.126         -42.3576        -163.516         -42.3576        -163.516       -0.0240146         142.282
0.624                   -3.68834         164.376         -42.2546         -165.44         -42.2546         -165.44       -0.0242894           142.2
0.625                   -3.76706         163.627         -42.1522        -167.362         -42.1521        -167.362       -0.0245683         142.117
0.626                   -3.84737         162.878         -42.0502        -169.282         -42.0501        -169.282       -0.0248514         142.035
0.627                   -3.92929         162.129         -41.9487          -171.2         -41.9487          -171.2       -0.0251386         141.952
0.628                   -4.01284         161.381         -41.8477        -173.116         -41.8476        -173.116       -0.0254301         141.868
0.629                   -4.09804         160.635         -41.7471         -175.03         -41.7471         -175.03        -0.025726         141.785
