! TOUCHSTONE file generated by CST MICROWAVE STUDIO
! Date and time: Fri Oct  2 16:54:44 2020
! Project name: Scenario_1_Free_Space_out_of_line.cst
! Parameters = {Lambda=346.42; Step_1=17.321; dy1=226.253; dx1=693; L_HA=400; MT=2.54; Rad_Dielectric=30; Rad_Lower=7.3; Rad_Upper=30; a_HA=580; a_WG=246; b_HA=500; b_WG=121; c_HA=0; c_WG=187; d_feed=85; h_feed=15; h_lower=18; h_upper=40}
! Header version: 2018
! Port assignment regex: !\s*Touchstone port\s*([0-9]+)\s*=\s*(CST MWS port|CST DS port)\s*([0-9]+|Zmin|Zmax)\s*\(\"(.*)\"\)(\s*mode\s*([0-9]+))?.*
! Touchstone port assignment:
! Touchstone port 1 = CST MWS port 1 ("")
! Touchstone port 2 = CST MWS port 2 ("")
# GHz S DB R 50
0.5                    -0.147567        -122.634         -63.8374        -127.282         -63.8374        -127.282      -0.00665474         151.136
0.501                   -0.15447        -123.072         -63.7276        -129.011         -63.7304        -129.015       -0.0067265          151.07
0.502                   -0.16151        -123.512          -63.615         -130.75         -63.6207         -130.76      -0.00679859         151.005
0.503                   -0.16869        -123.954         -63.4996        -132.501         -63.5082        -132.517      -0.00687101         150.939
0.504                  -0.176012        -124.398         -63.3813        -134.263         -63.3928        -134.284      -0.00694376         150.874
0.505                  -0.183478        -124.844         -63.2602        -136.036         -63.2745        -136.063      -0.00701685         150.808
0.506                   -0.19109        -125.291         -63.1362        -137.819         -63.1534        -137.852      -0.00709029         150.743
0.507                   -0.19885        -125.741         -63.0093        -139.612         -63.0293        -139.651      -0.00716409         150.677
0.508                  -0.206761        -126.192         -62.8795        -141.416         -62.9024        -141.461      -0.00723825         150.611
0.509                  -0.214825        -126.645         -62.7468        -143.229         -62.7725        -143.282       -0.0073128         150.545
0.51                   -0.223045          -127.1         -62.6112        -145.053         -62.6397        -145.112      -0.00738772         150.479
0.511                  -0.231423        -127.556         -62.4726        -146.885         -62.5039        -146.951      -0.00746305         150.413
0.512                  -0.239962        -128.015         -62.3311        -148.728         -62.3652          -148.8      -0.00753877         150.347
0.513                  -0.248665        -128.476         -62.1867        -150.579         -62.2236        -150.659      -0.00761491         150.281
0.514                  -0.257534        -128.938         -62.0394         -152.44          -62.079        -152.526      -0.00769148         150.215
0.515                  -0.266572        -129.403         -61.8891        -154.309         -61.9315        -154.403      -0.00776848         150.148
0.516                  -0.275783         -129.87          -61.736        -156.187          -61.781        -156.288      -0.00784593         150.082
0.517                  -0.285169        -130.339           -61.58        -158.075         -61.6277        -158.182      -0.00792384         150.015
0.518                  -0.294734        -130.809         -61.4211         -159.97         -61.4714        -160.085      -0.00800222         149.949
0.519                  -0.304481        -131.282         -61.2593        -161.875         -61.3123        -161.996      -0.00808108         149.882
0.52                   -0.314413        -131.757         -61.0947        -163.788         -61.1503        -163.915      -0.00816045         149.815
0.521                  -0.324534        -132.234         -60.9274        -165.709         -60.9855        -165.843      -0.00824032         149.748
0.522                  -0.334847        -132.713         -60.7572        -167.639         -60.8179        -167.779      -0.00832072         149.681
0.523                  -0.345356        -133.195         -60.5843        -169.577         -60.6475        -169.723      -0.00840166         149.614
0.524                  -0.356065        -133.679         -60.4086        -171.524         -60.4744        -171.676      -0.00848316         149.547
0.525                  -0.366978        -134.164         -60.2303         -173.48         -60.2986        -173.636      -0.00856522          149.48
0.526                  -0.378099        -134.652         -60.0494        -175.445           -60.12        -175.605      -0.00864788         149.413
0.527                  -0.389433        -135.143         -59.8658        -177.418         -59.9389        -177.583      -0.00873113         149.345
0.528                  -0.400982        -135.635         -59.6797          -179.4         -59.7551        -179.569      -0.00881501         149.278
0.529                  -0.412753         -136.13          -59.491         178.608         -59.5688         178.437      -0.00889953          149.21
0.53                   -0.424749        -136.628         -59.2999         176.607           -59.38         176.434      -0.00898471         149.142
0.531                  -0.436976        -137.127         -59.1064         174.597         -59.1888         174.421      -0.00907056         149.074
0.532                  -0.449438        -137.629         -58.9105         172.576         -58.9951           172.4      -0.00915711         149.006
0.533                   -0.46214        -138.134         -58.7123         170.545         -58.7991         170.369      -0.00924438         148.938
0.534                  -0.475088        -138.641         -58.5118         168.504         -58.6007         168.328      -0.00933238          148.87
0.535                  -0.488286         -139.15         -58.3091         166.452         -58.4001         166.277      -0.00942115         148.802
0.536                  -0.501741        -139.662         -58.1043         164.388         -58.1974         164.216       -0.0095107         148.734
0.537                  -0.515458        -140.176         -57.8975         162.312         -57.9925         162.144      -0.00960106         148.665
0.538                  -0.529444        -140.693         -57.6887         160.224         -57.7855          160.06      -0.00969225         148.597
0.539                  -0.543703        -141.212         -57.4779         158.123         -57.5766         157.965       -0.0097843         148.528
0.54                   -0.558242        -141.734         -57.2654         156.008         -57.3658         155.857      -0.00987723         148.459
0.541                  -0.573069        -142.259         -57.0511         153.879         -57.1531         153.736      -0.00997107         148.391
0.542                  -0.588188        -142.786         -56.8352         151.735         -56.9386         151.602       -0.0100659         148.322
0.543                  -0.603608        -143.315         -56.6177         149.576         -56.7225         149.453       -0.0101616         148.252
0.544                  -0.619335        -143.848         -56.3989         147.401         -56.5049          147.29       -0.0102583         148.183
0.545                  -0.635377        -144.383         -56.1787         145.208         -56.2858          145.11       -0.0103561         148.114
0.546                   -0.65174        -144.921         -55.9574         142.997         -56.0653         142.915       -0.0104549         148.045
0.547                  -0.668433        -145.462         -55.7351         140.767         -55.8435         140.701       -0.0105548         147.975
0.548                  -0.685463        -146.005         -55.5119         138.518         -55.6207         138.469       -0.0106559         147.905
0.549                  -0.702838        -146.551         -55.2881         136.247         -55.3969         136.218        -0.010758         147.836
0.55                   -0.720567          -147.1         -55.0638         133.955         -55.1723         133.947       -0.0108614         147.766
0.551                  -0.738658        -147.651         -54.8392          131.64         -54.9471         131.653        -0.010966         147.696
0.552                  -0.757121        -148.206         -54.6146         129.301         -54.7215         129.337       -0.0110719         147.626
0.553                  -0.775963        -148.763         -54.3902         126.937         -54.4956         126.997        -0.011179         147.555
0.554                  -0.795194        -149.324         -54.1664         124.547         -54.2698         124.631       -0.0112875         147.485
0.555                  -0.814824        -149.887         -53.9435          122.13         -54.0443         122.239       -0.0113974         147.415
0.556                  -0.834862        -150.453         -53.7218         119.686         -53.8195         119.819       -0.0115087         147.344
0.557                  -0.855318        -151.021         -53.5017         117.212         -53.5957          117.37       -0.0116215         147.273
0.558                  -0.876203        -151.593         -53.2838          114.71         -53.3733          114.89       -0.0117357         147.202
0.559                  -0.897526        -152.168         -53.0684         112.177         -53.1528         112.379       -0.0118515         147.131
0.56                   -0.919298        -152.746         -52.8562         109.615         -52.9347         109.835       -0.0119689          147.06
0.561                  -0.941531        -153.326         -52.6477         107.023         -52.7196         107.258        -0.012088         146.989
0.562                  -0.964234         -153.91         -52.4436         104.403         -52.5081         104.646       -0.0122087         146.918
0.563                   -0.98742        -154.496         -52.2446         101.754         -52.3011         102.001       -0.0123311         146.846
0.564                    -1.0111        -155.086         -52.0513         99.0801         -52.0993         99.3229       -0.0124553         146.775
0.565                   -1.03529        -155.678         -51.8645         96.3828         -51.9037         96.6128       -0.0125813         146.703
0.566                   -1.05999        -156.273         -51.6848         93.6661         -51.7151         93.8731       -0.0127092         146.631
0.567                   -1.08522        -156.872         -51.5131         90.9345         -51.5346         91.1075       -0.0128389         146.559
0.568                     -1.111        -157.473           -51.35         88.1938         -51.3631          88.321       -0.0129707         146.487
0.569                   -1.13733        -158.077         -51.1958         85.4507         -51.2016         85.5201       -0.0131044         146.414
0.57                    -1.16422        -158.684         -51.0512          82.713         -51.0511         82.7133       -0.0132402         146.342
0.571                    -1.1917        -159.294         -50.9161         79.9895         -50.9121         79.9107       -0.0133781         146.269
0.572                   -1.21977        -159.907         -50.7906         77.2896         -50.7852         77.1242       -0.0135182         146.197
0.573                   -1.24844        -160.523         -50.6743         74.6231         -50.6703         74.3673       -0.0136604         146.124
0.574                   -1.27774        -161.141         -50.5666         71.9996          -50.567         71.6541       -0.0138049         146.051
0.575                   -1.30766        -161.763         -50.4664         69.4281         -50.4746         68.9989       -0.0139516         145.977
0.576                   -1.33823        -162.387         -50.3726         66.9165         -50.3914         66.4154       -0.0141007         145.904
0.577                   -1.36946        -163.014         -50.2835         64.4709         -50.3156         63.9148       -0.0142522         145.831
0.578                   -1.40136        -163.644         -50.1973         62.0952         -50.2447         61.5055        -0.014406         145.757
0.579                   -1.43395        -164.276         -50.1123         59.7906         -50.1759         59.1921       -0.0145624         145.683
0.58                    -1.46723        -164.911         -50.0266          57.556         -50.1064         56.9741       -0.0147212         145.609
0.581                   -1.50122        -165.549         -49.9383         55.3873         -50.0334         54.8468       -0.0148825         145.535
0.582                   -1.53594        -166.189         -49.8459         53.2784         -49.9544         52.8011       -0.0150465         145.461
0.583                    -1.5714        -166.832         -49.7481         51.2211         -49.8673         50.8244        -0.015213         145.386
0.584                    -1.6076        -167.477         -49.6439          49.206         -49.7709         48.9019       -0.0153822         145.312
0.585                   -1.64456        -168.124         -49.5327         47.2231         -49.6641         47.0179        -0.015554         145.237
0.586                    -1.6823        -168.774         -49.4142         45.2622         -49.5468         45.1568       -0.0157285         145.162
0.587                   -1.72082        -169.427         -49.2884         43.3134         -49.4193          43.304       -0.0159057         145.087
0.588                   -1.76014        -170.081         -49.1555         41.3679         -49.2823          41.447       -0.0160857         145.012
0.589                   -1.80026        -170.737         -49.0161         39.4179         -49.1367         39.5752       -0.0162684         144.936
0.59                     -1.8412        -171.396         -48.8708         37.4568         -48.9837         37.6808       -0.0164539         144.861
0.591                   -1.88296        -172.056         -48.7204         35.4794         -48.8245         35.7577       -0.0166422         144.785
0.592                   -1.92556        -172.719         -48.5657         33.4816         -48.6604         33.8022       -0.0168332         144.709
0.593                   -1.96901        -173.383         -48.4074         31.4608         -48.4926         31.8123       -0.0170271         144.633
0.594                   -2.01331        -174.049         -48.2464         29.4151         -48.3221         29.7872       -0.0172238         144.556
0.595                   -2.05846        -174.716         -48.0833         27.3438           -48.15         27.7273       -0.0174233          144.48
0.596                   -2.10448        -175.385          -47.919         25.2466          -47.977         25.6339       -0.0176256         144.403
0.597                   -2.15137        -176.056         -47.7539         23.1242         -47.8039         23.5087       -0.0178308         144.326
0.598                   -2.19914        -176.728         -47.5887         20.9773         -47.6314         21.3539       -0.0180387         144.249
0.599                   -2.24778        -177.401         -47.4239         18.8073         -47.4598         19.1718       -0.0182495         144.172
0.6                     -2.29731        -178.075         -47.2597         16.6157         -47.2897         16.9651       -0.0184631         144.095
0.601                   -2.34772        -178.751         -47.0966         14.4041         -47.1213         14.7362       -0.0186795         144.017
0.602                   -2.39902        -179.427         -46.9349         12.1743          -46.955         12.4876       -0.0188987         143.939
0.603                    -2.4512         179.895         -46.7748         9.92804         -46.7908         10.2217       -0.0191207         143.861
0.604                   -2.50427         179.217         -46.6164         7.66711         -46.6289         7.94067       -0.0193455         143.783
0.605                   -2.55822         178.538         -46.4599         5.39324         -46.4694         5.64675       -0.0195731         143.705
0.606                   -2.61305         177.858         -46.3054          3.1081         -46.3124         3.34189       -0.0198035         143.626
0.607                   -2.66876         177.178         -46.1529        0.813299         -46.1579         1.02793       -0.0200367         143.547
0.608                   -2.72535         176.497         -46.0026        -1.48966         -46.0058        -1.29344       -0.0202728         143.468
0.609                   -2.78281         175.815         -45.8544        -3.79936         -45.8561        -3.62069       -0.0205117         143.389
0.61                    -2.84113         175.133         -45.7082         -6.1145         -45.7088        -5.95241       -0.0207534         143.309
0.611                   -2.90031         174.451         -45.5642        -8.43386         -45.5638        -8.28735        -0.020998          143.23
0.612                   -2.96034         173.768         -45.4222        -10.7563         -45.4211        -10.6244       -0.0212455          143.15
0.613                   -3.02122         173.085         -45.2821        -13.0809         -45.2805        -12.9625        -0.021496          143.07
0.614                   -3.08294         172.401          -45.144        -15.4067          -45.142        -15.3007       -0.0217495         142.989
0.615                    -3.1455         171.718         -45.0078        -17.7328         -45.0054        -17.6384        -0.022006         142.909
0.616                   -3.20888         171.033         -44.8733        -20.0586         -44.8708        -19.9747       -0.0222656         142.828
0.617                   -3.27307         170.349         -44.7405        -22.3834         -44.7379        -22.3092       -0.0225283         142.747
0.618                   -3.33809         169.664         -44.6093        -24.7066         -44.6067        -24.6412       -0.0227943         142.666
0.619                   -3.40391         168.978         -44.4796        -27.0278          -44.477        -26.9703       -0.0230637         142.584
0.62                    -3.47053         168.292         -44.3514        -29.3466         -44.3489        -29.2963       -0.0233364         142.502
0.621                   -3.53795         167.605         -44.2245        -31.6625         -44.2221        -31.6187       -0.0236127          142.42
0.622                   -3.60617         166.918         -44.0988        -33.9754         -44.0966        -33.9374       -0.0238926         142.338
0.623                   -3.67519          166.23         -43.9744        -36.2849         -43.9723        -36.2521       -0.0241763         142.255
0.624                     -3.745         165.541          -43.851         -38.591         -43.8491        -38.5629       -0.0244639         142.172
0.625                   -3.81561         164.851         -43.7286        -40.8935         -43.7269        -40.8695       -0.0247555         142.089
0.626                   -3.88703         164.159         -43.6072        -43.1923         -43.6056         -43.172       -0.0250513         142.006
0.627                   -3.95925         163.467         -43.4865        -45.4874         -43.4852        -45.4703       -0.0253515         141.922
0.628                   -4.03229         162.773         -43.3667        -47.7788         -43.3655        -47.7646       -0.0256562         141.838
0.629                   -4.10617         162.078         -43.2475        -50.0666         -43.2465        -50.0548       -0.0259656         141.754
