! TOUCHSTONE file generated by CST MICROWAVE STUDIO
! Date and time: Fri Oct  2 19:09:01 2020
! Project name: Scenario_1_Free_Space_out_of_line.cst
! Parameters = {Lambda=346.42; Step_1=17.321; dy1=226.253; dx1=866; L_HA=400; MT=2.54; Rad_Dielectric=30; Rad_Lower=7.3; Rad_Upper=30; a_HA=580; a_WG=246; b_HA=500; b_WG=121; c_HA=0; c_WG=187; d_feed=85; h_feed=15; h_lower=18; h_upper=40}
! Header version: 2018
! Port assignment regex: !\s*Touchstone port\s*([0-9]+)\s*=\s*(CST MWS port|CST DS port)\s*([0-9]+|Zmin|Zmax)\s*\(\"(.*)\"\)(\s*mode\s*([0-9]+))?.*
! Touchstone port assignment:
! Touchstone port 1 = CST MWS port 1 ("")
! Touchstone port 2 = CST MWS port 2 ("")
# GHz S DB R 50
0.5                    -0.147796         -122.54         -64.6318          135.51         -64.6318          135.51      -0.00662141         151.126
0.501                  -0.157429        -122.966          -64.664         133.457         -64.6582         133.471      -0.00668026          151.06
0.502                  -0.167077        -123.395         -64.6918         131.356         -64.6803         131.387      -0.00674001         150.995
0.503                  -0.176743        -123.825         -64.7145         129.208         -64.6975         129.258      -0.00680066          150.93
0.504                  -0.186432        -124.257         -64.7319         127.013         -64.7095         127.083      -0.00686221         150.864
0.505                  -0.196146        -124.691         -64.7433         124.772         -64.7158         124.864      -0.00692468         150.798
0.506                  -0.205891        -125.127         -64.7484         122.485          -64.716         122.602      -0.00698807         150.733
0.507                  -0.215671        -125.566         -64.7467         120.154         -64.7096         120.296       -0.0070524         150.667
0.508                   -0.22549        -126.006         -64.7378          117.78         -64.6963          117.95      -0.00711767         150.601
0.509                  -0.235353        -126.448          -64.721         115.366         -64.6756         115.564      -0.00718389         150.535
0.51                   -0.245264        -126.893         -64.6962         112.913         -64.6471         113.141      -0.00725108         150.469
0.511                   -0.25523         -127.34         -64.6627         110.423         -64.6103         110.682      -0.00731923         150.403
0.512                  -0.265253        -127.789         -64.6203           107.9         -64.5651         108.191      -0.00738837         150.336
0.513                  -0.275341         -128.24         -64.5686         105.346         -64.5109         105.669      -0.00745849          150.27
0.514                  -0.285498        -128.694         -64.5072         102.765         -64.4476         103.121      -0.00752961         150.204
0.515                  -0.295731         -129.15          -64.436          100.16         -64.3748         100.549      -0.00760174         150.137
0.516                  -0.306043        -129.608         -64.3547          97.535         -64.2924         97.9564      -0.00767489         150.071
0.517                  -0.316443        -130.069         -64.2632         94.8938         -64.2003         95.3471      -0.00774907         150.004
0.518                  -0.326935        -130.532         -64.1614         92.2403         -64.0983         92.7246      -0.00782429         149.937
0.519                  -0.337526        -130.998         -64.0493         89.5783         -63.9863         90.0925      -0.00790055         149.871
0.52                   -0.348223        -131.466         -63.9268         86.9119         -63.8645         87.4545      -0.00797788         149.804
0.521                  -0.359032        -131.937         -63.7942         84.2448         -63.7329         84.8143      -0.00805627         149.737
0.522                  -0.369959        -132.411         -63.6515         81.5809         -63.5916         82.1753      -0.00813575          149.67
0.523                  -0.381012        -132.887          -63.499         78.9237         -63.4407         79.5408      -0.00821632         149.602
0.524                  -0.392199        -133.366         -63.3369         76.2765         -63.2806         76.9142      -0.00829798         149.535
0.525                  -0.403525        -133.847         -63.1656         73.6424         -63.1115         74.2983      -0.00838077         149.468
0.526                  -0.414999        -134.331         -62.9853         71.0243         -62.9337         71.6958      -0.00846467           149.4
0.527                  -0.426629        -134.818         -62.7966         68.4247         -62.7476         69.1093      -0.00854971         149.333
0.528                  -0.438422        -135.308         -62.5997         65.8457         -62.5534         66.5408       -0.0086359         149.265
0.529                  -0.450386        -135.801         -62.3952         63.2892         -62.3517         63.9924      -0.00872325         149.198
0.53                    -0.46253        -136.296         -62.1834         60.7568         -62.1428         61.4654      -0.00881176          149.13
0.531                  -0.474862        -136.794         -61.9648         58.2497         -61.9271         58.9612      -0.00890146         149.062
0.532                   -0.48739        -137.295         -61.7398         55.7689         -61.7051         56.4808      -0.00899235         148.994
0.533                  -0.500124          -137.8          -61.509         53.3148         -61.4772         54.0249      -0.00908445         148.926
0.534                  -0.513072        -138.307         -61.2727         50.8879         -61.2437          51.594      -0.00917777         148.858
0.535                  -0.526244        -138.817         -61.0314         48.4883         -61.0051         49.1882      -0.00927232         148.789
0.536                  -0.539648         -139.33         -60.7855         46.1157         -60.7619         46.8075      -0.00936811         148.721
0.537                  -0.553295        -139.846         -60.5354         43.7698         -60.5143         44.4516      -0.00946516         148.652
0.538                  -0.567194        -140.365         -60.2814         41.4501         -60.2628         42.1202      -0.00956348         148.584
0.539                  -0.581354        -140.888          -60.024         39.1558         -60.0077         39.8126      -0.00966308         148.515
0.54                   -0.595787        -141.413         -59.7635          36.886         -59.7493          37.528      -0.00976398         148.446
0.541                  -0.610502        -141.941         -59.5002         34.6397          -59.488         35.2656      -0.00986619         148.377
0.542                  -0.625509        -142.473         -59.2343         32.4159          -59.224         33.0244      -0.00996972         148.308
0.543                   -0.64082        -143.008         -58.9663         30.2132         -58.9577         30.8032       -0.0100746         148.239
0.544                  -0.656444        -143.546         -58.6963         28.0304         -58.6893          28.601       -0.0101808          148.17
0.545                  -0.672393        -144.087         -58.4247         25.8661          -58.419         26.4164       -0.0102884         148.101
0.546                  -0.688678        -144.631         -58.1515          23.719         -58.1471         24.2481       -0.0103974         148.031
0.547                  -0.705311        -145.179          -57.877         21.5877         -57.8738         22.0948       -0.0105077         147.962
0.548                  -0.722301         -145.73         -57.6015         19.4705         -57.5992         19.9551       -0.0106195         147.892
0.549                  -0.739662        -146.284         -57.3251         17.3662         -57.3236         17.8276       -0.0107327         147.822
0.55                   -0.757404        -146.841         -57.0479         15.2731         -57.0472         15.7109       -0.0108474         147.752
0.551                  -0.775539        -147.402         -56.7702         13.1898         -56.7701         13.6036       -0.0109635         147.682
0.552                   -0.79408        -147.965          -56.492         11.1148         -56.4924         11.5041        -0.011081         147.612
0.553                  -0.813038        -148.532         -56.2135         9.04664         -56.2142         9.41116       -0.0112001         147.542
0.554                  -0.832425        -149.102         -55.9348         6.98377         -55.9359         7.32321       -0.0113207         147.471
0.555                  -0.852255        -149.676         -55.6561         4.92476         -55.6573         5.23887       -0.0114428         147.401
0.556                  -0.872538        -150.253         -55.3774         2.86814         -55.3787         3.15671       -0.0115664          147.33
0.557                  -0.893288        -150.833         -55.0988        0.812476         -55.1001         1.07534       -0.0116916          147.26
0.558                  -0.914518        -151.416         -54.8204        -1.24364         -54.8218        -1.00664       -0.0118184         147.189
0.559                  -0.936239        -152.002         -54.5425        -3.30162         -54.5437        -3.09059       -0.0119467         147.118
0.56                   -0.958465        -152.592         -54.2649        -5.36282          -54.266        -5.17786       -0.0120767         147.047
0.561                  -0.981208        -153.184         -53.9879         -7.4286         -53.9888        -7.26978       -0.0122083         146.975
0.562                   -1.00448         -153.78         -53.7114        -9.50028         -53.7121        -9.36764       -0.0123415         146.904
0.563                    -1.0283         -154.38         -53.4357        -11.5792         -53.4361        -11.4727       -0.0124764         146.832
0.564                   -1.05267        -154.982         -53.1608        -13.6665          -53.161        -13.5863        -0.012613         146.761
0.565                   -1.07761        -155.587         -52.8868        -15.7636         -52.8866        -15.7096       -0.0127513         146.689
0.566                   -1.10313        -156.196         -52.6137        -17.8716         -52.6133        -17.8437       -0.0128914         146.617
0.567                   -1.12925        -156.807         -52.3418        -19.9917         -52.3411        -19.9899       -0.0130331         146.545
0.568                   -1.15597        -157.422          -52.071         -22.125         -52.0701        -22.1492       -0.0131767         146.473
0.569                   -1.18332        -158.039         -51.8016        -24.2727         -51.8003        -24.3228        -0.013322         146.401
0.57                     -1.2113         -158.66         -51.5335        -26.4358         -51.5321        -26.5116       -0.0134691         146.328
0.571                   -1.23992        -159.283          -51.267        -28.6153         -51.2653        -28.7167       -0.0136181         146.256
0.572                   -1.26921        -159.909         -51.0022        -30.8121         -51.0003        -30.9389       -0.0137689         146.183
0.573                   -1.29916        -160.539         -50.7391        -33.0273         -50.7371        -33.1793       -0.0139216          146.11
0.574                    -1.3298         -161.17         -50.4779        -35.2616         -50.4758        -35.4386       -0.0140762         146.037
0.575                   -1.36114        -161.805         -50.2187        -37.5158         -50.2167        -37.7175       -0.0142328         145.964
0.576                   -1.39318        -162.443         -49.9618        -39.7908         -49.9598        -40.0168       -0.0143912         145.891
0.577                   -1.42595        -163.083         -49.7072        -42.0871         -49.7053        -42.3371       -0.0145517         145.817
0.578                   -1.45944        -163.726         -49.4551        -44.4053         -49.4534         -44.679       -0.0147141         145.744
0.579                   -1.49369        -164.371         -49.2056         -46.746         -49.2042        -47.0429       -0.0148786          145.67
0.58                    -1.52869        -165.019          -48.959        -49.1096          -48.958        -49.4291       -0.0150451         145.596
0.581                   -1.56446        -165.669         -48.7155        -51.4964         -48.7149        -51.8381       -0.0152137         145.522
0.582                   -1.60101        -166.322         -48.4751        -53.9066          -48.475        -54.2698       -0.0153844         145.448
0.583                   -1.63835        -166.977          -48.238        -56.3404         -48.2386        -56.7245       -0.0155572         145.373
0.584                   -1.67649        -167.634         -48.0046        -58.7978         -48.0059        -59.2021       -0.0157322         145.299
0.585                   -1.71544        -168.294         -47.7748        -61.2787          -47.777        -61.7024       -0.0159093         145.224
0.586                   -1.75522        -168.955          -47.549        -63.7829         -47.5521        -64.2252       -0.0160887         145.149
0.587                   -1.79584        -169.619         -47.3273          -66.31         -47.3314          -66.77       -0.0162703         145.074
0.588                   -1.83729        -170.285         -47.1099        -68.8597         -47.1151        -69.3364       -0.0164542         144.999
0.589                    -1.8796        -170.953         -46.8969        -71.4312         -46.9033        -71.9238       -0.0166404         144.923
0.59                    -1.92277        -171.622         -46.6886        -74.0241         -46.6963        -74.5313       -0.0168289         144.848
0.591                   -1.96682        -172.294         -46.4851        -76.6373         -46.4941        -77.1581       -0.0170198         144.772
0.592                   -2.01175        -172.967         -46.2866          -79.27          -46.297        -79.8033       -0.0172131         144.696
0.593                   -2.05756        -173.641         -46.0932        -81.9211          -46.105        -82.4656       -0.0174088          144.62
0.594                   -2.10428        -174.317          -45.905        -84.5895         -45.9184        -85.1439        -0.017607         144.544
0.595                    -2.1519        -174.995         -45.7221        -87.2738         -45.7371        -87.8369       -0.0178077         144.468
0.596                   -2.20044        -175.674         -45.5447        -89.9727         -45.5612        -90.5432       -0.0180109         144.391
0.597                   -2.24989        -176.355         -45.3728        -92.6847          -45.391        -93.2613       -0.0182167         144.314
0.598                   -2.30028        -177.036         -45.2065        -95.4084         -45.2263        -95.9897       -0.0184251         144.237
0.599                    -2.3516        -177.719         -45.0458        -98.1421         -45.0673        -98.7268       -0.0186362          144.16
0.6                     -2.40386        -178.403         -44.8907        -100.884         -44.9139        -101.471       -0.0188499         144.083
0.601                   -2.45707        -179.088         -44.7414        -103.633         -44.7661        -104.221       -0.0190664         144.005
0.602                   -2.51124        -179.774         -44.5976        -106.387         -44.6239        -106.974       -0.0192857         143.927
0.603                   -2.56636          179.54         -44.4594        -109.144         -44.4872        -109.729       -0.0195077         143.849
0.604                   -2.62245         178.852         -44.3267        -111.903         -44.3559        -112.485       -0.0197327         143.771
0.605                   -2.67951         178.164         -44.1994        -114.663           -44.23         -115.24       -0.0199605         143.693
0.606                   -2.73755         177.476         -44.0774         -117.42         -44.1094        -117.992       -0.0201913         143.614
0.607                   -2.79656         176.787         -43.9606        -120.175         -43.9938         -120.74        -0.020425         143.535
0.608                   -2.85656         176.097         -43.8488        -122.925         -43.8831        -123.483       -0.0206618         143.456
0.609                   -2.91754         175.407         -43.7418        -125.669         -43.7772        -126.219       -0.0209017         143.377
0.61                    -2.97951         174.717         -43.6396        -128.406         -43.6759        -128.946       -0.0211447         143.298
0.611                   -3.04248         174.027         -43.5418        -131.134         -43.5789        -131.665       -0.0213909         143.218
0.612                   -3.10644         173.336         -43.4483        -133.853         -43.4862        -134.373       -0.0216404         143.138
0.613                    -3.1714         172.646         -43.3588        -136.562         -43.3973         -137.07       -0.0218932         143.058
0.614                   -3.23737         171.955         -43.2732        -139.259         -43.3122        -139.755       -0.0221493         142.978
0.615                   -3.30434         171.265         -43.1912        -141.944         -43.2306        -142.428       -0.0224089         142.897
0.616                   -3.37231         170.575         -43.1126        -144.616         -43.1522        -145.087       -0.0226719         142.816
0.617                    -3.4413         169.885         -43.0371        -147.274         -43.0769        -147.732       -0.0229385         142.735
0.618                    -3.5113         169.196         -42.9645        -149.919         -43.0043        -150.364       -0.0232086         142.654
0.619                   -3.58231         168.506         -42.8946         -152.55         -42.9343        -152.981       -0.0234825         142.573
0.62                    -3.65433         167.818         -42.8271        -155.166         -42.8667        -155.583       -0.0237601         142.491
0.621                   -3.72738          167.13         -42.7618        -157.767         -42.8011         -158.17       -0.0240415         142.409
0.622                   -3.80144         166.442         -42.6984        -160.354         -42.7374        -160.743       -0.0243268         142.327
0.623                   -3.87652         165.755         -42.6368        -162.926         -42.6754        -163.301        -0.024616         142.244
0.624                   -3.95263         165.069         -42.5768        -165.483         -42.6149        -165.844       -0.0249093         142.161
0.625                   -4.02976         164.384          -42.518        -168.026         -42.5555        -168.374       -0.0252067         142.078
0.626                   -4.10792         163.699         -42.4604        -170.555         -42.4973        -170.889       -0.0255083         141.995
0.627                   -4.18711         163.015         -42.4037        -173.069         -42.4399         -173.39       -0.0258143         141.912
0.628                   -4.26733         162.332         -42.3477         -175.57         -42.3831        -175.877       -0.0261245         141.828
0.629                   -4.34859         161.651         -42.2923        -178.058         -42.3269        -178.352       -0.0264393         141.744
