! TOUCHSTONE file generated by CST MICROWAVE STUDIO
! Date and time: Fri Oct  2 18:55:38 2020
! Project name: Scenario_1_Free_Space_out_of_line.cst
! Parameters = {Lambda=346.42; Step_1=17.321; dy1=226.253; dx1=1039; L_HA=400; MT=2.54; Rad_Dielectric=30; Rad_Lower=7.3; Rad_Upper=30; a_HA=580; a_WG=246; b_HA=500; b_WG=121; c_HA=0; c_WG=187; d_feed=85; h_feed=15; h_lower=18; h_upper=40}
! Header version: 2018
! Port assignment regex: !\s*Touchstone port\s*([0-9]+)\s*=\s*(CST MWS port|CST DS port)\s*([0-9]+|Zmin|Zmax)\s*\(\"(.*)\"\)(\s*mode\s*([0-9]+))?.*
! Touchstone port assignment:
! Touchstone port 1 = CST MWS port 1 ("")
! Touchstone port 2 = CST MWS port 2 ("")
# GHz S DB R 50
0.5                     -0.14826        -122.533         -65.2955         39.9176         -65.2955         39.9176      -0.00668035         151.137
0.501                   -0.15482        -122.983         -65.1911         37.4939         -65.1893         37.4854      -0.00673393         151.072
0.502                  -0.161582        -123.435         -65.0813          35.057         -65.0778         35.0407       -0.0067884         151.007
0.503                  -0.168546        -123.888         -64.9662         32.6081         -64.9609         32.5846      -0.00684376         150.941
0.504                  -0.175715        -124.343         -64.8457         30.1483         -64.8388         30.1182      -0.00690003         150.876
0.505                   -0.18309        -124.799           -64.72         27.6788         -64.7114         27.6428      -0.00695723          150.81
0.506                  -0.190671        -125.257          -64.589         25.2007         -64.5789         25.1595      -0.00701536         150.744
0.507                   -0.19846        -125.716         -64.4529          22.715         -64.4413         22.6692      -0.00707445         150.679
0.508                  -0.206459        -126.177         -64.3118          20.223         -64.2987         20.1731      -0.00713451         150.613
0.509                  -0.214668         -126.64         -64.1658         17.7254         -64.1513          17.672      -0.00719554         150.547
0.51                   -0.223088        -127.104          -64.015         15.2233         -63.9992         15.1669      -0.00725758         150.481
0.511                  -0.231721         -127.57         -63.8595         12.7175         -63.8425         12.6586      -0.00732063         150.415
0.512                  -0.240568        -128.037         -63.6995         10.2087         -63.6814         10.1477       -0.0073847         150.349
0.513                  -0.249629        -128.506         -63.5351          7.6976          -63.516         7.63506      -0.00744981         150.282
0.514                  -0.258905        -128.977         -63.3665         5.18494         -63.3465         5.12118      -0.00751597         150.216
0.515                  -0.268398        -129.449          -63.194         2.67119         -63.1731         2.60658       -0.0075832          150.15
0.516                  -0.278108        -129.923         -63.0175        0.156837         -62.9959       0.0917001       -0.0076515         150.083
0.517                  -0.288035        -130.399         -62.8374        -2.35774         -62.8151         -2.4231      -0.00772091         150.016
0.518                  -0.298181        -130.876         -62.6538        -4.87222          -62.631        -4.93754      -0.00779142          149.95
0.519                  -0.308546        -131.355         -62.4669        -7.38637         -62.4436        -7.45142      -0.00786305         149.883
0.52                    -0.31913        -131.835         -62.2769        -9.90002         -62.2532        -9.96459      -0.00793582         149.816
0.521                  -0.329933        -132.317          -62.084        -12.4131         -62.0601         -12.477      -0.00800974         149.749
0.522                  -0.340956        -132.801         -61.8884        -14.9255         -61.8642        -14.9886      -0.00808482         149.682
0.523                  -0.352198        -133.287         -61.6903        -17.4374          -61.666        -17.4995      -0.00816108         149.615
0.524                  -0.363661        -133.774         -61.4898        -19.9487         -61.4655        -20.0098      -0.00823852         149.548
0.525                  -0.375342        -134.263         -61.2871        -22.4597         -61.2629        -22.5196      -0.00831717          149.48
0.526                  -0.387243        -134.754         -61.0826        -24.9705         -61.0585        -25.0291      -0.00839704         149.413
0.527                  -0.399362        -135.246         -60.8762        -27.4813         -60.8524        -27.5387      -0.00847814         149.346
0.528                  -0.411699         -135.74         -60.6683        -29.9925         -60.6447        -30.0485      -0.00856049         149.278
0.529                  -0.424253        -136.236         -60.4589        -32.5043         -60.4357        -32.5588      -0.00864409          149.21
0.53                   -0.437023        -136.734         -60.2484         -35.017         -60.2256        -35.0701      -0.00872896         149.142
0.531                  -0.450007        -137.233         -60.0367         -37.531         -60.0145        -37.5826      -0.00881512         149.075
0.532                  -0.463205        -137.734         -59.8243        -40.0467         -59.8026        -40.0968      -0.00890257         149.007
0.533                  -0.476613        -138.237         -59.6111        -42.5644           -59.59         -42.613      -0.00899133         148.938
0.534                  -0.490231        -138.742         -59.3973        -45.0845         -59.3769        -45.1315      -0.00908142          148.87
0.535                  -0.504056        -139.249         -59.1832        -47.6074         -59.1636        -47.6529      -0.00917285         148.802
0.536                  -0.518085        -139.758         -58.9689        -50.1335           -58.95        -50.1774      -0.00926562         148.734
0.537                  -0.532317        -140.269         -58.7545        -52.6632         -58.7364        -52.7054      -0.00935976         148.665
0.538                  -0.546749        -140.782         -58.5402        -55.1968         -58.5229        -55.2374      -0.00945528         148.596
0.539                  -0.561376        -141.297         -58.3262        -57.7347         -58.3097        -57.7736      -0.00955218         148.528
0.54                   -0.576198        -141.815         -58.1125        -60.2772          -58.097        -60.3144      -0.00965048         148.459
0.541                   -0.59121        -142.334         -57.8993        -62.8246         -57.8847        -62.8601      -0.00975021          148.39
0.542                   -0.60641        -142.856         -57.6868        -65.3773         -57.6732        -65.4111      -0.00985135         148.321
0.543                  -0.621795         -143.38         -57.4751        -67.9356         -57.4624        -67.9675      -0.00995394         148.252
0.544                  -0.637364        -143.907         -57.2643        -70.4996         -57.2526        -70.5297        -0.010058         148.183
0.545                  -0.653115        -144.436         -57.0546        -73.0695         -57.0438        -73.0977       -0.0101635         148.113
0.546                  -0.669047        -144.968          -56.846        -75.6456         -56.8362        -75.6719       -0.0102705         148.044
0.547                  -0.685162        -145.503         -56.6387         -78.228         -56.6299        -78.2523        -0.010379         147.974
0.548                  -0.701464        -146.042         -56.4328        -80.8168         -56.4249         -80.839       -0.0104889         147.905
0.549                  -0.717957        -146.583         -56.2284         -83.412         -56.2215        -83.4322       -0.0106004         147.835
0.55                   -0.734652        -147.128         -56.0256        -86.0138         -56.0196        -86.0318       -0.0107135         147.765
0.551                  -0.751562        -147.677         -55.8245        -88.6221         -55.8194        -88.6379        -0.010828         147.695
0.552                  -0.768706        -148.229         -55.6252        -91.2368          -55.621        -91.2503       -0.0109442         147.625
0.553                  -0.786111        -148.786         -55.4278        -93.8578         -55.4245        -93.8691       -0.0110618         147.554
0.554                  -0.803809        -149.347         -55.2323        -96.4852         -55.2299        -96.4941       -0.0111811         147.484
0.555                  -0.821843        -149.913         -55.0389        -99.1186         -55.0372        -99.1252        -0.011302         147.414
0.556                  -0.840266        -150.484         -54.8475        -101.758         -54.8467        -101.762       -0.0114244         147.343
0.557                  -0.859143         -151.06         -54.6583        -104.403         -54.6582        -104.405       -0.0115485         147.272
0.558                  -0.878548        -151.641         -54.4713        -107.053         -54.4719        -107.053       -0.0116742         147.201
0.559                  -0.898569        -152.228         -54.2866        -109.709         -54.2879        -109.706       -0.0118015          147.13
0.56                   -0.919299         -152.82         -54.1041        -112.369         -54.1061        -112.364       -0.0119305         147.059
0.561                  -0.940841        -153.417          -53.924        -115.034         -53.9266        -115.027       -0.0120611         146.988
0.562                  -0.963297        -154.019         -53.7462        -117.703         -53.7494        -117.693       -0.0121935         146.917
0.563                  -0.986763        -154.626         -53.5708        -120.376         -53.5745        -120.364       -0.0123275         146.845
0.564                   -1.01132        -155.236         -53.3978        -123.052         -53.4019        -123.038       -0.0124632         146.773
0.565                   -1.03705        -155.849         -53.2272        -125.732         -53.2317        -125.715       -0.0126006         146.702
0.566                   -1.06396        -156.465         -53.0589        -128.413         -53.0638        -128.394       -0.0127397          146.63
0.567                   -1.09209        -157.081          -52.893        -131.097         -52.8983        -131.076       -0.0128806         146.558
0.568                   -1.12138        -157.698         -52.7295        -133.782          -52.735        -133.759       -0.0130232         146.486
0.569                   -1.15179        -158.314         -52.5682        -136.469          -52.574        -136.444       -0.0131676         146.413
0.57                    -1.18322        -158.929         -52.4092        -139.157         -52.4152         -139.13       -0.0133137         146.341
0.571                   -1.21556        -159.542         -52.2525        -141.844         -52.2586        -141.816       -0.0134616         146.268
0.572                   -1.24869        -160.153          -52.098        -144.532         -52.1042        -144.503       -0.0136113         146.196
0.573                   -1.28248        -160.762         -51.9456         -147.22         -51.9519        -147.189       -0.0137628         146.123
0.574                   -1.31681        -161.368         -51.7953        -149.907         -51.8016        -149.875       -0.0139162          146.05
0.575                   -1.35157        -161.972          -51.647        -152.592         -51.6533        -152.559       -0.0140713         145.976
0.576                   -1.38667        -162.575         -51.5006        -155.277         -51.5069        -155.243       -0.0142283         145.903
0.577                   -1.42204        -163.176         -51.3562        -157.959         -51.3624        -157.925       -0.0143872          145.83
0.578                   -1.45762        -163.776         -51.2135        -160.639         -51.2196        -160.605       -0.0145479         145.756
0.579                   -1.49337        -164.376         -51.0725        -163.318         -51.0785        -163.282       -0.0147105         145.682
0.58                    -1.52928        -164.976         -50.9332        -165.993         -50.9391        -165.958        -0.014875         145.608
0.581                   -1.56533        -165.577         -50.7955        -168.666         -50.8011        -168.631       -0.0150414         145.534
0.582                   -1.60153        -166.179         -50.6592        -171.336         -50.6646        -171.301       -0.0152097          145.46
0.583                   -1.63789        -166.782         -50.5243        -174.002         -50.5295        -173.968         -0.01538         145.386
0.584                   -1.67443        -167.387         -50.3906        -176.666         -50.3956        -176.632       -0.0155522         145.311
0.585                   -1.71116        -167.994         -50.2582        -179.326         -50.2629        -179.293       -0.0157264         145.236
0.586                   -1.74811        -168.603         -50.1269         178.017         -50.1313         178.049       -0.0159026         145.161
0.587                   -1.78532        -169.215         -49.9966         175.363         -50.0008         175.395       -0.0160808         145.086
0.588                    -1.8228        -169.829         -49.8672         172.713         -49.8711         172.743        -0.016261         145.011
0.589                   -1.86058        -170.447         -49.7387         170.066         -49.7423         170.095       -0.0164433         144.936
0.59                     -1.8987        -171.067         -49.6109         167.423         -49.6142          167.45       -0.0166276          144.86
0.591                   -1.93717        -171.691         -49.4838         164.783         -49.4869         164.809       -0.0168141         144.785
0.592                   -1.97603        -172.318         -49.3573         162.146         -49.3601          162.17       -0.0170027         144.709
0.593                    -2.0153        -172.948         -49.2313         159.512         -49.2338         159.534       -0.0171934         144.633
0.594                   -2.05501        -173.582         -49.1057         156.881         -49.1079         156.902       -0.0173863         144.556
0.595                   -2.09519        -174.219         -48.9805         154.253         -48.9825         154.271       -0.0175815          144.48
0.596                   -2.13584         -174.86         -48.8555         151.627         -48.8573         151.644       -0.0177789         144.403
0.597                   -2.17702        -175.504         -48.7309         149.003         -48.7324         149.018       -0.0179786         144.326
0.598                   -2.21872        -176.153         -48.6063         146.382         -48.6076         146.395       -0.0181807         144.249
0.599                   -2.26099        -176.805         -48.4819         143.763         -48.4829         143.774       -0.0183852         144.172
0.6                     -2.30384        -177.461         -48.3575         141.145         -48.3583         141.154       -0.0185921         144.095
0.601                   -2.34729        -178.121         -48.2331         138.529         -48.2337         138.536       -0.0188016         144.017
0.602                   -2.39138        -178.785         -48.1086         135.914         -48.1091         135.919       -0.0190136         143.939
0.603                   -2.43612        -179.452         -47.9841           133.3         -47.9844         133.303       -0.0192284         143.861
0.604                   -2.48154         179.876         -47.8594         130.686         -47.8595         130.688       -0.0194459         143.783
0.605                   -2.52767           179.2         -47.7345         128.073         -47.7345         128.073       -0.0196662         143.704
0.606                   -2.57453          178.52         -47.6095          125.46         -47.6093         125.458       -0.0198895         143.626
0.607                   -2.62214         177.835         -47.4842         122.847         -47.4839         122.843       -0.0201158         143.547
0.608                   -2.67054         177.147         -47.3586         120.233         -47.3583         120.228       -0.0203453         143.468
0.609                   -2.71975         176.454         -47.2328         117.619         -47.2324         117.612       -0.0205781         143.388
0.61                     -2.7698         175.756         -47.1067         115.003         -47.1062         114.995       -0.0208144         143.309
0.611                   -2.82072         175.054         -46.9803         112.386         -46.9798         112.377       -0.0210543         143.229
0.612                   -2.87255         174.348         -46.8536         109.768         -46.8531         109.757       -0.0212979         143.149
0.613                   -2.92531         173.638         -46.7266         107.148         -46.7261         107.136       -0.0215455         143.069
0.614                   -2.97905         172.922         -46.5993         104.525         -46.5988         104.513       -0.0217973         142.988
0.615                   -3.03378         172.202         -46.4717           101.9         -46.4712         101.887       -0.0220534         142.908
0.616                   -3.08957         171.478         -46.3439         99.2729         -46.3433         99.2591       -0.0223141         142.827
0.617                   -3.14643         170.749         -46.2157         96.6426         -46.2152         96.6283       -0.0225796         142.746
0.618                   -3.20442         170.015         -46.0874         94.0092         -46.0869         93.9947       -0.0228502         142.664
0.619                   -3.26357         169.276         -45.9587         91.3726         -45.9583         91.3579        -0.023126         142.582
0.62                    -3.32394         168.533         -45.8299         88.7326         -45.8295         88.7179       -0.0234074         142.501
0.621                   -3.38556         167.785         -45.7009          86.089         -45.7006         86.0744       -0.0236946         142.418
0.622                   -3.44849         167.032         -45.5718         83.4415         -45.5715         83.4272       -0.0239878         142.336
0.623                   -3.51277         166.275         -45.4426         80.7902         -45.4423         80.7763       -0.0242874         142.253
0.624                   -3.57847         165.513         -45.3132         78.1349          -45.313         78.1215       -0.0245936          142.17
0.625                   -3.64564         164.746         -45.1838         75.4754         -45.1837         75.4627       -0.0249066         142.087
0.626                   -3.71433         163.974         -45.0545         72.8117         -45.0543         72.7998       -0.0252266         142.003
0.627                   -3.78461         163.199         -44.9251         70.1437          -44.925         70.1328       -0.0255539          141.92
0.628                   -3.85654         162.418         -44.7958         67.4714         -44.7958         67.4615       -0.0258886         141.836
0.629                   -3.93019         161.633         -44.6667         64.7947         -44.6667          64.786        -0.026231         141.751
