! TOUCHSTONE file generated by CST MICROWAVE STUDIO
! Date and time: Fri Oct  2 18:47:33 2020
! Project name: Scenario_1_Free_Space_out_of_line.cst
! Parameters = {Lambda=346.42; Step_1=17.321; dy1=208.912; dx1=173; L_HA=400; MT=2.54; Rad_Dielectric=30; Rad_Lower=7.3; Rad_Upper=30; a_HA=580; a_WG=246; b_HA=500; b_WG=121; c_HA=0; c_WG=187; d_feed=85; h_feed=15; h_lower=18; h_upper=40}
! Header version: 2018
! Port assignment regex: !\s*Touchstone port\s*([0-9]+)\s*=\s*(CST MWS port|CST DS port)\s*([0-9]+|Zmin|Zmax)\s*\(\"(.*)\"\)(\s*mode\s*([0-9]+))?.*
! Touchstone port assignment:
! Touchstone port 1 = CST MWS port 1 ("")
! Touchstone port 2 = CST MWS port 2 ("")
# GHz S DB R 50
0.5                    -0.148109         -122.55         -59.9846         145.119         -59.9846         145.119      -0.00623705         151.152
0.501                  -0.152811        -122.992         -59.8155         143.682         -59.8155         143.682      -0.00626684         151.086
0.502                   -0.15772        -123.436         -59.6458         142.246         -59.6458         142.246      -0.00629802         151.021
0.503                  -0.162842        -123.883         -59.4758         140.812         -59.4758         140.812      -0.00633061         150.956
0.504                   -0.16818        -124.331         -59.3053         139.379         -59.3053         139.379      -0.00636459          150.89
0.505                  -0.173736        -124.782         -59.1345         137.946         -59.1345         137.946      -0.00639997         150.824
0.506                  -0.179515        -125.235         -58.9634         136.514         -58.9634         136.514      -0.00643675         150.759
0.507                  -0.185519         -125.69         -58.7919         135.082         -58.7919         135.082      -0.00647494         150.693
0.508                  -0.191754        -126.147         -58.6203          133.65         -58.6203          133.65      -0.00651453         150.627
0.509                  -0.198221        -126.607         -58.4484         132.219         -58.4484         132.219      -0.00655553         150.561
0.51                   -0.204924        -127.068         -58.2763         130.788         -58.2763         130.788      -0.00659793         150.495
0.511                  -0.211869        -127.532          -58.104         129.356          -58.104         129.356      -0.00664174         150.429
0.512                  -0.219057        -127.998         -57.9316         127.923         -57.9316         127.923      -0.00668697         150.363
0.513                  -0.226492        -128.467         -57.7591         126.491         -57.7591         126.491       -0.0067336         150.297
0.514                   -0.23418        -128.937         -57.5866         125.057         -57.5865         125.057      -0.00678165          150.23
0.515                  -0.242122         -129.41         -57.4139         123.622         -57.4139         123.622      -0.00683112         150.164
0.516                  -0.250324        -129.885         -57.2413         122.187         -57.2413         122.187      -0.00688201         150.098
0.517                  -0.258788        -130.363         -57.0687          120.75         -57.0686          120.75      -0.00693432         150.031
0.518                   -0.26752        -130.842         -56.8961         119.311         -56.8961         119.311      -0.00698805         149.964
0.519                  -0.276522        -131.324         -56.7235         117.871         -56.7235         117.871      -0.00704321         149.898
0.52                   -0.285799        -131.808         -56.5511         116.429         -56.5511         116.429      -0.00709981         149.831
0.521                  -0.295354        -132.295         -56.3788         114.986         -56.3787         114.986      -0.00715784         149.764
0.522                  -0.305192        -132.783         -56.2066          113.54         -56.2066          113.54       -0.0072173         149.697
0.523                  -0.315317        -133.274         -56.0345         112.092         -56.0345         112.092      -0.00727821          149.63
0.524                  -0.325733        -133.768         -55.8627         110.642         -55.8627         110.642      -0.00734057         149.563
0.525                  -0.336444        -134.263         -55.6911          109.19         -55.6911          109.19      -0.00740437         149.495
0.526                  -0.347454        -134.761         -55.5197         107.735         -55.5197         107.735      -0.00746963         149.428
0.527                  -0.358767        -135.261         -55.3486         106.277         -55.3486         106.277      -0.00753635          149.36
0.528                  -0.370388        -135.763         -55.1777         104.816         -55.1777         104.816      -0.00760454         149.293
0.529                  -0.382321        -136.268         -55.0072         103.353         -55.0072         103.353      -0.00767419         149.225
0.53                    -0.39457        -136.775          -54.837         101.887          -54.837         101.887      -0.00774532         149.158
0.531                  -0.407139        -137.284         -54.6672         100.417         -54.6672         100.417      -0.00781792          149.09
0.532                  -0.420033        -137.795         -54.4977         98.9444         -54.4977         98.9444      -0.00789202         149.022
0.533                  -0.433257        -138.309         -54.3287         97.4685         -54.3287         97.4684       -0.0079676         148.954
0.534                  -0.446814        -138.825           -54.16         95.9892           -54.16         95.9891      -0.00804468         148.886
0.535                  -0.460709        -139.343         -53.9919         94.5065         -53.9918         94.5064      -0.00812327         148.817
0.536                  -0.474946        -139.864         -53.8241         93.0203         -53.8241         93.0202      -0.00820336         148.749
0.537                  -0.489531        -140.387         -53.6569         91.5305         -53.6569         91.5305      -0.00828498         148.681
0.538                  -0.504468        -140.912         -53.4902         90.0371         -53.4902         90.0371      -0.00836812         148.612
0.539                  -0.519761        -141.439          -53.324         88.5401          -53.324           88.54      -0.00845279         148.544
0.54                   -0.535415        -141.969         -53.1584         87.0393         -53.1584         87.0393      -0.00853901         148.475
0.541                  -0.551435        -142.501         -52.9933         85.5348         -52.9933         85.5348      -0.00862677         148.406
0.542                  -0.567825        -143.036         -52.8288         84.0266         -52.8288         84.0265      -0.00871609         148.337
0.543                   -0.58459        -143.572          -52.665         82.5145          -52.665         82.5145      -0.00880698         148.268
0.544                  -0.601736        -144.111         -52.5017         80.9986         -52.5017         80.9986      -0.00889945         148.199
0.545                  -0.619266        -144.652         -52.3392         79.4789         -52.3392         79.4789       -0.0089935          148.13
0.546                  -0.637185        -145.196         -52.1773         77.9553         -52.1772         77.9553      -0.00908914          148.06
0.547                    -0.6555        -145.742          -52.016          76.428          -52.016         76.4279      -0.00918639         147.991
0.548                  -0.674214         -146.29         -51.8555         74.8968         -51.8555         74.8967      -0.00928526         147.921
0.549                  -0.693332         -146.84         -51.6957         73.3618         -51.6957         73.3617      -0.00938575         147.852
0.55                    -0.71286        -147.393         -51.5366          71.823         -51.5366          71.823      -0.00948789         147.782
0.551                  -0.732802        -147.948         -51.3783         70.2804         -51.3783         70.2804      -0.00959167         147.712
0.552                  -0.753165        -148.505         -51.2208         68.7342         -51.2208         68.7342      -0.00969712         147.642
0.553                  -0.773952        -149.064          -51.064         67.1842          -51.064         67.1842      -0.00980425         147.572
0.554                  -0.795169        -149.626          -50.908         65.6306          -50.908         65.6306      -0.00991306         147.502
0.555                  -0.816822         -150.19         -50.7529         64.0735         -50.7529         64.0735       -0.0100236         147.431
0.556                  -0.838915        -150.756         -50.5985         62.5128         -50.5985         62.5128       -0.0101358         147.361
0.557                  -0.861454        -151.325          -50.445         60.9486          -50.445         60.9486       -0.0102498          147.29
0.558                  -0.884444        -151.896         -50.2924         59.3811         -50.2924          59.381       -0.0103655         147.219
0.559                  -0.907891        -152.469         -50.1405         57.8102         -50.1405         57.8101       -0.0104829         147.149
0.56                     -0.9318        -153.044         -49.9896          56.236         -49.9896          56.236       -0.0106022         147.078
0.561                  -0.956177        -153.622         -49.8395         54.6587         -49.8395         54.6587       -0.0107232         147.007
0.562                  -0.981028        -154.202         -49.6903         53.0783         -49.6903         53.0783       -0.0108461         146.935
0.563                   -1.00636        -154.784          -49.542          51.495          -49.542          51.495       -0.0109708         146.864
0.564                   -1.03217        -155.368         -49.3946         49.9087         -49.3946         49.9087       -0.0110973         146.792
0.565                   -1.05847        -155.955          -49.248         48.3196          -49.248         48.3196       -0.0112257         146.721
0.566                   -1.08527        -156.544         -49.1024         46.7278         -49.1024         46.7278        -0.011356         146.649
0.567                   -1.11258        -157.135         -48.9577         45.1335         -48.9577         45.1335       -0.0114882         146.577
0.568                   -1.14039        -157.728         -48.8138         43.5366         -48.8138         43.5366       -0.0116223         146.505
0.569                   -1.16871        -158.323         -48.6709         41.9374         -48.6709         41.9374       -0.0117584         146.433
0.57                    -1.19755        -158.921         -48.5289         40.3358         -48.5289         40.3358       -0.0118964         146.361
0.571                   -1.22692        -159.521         -48.3878         38.7322         -48.3878         38.7321       -0.0120365         146.288
0.572                   -1.25682        -160.123         -48.2476         37.1264         -48.2476         37.1264       -0.0121785         146.216
0.573                   -1.28726        -160.727         -48.1083         35.5187         -48.1083         35.5187       -0.0123226         146.143
0.574                   -1.31825        -161.334         -47.9699         33.9092         -47.9699         33.9092       -0.0124688          146.07
0.575                   -1.34978        -161.943         -47.8323          32.298         -47.8323          32.298       -0.0126171         145.997
0.576                   -1.38188        -162.553         -47.6957         30.6851         -47.6957         30.6851       -0.0127675         145.924
0.577                   -1.41453        -163.166           -47.56         29.0708           -47.56         29.0708         -0.01292         145.851
0.578                   -1.44776        -163.782         -47.4251         27.4551         -47.4251         27.4551       -0.0130747         145.777
0.579                   -1.48157        -164.399          -47.291         25.8381          -47.291         25.8381       -0.0132317         145.704
0.58                    -1.51596        -165.019         -47.1579         24.2199         -47.1579         24.2199       -0.0133908          145.63
0.581                   -1.55094         -165.64         -47.0255         22.6007         -47.0255         22.6007       -0.0135523         145.556
0.582                   -1.58651        -166.264          -46.894         20.9805          -46.894         20.9805        -0.013716         145.482
0.583                    -1.6227         -166.89         -46.7634         19.3595         -46.7634         19.3595       -0.0138821         145.408
0.584                   -1.65949        -167.518         -46.6335         17.7376         -46.6335         17.7376       -0.0140506         145.333
0.585                   -1.69691        -168.149         -46.5044         16.1152         -46.5044         16.1152       -0.0142215         145.259
0.586                   -1.73495        -168.781         -46.3761         14.4921         -46.3761         14.4921       -0.0143948         145.184
0.587                   -1.77362        -169.415         -46.2486         12.8686         -46.2486         12.8686       -0.0145707         145.109
0.588                   -1.81294        -170.052         -46.1218         11.2446         -46.1218         11.2446        -0.014749         145.034
0.589                   -1.85291        -170.691         -45.9958         9.62032         -45.9958         9.62033       -0.0149299         144.959
0.59                    -1.89353        -171.331         -45.8704         7.99579         -45.8704         7.99579       -0.0151135         144.884
0.591                   -1.93482        -171.974         -45.7458         6.37107         -45.7458         6.37107       -0.0152997         144.808
0.592                   -1.97679        -172.619         -45.6219         4.74623         -45.6219         4.74623       -0.0154886         144.732
0.593                   -2.01943        -173.266         -45.4986         3.12133         -45.4986         3.12134       -0.0156802         144.657
0.594                   -2.06277        -173.915          -45.376         1.49643          -45.376         1.49644       -0.0158747         144.581
0.595                    -2.1068        -174.566          -45.254       -0.128416          -45.254       -0.128412        -0.016072         144.504
0.596                   -2.15154        -175.219         -45.1326        -1.75317         -45.1326        -1.75317       -0.0162722         144.428
0.597                     -2.197        -175.874         -45.0118        -3.37779         -45.0118        -3.37779       -0.0164753         144.351
0.598                   -2.24319        -176.532         -44.8916        -5.00224         -44.8916        -5.00224       -0.0166815         144.274
0.599                   -2.29011        -177.191          -44.772        -6.62649          -44.772        -6.62649       -0.0168907         144.197
0.6                     -2.33777        -177.852         -44.6529        -8.25052         -44.6529        -8.25051       -0.0171031          144.12
0.601                   -2.38618        -178.515         -44.5343         -9.8743         -44.5343         -9.8743       -0.0173186         144.043
0.602                   -2.43536         -179.18         -44.4162        -11.4978         -44.4162        -11.4978       -0.0175374         143.965
0.603                   -2.48532        -179.847         -44.2986        -13.1211         -44.2986        -13.1211       -0.0177595         143.888
0.604                   -2.53605         179.484         -44.1814        -14.7441         -44.1814        -14.7441        -0.017985          143.81
0.605                   -2.58758         178.813         -44.0647        -16.3668         -44.0647        -16.3668       -0.0182139         143.731
0.606                   -2.63992         178.141         -43.9485        -17.9893         -43.9485        -17.9893       -0.0184463         143.653
0.607                   -2.69307         177.466         -43.8326        -19.6115         -43.8326        -19.6115       -0.0186824         143.575
0.608                   -2.74704         176.789         -43.7171        -21.2335         -43.7171        -21.2335       -0.0189221         143.496
0.609                   -2.80186         176.111          -43.602        -22.8553          -43.602        -22.8553       -0.0191656         143.417
0.61                    -2.85752         175.431         -43.4873        -24.4769         -43.4873        -24.4769       -0.0194129         143.338
0.611                   -2.91405         174.749         -43.3729        -26.0983         -43.3729        -26.0983       -0.0196641         143.258
0.612                   -2.97144         174.065         -43.2588        -27.7197         -43.2588        -27.7197       -0.0199193         143.178
0.613                   -3.02973         173.379         -43.1451         -29.341         -43.1451         -29.341       -0.0201785         143.099
0.614                   -3.08891         172.691         -43.0316        -30.9622         -43.0316        -30.9622        -0.020442         143.018
0.615                     -3.149         172.002         -42.9184        -32.5835         -42.9184        -32.5835       -0.0207097         142.938
0.616                   -3.21002         171.311         -42.8055        -34.2049         -42.8055        -34.2049       -0.0209819         142.858
0.617                   -3.27198         170.618         -42.6929        -35.8263         -42.6929        -35.8263       -0.0212584         142.777
0.618                   -3.33489         169.924         -42.5805         -37.448         -42.5805         -37.448       -0.0215396         142.696
0.619                   -3.39876         169.228         -42.4683          -39.07         -42.4683          -39.07       -0.0218254         142.615
0.62                    -3.46362          168.53         -42.3563        -40.6922         -42.3563        -40.6922        -0.022116         142.533
0.621                   -3.52947         167.831         -42.2446        -42.3149         -42.2446        -42.3149       -0.0224115         142.451
0.622                   -3.59634          167.13          -42.133         -43.938          -42.133         -43.938       -0.0227121         142.369
0.623                   -3.66423         166.428         -42.0217        -45.5617         -42.0217        -45.5617       -0.0230177         142.287
0.624                   -3.73317         165.724         -41.9105        -47.1859         -41.9105         -47.186       -0.0233287         142.205
0.625                   -3.80317         165.018         -41.7995        -48.8109         -41.7995        -48.8109        -0.023645         142.122
0.626                   -3.87425         164.311         -41.6887        -50.4367         -41.6887        -50.4367       -0.0239668         142.039
0.627                   -3.94642         163.603          -41.578        -52.0633          -41.578        -52.0633       -0.0242943         141.956
0.628                   -4.01971         162.893         -41.4675        -53.6909         -41.4675        -53.6909       -0.0246276         141.872
0.629                   -4.09413         162.182         -41.3572        -55.3195         -41.3572        -55.3195       -0.0249668         141.788
