! TOUCHSTONE file generated by CST MICROWAVE STUDIO
! Date and time: Fri Oct  2 16:39:49 2020
! Project name: Scenario_1_Free_Space_out_of_line.cst
! Parameters = {Lambda=346.42; Step_1=17.321; dy1=208.912; dx1=520; L_HA=400; MT=2.54; Rad_Dielectric=30; Rad_Lower=7.3; Rad_Upper=30; a_HA=580; a_WG=246; b_HA=500; b_WG=121; c_HA=0; c_WG=187; d_feed=85; h_feed=15; h_lower=18; h_upper=40}
! Header version: 2018
! Port assignment regex: !\s*Touchstone port\s*([0-9]+)\s*=\s*(CST MWS port|CST DS port)\s*([0-9]+|Zmin|Zmax)\s*\(\"(.*)\"\)(\s*mode\s*([0-9]+))?.*
! Touchstone port assignment:
! Touchstone port 1 = CST MWS port 1 ("")
! Touchstone port 2 = CST MWS port 2 ("")
# GHz S DB R 50
0.5                    -0.149283        -122.603         -62.2803        -31.4201         -62.2803        -31.4201      -0.00666986         151.114
0.501                  -0.153923        -123.053         -62.0533        -33.2079         -62.0532        -33.2082      -0.00671332         151.049
0.502                  -0.158795        -123.506         -61.8288        -34.9907         -61.8285        -34.9913      -0.00675814         150.983
0.503                  -0.163902         -123.96         -61.6066        -36.7694         -61.6062        -36.7703      -0.00680435         150.917
0.504                  -0.169247        -124.417         -61.3868         -38.545         -61.3863        -38.5461      -0.00685194         150.852
0.505                  -0.174833        -124.875         -61.1693        -40.3183         -61.1686        -40.3196      -0.00690092         150.786
0.506                  -0.180663        -125.335         -60.9539        -42.0901         -60.9531        -42.0915      -0.00695128          150.72
0.507                  -0.186741        -125.798         -60.7405         -43.861         -60.7397        -43.8627      -0.00700303         150.654
0.508                   -0.19307        -126.262         -60.5293        -45.6319         -60.5284        -45.6337      -0.00705617         150.588
0.509                  -0.199654        -126.728         -60.3199        -47.4033         -60.3189        -47.4052      -0.00711071         150.522
0.51                   -0.206494        -127.196         -60.1125        -49.1759         -60.1114        -49.1778      -0.00716665         150.456
0.511                  -0.213596        -127.666         -59.9068        -50.9501         -59.9057        -50.9521      -0.00722398          150.39
0.512                  -0.220961        -128.138          -59.703        -52.7265         -59.7018        -52.7286      -0.00728272         150.323
0.513                  -0.228594        -128.612         -59.5008        -54.5056         -59.4996        -54.5077      -0.00734287         150.257
0.514                  -0.236498        -129.088         -59.3003        -56.2877          -59.299        -56.2898      -0.00740442          150.19
0.515                  -0.244676        -129.566         -59.1013        -58.0734            -59.1        -58.0755      -0.00746738         150.124
0.516                  -0.253131        -130.046         -58.9039        -59.8629         -58.9026         -59.865      -0.00753176         150.057
0.517                  -0.261866        -130.528          -58.708        -61.6566         -58.7066        -61.6587      -0.00759756          149.99
0.518                  -0.270886        -131.012         -58.5135        -63.4548         -58.5121        -63.4569      -0.00766478         149.923
0.519                  -0.280193        -131.498         -58.3204        -65.2579          -58.319        -65.2599      -0.00773342         149.857
0.52                   -0.289792        -131.986         -58.1287         -67.066         -58.1272         -67.068      -0.00780349          149.79
0.521                  -0.299684        -132.476         -57.9382        -68.8794         -57.9367        -68.8814      -0.00787499         149.722
0.522                  -0.309874        -132.967          -57.749        -70.6984         -57.7476        -70.7003      -0.00794793         149.655
0.523                  -0.320364        -133.461         -57.5611        -72.5231         -57.5596         -72.525       -0.0080223         149.588
0.524                  -0.331159        -133.957         -57.3744        -74.3537         -57.3729        -74.3555      -0.00809812         149.521
0.525                  -0.342262        -134.454         -57.1888        -76.1903         -57.1873        -76.1921      -0.00817538         149.453
0.526                  -0.353676        -134.954         -57.0044        -78.0331         -57.0029        -78.0348      -0.00825409         149.386
0.527                  -0.365404        -135.455          -56.821        -79.8822         -56.8195        -79.8839      -0.00833426         149.318
0.528                  -0.377449        -135.959         -56.6388        -81.7377         -56.6373        -81.7393      -0.00841589          149.25
0.529                  -0.389816        -136.464         -56.4575        -83.5997         -56.4561        -83.6012      -0.00849897         149.183
0.53                   -0.402508        -136.972         -56.2774        -85.4682         -56.2759        -85.4697      -0.00858352         149.115
0.531                  -0.415527        -137.481         -56.0982        -87.3433         -56.0968        -87.3447      -0.00866955         149.047
0.532                  -0.428877        -137.992           -55.92         -89.225         -55.9186        -89.2264      -0.00875705         148.979
0.533                  -0.442562        -138.506         -55.7427        -91.1133         -55.7414        -91.1146      -0.00884603          148.91
0.534                  -0.456584        -139.021         -55.5664        -93.0083         -55.5651        -93.0096      -0.00893649         148.842
0.535                  -0.470948        -139.538         -55.3911        -94.9099         -55.3897        -94.9111      -0.00902845         148.774
0.536                  -0.485656        -140.057         -55.2166        -96.8181         -55.2153        -96.8193      -0.00912189         148.705
0.537                  -0.500711        -140.578         -55.0431        -98.7329         -55.0418         -98.734      -0.00921684         148.637
0.538                  -0.516118        -141.101         -54.8704        -100.654         -54.8691        -100.655       -0.0093133         148.568
0.539                  -0.531878        -141.626         -54.6986        -102.582         -54.6974        -102.583      -0.00941127         148.499
0.54                   -0.547996        -142.153         -54.5276        -104.516         -54.5265        -104.517      -0.00951075          148.43
0.541                  -0.564475        -142.682         -54.3575        -106.456         -54.3564        -106.457      -0.00961176         148.361
0.542                  -0.581317        -143.213         -54.1883        -108.403         -54.1872        -108.404       -0.0097143         148.292
0.543                  -0.598526        -143.745         -54.0199        -110.356         -54.0188        -110.357      -0.00981837         148.223
0.544                  -0.616105         -144.28         -53.8523        -112.315         -53.8512        -112.315      -0.00992398         148.154
0.545                  -0.634058        -144.817         -53.6855        -114.279         -53.6845         -114.28       -0.0100311         148.084
0.546                  -0.652387        -145.355         -53.5195        -116.249         -53.5186         -116.25       -0.0101399         148.015
0.547                  -0.671095        -145.895         -53.3544        -118.225         -53.3534        -118.226       -0.0102501         147.945
0.548                  -0.690185        -146.438           -53.19        -120.207         -53.1891        -120.207        -0.010362         147.875
0.549                  -0.709661        -146.982         -53.0264        -122.193         -53.0256        -122.194       -0.0104754         147.806
0.55                   -0.729526        -147.528         -52.8636        -124.185         -52.8628        -124.186       -0.0105904         147.736
0.551                  -0.749782        -148.076         -52.7017        -126.182         -52.7009        -126.182        -0.010707         147.665
0.552                  -0.770433        -148.626         -52.5404        -128.183         -52.5397        -128.184       -0.0108252         147.595
0.553                   -0.79148        -149.178           -52.38         -130.19         -52.3793         -130.19       -0.0109451         147.525
0.554                  -0.812929        -149.732         -52.2204          -132.2         -52.2197        -132.201       -0.0110665         147.455
0.555                   -0.83478        -150.287         -52.0615        -134.215         -52.0608        -134.215       -0.0111896         147.384
0.556                  -0.857037        -150.845         -51.9034        -136.234         -51.9028        -136.234       -0.0113143         147.313
0.557                  -0.879703        -151.404          -51.746        -138.257         -51.7454        -138.257       -0.0114406         147.243
0.558                  -0.902781        -151.966         -51.5894        -140.284         -51.5889        -140.284       -0.0115686         147.172
0.559                  -0.926273        -152.529         -51.4336        -142.314         -51.4331        -142.314       -0.0116983         147.101
0.56                   -0.950182        -153.094         -51.2785        -144.347         -51.2781        -144.347       -0.0118297         147.029
0.561                  -0.974511        -153.662         -51.1242        -146.383         -51.1238        -146.384       -0.0119627         146.958
0.562                  -0.999263        -154.231         -50.9706        -148.423         -50.9702        -148.423       -0.0120975         146.887
0.563                   -1.02444        -154.802         -50.8178        -150.465         -50.8174        -150.465        -0.012234         146.815
0.564                   -1.05004        -155.375         -50.6657         -152.51         -50.6653         -152.51       -0.0123722         146.743
0.565                   -1.07608         -155.95         -50.5143        -154.557          -50.514        -154.557       -0.0125121         146.672
0.566                   -1.10255        -156.526         -50.3637        -156.606         -50.3634        -156.606       -0.0126538           146.6
0.567                   -1.12945        -157.105         -50.2138        -158.657         -50.2135        -158.657       -0.0127973         146.528
0.568                    -1.1568        -157.686         -50.0646         -160.71         -50.0643         -160.71       -0.0129425         146.455
0.569                   -1.18458        -158.268         -49.9161        -162.764         -49.9159        -162.764       -0.0130896         146.383
0.57                    -1.21281        -158.853         -49.7683         -164.82         -49.7681         -164.82       -0.0132385         146.311
0.571                   -1.24148         -159.44         -49.6212        -166.877          -49.621        -166.877       -0.0133892         146.238
0.572                   -1.27061        -160.028         -49.4748        -168.935         -49.4746        -168.935       -0.0135418         146.165
0.573                   -1.30018        -160.619          -49.329        -170.995         -49.3289        -170.994       -0.0136962         146.092
0.574                   -1.33021        -161.211          -49.184        -173.054         -49.1838        -173.054       -0.0138526         146.019
0.575                    -1.3607        -161.806         -49.0396        -175.115         -49.0395        -175.115       -0.0140108         145.946
0.576                   -1.39164        -162.402         -48.8958        -177.176         -48.8957        -177.176        -0.014171         145.873
0.577                   -1.42305        -163.001         -48.7527        -179.237         -48.7526        -179.237       -0.0143331         145.799
0.578                   -1.45493        -163.602         -48.6102         178.701         -48.6101         178.701       -0.0144972         145.725
0.579                   -1.48727        -164.205         -48.4683          176.64         -48.4683          176.64       -0.0146634         145.652
0.58                    -1.52008         -164.81         -48.3271         174.578          -48.327         174.578       -0.0148315         145.578
0.581                   -1.55337        -165.417         -48.1864         172.517         -48.1864         172.517       -0.0150017         145.504
0.582                   -1.58714        -166.026         -48.0463         170.456         -48.0463         170.456        -0.015174         145.429
0.583                   -1.62138        -166.638         -47.9068         168.395         -47.9068         168.395       -0.0153484         145.355
0.584                   -1.65611        -167.251         -47.7679         166.334         -47.7679         166.335       -0.0155249          145.28
0.585                   -1.69133        -167.867         -47.6295         164.275         -47.6295         164.275       -0.0157036         145.206
0.586                   -1.72704        -168.485         -47.4916         162.215         -47.4917         162.215       -0.0158846         145.131
0.587                   -1.76324        -169.106         -47.3543         160.157         -47.3543         160.157       -0.0160677         145.055
0.588                   -1.79995        -169.729         -47.2175         158.099         -47.2175         158.099       -0.0162531          144.98
0.589                   -1.83716        -170.354         -47.0811         156.041         -47.0812         156.042       -0.0164409         144.905
0.59                    -1.87487        -170.982         -46.9453         153.985         -46.9453         153.985        -0.016631         144.829
0.591                    -1.9131        -171.613         -46.8099         151.929           -46.81         151.929       -0.0168235         144.753
0.592                   -1.95185        -172.246          -46.675         149.874          -46.675         149.874       -0.0170184         144.677
0.593                   -1.99112        -172.881         -46.5405          147.82         -46.5406          147.82       -0.0172158         144.601
0.594                   -2.03092        -173.519         -46.4065         145.767         -46.4065         145.767       -0.0174158         144.525
0.595                   -2.07126         -174.16         -46.2729         143.714         -46.2729         143.715       -0.0176184         144.448
0.596                   -2.11214        -174.804         -46.1397         141.663         -46.1397         141.663       -0.0178235         144.372
0.597                   -2.15358         -175.45         -46.0069         139.612         -46.0069         139.612       -0.0180314         144.295
0.598                   -2.19557          -176.1         -45.8744         137.562         -45.8745         137.562        -0.018242         144.218
0.599                   -2.23813        -176.752         -45.7424         135.513         -45.7424         135.513       -0.0184555         144.141
0.6                     -2.28127        -177.408         -45.6107         133.464         -45.6107         133.464       -0.0186718         144.063
0.601                   -2.32499        -178.067         -45.4793         131.416         -45.4794         131.416        -0.018891         143.985
0.602                   -2.36931        -178.729         -45.3483         129.368         -45.3484         129.368       -0.0191133         143.908
0.603                   -2.41425        -179.394         -45.2177         127.321         -45.2177         127.321       -0.0193386         143.829
0.604                    -2.4598         179.937         -45.0873         125.275         -45.0873         125.275       -0.0195671         143.751
0.605                     -2.506         179.265         -44.9573         123.229         -44.9573         123.229       -0.0197989         143.673
0.606                   -2.55284         178.589         -44.8276         121.183         -44.8276         121.183       -0.0200339         143.594
0.607                   -2.60036         177.909         -44.6981         119.137         -44.6981         119.137       -0.0202724         143.515
0.608                   -2.64856         177.226          -44.569         117.091          -44.569         117.091       -0.0205144         143.436
0.609                   -2.69747         176.539         -44.4402         115.046         -44.4401         115.046       -0.0207599         143.357
0.61                     -2.7471         175.847         -44.3116             113         -44.3116             113       -0.0210092         143.277
0.611                   -2.79749         175.151         -44.1833         110.955         -44.1833         110.955       -0.0212622         143.197
0.612                   -2.84865         174.451         -44.0553         108.909         -44.0553         108.909       -0.0215192         143.117
0.613                    -2.9006         173.747         -43.9275         106.862         -43.9275         106.862       -0.0217801         143.037
0.614                   -2.95339         173.038            -43.8         104.816            -43.8         104.816       -0.0220452         142.957
0.615                   -3.00704         172.324         -43.6728         102.768         -43.6728         102.768       -0.0223145         142.876
0.616                   -3.06158         171.606         -43.5459          100.72         -43.5458          100.72       -0.0225882         142.795
0.617                   -3.11704         170.883         -43.4192         98.6713         -43.4191         98.6712       -0.0228664         142.714
0.618                   -3.17348         170.154         -43.2927         96.6215         -43.2927         96.6214       -0.0231493         142.633
0.619                   -3.23092         169.421         -43.1666         94.5707         -43.1666         94.5706       -0.0234369         142.551
0.62                    -3.28941         168.682         -43.0407         92.5188         -43.0407         92.5187       -0.0237294         142.469
0.621                     -3.349         167.938         -42.9151         90.4656         -42.9151         90.4655       -0.0240269         142.387
0.622                   -3.40974         167.188         -42.7898         88.4111         -42.7897         88.4109       -0.0243297         142.304
0.623                   -3.47168         166.433         -42.6647         86.3551         -42.6647         86.3549       -0.0246378         142.222
0.624                   -3.53488         165.673           -42.54         84.2975         -42.5399         84.2974       -0.0249514         142.139
0.625                    -3.5994         164.906         -42.4155         82.2383         -42.4155         82.2381       -0.0252706         142.056
0.626                    -3.6653         164.134         -42.2914         80.1773         -42.2913         80.1771       -0.0255957         141.972
0.627                   -3.73265         163.356         -42.1676         78.1144         -42.1675         78.1142       -0.0259267         141.888
0.628                   -3.80152         162.573         -42.0441         76.0495          -42.044         76.0494       -0.0262639         141.804
0.629                   -3.87198         161.783         -41.9209         73.9827         -41.9209         73.9825       -0.0266075          141.72
