! TOUCHSTONE file generated by CST MICROWAVE STUDIO
! Date and time: Fri Oct  2 19:09:12 2020
! Project name: Scenario_1_Free_Space_out_of_line.cst
! Parameters = {Lambda=346.42; Step_1=17.321; dy1=208.912; dx1=866; L_HA=400; MT=2.54; Rad_Dielectric=30; Rad_Lower=7.3; Rad_Upper=30; a_HA=580; a_WG=246; b_HA=500; b_WG=121; c_HA=0; c_WG=187; d_feed=85; h_feed=15; h_lower=18; h_upper=40}
! Header version: 2018
! Port assignment regex: !\s*Touchstone port\s*([0-9]+)\s*=\s*(CST MWS port|CST DS port)\s*([0-9]+|Zmin|Zmax)\s*\(\"(.*)\"\)(\s*mode\s*([0-9]+))?.*
! Touchstone port assignment:
! Touchstone port 1 = CST MWS port 1 ("")
! Touchstone port 2 = CST MWS port 2 ("")
# GHz S DB R 50
0.5                    -0.147873        -122.531         -64.3948         136.765         -64.3948         136.765      -0.00661824         151.133
0.501                  -0.154987        -122.937         -64.2962         133.755         -64.2959         133.752      -0.00668415         151.068
0.502                  -0.162179        -123.347         -64.1872         130.761         -64.1867         130.756      -0.00675073         151.002
0.503                  -0.169454        -123.759         -64.0683         127.788         -64.0675          127.78      -0.00681798         150.937
0.504                  -0.176816        -124.173         -63.9399         124.839         -63.9389         124.829       -0.0068859         150.871
0.505                   -0.18427        -124.591         -63.8027         121.917         -63.8014         121.905      -0.00695452         150.806
0.506                  -0.191822         -125.01         -63.6572         119.025         -63.6556         119.012      -0.00702383          150.74
0.507                  -0.199475        -125.433         -63.5039         116.165          -63.502          116.15      -0.00709385         150.674
0.508                  -0.207235        -125.858         -63.3434         113.339         -63.3413         113.323      -0.00716458         150.608
0.509                  -0.215108        -126.287         -63.1764         110.549         -63.1739         110.531      -0.00723603         150.542
0.51                   -0.223098        -126.718         -63.0033         107.794         -63.0007         107.776      -0.00730821         150.476
0.511                  -0.231211        -127.151         -62.8249         105.077          -62.822         105.058      -0.00738114          150.41
0.512                  -0.239452        -127.588         -62.6416         102.397         -62.6385         102.377      -0.00745481         150.344
0.513                  -0.247828        -128.027          -62.454         99.7536         -62.4506          99.734      -0.00752925         150.278
0.514                  -0.256343         -128.47         -62.2626         97.1471          -62.259         97.1273      -0.00760445         150.212
0.515                  -0.265005        -128.915         -62.0678         94.5769         -62.0641          94.557      -0.00768044         150.145
0.516                   -0.27382        -129.364         -61.8702         92.0419         -61.8663         92.0221      -0.00775721         150.079
0.517                  -0.282793        -129.815         -61.6702         89.5414         -61.6661         89.5217      -0.00783478         150.012
0.518                  -0.291931        -130.269         -61.4681         87.0741         -61.4638         87.0547      -0.00791317         149.945
0.519                  -0.301241        -130.726         -61.2643         84.6389         -61.2599         84.6198      -0.00799237         149.879
0.52                   -0.310729        -131.187         -61.0591         82.2345         -61.0547         82.2157       -0.0080724         149.812
0.521                  -0.320403         -131.65         -60.8529         79.8593         -60.8484          79.841      -0.00815328         149.745
0.522                   -0.33027        -132.117         -60.6459         77.5121         -60.6413         77.4942      -0.00823501         149.678
0.523                  -0.340336        -132.587         -60.4384         75.1913         -60.4337         75.1739       -0.0083176         149.611
0.524                   -0.35061         -133.06         -60.2306         72.8954         -60.2259         72.8785      -0.00840108         149.543
0.525                  -0.361099        -133.536         -60.0227         70.6229         -60.0179         70.6066      -0.00848544         149.476
0.526                  -0.371811        -134.015         -59.8148         68.3723         -59.8101         68.3566       -0.0085707         149.409
0.527                  -0.382753        -134.498         -59.6073         66.1422         -59.6026         66.1271      -0.00865687         149.341
0.528                  -0.393935        -134.984         -59.4001          63.931         -59.3954         63.9165      -0.00874397         149.274
0.529                  -0.405363        -135.473         -59.1935         61.7374         -59.1889         61.7235        -0.008832         149.206
0.53                   -0.417048        -135.965         -58.9876         59.5599         -58.9829         59.5466      -0.00892099         149.138
0.531                  -0.428997        -136.461         -58.7824         57.3971         -58.7778         57.3844      -0.00901094          149.07
0.532                  -0.441219         -136.96          -58.578         55.2478         -58.5735         55.2357      -0.00910186         149.002
0.533                  -0.453723        -137.463         -58.3746         53.1106         -58.3701         53.0991      -0.00919378         148.934
0.534                   -0.46652        -137.969         -58.1721         50.9842         -58.1677         50.9733       -0.0092867         148.866
0.535                  -0.479617        -138.478         -57.9707         48.8676         -57.9663         48.8572      -0.00938064         148.798
0.536                  -0.493025        -138.991         -57.7703         46.7594         -57.7661         46.7496      -0.00947562          148.73
0.537                  -0.506754        -139.508         -57.5712         44.6585          -57.567         44.6493      -0.00957164         148.661
0.538                  -0.520814        -140.027         -57.3731          42.564         -57.3691         42.5553      -0.00966872         148.593
0.539                  -0.535214        -140.551         -57.1763         40.4746         -57.1723         40.4665      -0.00976689         148.524
0.54                   -0.549967        -141.078         -56.9807         38.3895         -56.9769         38.3819      -0.00986615         148.455
0.541                  -0.565081        -141.608         -56.7864         36.3077         -56.7826         36.3006      -0.00996651         148.386
0.542                  -0.580568        -142.142         -56.5933         34.2282         -56.5897         34.2216        -0.010068         148.317
0.543                   -0.59644         -142.68         -56.4015         32.1502          -56.398         32.1441       -0.0101706         148.248
0.544                  -0.612707        -143.221          -56.211         30.0728         -56.2076         30.0671       -0.0102744         148.179
0.545                  -0.629381        -143.766         -56.0218         27.9952         -56.0185           27.99       -0.0103794          148.11
0.546                  -0.646474        -144.315         -55.8338         25.9166         -55.8307         25.9119       -0.0104856          148.04
0.547                  -0.663998        -144.867         -55.6472         23.8363         -55.6441          23.832       -0.0105929         147.971
0.548                  -0.681965        -145.423         -55.4619         21.7536         -55.4589         21.7497       -0.0107015         147.901
0.549                  -0.700387        -145.983         -55.2778         19.6679          -55.275         19.6644       -0.0108114         147.831
0.55                   -0.719278        -146.547         -55.0951         17.5783         -55.0924         17.5752       -0.0109225         147.762
0.551                  -0.738649        -147.114         -54.9136         15.4845          -54.911         15.4818       -0.0110349         147.692
0.552                  -0.758515        -147.685         -54.7334         13.3857          -54.731         13.3834       -0.0111486         147.621
0.553                  -0.778889         -148.26         -54.5545         11.2815         -54.5522         11.2795       -0.0112636         147.551
0.554                  -0.799784        -148.839         -54.3769          9.1713         -54.3747         9.16968         -0.01138         147.481
0.555                  -0.821215        -149.421         -54.2005         7.05463         -54.1985         7.05335       -0.0114978          147.41
0.556                  -0.843195        -150.008         -54.0254         4.93102         -54.0235         4.93007       -0.0116169          147.34
0.557                  -0.865739        -150.598         -53.8515         2.80005         -53.8497         2.79941       -0.0117374         147.269
0.558                  -0.888861        -151.193         -53.6789        0.661304         -53.6772        0.660969       -0.0118594         147.198
0.559                  -0.912577        -151.791         -53.5075         -1.4856          -53.506        -1.48564       -0.0119828         147.127
0.56                   -0.936902        -152.393         -53.3373        -3.64101         -53.3359        -3.64076       -0.0121077         147.056
0.561                  -0.961851            -153         -53.1684        -5.80525         -53.1671        -5.80473       -0.0122341         146.985
0.562                  -0.987439         -153.61         -53.0006        -7.97863         -52.9994        -7.97785        -0.012362         146.914
0.563                   -1.01368        -154.225         -52.8341        -10.1614          -52.833        -10.1604       -0.0124915         146.842
0.564                    -1.0406        -154.844         -52.6687        -12.3539         -52.6678        -12.3526       -0.0126225         146.771
0.565                    -1.0682        -155.467         -52.5046        -14.5563         -52.5037        -14.5547       -0.0127551         146.699
0.566                   -1.09651        -156.094         -52.3416        -16.7687         -52.3408         -16.767       -0.0128894         146.627
0.567                   -1.12555        -156.726         -52.1797        -18.9914         -52.1791        -18.9895       -0.0130252         146.555
0.568                   -1.15531        -157.362          -52.019        -21.2246         -52.0185        -21.2224       -0.0131628         146.483
0.569                   -1.18584        -158.003         -51.8595        -23.4683          -51.859        -23.4659       -0.0133021         146.411
0.57                    -1.21713        -158.649         -51.7011        -25.7227         -51.7007        -25.7201       -0.0134431         146.338
0.571                   -1.24922          -159.3         -51.5439        -27.9878         -51.5436         -27.985       -0.0135858         146.266
0.572                   -1.28211        -159.955         -51.3878        -30.2637         -51.3875        -30.2608       -0.0137304         146.193
0.573                   -1.31581        -160.616         -51.2327        -32.5504         -51.2326        -32.5474       -0.0138767          146.12
0.574                   -1.35035        -161.282         -51.0788         -34.848         -51.0788        -34.8448        -0.014025         146.047
0.575                   -1.38574        -161.954          -50.926        -37.1565          -50.926        -37.1531        -0.014175         145.974
0.576                   -1.42198        -162.632         -50.7743        -39.4757         -50.7744        -39.4722        -0.014327         145.901
0.577                   -1.45909        -163.317         -50.6237        -41.8057         -50.6238         -41.802       -0.0144809         145.827
0.578                   -1.49706        -164.008         -50.4742        -44.1463         -50.4744        -44.1426       -0.0146369         145.754
0.579                    -1.5359        -164.706         -50.3257        -46.4976         -50.3259        -46.4937       -0.0147948          145.68
0.58                    -1.57559        -165.412         -50.1783        -48.8592         -50.1786        -48.8553       -0.0149547         145.606
0.581                    -1.6161        -166.127         -50.0319        -51.2313         -50.0322        -51.2272       -0.0151167         145.532
0.582                   -1.65742        -166.851         -49.8866        -53.6134          -49.887        -53.6093       -0.0152809         145.458
0.583                   -1.69946        -167.585         -49.7423        -56.0056         -49.7427        -56.0014       -0.0154471         145.383
0.584                   -1.74216         -168.33          -49.599        -58.4075         -49.5995        -58.4033       -0.0156156         145.309
0.585                   -1.78538        -169.088         -49.4568         -60.819         -49.4572        -60.8148       -0.0157863         145.234
0.586                   -1.82894         -169.86         -49.3155        -63.2399          -49.316        -63.2356       -0.0159592         145.159
0.587                    -1.8726        -170.646         -49.1752        -65.6698         -49.1757        -65.6655       -0.0161344         145.084
0.588                   -1.91602         -171.45         -49.0359        -68.1086         -49.0364        -68.1043        -0.016312         145.009
0.589                   -1.95872        -172.272         -48.8976         -70.556         -48.8981        -70.5517        -0.016492         144.934
0.59                    -2.00006        -173.114         -48.7602        -73.0116         -48.7607        -73.0073       -0.0166743         144.858
0.591                    -2.0392        -173.977         -48.6237        -75.4752         -48.6242        -75.4709       -0.0168592         144.783
0.592                   -2.07505         -174.86         -48.4881        -77.9464         -48.4887        -77.9422       -0.0170465         144.707
0.593                   -2.10626         -175.76         -48.3535         -80.425          -48.354        -80.4208       -0.0172364         144.631
0.594                   -2.13127        -176.673         -48.2197        -82.9105         -48.2202        -82.9063       -0.0174289         144.554
0.595                   -2.14846        -177.588         -48.0868        -85.4026         -48.0873        -85.3985        -0.017624         144.478
0.596                   -2.15655        -178.486         -47.9548         -87.901         -47.9552         -87.897       -0.0178218         144.401
0.597                   -2.15514        -179.345         -47.8236        -90.4053          -47.824        -90.4014       -0.0180224         144.325
0.598                   -2.14544         179.864         -47.6931        -92.9151         -47.6936        -92.9112       -0.0182257         144.248
0.599                   -2.13082         179.166         -47.5635        -95.4299          -47.564        -95.4261       -0.0184319          144.17
0.6                     -2.11658         178.577         -47.4347        -97.9494         -47.4351        -97.9458        -0.018641         144.093
0.601                    -2.1089         178.093         -47.3067        -100.473          -47.307         -100.47        -0.018853         144.015
0.602                   -2.11305         177.693         -47.1794        -103.001         -47.1797        -102.998        -0.019068         143.938
0.603                     -2.132         177.343         -47.0528        -105.533         -47.0531        -105.529       -0.0192861          143.86
0.604                    -2.1661         177.008          -46.927        -108.067         -46.9273        -108.064       -0.0195073         143.782
0.605                   -2.21369         176.661         -46.8019        -110.605         -46.8021        -110.602       -0.0197316         143.703
0.606                   -2.27211         176.283         -46.6774        -113.145         -46.6776        -113.142       -0.0199592         143.625
0.607                   -2.33859         175.865         -46.5536        -115.688         -46.5537        -115.685         -0.02019         143.546
0.608                   -2.41069         175.407         -46.4304        -118.232         -46.4305         -118.23       -0.0204243         143.467
0.609                   -2.48655         174.911         -46.3078        -120.778         -46.3079        -120.776       -0.0206619         143.388
0.61                    -2.56482         174.381         -46.1858        -123.325         -46.1859        -123.323        -0.020903         143.308
0.611                   -2.64459         173.821         -46.0644        -125.873         -46.0644        -125.871       -0.0211476         143.228
0.612                   -2.72526         173.238         -45.9434        -128.422         -45.9434         -128.42       -0.0213958         143.149
0.613                   -2.80648         172.633          -45.823        -130.971          -45.823        -130.969       -0.0216478         143.069
0.614                   -2.88805         172.013         -45.7031        -133.519          -45.703        -133.518       -0.0219034         142.988
0.615                   -2.96986         171.379         -45.5837        -136.068         -45.5836        -136.066       -0.0221629         142.908
0.616                    -3.0519         170.733         -45.4647        -138.615         -45.4645        -138.614       -0.0224263         142.827
0.617                   -3.13415         170.079         -45.3461        -141.162         -45.3459        -141.161       -0.0226937         142.746
0.618                   -3.21666         169.418          -45.228        -143.707         -45.2277        -143.706       -0.0229651         142.665
0.619                   -3.29947          168.75         -45.1102        -146.251         -45.1099         -146.25       -0.0232406         142.583
0.62                    -3.38263         168.078         -44.9928        -148.793         -44.9925        -148.793       -0.0235204         142.501
0.621                    -3.4662         167.402         -44.8757        -151.334         -44.8754        -151.334       -0.0238044         142.419
0.622                   -3.55023         166.723          -44.759        -153.872         -44.7586        -153.872       -0.0240929         142.337
0.623                   -3.63477         166.042         -44.6426        -156.408         -44.6422        -156.408       -0.0243857         142.255
0.624                   -3.71987         165.358         -44.5264        -158.942          -44.526        -158.942       -0.0246832         142.172
0.625                   -3.80558         164.674         -44.4106        -161.473         -44.4101        -161.473       -0.0249853         142.089
0.626                   -3.89193         163.988         -44.2949        -164.001         -44.2945        -164.002       -0.0252921         142.006
0.627                   -3.97897         163.302         -44.1796        -166.527         -44.1791        -166.527       -0.0256038         141.922
0.628                   -4.06673         162.616         -44.0644        -169.049          -44.064         -169.05       -0.0259204         141.838
0.629                   -4.15525         161.929         -43.9495        -171.569          -43.949        -171.569        -0.026242         141.754
