!Agilent Technologies,E8364B,US42250235,A.06.04.32
!Agilent E8364B: A.06.04.32
!Date: Friday, January 15, 2021 14:15:39
!Correction: S11(Full 2 Port(1,2)) S21(Full 2 Port(1,2)) S12(Full 2 Port(1,2)) S22(Full 2 Port(1,2)) 
!S2P File: Measurements: S11, S21, S12, S22:
# Hz S  dB   R 50
500000000 -4.966795e-002 -1.288629e+002 -5.501827e+001 1.692021e+002 -5.653320e+001 1.745578e+002 -1.372302e-001 1.380813e+002
500625000 -5.722967e-002 -1.291308e+002 -5.579321e+001 1.719222e+002 -5.487398e+001 1.708800e+002 -1.481932e-001 1.380646e+002
501250000 -5.535718e-002 -1.293685e+002 -5.541243e+001 1.770623e+002 -5.433798e+001 1.686599e+002 -1.362967e-001 1.379612e+002
501875000 -5.958234e-002 -1.296317e+002 -5.484824e+001 1.739631e+002 -5.457887e+001 1.654628e+002 -1.257013e-001 1.379380e+002
502500000 -5.710746e-002 -1.299116e+002 -5.491589e+001 1.735393e+002 -5.405310e+001 1.715877e+002 -1.322364e-001 1.378571e+002
503125000 -6.904452e-002 -1.302379e+002 -5.440956e+001 1.747080e+002 -5.435960e+001 1.711237e+002 -1.343969e-001 1.377204e+002
503750000 -6.026062e-002 -1.304790e+002 -5.319947e+001 1.665403e+002 -5.439010e+001 1.766595e+002 -1.375570e-001 1.376547e+002
504375000 -6.787843e-002 -1.308129e+002 -5.371619e+001 1.696886e+002 -5.306366e+001 1.765135e+002 -1.563661e-001 1.375776e+002
505000000 -7.113865e-002 -1.310893e+002 -5.350875e+001 1.691442e+002 -5.356643e+001 1.709957e+002 -1.469525e-001 1.375986e+002
505625000 -6.788578e-002 -1.313386e+002 -5.375673e+001 1.734452e+002 -5.379666e+001 1.693521e+002 -1.390883e-001 1.374458e+002
506250000 -7.541779e-002 -1.316764e+002 -5.329157e+001 1.727049e+002 -5.385566e+001 1.697735e+002 -1.428318e-001 1.372942e+002
506875000 -7.325702e-002 -1.319341e+002 -5.391652e+001 1.689814e+002 -5.310974e+001 1.679481e+002 -1.391163e-001 1.372153e+002
507500000 -8.178616e-002 -1.322573e+002 -5.338795e+001 1.659413e+002 -5.306817e+001 1.687376e+002 -1.497851e-001 1.370947e+002
508125000 -8.432625e-002 -1.325441e+002 -5.284053e+001 1.654588e+002 -5.290701e+001 1.723378e+002 -1.388858e-001 1.370894e+002
508750000 -8.232249e-002 -1.328019e+002 -5.398951e+001 1.700366e+002 -5.310754e+001 1.695398e+002 -1.417533e-001 1.369700e+002
509375000 -8.607705e-002 -1.332056e+002 -5.267385e+001 1.682823e+002 -5.268255e+001 1.663545e+002 -1.377754e-001 1.369472e+002
510000000 -7.900891e-002 -1.334937e+002 -5.238175e+001 1.698769e+002 -5.338048e+001 1.680971e+002 -1.412841e-001 1.368383e+002
510625000 -9.267841e-002 -1.337637e+002 -5.277515e+001 1.681573e+002 -5.322381e+001 1.744521e+002 -1.315472e-001 1.368637e+002
511250000 -9.303255e-002 -1.340630e+002 -5.291619e+001 1.627924e+002 -5.291482e+001 1.639167e+002 -1.408723e-001 1.367301e+002
511875000 -9.323376e-002 -1.344356e+002 -5.229687e+001 1.644225e+002 -5.278718e+001 1.613218e+002 -1.336407e-001 1.365846e+002
512500000 -9.089613e-002 -1.347031e+002 -5.200380e+001 1.675466e+002 -5.299652e+001 1.676004e+002 -1.334644e-001 1.365631e+002
513125000 -1.028369e-001 -1.349933e+002 -5.246178e+001 1.646480e+002 -5.172320e+001 1.595804e+002 -1.484970e-001 1.365636e+002
513750000 -1.066941e-001 -1.353468e+002 -5.224356e+001 1.656404e+002 -5.297480e+001 1.584059e+002 -1.488530e-001 1.364780e+002
514375000 -1.042478e-001 -1.356816e+002 -5.257329e+001 1.638067e+002 -5.257401e+001 1.632861e+002 -1.330905e-001 1.363783e+002
515000000 -1.071498e-001 -1.359623e+002 -5.145225e+001 1.644260e+002 -5.226564e+001 1.653058e+002 -1.376278e-001 1.363013e+002
515625000 -1.194296e-001 -1.363597e+002 -5.140446e+001 1.598589e+002 -5.159088e+001 1.599052e+002 -1.366085e-001 1.362160e+002
516250000 -1.185176e-001 -1.366302e+002 -5.221027e+001 1.607510e+002 -5.244267e+001 1.566586e+002 -1.476614e-001 1.361458e+002
516875000 -1.229509e-001 -1.369303e+002 -5.187784e+001 1.660077e+002 -5.162209e+001 1.612270e+002 -1.421692e-001 1.361507e+002
517500000 -1.231609e-001 -1.372360e+002 -5.180004e+001 1.627164e+002 -5.156122e+001 1.614228e+002 -1.506863e-001 1.360122e+002
518125000 -1.156243e-001 -1.376498e+002 -5.195579e+001 1.619582e+002 -5.174169e+001 1.598994e+002 -1.476538e-001 1.359475e+002
518750000 -1.274012e-001 -1.379510e+002 -5.143928e+001 1.652047e+002 -5.165662e+001 1.610340e+002 -1.496714e-001 1.358331e+002
519375000 -1.300495e-001 -1.381872e+002 -5.183480e+001 1.616782e+002 -5.099596e+001 1.591955e+002 -1.383090e-001 1.358243e+002
520000000 -1.325781e-001 -1.385313e+002 -5.157284e+001 1.561310e+002 -5.142016e+001 1.565840e+002 -1.410816e-001 1.356403e+002
520625000 -1.373404e-001 -1.388884e+002 -5.124064e+001 1.590558e+002 -5.089454e+001 1.577168e+002 -1.419187e-001 1.356199e+002
521250000 -1.388686e-001 -1.391953e+002 -5.118919e+001 1.628427e+002 -5.096916e+001 1.580822e+002 -1.425577e-001 1.355815e+002
521875000 -1.428856e-001 -1.395870e+002 -5.143475e+001 1.561858e+002 -5.078920e+001 1.566337e+002 -1.281709e-001 1.355369e+002
522500000 -1.417172e-001 -1.399045e+002 -5.041521e+001 1.612965e+002 -5.049718e+001 1.566644e+002 -1.435754e-001 1.354449e+002
523125000 -1.587683e-001 -1.402343e+002 -5.037379e+001 1.514562e+002 -5.133136e+001 1.599405e+002 -1.335677e-001 1.354313e+002
523750000 -1.554761e-001 -1.405441e+002 -5.014511e+001 1.598256e+002 -5.029803e+001 1.597200e+002 -1.302581e-001 1.353700e+002
524375000 -1.696618e-001 -1.408872e+002 -5.022221e+001 1.572121e+002 -4.973748e+001 1.535901e+002 -1.326726e-001 1.352997e+002
525000000 -1.641481e-001 -1.412400e+002 -5.011611e+001 1.559202e+002 -4.998589e+001 1.574764e+002 -1.318182e-001 1.353134e+002
525625000 -1.758010e-001 -1.415182e+002 -5.030383e+001 1.556811e+002 -4.998072e+001 1.529974e+002 -1.320877e-001 1.352432e+002
526250000 -1.683740e-001 -1.418252e+002 -4.948516e+001 1.519484e+002 -5.042291e+001 1.520867e+002 -1.311081e-001 1.352406e+002
526875000 -1.778260e-001 -1.422137e+002 -4.944415e+001 1.521258e+002 -4.971216e+001 1.528461e+002 -1.345815e-001 1.352160e+002
527500000 -1.793278e-001 -1.425690e+002 -4.963683e+001 1.547945e+002 -4.958157e+001 1.549219e+002 -1.324360e-001 1.351816e+002
528125000 -1.977691e-001 -1.428830e+002 -4.992862e+001 1.497687e+002 -5.028648e+001 1.554548e+002 -1.403344e-001 1.352527e+002
528750000 -1.953098e-001 -1.432234e+002 -5.023447e+001 1.539030e+002 -4.948550e+001 1.507709e+002 -1.339376e-001 1.353177e+002
529375000 -2.002346e-001 -1.435444e+002 -4.926904e+001 1.514717e+002 -4.956306e+001 1.474655e+002 -1.419560e-001 1.352154e+002
530000000 -2.086166e-001 -1.439467e+002 -4.907601e+001 1.512115e+002 -4.954558e+001 1.547443e+002 -1.309850e-001 1.352549e+002
530625000 -2.111954e-001 -1.442916e+002 -4.879212e+001 1.457925e+002 -4.992025e+001 1.482719e+002 -1.401947e-001 1.351630e+002
531250000 -2.119169e-001 -1.446627e+002 -4.924602e+001 1.530035e+002 -4.897221e+001 1.472404e+002 -1.322012e-001 1.351392e+002
531875000 -2.264198e-001 -1.449559e+002 -4.905733e+001 1.495035e+002 -4.884456e+001 1.477962e+002 -1.401305e-001 1.351048e+002
532500000 -2.221054e-001 -1.453481e+002 -4.890221e+001 1.491662e+002 -4.920012e+001 1.489479e+002 -1.397372e-001 1.350510e+002
533125000 -2.282701e-001 -1.456805e+002 -4.884225e+001 1.491162e+002 -4.877966e+001 1.476898e+002 -1.513431e-001 1.350244e+002
533750000 -2.415906e-001 -1.460846e+002 -4.804070e+001 1.473603e+002 -4.825191e+001 1.502142e+002 -1.574806e-001 1.349546e+002
534375000 -2.490371e-001 -1.464563e+002 -4.821262e+001 1.468862e+002 -4.846552e+001 1.472121e+002 -1.411083e-001 1.349082e+002
535000000 -2.508103e-001 -1.468045e+002 -4.881853e+001 1.455282e+002 -4.846157e+001 1.475943e+002 -1.511635e-001 1.348470e+002
535625000 -2.578055e-001 -1.471796e+002 -4.808297e+001 1.472166e+002 -4.782690e+001 1.467688e+002 -1.417681e-001 1.347802e+002
536250000 -2.647331e-001 -1.475834e+002 -4.826740e+001 1.509469e+002 -4.773560e+001 1.465635e+002 -1.414258e-001 1.347200e+002
536875000 -2.776354e-001 -1.479458e+002 -4.773709e+001 1.427523e+002 -4.789811e+001 1.468816e+002 -1.489827e-001 1.346107e+002
537500000 -2.771472e-001 -1.483335e+002 -4.784270e+001 1.470289e+002 -4.775113e+001 1.438987e+002 -1.388925e-001 1.346180e+002
538125000 -2.899981e-001 -1.487250e+002 -4.749974e+001 1.449449e+002 -4.767991e+001 1.423166e+002 -1.453463e-001 1.345930e+002
538750000 -3.042020e-001 -1.490793e+002 -4.709359e+001 1.429860e+002 -4.732574e+001 1.425427e+002 -1.424080e-001 1.345443e+002
539375000 -3.113563e-001 -1.494909e+002 -4.736209e+001 1.432609e+002 -4.708308e+001 1.425847e+002 -1.468633e-001 1.344754e+002
540000000 -3.169110e-001 -1.498569e+002 -4.681506e+001 1.401071e+002 -4.717823e+001 1.404518e+002 -1.424951e-001 1.344075e+002
540625000 -3.287073e-001 -1.502514e+002 -4.705334e+001 1.404937e+002 -4.725611e+001 1.422461e+002 -1.467514e-001 1.343524e+002
541250000 -3.392586e-001 -1.506008e+002 -4.656775e+001 1.389799e+002 -4.713118e+001 1.409734e+002 -1.354085e-001 1.343730e+002
541875000 -3.476108e-001 -1.510063e+002 -4.674706e+001 1.397750e+002 -4.708017e+001 1.396967e+002 -1.432489e-001 1.342932e+002
542500000 -3.562776e-001 -1.514190e+002 -4.677846e+001 1.393900e+002 -4.646149e+001 1.374717e+002 -1.378922e-001 1.342902e+002
543125000 -3.607205e-001 -1.518267e+002 -4.643785e+001 1.383709e+002 -4.647202e+001 1.386843e+002 -1.322502e-001 1.341602e+002
543750000 -3.738111e-001 -1.522339e+002 -4.642221e+001 1.384014e+002 -4.665177e+001 1.375083e+002 -1.405533e-001 1.341831e+002
544375000 -3.907802e-001 -1.526330e+002 -4.578165e+001 1.368831e+002 -4.616402e+001 1.364051e+002 -1.411982e-001 1.340808e+002
545000000 -3.928640e-001 -1.530345e+002 -4.614041e+001 1.376523e+002 -4.627093e+001 1.335383e+002 -1.465094e-001 1.340441e+002
545625000 -4.017773e-001 -1.534137e+002 -4.611191e+001 1.363938e+002 -4.556515e+001 1.358025e+002 -1.400985e-001 1.340440e+002
546250000 -4.249438e-001 -1.538128e+002 -4.565037e+001 1.348698e+002 -4.600872e+001 1.361515e+002 -1.462025e-001 1.339311e+002
546875000 -4.393945e-001 -1.542704e+002 -4.554368e+001 1.368282e+002 -4.571950e+001 1.367958e+002 -1.509677e-001 1.339029e+002
547500000 -4.473428e-001 -1.546633e+002 -4.549566e+001 1.340829e+002 -4.535597e+001 1.343601e+002 -1.471499e-001 1.338157e+002
548125000 -4.634070e-001 -1.550586e+002 -4.498105e+001 1.346892e+002 -4.520880e+001 1.339028e+002 -1.523370e-001 1.337095e+002
548750000 -4.812927e-001 -1.555365e+002 -4.516016e+001 1.325734e+002 -4.495118e+001 1.313082e+002 -1.536707e-001 1.337201e+002
549375000 -4.933874e-001 -1.559218e+002 -4.486995e+001 1.338416e+002 -4.495620e+001 1.315821e+002 -1.557184e-001 1.334756e+002
550000000 -4.992555e-001 -1.563223e+002 -4.507658e+001 1.311779e+002 -4.484736e+001 1.302991e+002 -1.578771e-001 1.334731e+002
550625000 -5.202555e-001 -1.567814e+002 -4.457714e+001 1.289985e+002 -4.487735e+001 1.280093e+002 -1.572040e-001 1.334116e+002
551250000 -5.299435e-001 -1.571742e+002 -4.438821e+001 1.297214e+002 -4.454773e+001 1.288393e+002 -1.569425e-001 1.333648e+002
551875000 -5.587877e-001 -1.575866e+002 -4.435574e+001 1.271783e+002 -4.425583e+001 1.275183e+002 -1.453532e-001 1.332634e+002
552500000 -5.756125e-001 -1.580246e+002 -4.449887e+001 1.284083e+002 -4.392764e+001 1.271660e+002 -1.474326e-001 1.331887e+002
553125000 -5.889890e-001 -1.584096e+002 -4.370801e+001 1.253802e+002 -4.394328e+001 1.255217e+002 -1.484701e-001 1.331858e+002
553750000 -6.136431e-001 -1.588572e+002 -4.390113e+001 1.236598e+002 -4.416227e+001 1.256298e+002 -1.509587e-001 1.330573e+002
554375000 -6.267454e-001 -1.592663e+002 -4.397440e+001 1.211047e+002 -4.395609e+001 1.236635e+002 -1.430905e-001 1.330148e+002
555000000 -6.454692e-001 -1.596905e+002 -4.347178e+001 1.234742e+002 -4.356086e+001 1.212641e+002 -1.523872e-001 1.330008e+002
555625000 -6.722889e-001 -1.600845e+002 -4.342808e+001 1.222309e+002 -4.364289e+001 1.219795e+002 -1.420550e-001 1.329720e+002
556250000 -6.927738e-001 -1.605616e+002 -4.341899e+001 1.196779e+002 -4.357548e+001 1.225476e+002 -1.427396e-001 1.328782e+002
556875000 -7.096741e-001 -1.610240e+002 -4.337630e+001 1.211986e+002 -4.348816e+001 1.194414e+002 -1.542124e-001 1.328851e+002
557500000 -7.372444e-001 -1.614158e+002 -4.311880e+001 1.198962e+002 -4.305124e+001 1.182447e+002 -1.436853e-001 1.328254e+002
558125000 -7.603624e-001 -1.618464e+002 -4.300633e+001 1.198053e+002 -4.321695e+001 1.187134e+002 -1.466231e-001 1.328659e+002
558750000 -7.729015e-001 -1.623053e+002 -4.284965e+001 1.183301e+002 -4.288554e+001 1.180133e+002 -1.413446e-001 1.328456e+002
559375000 -8.059074e-001 -1.628019e+002 -4.283147e+001 1.151729e+002 -4.312100e+001 1.177418e+002 -1.441261e-001 1.328006e+002
560000000 -8.380504e-001 -1.631600e+002 -4.232607e+001 1.167697e+002 -4.267606e+001 1.162058e+002 -1.389662e-001 1.327526e+002
560625000 -8.654447e-001 -1.636204e+002 -4.227638e+001 1.151196e+002 -4.255668e+001 1.155905e+002 -1.408842e-001 1.326709e+002
561250000 -8.884262e-001 -1.641178e+002 -4.209469e+001 1.166190e+002 -4.246038e+001 1.155217e+002 -1.495828e-001 1.326703e+002
561875000 -9.220943e-001 -1.645655e+002 -4.204193e+001 1.125792e+002 -4.225202e+001 1.133397e+002 -1.514906e-001 1.325943e+002
562500000 -9.519494e-001 -1.650007e+002 -4.189444e+001 1.139176e+002 -4.200019e+001 1.118076e+002 -1.586847e-001 1.326094e+002
563125000 -9.779953e-001 -1.653980e+002 -4.172277e+001 1.124254e+002 -4.186402e+001 1.125042e+002 -1.481531e-001 1.325419e+002
563750000 -1.019438e+000 -1.658819e+002 -4.166070e+001 1.100146e+002 -4.162912e+001 1.108344e+002 -1.594559e-001 1.324148e+002
564375000 -1.053783e+000 -1.663195e+002 -4.129778e+001 1.092778e+002 -4.144960e+001 1.091565e+002 -1.570904e-001 1.323941e+002
565000000 -1.088589e+000 -1.668081e+002 -4.116354e+001 1.074329e+002 -4.119845e+001 1.080213e+002 -1.678398e-001 1.322384e+002
565625000 -1.130180e+000 -1.672271e+002 -4.100450e+001 1.074164e+002 -4.126006e+001 1.078360e+002 -1.664891e-001 1.321039e+002
566250000 -1.159511e+000 -1.677026e+002 -4.099001e+001 1.049222e+002 -4.086825e+001 1.065710e+002 -1.736416e-001 1.320109e+002
566875000 -1.202460e+000 -1.681631e+002 -4.071077e+001 1.066280e+002 -4.105432e+001 1.053692e+002 -1.733049e-001 1.318593e+002
567500000 -1.243839e+000 -1.686778e+002 -4.079186e+001 1.040335e+002 -4.075518e+001 1.049752e+002 -1.713422e-001 1.317544e+002
568125000 -1.284905e+000 -1.690550e+002 -4.041171e+001 1.032420e+002 -4.069514e+001 1.031946e+002 -1.719200e-001 1.316191e+002
568750000 -1.325602e+000 -1.695424e+002 -4.032346e+001 1.004805e+002 -4.031690e+001 1.021229e+002 -1.795818e-001 1.314510e+002
569375000 -1.370053e+000 -1.699354e+002 -3.998882e+001 9.950718e+001 -4.022257e+001 1.006741e+002 -1.822868e-001 1.313369e+002
570000000 -1.420522e+000 -1.704341e+002 -4.003755e+001 9.938642e+001 -4.012817e+001 9.997399e+001 -1.701724e-001 1.310833e+002
570625000 -1.452905e+000 -1.708730e+002 -3.994220e+001 9.868719e+001 -4.015163e+001 9.920837e+001 -1.700771e-001 1.310640e+002
571250000 -1.510260e+000 -1.713013e+002 -3.975438e+001 9.694407e+001 -3.999656e+001 9.640967e+001 -1.670083e-001 1.308904e+002
571875000 -1.562358e+000 -1.717484e+002 -3.990240e+001 9.675454e+001 -3.986264e+001 9.582578e+001 -1.646166e-001 1.307043e+002
572500000 -1.614718e+000 -1.722147e+002 -3.969059e+001 9.435379e+001 -3.981611e+001 9.488911e+001 -1.668653e-001 1.305914e+002
573125000 -1.669920e+000 -1.726147e+002 -3.922173e+001 9.340242e+001 -3.932372e+001 9.371241e+001 -1.592071e-001 1.305034e+002
573750000 -1.711124e+000 -1.729498e+002 -3.944655e+001 9.267309e+001 -3.936543e+001 9.258940e+001 -1.662892e-001 1.303673e+002
574375000 -1.774916e+000 -1.733359e+002 -3.905893e+001 9.049448e+001 -3.926131e+001 9.151915e+001 -1.594914e-001 1.303139e+002
575000000 -1.828069e+000 -1.737241e+002 -3.901524e+001 9.014512e+001 -3.900159e+001 8.998531e+001 -1.560518e-001 1.302449e+002
575625000 -1.886483e+000 -1.740598e+002 -3.894098e+001 8.815669e+001 -3.893415e+001 8.954018e+001 -1.545823e-001 1.301905e+002
576250000 -1.940937e+000 -1.743978e+002 -3.888785e+001 8.769410e+001 -3.886224e+001 8.718087e+001 -1.585163e-001 1.301306e+002
576875000 -2.003011e+000 -1.747165e+002 -3.863120e+001 8.603949e+001 -3.865381e+001 8.622484e+001 -1.494377e-001 1.301313e+002
577500000 -2.060234e+000 -1.749935e+002 -3.863979e+001 8.464754e+001 -3.863519e+001 8.421783e+001 -1.468279e-001 1.300696e+002
578125000 -2.118761e+000 -1.753248e+002 -3.852910e+001 8.342732e+001 -3.832589e+001 8.425354e+001 -1.427848e-001 1.301407e+002
578750000 -2.176476e+000 -1.755876e+002 -3.843364e+001 8.269136e+001 -3.840818e+001 8.238361e+001 -1.442901e-001 1.301324e+002
579375000 -2.234767e+000 -1.757934e+002 -3.823823e+001 8.078278e+001 -3.813766e+001 8.021447e+001 -1.426162e-001 1.300423e+002
580000000 -2.291184e+000 -1.760050e+002 -3.814383e+001 7.985588e+001 -3.815350e+001 8.057165e+001 -1.379384e-001 1.300674e+002
580625000 -2.347272e+000 -1.763348e+002 -3.818772e+001 7.607466e+001 -3.800712e+001 7.902218e+001 -1.346748e-001 1.301083e+002
581250000 -2.409853e+000 -1.764908e+002 -3.796842e+001 7.669914e+001 -3.796670e+001 7.701576e+001 -1.420860e-001 1.300728e+002
581875000 -2.465477e+000 -1.767229e+002 -3.803759e+001 7.508328e+001 -3.773300e+001 7.519656e+001 -1.390133e-001 1.300847e+002
582500000 -2.521481e+000 -1.769072e+002 -3.777040e+001 7.437431e+001 -3.762032e+001 7.399416e+001 -1.494868e-001 1.300611e+002
583125000 -2.573791e+000 -1.771824e+002 -3.752385e+001 7.281925e+001 -3.773534e+001 7.202180e+001 -1.515160e-001 1.299796e+002
583750000 -2.637767e+000 -1.774026e+002 -3.754893e+001 7.063529e+001 -3.763572e+001 7.017700e+001 -1.643734e-001 1.299693e+002
584375000 -2.691260e+000 -1.775631e+002 -3.750298e+001 6.900371e+001 -3.742813e+001 6.935503e+001 -1.554148e-001 1.298901e+002
585000000 -2.743857e+000 -1.777487e+002 -3.732294e+001 6.819315e+001 -3.732690e+001 6.772070e+001 -1.606912e-001 1.298018e+002
585625000 -2.813884e+000 -1.779277e+002 -3.730909e+001 6.665108e+001 -3.731966e+001 6.680024e+001 -1.527892e-001 1.297633e+002
586250000 -2.857049e+000 -1.781145e+002 -3.722470e+001 6.484943e+001 -3.715919e+001 6.593081e+001 -1.575850e-001 1.297781e+002
586875000 -2.913664e+000 -1.782970e+002 -3.695325e+001 6.388293e+001 -3.712775e+001 6.436699e+001 -1.615523e-001 1.296277e+002
587500000 -2.969304e+000 -1.784183e+002 -3.701917e+001 6.196261e+001 -3.695281e+001 6.188846e+001 -1.573589e-001 1.295242e+002
588125000 -3.015876e+000 -1.785733e+002 -3.690865e+001 6.152926e+001 -3.680934e+001 6.189018e+001 -1.649402e-001 1.294395e+002
588750000 -3.065942e+000 -1.786494e+002 -3.680183e+001 5.926800e+001 -3.692832e+001 5.984899e+001 -1.613899e-001 1.294032e+002
589375000 -3.112911e+000 -1.787509e+002 -3.669095e+001 5.779045e+001 -3.683065e+001 5.789258e+001 -1.498732e-001 1.292482e+002
590000000 -3.157987e+000 -1.788600e+002 -3.667947e+001 5.662646e+001 -3.670961e+001 5.691528e+001 -1.589730e-001 1.292885e+002
590625000 -3.197772e+000 -1.789131e+002 -3.665298e+001 5.557549e+001 -3.677203e+001 5.549970e+001 -1.556353e-001 1.291789e+002
591250000 -3.232688e+000 -1.790018e+002 -3.664571e+001 5.432113e+001 -3.655150e+001 5.412947e+001 -1.466291e-001 1.291709e+002
591875000 -3.274169e+000 -1.790260e+002 -3.655235e+001 5.263286e+001 -3.656004e+001 5.194967e+001 -1.454592e-001 1.291577e+002
592500000 -3.305134e+000 -1.790885e+002 -3.666389e+001 5.170383e+001 -3.646841e+001 5.172242e+001 -1.480432e-001 1.291974e+002
593125000 -3.340404e+000 -1.792101e+002 -3.645804e+001 4.970702e+001 -3.635256e+001 5.031344e+001 -1.528140e-001 1.292092e+002
593750000 -3.363592e+000 -1.792751e+002 -3.631148e+001 4.800339e+001 -3.642538e+001 4.892128e+001 -1.349835e-001 1.292232e+002
594375000 -3.391525e+000 -1.792971e+002 -3.639012e+001 4.718990e+001 -3.628798e+001 4.783635e+001 -1.337891e-001 1.292752e+002
595000000 -3.419187e+000 -1.794119e+002 -3.623970e+001 4.575907e+001 -3.622543e+001 4.555962e+001 -1.460433e-001 1.293042e+002
595625000 -3.442657e+000 -1.794373e+002 -3.631552e+001 4.582043e+001 -3.632350e+001 4.492804e+001 -1.353439e-001 1.293708e+002
596250000 -3.466253e+000 -1.794751e+002 -3.629487e+001 4.381612e+001 -3.617513e+001 4.291587e+001 -1.451010e-001 1.293846e+002
