!Agilent Technologies,E8364B,US42250235,A.06.04.32
!Agilent E8364B: A.06.04.32
!Date: Friday, January 15, 2021 13:49:57
!Correction: S11(Full 2 Port(1,2)) S21(Full 2 Port(1,2)) S12(Full 2 Port(1,2)) S22(Full 2 Port(1,2)) 
!S2P File: Measurements: S11, S21, S12, S22:
# Hz S  dB   R 50
500000000 -9.996625e-002 -1.289501e+002 -5.748796e+001 2.511247e+001 -5.640448e+001 2.308424e+001 -1.552788e-001 1.378536e+002
500625000 -1.020017e-001 -1.291393e+002 -5.795406e+001 1.078614e+001 -5.805722e+001 3.232414e+001 -1.571774e-001 1.378071e+002
501250000 -1.014762e-001 -1.294165e+002 -5.837576e+001 2.937210e+001 -5.676271e+001 2.649305e+001 -1.658026e-001 1.377453e+002
501875000 -9.321997e-002 -1.296943e+002 -5.622097e+001 2.444968e+001 -5.664606e+001 3.507680e+001 -1.474249e-001 1.376433e+002
502500000 -9.674995e-002 -1.299733e+002 -5.756440e+001 2.285607e+001 -5.658087e+001 2.876358e+001 -1.531577e-001 1.376751e+002
503125000 -1.076012e-001 -1.302206e+002 -5.603424e+001 1.873528e+001 -5.797728e+001 2.049914e+001 -1.599421e-001 1.375128e+002
503750000 -1.094038e-001 -1.304725e+002 -5.580379e+001 1.805446e+001 -5.795351e+001 2.178140e+001 -1.568941e-001 1.374705e+002
504375000 -1.193496e-001 -1.307804e+002 -5.608764e+001 2.566653e+001 -5.619471e+001 1.789574e+001 -1.660006e-001 1.373725e+002
505000000 -1.194233e-001 -1.310907e+002 -5.643036e+001 4.497248e+000 -5.705225e+001 1.930197e+001 -1.641497e-001 1.373629e+002
505625000 -1.203785e-001 -1.313653e+002 -5.727019e+001 6.950602e+000 -5.656285e+001 2.292586e+001 -1.618535e-001 1.372364e+002
506250000 -1.197416e-001 -1.316497e+002 -5.716211e+001 1.721500e+001 -5.732270e+001 2.154011e+001 -1.599444e-001 1.371136e+002
506875000 -1.220499e-001 -1.319212e+002 -5.633646e+001 1.615116e+001 -5.551288e+001 1.953811e+001 -1.633162e-001 1.369883e+002
507500000 -1.276148e-001 -1.322403e+002 -5.648500e+001 1.372309e+001 -5.669065e+001 1.423892e+001 -1.623765e-001 1.369472e+002
508125000 -1.307926e-001 -1.325638e+002 -5.644523e+001 1.541617e+001 -5.736362e+001 2.141644e+001 -1.626514e-001 1.368937e+002
508750000 -1.273615e-001 -1.327843e+002 -5.634395e+001 1.309695e+001 -5.449083e+001 2.430814e+001 -1.556154e-001 1.368018e+002
509375000 -1.332835e-001 -1.331506e+002 -5.592907e+001 1.258499e+001 -5.714667e+001 1.836389e+001 -1.491221e-001 1.368311e+002
510000000 -1.351713e-001 -1.334715e+002 -5.593340e+001 1.124528e+001 -5.659736e+001 1.742195e+001 -1.511894e-001 1.367229e+002
510625000 -1.404906e-001 -1.337567e+002 -5.752377e+001 1.570116e+001 -5.538702e+001 1.912699e+001 -1.431467e-001 1.367268e+002
511250000 -1.446825e-001 -1.340255e+002 -5.576831e+001 7.632142e+000 -5.666102e+001 9.568659e+000 -1.615283e-001 1.366853e+002
511875000 -1.384109e-001 -1.344248e+002 -5.558088e+001 1.013445e+001 -5.601576e+001 7.670361e+000 -1.475292e-001 1.365911e+002
512500000 -1.411837e-001 -1.346795e+002 -5.567289e+001 9.086675e+000 -5.512212e+001 1.276523e+001 -1.500952e-001 1.365996e+002
513125000 -1.495057e-001 -1.350380e+002 -5.534820e+001 5.498851e+000 -5.573539e+001 1.000258e+001 -1.558306e-001 1.366233e+002
513750000 -1.572744e-001 -1.352924e+002 -5.630328e+001 1.134976e+001 -5.516401e+001 6.553484e+000 -1.641504e-001 1.365118e+002
514375000 -1.571368e-001 -1.356795e+002 -5.587653e+001 8.362826e+000 -5.642844e+001 1.046422e+001 -1.574588e-001 1.364625e+002
515000000 -1.630444e-001 -1.359316e+002 -5.535317e+001 9.827431e+000 -5.674838e+001 3.041010e+000 -1.469038e-001 1.364701e+002
515625000 -1.699055e-001 -1.363175e+002 -5.360975e+001 5.374422e+000 -5.525412e+001 9.347960e+000 -1.516240e-001 1.363742e+002
516250000 -1.680374e-001 -1.366093e+002 -5.392904e+001 1.368915e+001 -5.498858e+001 1.269759e+001 -1.639772e-001 1.362683e+002
516875000 -1.793719e-001 -1.369081e+002 -5.425277e+001 6.004367e+000 -5.416872e+001 9.161975e+000 -1.580417e-001 1.363035e+002
517500000 -1.792588e-001 -1.372730e+002 -5.441108e+001 -6.601298e-001 -5.401897e+001 3.198404e+000 -1.607781e-001 1.361313e+002
518125000 -1.818125e-001 -1.375986e+002 -5.408361e+001 5.984636e+000 -5.518353e+001 9.358198e+000 -1.679151e-001 1.360716e+002
518750000 -1.889196e-001 -1.379160e+002 -5.479074e+001 3.600198e+000 -5.487116e+001 8.646829e+000 -1.667829e-001 1.359633e+002
519375000 -2.028624e-001 -1.381549e+002 -5.404043e+001 5.515070e+000 -5.352441e+001 8.310764e+000 -1.523215e-001 1.358527e+002
520000000 -2.015792e-001 -1.385580e+002 -5.468950e+001 7.848210e+000 -5.508994e+001 6.127015e+000 -1.607288e-001 1.357829e+002
520625000 -2.017047e-001 -1.388695e+002 -5.468512e+001 2.532342e+000 -5.310805e+001 -7.695884e-001 -1.624749e-001 1.356776e+002
521250000 -2.074451e-001 -1.392123e+002 -5.394420e+001 -1.237673e+000 -5.394346e+001 2.595744e+000 -1.670161e-001 1.356320e+002
521875000 -2.071389e-001 -1.395421e+002 -5.332564e+001 -4.359354e+000 -5.390961e+001 -1.780684e+000 -1.521539e-001 1.355920e+002
522500000 -2.156436e-001 -1.398745e+002 -5.334893e+001 2.625784e+000 -5.293219e+001 5.623009e-001 -1.517720e-001 1.354854e+002
523125000 -2.277998e-001 -1.402110e+002 -5.400986e+001 6.359934e+000 -5.275908e+001 9.895743e-001 -1.618222e-001 1.355036e+002
523750000 -2.263413e-001 -1.405323e+002 -5.313402e+001 -2.474396e+000 -5.324787e+001 2.797184e+000 -1.580617e-001 1.354353e+002
524375000 -2.404187e-001 -1.408756e+002 -5.232553e+001 -6.099209e+000 -5.378513e+001 -1.013645e+000 -1.472730e-001 1.353933e+002
525000000 -2.405634e-001 -1.411881e+002 -5.371211e+001 -2.712127e+000 -5.356461e+001 -9.224218e-001 -1.488545e-001 1.354049e+002
525625000 -2.547673e-001 -1.414858e+002 -5.322642e+001 -7.795626e+000 -5.359383e+001 -1.214456e+000 -1.564560e-001 1.352911e+002
526250000 -2.551344e-001 -1.417793e+002 -5.326904e+001 -1.076819e+001 -5.256080e+001 -4.299622e+000 -1.540893e-001 1.353281e+002
526875000 -2.602647e-001 -1.421506e+002 -5.259293e+001 -7.280790e+000 -5.210432e+001 -3.919131e+000 -1.478237e-001 1.352880e+002
527500000 -2.658380e-001 -1.424531e+002 -5.163527e+001 -1.693616e+001 -5.195913e+001 -7.460178e+000 -1.522269e-001 1.352576e+002
528125000 -2.882191e-001 -1.428178e+002 -5.116440e+001 -4.059464e+000 -5.224526e+001 -3.154700e+000 -1.483653e-001 1.353532e+002
528750000 -2.801770e-001 -1.431162e+002 -5.199475e+001 -9.154877e+000 -5.161729e+001 -9.720303e+000 -1.455702e-001 1.354123e+002
529375000 -2.860427e-001 -1.434078e+002 -5.294335e+001 -1.032871e+001 -5.221779e+001 -1.220481e+001 -1.504014e-001 1.352848e+002
530000000 -2.996923e-001 -1.438159e+002 -5.247667e+001 -1.571646e+001 -5.250794e+001 -1.124293e+001 -1.521215e-001 1.352694e+002
530625000 -2.997988e-001 -1.440838e+002 -5.096713e+001 -1.193388e+001 -5.266996e+001 -1.750176e+001 -1.567599e-001 1.352317e+002
531250000 -3.121429e-001 -1.444639e+002 -5.184975e+001 -1.387607e+001 -5.180029e+001 -1.689695e+001 -1.581874e-001 1.351763e+002
531875000 -3.202948e-001 -1.447572e+002 -5.202777e+001 -1.857727e+001 -5.137951e+001 -1.713944e+001 -1.564865e-001 1.351291e+002
532500000 -3.271379e-001 -1.451012e+002 -5.024763e+001 -1.629202e+001 -5.134856e+001 -1.437970e+001 -1.609230e-001 1.351298e+002
533125000 -3.338920e-001 -1.454616e+002 -5.077954e+001 -1.585011e+001 -5.113637e+001 -1.795890e+001 -1.703436e-001 1.350735e+002
533750000 -3.434860e-001 -1.457906e+002 -5.056164e+001 -1.624673e+001 -5.070027e+001 -1.723400e+001 -1.738265e-001 1.350334e+002
534375000 -3.494670e-001 -1.461629e+002 -5.123191e+001 -1.704852e+001 -5.066403e+001 -1.620489e+001 -1.635528e-001 1.349251e+002
535000000 -3.588399e-001 -1.464979e+002 -5.066916e+001 -2.310572e+001 -5.090820e+001 -2.072588e+001 -1.711042e-001 1.348668e+002
535625000 -3.697912e-001 -1.468457e+002 -5.043307e+001 -2.245771e+001 -5.097695e+001 -1.978930e+001 -1.692222e-001 1.348310e+002
536250000 -3.759296e-001 -1.472089e+002 -4.985637e+001 -2.532121e+001 -5.077164e+001 -2.054442e+001 -1.619922e-001 1.347263e+002
536875000 -3.924353e-001 -1.475759e+002 -5.063451e+001 -1.925468e+001 -5.053724e+001 -2.071857e+001 -1.666688e-001 1.346292e+002
537500000 -3.978789e-001 -1.479097e+002 -4.991829e+001 -2.374115e+001 -5.023139e+001 -2.170179e+001 -1.571235e-001 1.346470e+002
538125000 -4.076969e-001 -1.483384e+002 -5.001404e+001 -2.400332e+001 -4.996925e+001 -2.286150e+001 -1.608250e-001 1.345937e+002
538750000 -4.270374e-001 -1.486617e+002 -5.015130e+001 -2.391082e+001 -4.993044e+001 -2.538015e+001 -1.680333e-001 1.345561e+002
539375000 -4.391224e-001 -1.490259e+002 -4.939981e+001 -2.257579e+001 -5.019671e+001 -2.391228e+001 -1.665417e-001 1.345094e+002
540000000 -4.439147e-001 -1.493643e+002 -4.987671e+001 -2.678349e+001 -4.968175e+001 -2.431122e+001 -1.669782e-001 1.344306e+002
540625000 -4.552118e-001 -1.497966e+002 -4.979181e+001 -3.103830e+001 -4.895634e+001 -3.024662e+001 -1.579064e-001 1.343630e+002
541250000 -4.649667e-001 -1.500705e+002 -4.918409e+001 -3.188398e+001 -4.917031e+001 -2.936203e+001 -1.531322e-001 1.343490e+002
541875000 -4.798557e-001 -1.504772e+002 -4.906863e+001 -2.990944e+001 -4.955835e+001 -2.932075e+001 -1.751944e-001 1.342594e+002
542500000 -4.961145e-001 -1.508446e+002 -4.898973e+001 -3.364944e+001 -4.899442e+001 -3.282751e+001 -1.630382e-001 1.342204e+002
543125000 -4.954869e-001 -1.512510e+002 -4.843891e+001 -3.369630e+001 -4.947100e+001 -3.051941e+001 -1.608159e-001 1.341083e+002
543750000 -5.162107e-001 -1.515987e+002 -4.834794e+001 -3.365614e+001 -4.862501e+001 -3.091328e+001 -1.719774e-001 1.340252e+002
544375000 -5.278416e-001 -1.519961e+002 -4.815021e+001 -3.538290e+001 -4.845301e+001 -3.426490e+001 -1.760054e-001 1.339415e+002
545000000 -5.364196e-001 -1.523347e+002 -4.870020e+001 -3.871120e+001 -4.872771e+001 -3.466482e+001 -1.707525e-001 1.339280e+002
545625000 -5.498151e-001 -1.527217e+002 -4.850494e+001 -3.563356e+001 -4.857260e+001 -3.661897e+001 -1.658887e-001 1.337543e+002
546250000 -5.698792e-001 -1.530890e+002 -4.787897e+001 -3.411722e+001 -4.836765e+001 -3.386264e+001 -1.804583e-001 1.336600e+002
546875000 -5.770935e-001 -1.535140e+002 -4.801552e+001 -3.907091e+001 -4.752739e+001 -3.784610e+001 -1.782785e-001 1.336113e+002
547500000 -5.996712e-001 -1.538677e+002 -4.830034e+001 -4.018502e+001 -4.797071e+001 -3.905540e+001 -1.765736e-001 1.335156e+002
548125000 -6.195400e-001 -1.542303e+002 -4.785093e+001 -3.930393e+001 -4.733092e+001 -4.103897e+001 -1.709064e-001 1.333491e+002
548750000 -6.294504e-001 -1.546532e+002 -4.756931e+001 -4.448951e+001 -4.768606e+001 -4.219854e+001 -1.795091e-001 1.332538e+002
549375000 -6.519217e-001 -1.550014e+002 -4.688951e+001 -4.335538e+001 -4.756709e+001 -4.240514e+001 -1.689526e-001 1.330620e+002
550000000 -6.596432e-001 -1.553304e+002 -4.726070e+001 -4.484435e+001 -4.709133e+001 -4.340186e+001 -1.801865e-001 1.330340e+002
550625000 -6.762477e-001 -1.557174e+002 -4.651284e+001 -4.665907e+001 -4.694923e+001 -4.766282e+001 -1.764892e-001 1.329568e+002
551250000 -6.883316e-001 -1.560289e+002 -4.688553e+001 -4.947000e+001 -4.708037e+001 -4.717377e+001 -1.729575e-001 1.328956e+002
551875000 -7.079296e-001 -1.564058e+002 -4.703679e+001 -4.944105e+001 -4.658313e+001 -4.784290e+001 -1.656412e-001 1.328382e+002
552500000 -7.264099e-001 -1.568358e+002 -4.687714e+001 -5.036102e+001 -4.644121e+001 -4.891601e+001 -1.661865e-001 1.327509e+002
553125000 -7.339296e-001 -1.571547e+002 -4.643760e+001 -5.049543e+001 -4.633724e+001 -5.147270e+001 -1.591710e-001 1.327567e+002
553750000 -7.608199e-001 -1.574946e+002 -4.623246e+001 -5.317601e+001 -4.665286e+001 -5.099622e+001 -1.610298e-001 1.326790e+002
554375000 -7.726831e-001 -1.578685e+002 -4.619728e+001 -5.536939e+001 -4.594508e+001 -5.085891e+001 -1.614549e-001 1.326692e+002
555000000 -7.893628e-001 -1.582290e+002 -4.599823e+001 -5.347753e+001 -4.607902e+001 -5.365164e+001 -1.613087e-001 1.326810e+002
555625000 -8.063590e-001 -1.585533e+002 -4.573599e+001 -5.671394e+001 -4.588121e+001 -5.425012e+001 -1.463741e-001 1.327211e+002
556250000 -8.285261e-001 -1.589547e+002 -4.563287e+001 -5.687053e+001 -4.597820e+001 -5.808451e+001 -1.508623e-001 1.326305e+002
556875000 -8.451927e-001 -1.593767e+002 -4.570580e+001 -5.866375e+001 -4.616470e+001 -5.766314e+001 -1.582663e-001 1.326987e+002
557500000 -8.765574e-001 -1.597151e+002 -4.556547e+001 -6.073080e+001 -4.552674e+001 -5.797109e+001 -1.559586e-001 1.326401e+002
558125000 -8.916248e-001 -1.600722e+002 -4.555547e+001 -6.165302e+001 -4.583191e+001 -6.030914e+001 -1.616994e-001 1.326546e+002
558750000 -9.010152e-001 -1.604283e+002 -4.529671e+001 -6.344040e+001 -4.557307e+001 -5.949663e+001 -1.543069e-001 1.327082e+002
559375000 -9.356385e-001 -1.608135e+002 -4.478353e+001 -6.400175e+001 -4.563856e+001 -6.348137e+001 -1.615012e-001 1.326841e+002
560000000 -9.631957e-001 -1.611666e+002 -4.505424e+001 -6.641872e+001 -4.509270e+001 -6.502841e+001 -1.514396e-001 1.326355e+002
560625000 -9.802814e-001 -1.615417e+002 -4.443061e+001 -6.627786e+001 -4.515966e+001 -6.485360e+001 -1.485250e-001 1.326546e+002
561250000 -1.003262e+000 -1.619420e+002 -4.459016e+001 -6.792230e+001 -4.472311e+001 -6.662867e+001 -1.563004e-001 1.326032e+002
561875000 -1.022127e+000 -1.622778e+002 -4.464054e+001 -6.893884e+001 -4.465168e+001 -6.764189e+001 -1.619100e-001 1.326094e+002
562500000 -1.049506e+000 -1.625752e+002 -4.419466e+001 -7.069862e+001 -4.451037e+001 -6.920046e+001 -1.611983e-001 1.325585e+002
563125000 -1.064198e+000 -1.629398e+002 -4.426185e+001 -7.222101e+001 -4.446984e+001 -7.097462e+001 -1.598048e-001 1.325187e+002
563750000 -1.097382e+000 -1.633360e+002 -4.439084e+001 -7.348725e+001 -4.421149e+001 -7.089668e+001 -1.707782e-001 1.324203e+002
564375000 -1.115116e+000 -1.636924e+002 -4.414924e+001 -7.464882e+001 -4.439180e+001 -7.253861e+001 -1.736542e-001 1.323887e+002
565000000 -1.138782e+000 -1.640961e+002 -4.412668e+001 -7.588734e+001 -4.392965e+001 -7.323455e+001 -1.728395e-001 1.323149e+002
565625000 -1.166500e+000 -1.644115e+002 -4.396184e+001 -7.870805e+001 -4.377690e+001 -7.608836e+001 -1.816125e-001 1.322064e+002
566250000 -1.189094e+000 -1.648040e+002 -4.376966e+001 -7.672157e+001 -4.386915e+001 -7.718262e+001 -1.789357e-001 1.321346e+002
566875000 -1.225892e+000 -1.652339e+002 -4.373339e+001 -8.012834e+001 -4.380892e+001 -7.828078e+001 -1.797333e-001 1.320302e+002
567500000 -1.253611e+000 -1.656185e+002 -4.327732e+001 -8.187038e+001 -4.340903e+001 -8.176055e+001 -1.818663e-001 1.318975e+002
568125000 -1.283606e+000 -1.659435e+002 -4.330964e+001 -8.450088e+001 -4.341518e+001 -8.324043e+001 -1.793508e-001 1.318027e+002
568750000 -1.313978e+000 -1.662863e+002 -4.324863e+001 -8.405527e+001 -4.324971e+001 -8.323526e+001 -1.814984e-001 1.316134e+002
569375000 -1.350111e+000 -1.666376e+002 -4.331001e+001 -8.408958e+001 -4.314650e+001 -8.610963e+001 -1.872000e-001 1.315117e+002
570000000 -1.373600e+000 -1.670173e+002 -4.318689e+001 -8.737027e+001 -4.323827e+001 -8.581945e+001 -1.793000e-001 1.313182e+002
570625000 -1.398192e+000 -1.673147e+002 -4.316491e+001 -8.989490e+001 -4.314087e+001 -8.830840e+001 -1.789773e-001 1.312687e+002
571250000 -1.432092e+000 -1.676471e+002 -4.292645e+001 -9.092134e+001 -4.298933e+001 -8.979386e+001 -1.826776e-001 1.311713e+002
571875000 -1.458301e+000 -1.680165e+002 -4.296889e+001 -9.140199e+001 -4.305403e+001 -8.878258e+001 -1.698792e-001 1.310368e+002
572500000 -1.487541e+000 -1.683714e+002 -4.257866e+001 -9.262565e+001 -4.267710e+001 -9.329305e+001 -1.771573e-001 1.309181e+002
573125000 -1.517746e+000 -1.687186e+002 -4.262252e+001 -9.492282e+001 -4.258569e+001 -9.303741e+001 -1.610074e-001 1.308246e+002
573750000 -1.545764e+000 -1.689928e+002 -4.266300e+001 -9.558202e+001 -4.252483e+001 -9.578740e+001 -1.803213e-001 1.306979e+002
574375000 -1.576078e+000 -1.692508e+002 -4.245114e+001 -9.685826e+001 -4.264374e+001 -9.600124e+001 -1.728026e-001 1.306781e+002
575000000 -1.597819e+000 -1.696221e+002 -4.249429e+001 -9.859479e+001 -4.230609e+001 -9.701080e+001 -1.739392e-001 1.306130e+002
575625000 -1.628146e+000 -1.698811e+002 -4.231781e+001 -1.017558e+002 -4.203291e+001 -9.848447e+001 -1.719162e-001 1.305402e+002
576250000 -1.650588e+000 -1.702463e+002 -4.228776e+001 -1.032928e+002 -4.231549e+001 -1.006949e+002 -1.729110e-001 1.304864e+002
576875000 -1.674866e+000 -1.705232e+002 -4.212233e+001 -1.022141e+002 -4.204367e+001 -1.017085e+002 -1.676634e-001 1.304623e+002
577500000 -1.701425e+000 -1.707940e+002 -4.195854e+001 -1.056286e+002 -4.191646e+001 -1.057234e+002 -1.559141e-001 1.304366e+002
578125000 -1.726380e+000 -1.711001e+002 -4.182968e+001 -1.076916e+002 -4.214426e+001 -1.042869e+002 -1.594711e-001 1.305012e+002
578750000 -1.753055e+000 -1.714187e+002 -4.181052e+001 -1.092059e+002 -4.177658e+001 -1.070140e+002 -1.631474e-001 1.304484e+002
579375000 -1.769390e+000 -1.717085e+002 -4.161335e+001 -1.102617e+002 -4.184571e+001 -1.084938e+002 -1.590945e-001 1.304334e+002
580000000 -1.796709e+000 -1.719261e+002 -4.166318e+001 -1.124798e+002 -4.161565e+001 -1.111259e+002 -1.635222e-001 1.303622e+002
580625000 -1.821646e+000 -1.722298e+002 -4.191106e+001 -1.135630e+002 -4.171241e+001 -1.113758e+002 -1.611772e-001 1.304739e+002
581250000 -1.847648e+000 -1.724856e+002 -4.163134e+001 -1.145668e+002 -4.154351e+001 -1.136191e+002 -1.639272e-001 1.304548e+002
581875000 -1.868036e+000 -1.727768e+002 -4.165982e+001 -1.163794e+002 -4.153132e+001 -1.141929e+002 -1.642287e-001 1.304168e+002
582500000 -1.895767e+000 -1.730065e+002 -4.131870e+001 -1.182225e+002 -4.131353e+001 -1.157851e+002 -1.614139e-001 1.303320e+002
583125000 -1.905529e+000 -1.734350e+002 -4.140749e+001 -1.192393e+002 -4.122145e+001 -1.182254e+002 -1.751052e-001 1.302275e+002
583750000 -1.939782e+000 -1.737387e+002 -4.130823e+001 -1.219812e+002 -4.118102e+001 -1.186509e+002 -1.833695e-001 1.301913e+002
584375000 -1.946929e+000 -1.740626e+002 -4.128188e+001 -1.209328e+002 -4.140150e+001 -1.200010e+002 -1.704318e-001 1.300971e+002
585000000 -1.978774e+000 -1.743750e+002 -4.128021e+001 -1.225116e+002 -4.130112e+001 -1.209873e+002 -1.892031e-001 1.299851e+002
585625000 -2.011109e+000 -1.746794e+002 -4.123256e+001 -1.228341e+002 -4.113118e+001 -1.225341e+002 -1.845241e-001 1.298837e+002
586250000 -2.029127e+000 -1.750419e+002 -4.137143e+001 -1.258448e+002 -4.105122e+001 -1.243960e+002 -1.827839e-001 1.298456e+002
586875000 -2.052088e+000 -1.753839e+002 -4.095223e+001 -1.263603e+002 -4.093885e+001 -1.247386e+002 -1.880687e-001 1.296629e+002
587500000 -2.084083e+000 -1.756888e+002 -4.140348e+001 -1.284109e+002 -4.093248e+001 -1.263549e+002 -1.914798e-001 1.295257e+002
588125000 -2.116442e+000 -1.759589e+002 -4.102726e+001 -1.302417e+002 -4.084660e+001 -1.292579e+002 -1.910864e-001 1.294679e+002
588750000 -2.129879e+000 -1.762128e+002 -4.082915e+001 -1.311991e+002 -4.085218e+001 -1.301198e+002 -1.949152e-001 1.293766e+002
589375000 -2.149973e+000 -1.765779e+002 -4.097801e+001 -1.318621e+002 -4.089670e+001 -1.324381e+002 -1.813200e-001 1.291122e+002
590000000 -2.174244e+000 -1.768695e+002 -4.090406e+001 -1.335330e+002 -4.055747e+001 -1.325429e+002 -1.819123e-001 1.291315e+002
590625000 -2.183532e+000 -1.772025e+002 -4.081997e+001 -1.337711e+002 -4.079551e+001 -1.346938e+002 -1.781336e-001 1.289513e+002
591250000 -2.203114e+000 -1.775264e+002 -4.080539e+001 -1.364209e+002 -4.052759e+001 -1.348762e+002 -1.813818e-001 1.289583e+002
591875000 -2.223725e+000 -1.778106e+002 -4.091506e+001 -1.371075e+002 -4.057518e+001 -1.348949e+002 -1.802007e-001 1.288894e+002
592500000 -2.236661e+000 -1.781190e+002 -4.067570e+001 -1.392442e+002 -4.040337e+001 -1.357523e+002 -1.634570e-001 1.288883e+002
593125000 -2.257109e+000 -1.784188e+002 -4.068639e+001 -1.392862e+002 -4.057549e+001 -1.379190e+002 -1.634184e-001 1.289095e+002
593750000 -2.278480e+000 -1.787988e+002 -4.054189e+001 -1.410681e+002 -4.033605e+001 -1.388157e+002 -1.494615e-001 1.289655e+002
594375000 -2.283453e+000 -1.790315e+002 -4.048853e+001 -1.417123e+002 -4.049607e+001 -1.411863e+002 -1.480389e-001 1.290311e+002
595000000 -2.292421e+000 -1.794004e+002 -4.048396e+001 -1.433487e+002 -4.032801e+001 -1.424196e+002 -1.652087e-001 1.290036e+002
