!Agilent Technologies,E8364B,US42250235,A.06.04.32
!Agilent E8364B: A.06.04.32
!Date: Friday, January 15, 2021 13:50:57
!Correction: S11(Full 2 Port(1,2)) S21(Full 2 Port(1,2)) S12(Full 2 Port(1,2)) S22(Full 2 Port(1,2)) 
!S2P File: Measurements: S11, S21, S12, S22:
# Hz S  dB   R 50
500000000 -1.484002e-001 -1.290685e+002 -5.776995e+001 -1.090577e+002 -6.311055e+001 -1.111597e+002 -1.591830e-001 1.378145e+002
500625000 -1.360508e-001 -1.292909e+002 -5.812746e+001 -1.214992e+002 -5.929056e+001 -1.159067e+002 -1.634789e-001 1.377595e+002
501250000 -1.553709e-001 -1.295387e+002 -6.090867e+001 -1.174232e+002 -6.260537e+001 -1.211460e+002 -1.659030e-001 1.377087e+002
501875000 -1.456862e-001 -1.297727e+002 -5.844021e+001 -1.197333e+002 -5.949925e+001 -1.232675e+002 -1.548277e-001 1.376729e+002
502500000 -1.528149e-001 -1.300326e+002 -5.884525e+001 -1.203147e+002 -5.980091e+001 -1.251080e+002 -1.627275e-001 1.376009e+002
503125000 -1.597077e-001 -1.303306e+002 -6.049845e+001 -1.198733e+002 -5.997845e+001 -1.073567e+002 -1.692222e-001 1.374386e+002
503750000 -1.527779e-001 -1.305821e+002 -5.972621e+001 -1.125901e+002 -5.924372e+001 -1.139356e+002 -1.618433e-001 1.373647e+002
504375000 -1.677121e-001 -1.308559e+002 -5.949665e+001 -1.106964e+002 -5.844892e+001 -1.246422e+002 -1.791781e-001 1.373213e+002
505000000 -1.686373e-001 -1.311544e+002 -6.073567e+001 -1.340251e+002 -5.989438e+001 -1.263855e+002 -1.762998e-001 1.372952e+002
505625000 -1.651319e-001 -1.314037e+002 -5.735101e+001 -1.256158e+002 -6.107687e+001 -1.185946e+002 -1.660081e-001 1.371748e+002
506250000 -1.705532e-001 -1.317195e+002 -5.878542e+001 -1.139194e+002 -5.965390e+001 -1.326925e+002 -1.720233e-001 1.370923e+002
506875000 -1.696295e-001 -1.319817e+002 -5.937380e+001 -1.249192e+002 -6.093190e+001 -1.258123e+002 -1.632974e-001 1.370128e+002
507500000 -1.771406e-001 -1.322372e+002 -6.057228e+001 -1.221673e+002 -5.875621e+001 -1.253791e+002 -1.627491e-001 1.368824e+002
508125000 -1.810201e-001 -1.325582e+002 -5.984022e+001 -1.321421e+002 -5.981369e+001 -1.238575e+002 -1.643671e-001 1.368572e+002
508750000 -1.804207e-001 -1.328194e+002 -5.785269e+001 -1.332679e+002 -5.906121e+001 -1.369834e+002 -1.655655e-001 1.368140e+002
509375000 -1.899596e-001 -1.331535e+002 -5.820196e+001 -1.319781e+002 -5.829113e+001 -1.261922e+002 -1.644026e-001 1.367926e+002
510000000 -1.853914e-001 -1.334655e+002 -5.925703e+001 -1.359328e+002 -6.089419e+001 -1.298964e+002 -1.651619e-001 1.367049e+002
510625000 -1.968682e-001 -1.337163e+002 -5.863680e+001 -1.384543e+002 -6.009835e+001 -1.373315e+002 -1.509548e-001 1.367597e+002
511250000 -2.016940e-001 -1.339885e+002 -5.909716e+001 -1.371765e+002 -5.861428e+001 -1.382455e+002 -1.639071e-001 1.366323e+002
511875000 -1.966013e-001 -1.343462e+002 -5.919476e+001 -1.343993e+002 -5.817241e+001 -1.417707e+002 -1.564207e-001 1.366043e+002
512500000 -1.889737e-001 -1.346719e+002 -5.794495e+001 -1.316416e+002 -5.769869e+001 -1.446887e+002 -1.524315e-001 1.365432e+002
513125000 -2.039385e-001 -1.349790e+002 -5.826637e+001 -1.384493e+002 -5.861747e+001 -1.347351e+002 -1.669620e-001 1.366068e+002
513750000 -2.137355e-001 -1.352386e+002 -5.794839e+001 -1.319499e+002 -5.812589e+001 -1.429492e+002 -1.660627e-001 1.365341e+002
514375000 -2.109249e-001 -1.355898e+002 -5.830894e+001 -1.431901e+002 -5.846524e+001 -1.384557e+002 -1.547812e-001 1.364293e+002
515000000 -2.181547e-001 -1.358847e+002 -5.700176e+001 -1.435884e+002 -5.835898e+001 -1.441704e+002 -1.645253e-001 1.363765e+002
515625000 -2.277417e-001 -1.362751e+002 -5.939625e+001 -1.480240e+002 -5.887298e+001 -1.485724e+002 -1.602073e-001 1.363650e+002
516250000 -2.331106e-001 -1.365380e+002 -5.795528e+001 -1.459683e+002 -5.845906e+001 -1.421035e+002 -1.766447e-001 1.362086e+002
516875000 -2.470026e-001 -1.368119e+002 -5.729716e+001 -1.518731e+002 -5.895207e+001 -1.440768e+002 -1.666449e-001 1.362750e+002
517500000 -2.420751e-001 -1.371279e+002 -5.675807e+001 -1.431644e+002 -5.868347e+001 -1.302746e+002 -1.726273e-001 1.360970e+002
518125000 -2.501128e-001 -1.374857e+002 -5.761074e+001 -1.414777e+002 -5.812789e+001 -1.432510e+002 -1.831013e-001 1.360135e+002
518750000 -2.509584e-001 -1.377802e+002 -5.751887e+001 -1.487760e+002 -5.620706e+001 -1.445913e+002 -1.806684e-001 1.360057e+002
519375000 -2.685445e-001 -1.380141e+002 -5.803425e+001 -1.524572e+002 -5.763967e+001 -1.521449e+002 -1.672887e-001 1.358563e+002
520000000 -2.684210e-001 -1.383558e+002 -5.714239e+001 -1.514830e+002 -5.828043e+001 -1.442518e+002 -1.703668e-001 1.357558e+002
520625000 -2.702791e-001 -1.386552e+002 -5.751912e+001 -1.433708e+002 -5.727221e+001 -1.569067e+002 -1.718716e-001 1.356452e+002
521250000 -2.727577e-001 -1.389817e+002 -5.759991e+001 -1.646262e+002 -5.816957e+001 -1.485678e+002 -1.692921e-001 1.355927e+002
521875000 -2.736692e-001 -1.393067e+002 -5.716229e+001 -1.446413e+002 -5.918409e+001 -1.532867e+002 -1.509994e-001 1.355557e+002
522500000 -2.785162e-001 -1.396092e+002 -5.674635e+001 -1.522215e+002 -5.782409e+001 -1.576497e+002 -1.614592e-001 1.354722e+002
523125000 -2.878806e-001 -1.399256e+002 -5.837706e+001 -1.603242e+002 -5.849801e+001 -1.672026e+002 -1.621071e-001 1.354592e+002
523750000 -2.889332e-001 -1.402652e+002 -5.736031e+001 -1.531294e+002 -5.689878e+001 -1.647535e+002 -1.620841e-001 1.353978e+002
524375000 -3.059983e-001 -1.405861e+002 -5.616058e+001 -1.573716e+002 -5.693575e+001 -1.544362e+002 -1.552455e-001 1.353475e+002
525000000 -2.965457e-001 -1.408568e+002 -5.526069e+001 -1.667801e+002 -5.737593e+001 -1.540270e+002 -1.635471e-001 1.353401e+002
525625000 -3.152770e-001 -1.411136e+002 -5.528052e+001 -1.560647e+002 -5.760213e+001 -1.640945e+002 -1.680243e-001 1.352848e+002
526250000 -3.086877e-001 -1.413867e+002 -5.501907e+001 -1.618925e+002 -5.657743e+001 -1.610746e+002 -1.607139e-001 1.352684e+002
526875000 -3.179132e-001 -1.417471e+002 -5.645343e+001 -1.625433e+002 -5.497250e+001 -1.659107e+002 -1.476260e-001 1.352724e+002
527500000 -3.240544e-001 -1.420672e+002 -5.640644e+001 -1.647633e+002 -5.665134e+001 -1.674350e+002 -1.474599e-001 1.352328e+002
528125000 -3.406831e-001 -1.423503e+002 -5.593215e+001 -1.624087e+002 -5.637345e+001 -1.667969e+002 -1.565762e-001 1.352870e+002
528750000 -3.293252e-001 -1.426685e+002 -5.762263e+001 -1.716130e+002 -5.659875e+001 -1.640628e+002 -1.521404e-001 1.353496e+002
529375000 -3.422779e-001 -1.429365e+002 -5.681075e+001 -1.667321e+002 -5.509825e+001 -1.682614e+002 -1.516491e-001 1.352244e+002
530000000 -3.443358e-001 -1.433294e+002 -5.651836e+001 -1.689965e+002 -5.716347e+001 -1.632805e+002 -1.544439e-001 1.352458e+002
530625000 -3.541437e-001 -1.436180e+002 -5.591125e+001 -1.718935e+002 -5.663090e+001 -1.658931e+002 -1.573491e-001 1.351761e+002
531250000 -3.569319e-001 -1.439493e+002 -5.568419e+001 -1.558747e+002 -5.615858e+001 -1.784415e+002 -1.525602e-001 1.351679e+002
531875000 -3.657469e-001 -1.442824e+002 -5.561068e+001 -1.743825e+002 -5.710495e+001 -1.744915e+002 -1.646623e-001 1.350558e+002
532500000 -3.705727e-001 -1.445439e+002 -5.550438e+001 -1.653072e+002 -5.589816e+001 -1.709722e+002 -1.647171e-001 1.350888e+002
533125000 -3.718978e-001 -1.448951e+002 -5.577884e+001 -1.748223e+002 -5.607585e+001 -1.724509e+002 -1.658114e-001 1.350080e+002
533750000 -3.822451e-001 -1.452441e+002 -5.538607e+001 -1.758923e+002 -5.619849e+001 -1.717619e+002 -1.836124e-001 1.349711e+002
534375000 -3.896590e-001 -1.455697e+002 -5.509771e+001 1.751698e+002 -5.510559e+001 -1.779465e+002 -1.641486e-001 1.348982e+002
535000000 -3.871170e-001 -1.459250e+002 -5.584668e+001 -1.792597e+002 -5.589386e+001 -1.793414e+002 -1.740405e-001 1.348444e+002
535625000 -4.033139e-001 -1.462699e+002 -5.608787e+001 1.774344e+002 -5.613031e+001 -1.751132e+002 -1.737023e-001 1.347575e+002
536250000 -4.052667e-001 -1.465920e+002 -5.493839e+001 -1.794010e+002 -5.626311e+001 -1.720982e+002 -1.685088e-001 1.346648e+002
536875000 -4.152573e-001 -1.469851e+002 -5.505848e+001 1.744534e+002 -5.536397e+001 -1.793997e+002 -1.771855e-001 1.345849e+002
537500000 -4.189050e-001 -1.472946e+002 -5.417693e+001 1.752310e+002 -5.551902e+001 1.774036e+002 -1.673134e-001 1.346389e+002
538125000 -4.245146e-001 -1.476792e+002 -5.521374e+001 1.794974e+002 -5.603793e+001 1.755891e+002 -1.702696e-001 1.345278e+002
538750000 -4.468112e-001 -1.480392e+002 -5.481155e+001 1.770416e+002 -5.487231e+001 1.764109e+002 -1.668939e-001 1.345012e+002
539375000 -4.559514e-001 -1.483681e+002 -5.516132e+001 1.663414e+002 -5.518359e+001 1.696445e+002 -1.686435e-001 1.344783e+002
540000000 -4.632178e-001 -1.487191e+002 -5.413494e+001 1.705272e+002 -5.480186e+001 1.647097e+002 -1.710514e-001 1.344189e+002
540625000 -4.766334e-001 -1.490962e+002 -5.414747e+001 1.638286e+002 -5.531035e+001 1.744462e+002 -1.699321e-001 1.343437e+002
541250000 -4.775300e-001 -1.493651e+002 -5.514253e+001 1.716947e+002 -5.561963e+001 1.709964e+002 -1.578149e-001 1.342995e+002
541875000 -4.868686e-001 -1.496915e+002 -5.473902e+001 1.764003e+002 -5.410757e+001 1.738965e+002 -1.781887e-001 1.341774e+002
542500000 -4.969473e-001 -1.500802e+002 -5.499922e+001 1.728201e+002 -5.499313e+001 1.690432e+002 -1.670870e-001 1.341476e+002
543125000 -5.040830e-001 -1.504821e+002 -5.437904e+001 1.691871e+002 -5.705851e+001 1.675990e+002 -1.695478e-001 1.340231e+002
543750000 -4.995332e-001 -1.508319e+002 -5.474274e+001 1.651366e+002 -5.474969e+001 1.627688e+002 -1.715206e-001 1.340103e+002
544375000 -5.176647e-001 -1.511622e+002 -5.478788e+001 1.659194e+002 -5.488119e+001 1.682946e+002 -1.774260e-001 1.339088e+002
545000000 -5.236055e-001 -1.515423e+002 -5.441451e+001 1.607926e+002 -5.488232e+001 1.697666e+002 -1.699259e-001 1.338119e+002
545625000 -5.319551e-001 -1.519692e+002 -5.397277e+001 1.659156e+002 -5.424191e+001 1.584537e+002 -1.768786e-001 1.338224e+002
546250000 -5.473055e-001 -1.522990e+002 -5.417130e+001 1.678949e+002 -5.402705e+001 1.625307e+002 -1.881852e-001 1.336222e+002
546875000 -5.570313e-001 -1.527208e+002 -5.395498e+001 1.664886e+002 -5.476495e+001 1.616101e+002 -1.842143e-001 1.335688e+002
547500000 -5.707957e-001 -1.530961e+002 -5.392135e+001 1.629782e+002 -5.425680e+001 1.596928e+002 -1.801426e-001 1.334615e+002
548125000 -5.896974e-001 -1.533952e+002 -5.341555e+001 1.608560e+002 -5.372345e+001 1.624603e+002 -1.716665e-001 1.332699e+002
548750000 -5.993270e-001 -1.538027e+002 -5.338519e+001 1.586220e+002 -5.377395e+001 1.630611e+002 -1.827526e-001 1.332317e+002
549375000 -6.105481e-001 -1.541498e+002 -5.381778e+001 1.597100e+002 -5.325346e+001 1.580850e+002 -1.836298e-001 1.330236e+002
550000000 -6.138210e-001 -1.544972e+002 -5.292520e+001 1.597091e+002 -5.304994e+001 1.560027e+002 -1.844854e-001 1.330616e+002
550625000 -6.357178e-001 -1.548434e+002 -5.351965e+001 1.553736e+002 -5.358834e+001 1.592110e+002 -1.806798e-001 1.329113e+002
551250000 -6.434127e-001 -1.551908e+002 -5.186552e+001 1.533789e+002 -5.233975e+001 1.563649e+002 -1.798515e-001 1.328448e+002
551875000 -6.475788e-001 -1.555180e+002 -5.329887e+001 1.538782e+002 -5.331761e+001 1.485471e+002 -1.783357e-001 1.328050e+002
552500000 -6.565638e-001 -1.559231e+002 -5.274959e+001 1.509890e+002 -5.276545e+001 1.505909e+002 -1.693497e-001 1.327544e+002
553125000 -6.638249e-001 -1.562595e+002 -5.304418e+001 1.463160e+002 -5.333963e+001 1.492170e+002 -1.656321e-001 1.326878e+002
553750000 -6.770523e-001 -1.566152e+002 -5.278932e+001 1.471514e+002 -5.313650e+001 1.506156e+002 -1.703843e-001 1.326329e+002
554375000 -6.886856e-001 -1.569729e+002 -5.320504e+001 1.424936e+002 -5.286441e+001 1.489036e+002 -1.634231e-001 1.326768e+002
555000000 -7.033554e-001 -1.573668e+002 -5.338795e+001 1.410313e+002 -5.324282e+001 1.437769e+002 -1.610983e-001 1.326638e+002
555625000 -7.235546e-001 -1.576596e+002 -5.270473e+001 1.449487e+002 -5.329531e+001 1.502930e+002 -1.590411e-001 1.326783e+002
556250000 -7.342793e-001 -1.580927e+002 -5.176992e+001 1.456302e+002 -5.317941e+001 1.464816e+002 -1.629394e-001 1.326160e+002
556875000 -7.336280e-001 -1.585107e+002 -5.297365e+001 1.484250e+002 -5.195431e+001 1.442809e+002 -1.622882e-001 1.326764e+002
557500000 -7.656885e-001 -1.588564e+002 -5.371989e+001 1.481732e+002 -5.314830e+001 1.487481e+002 -1.585185e-001 1.326349e+002
558125000 -7.858925e-001 -1.592113e+002 -5.307516e+001 1.429326e+002 -5.270848e+001 1.398392e+002 -1.714418e-001 1.326564e+002
558750000 -7.903354e-001 -1.595522e+002 -5.198349e+001 1.439689e+002 -5.243888e+001 1.420686e+002 -1.641129e-001 1.326562e+002
559375000 -8.053110e-001 -1.599629e+002 -5.175353e+001 1.423763e+002 -5.265200e+001 1.403679e+002 -1.622665e-001 1.326501e+002
560000000 -8.239273e-001 -1.603118e+002 -5.204898e+001 1.413857e+002 -5.226191e+001 1.368984e+002 -1.519640e-001 1.325659e+002
560625000 -8.302798e-001 -1.606762e+002 -5.155772e+001 1.431841e+002 -5.221768e+001 1.420299e+002 -1.570273e-001 1.326455e+002
561250000 -8.573475e-001 -1.610997e+002 -5.136916e+001 1.361082e+002 -5.164965e+001 1.443454e+002 -1.585394e-001 1.325855e+002
561875000 -8.637848e-001 -1.615083e+002 -5.126273e+001 1.400742e+002 -5.169068e+001 1.318772e+002 -1.782243e-001 1.325440e+002
562500000 -8.833220e-001 -1.618431e+002 -5.185320e+001 1.331979e+002 -5.194646e+001 1.350184e+002 -1.742634e-001 1.325325e+002
563125000 -8.928133e-001 -1.622524e+002 -5.096487e+001 1.324987e+002 -5.122563e+001 1.318820e+002 -1.694915e-001 1.324300e+002
563750000 -9.116236e-001 -1.626594e+002 -5.062039e+001 1.314785e+002 -5.202299e+001 1.321805e+002 -1.819896e-001 1.324216e+002
564375000 -9.340988e-001 -1.630812e+002 -5.102061e+001 1.298133e+002 -5.114769e+001 1.315421e+002 -1.797588e-001 1.323976e+002
565000000 -9.510254e-001 -1.634617e+002 -5.028221e+001 1.251525e+002 -5.202013e+001 1.265742e+002 -1.891625e-001 1.322889e+002
565625000 -9.728416e-001 -1.638754e+002 -5.074808e+001 1.296767e+002 -5.095385e+001 1.307889e+002 -1.845618e-001 1.321824e+002
566250000 -9.843183e-001 -1.642900e+002 -5.077300e+001 1.290695e+002 -5.118562e+001 1.325129e+002 -1.893917e-001 1.320776e+002
566875000 -1.024741e+000 -1.646993e+002 -5.036659e+001 1.266057e+002 -5.078763e+001 1.273352e+002 -1.814003e-001 1.319011e+002
567500000 -1.041341e+000 -1.651231e+002 -5.082388e+001 1.203997e+002 -5.064560e+001 1.206988e+002 -1.808799e-001 1.318262e+002
568125000 -1.069378e+000 -1.654700e+002 -5.089611e+001 1.226591e+002 -5.147150e+001 1.215928e+002 -1.846913e-001 1.316790e+002
568750000 -1.087282e+000 -1.658566e+002 -5.083962e+001 1.256094e+002 -5.045493e+001 1.201860e+002 -1.951969e-001 1.315661e+002
569375000 -1.109131e+000 -1.662742e+002 -5.034420e+001 1.240394e+002 -4.966489e+001 1.201712e+002 -1.810545e-001 1.314543e+002
570000000 -1.124156e+000 -1.666831e+002 -5.031701e+001 1.232440e+002 -5.029877e+001 1.193316e+002 -1.900046e-001 1.313192e+002
570625000 -1.143906e+000 -1.670672e+002 -5.045948e+001 1.187584e+002 -5.011662e+001 1.180553e+002 -1.846435e-001 1.312125e+002
571250000 -1.165755e+000 -1.674987e+002 -5.030106e+001 1.114143e+002 -5.036712e+001 1.171055e+002 -1.854663e-001 1.311024e+002
571875000 -1.190141e+000 -1.678658e+002 -5.041250e+001 1.174508e+002 -5.018562e+001 1.226430e+002 -1.779876e-001 1.309595e+002
572500000 -1.221302e+000 -1.683063e+002 -4.981491e+001 1.122412e+002 -4.957134e+001 1.169480e+002 -1.832747e-001 1.308335e+002
573125000 -1.240952e+000 -1.687585e+002 -4.971516e+001 1.138245e+002 -4.917463e+001 1.160442e+002 -1.728449e-001 1.307671e+002
573750000 -1.258790e+000 -1.691292e+002 -4.957961e+001 1.136768e+002 -4.886379e+001 1.123136e+002 -1.834588e-001 1.306637e+002
574375000 -1.290956e+000 -1.695657e+002 -4.909346e+001 1.121238e+002 -4.980233e+001 1.117742e+002 -1.819345e-001 1.306383e+002
575000000 -1.309337e+000 -1.699444e+002 -4.902637e+001 1.106742e+002 -4.925607e+001 1.109858e+002 -1.765008e-001 1.305186e+002
575625000 -1.335124e+000 -1.702881e+002 -4.942707e+001 1.081346e+002 -4.955291e+001 1.098839e+002 -1.712688e-001 1.304973e+002
576250000 -1.350960e+000 -1.706893e+002 -4.913318e+001 1.068988e+002 -4.860902e+001 1.067499e+002 -1.797015e-001 1.304346e+002
576875000 -1.380251e+000 -1.711229e+002 -4.895201e+001 1.067835e+002 -4.891859e+001 1.072371e+002 -1.691439e-001 1.304211e+002
577500000 -1.413632e+000 -1.715008e+002 -4.882967e+001 1.056955e+002 -4.850004e+001 1.031175e+002 -1.681363e-001 1.303539e+002
578125000 -1.434701e+000 -1.719297e+002 -4.855492e+001 1.023772e+002 -4.902354e+001 1.024786e+002 -1.555554e-001 1.304524e+002
578750000 -1.459347e+000 -1.723235e+002 -4.878612e+001 9.853659e+001 -4.830310e+001 1.011819e+002 -1.701824e-001 1.304011e+002
579375000 -1.484077e+000 -1.726618e+002 -4.785915e+001 1.015582e+002 -4.825157e+001 9.895855e+001 -1.624860e-001 1.303550e+002
580000000 -1.513181e+000 -1.730670e+002 -4.840641e+001 1.004709e+002 -4.839703e+001 9.874432e+001 -1.588833e-001 1.303789e+002
580625000 -1.541010e+000 -1.734456e+002 -4.867479e+001 9.686248e+001 -4.837318e+001 9.493777e+001 -1.650007e-001 1.303791e+002
581250000 -1.573665e+000 -1.737678e+002 -4.863115e+001 9.478328e+001 -4.834856e+001 9.460292e+001 -1.673010e-001 1.303919e+002
581875000 -1.605225e+000 -1.741657e+002 -4.865591e+001 9.401106e+001 -4.811106e+001 9.099181e+001 -1.684629e-001 1.303352e+002
582500000 -1.638638e+000 -1.745328e+002 -4.804780e+001 9.117532e+001 -4.800949e+001 9.190757e+001 -1.633513e-001 1.303026e+002
583125000 -1.650259e+000 -1.749669e+002 -4.837260e+001 8.906530e+001 -4.764459e+001 9.223396e+001 -1.848011e-001 1.301758e+002
583750000 -1.691832e+000 -1.753821e+002 -4.779780e+001 8.789863e+001 -4.789442e+001 8.856072e+001 -1.912507e-001 1.301030e+002
584375000 -1.731595e+000 -1.758000e+002 -4.790276e+001 8.860935e+001 -4.800364e+001 8.427477e+001 -1.771279e-001 1.300776e+002
585000000 -1.756327e+000 -1.762231e+002 -4.797780e+001 8.547771e+001 -4.804982e+001 8.836827e+001 -1.830840e-001 1.299985e+002
585625000 -1.811410e+000 -1.765670e+002 -4.815849e+001 8.500302e+001 -4.735606e+001 8.367210e+001 -1.908929e-001 1.298564e+002
586250000 -1.845351e+000 -1.769714e+002 -4.738036e+001 8.393772e+001 -4.776775e+001 8.404846e+001 -1.955786e-001 1.298657e+002
586875000 -1.878860e+000 -1.773963e+002 -4.782079e+001 8.096169e+001 -4.760611e+001 8.257187e+001 -1.891602e-001 1.296917e+002
587500000 -1.916936e+000 -1.776926e+002 -4.784699e+001 8.159937e+001 -4.770993e+001 8.235950e+001 -1.837313e-001 1.294966e+002
588125000 -1.947249e+000 -1.780227e+002 -4.735555e+001 7.922949e+001 -4.746480e+001 8.055540e+001 -1.961642e-001 1.293695e+002
588750000 -1.982479e+000 -1.784189e+002 -4.760308e+001 7.666441e+001 -4.719556e+001 7.839143e+001 -1.915781e-001 1.292912e+002
589375000 -2.010142e+000 -1.788020e+002 -4.754375e+001 7.498721e+001 -4.725547e+001 7.634142e+001 -1.829849e-001 1.291143e+002
590000000 -2.046472e+000 -1.791782e+002 -4.767514e+001 7.603234e+001 -4.733123e+001 7.430563e+001 -1.863547e-001 1.290515e+002
590625000 -2.082347e+000 -1.795303e+002 -4.752156e+001 7.397334e+001 -4.687933e+001 7.455882e+001 -1.848209e-001 1.289352e+002
591250000 -2.115559e+000 -1.798737e+002 -4.764052e+001 7.212038e+001 -4.695229e+001 7.390500e+001 -1.799574e-001 1.289150e+002
591875000 -2.142015e+000 1.798050e+002 -4.719962e+001 7.211729e+001 -4.743027e+001 7.171982e+001 -1.724238e-001 1.288245e+002
592500000 -2.177330e+000 1.794430e+002 -4.699415e+001 6.791692e+001 -4.655596e+001 7.056879e+001 -1.674790e-001 1.288100e+002
593125000 -2.216408e+000 1.791360e+002 -4.698805e+001 6.835340e+001 -4.640904e+001 6.826468e+001 -1.674919e-001 1.289177e+002
593750000 -2.241856e+000 1.787676e+002 -4.675927e+001 6.787137e+001 -4.702571e+001 6.829636e+001 -1.555921e-001 1.289391e+002
594375000 -2.262212e+000 1.784322e+002 -4.723480e+001 6.648490e+001 -4.675087e+001 6.328436e+001 -1.486655e-001 1.289655e+002
595000000 -2.288320e+000 1.781168e+002 -4.730819e+001 6.649500e+001 -4.677080e+001 6.506105e+001 -1.604060e-001 1.290195e+002
595625000 -2.316513e+000 1.777033e+002 -4.681913e+001 6.448897e+001 -4.687606e+001 6.051002e+001 -1.586205e-001 1.290098e+002
