!Agilent Technologies,E8364B,US42250235,A.06.04.32
!Agilent E8364B: A.06.04.32
!Date: Friday, January 15, 2021 14:18:54
!Correction: S11(Full 2 Port(1,2)) S21(Full 2 Port(1,2)) S12(Full 2 Port(1,2)) S22(Full 2 Port(1,2)) 
!S2P File: Measurements: S11, S21, S12, S22:
# Hz S  dB   R 50
500000000 -1.008393e-001 -1.292336e+002 -6.307689e+001 1.545193e+002 -6.047234e+001 1.302408e+002 -1.376455e-001 1.386253e+002
500625000 -1.116636e-001 -1.294576e+002 -6.246286e+001 1.313485e+002 -6.146898e+001 1.306850e+002 -1.401596e-001 1.385926e+002
501250000 -1.239560e-001 -1.297561e+002 -6.154033e+001 1.366015e+002 -6.144337e+001 1.502199e+002 -1.384980e-001 1.384507e+002
501875000 -1.194972e-001 -1.300310e+002 -6.020750e+001 1.475940e+002 -5.935968e+001 1.199647e+002 -1.305766e-001 1.384136e+002
502500000 -1.229232e-001 -1.302711e+002 -5.994418e+001 1.338069e+002 -6.238606e+001 1.333865e+002 -1.238969e-001 1.384259e+002
503125000 -1.260589e-001 -1.305885e+002 -6.014348e+001 1.147204e+002 -6.184509e+001 1.360336e+002 -1.342824e-001 1.382536e+002
503750000 -1.302393e-001 -1.308816e+002 -6.334137e+001 1.290249e+002 -6.183024e+001 1.261233e+002 -1.393337e-001 1.381385e+002
504375000 -1.357574e-001 -1.311561e+002 -5.928962e+001 1.302760e+002 -6.016065e+001 1.270082e+002 -1.503395e-001 1.380685e+002
505000000 -1.442807e-001 -1.314861e+002 -6.058855e+001 1.253433e+002 -5.983170e+001 1.254433e+002 -1.414254e-001 1.380404e+002
505625000 -1.406296e-001 -1.316936e+002 -6.183186e+001 1.349633e+002 -6.265612e+001 1.234001e+002 -1.464753e-001 1.379654e+002
506250000 -1.497169e-001 -1.320280e+002 -6.416286e+001 1.242869e+002 -6.097127e+001 1.277381e+002 -1.435554e-001 1.378811e+002
506875000 -1.494644e-001 -1.323676e+002 -6.184320e+001 1.128771e+002 -5.890871e+001 1.263214e+002 -1.347828e-001 1.377378e+002
507500000 -1.618513e-001 -1.326488e+002 -6.129601e+001 1.165369e+002 -6.098958e+001 1.220112e+002 -1.414683e-001 1.376605e+002
508125000 -1.621519e-001 -1.329243e+002 -5.959407e+001 1.295202e+002 -5.881133e+001 1.142340e+002 -1.398248e-001 1.376254e+002
508750000 -1.671884e-001 -1.331805e+002 -6.059356e+001 1.317824e+002 -6.089477e+001 1.156140e+002 -1.418142e-001 1.375122e+002
509375000 -1.709109e-001 -1.335426e+002 -5.958504e+001 1.217422e+002 -5.931903e+001 1.101400e+002 -1.294268e-001 1.374504e+002
510000000 -1.713378e-001 -1.339098e+002 -5.791813e+001 1.201492e+002 -6.248400e+001 1.197583e+002 -1.398817e-001 1.373281e+002
510625000 -1.855876e-001 -1.340689e+002 -5.984442e+001 1.045550e+002 -5.858968e+001 1.187858e+002 -1.287470e-001 1.373247e+002
511250000 -1.929988e-001 -1.343922e+002 -6.023983e+001 9.865231e+001 -6.001894e+001 1.190800e+002 -1.395297e-001 1.372149e+002
511875000 -1.899235e-001 -1.347801e+002 -5.972717e+001 1.146040e+002 -5.850328e+001 1.120807e+002 -1.299962e-001 1.371714e+002
512500000 -1.968094e-001 -1.350724e+002 -6.006291e+001 1.091985e+002 -6.019121e+001 1.161249e+002 -1.403066e-001 1.370895e+002
513125000 -2.116585e-001 -1.354313e+002 -6.204599e+001 8.642786e+001 -5.989246e+001 1.094563e+002 -1.366260e-001 1.370809e+002
513750000 -2.132750e-001 -1.356740e+002 -5.810983e+001 1.051076e+002 -5.955533e+001 1.143872e+002 -1.377168e-001 1.370405e+002
514375000 -2.180683e-001 -1.360327e+002 -5.835434e+001 1.176017e+002 -5.913268e+001 1.019986e+002 -1.305139e-001 1.369058e+002
515000000 -2.263483e-001 -1.363088e+002 -5.852546e+001 1.071028e+002 -6.091940e+001 1.113467e+002 -1.286188e-001 1.368399e+002
515625000 -2.304902e-001 -1.366824e+002 -5.901722e+001 9.658517e+001 -5.872830e+001 1.082590e+002 -1.323295e-001 1.367896e+002
516250000 -2.366884e-001 -1.369727e+002 -5.896559e+001 1.058552e+002 -5.934726e+001 1.083397e+002 -1.391232e-001 1.367072e+002
516875000 -2.541833e-001 -1.373277e+002 -5.767776e+001 1.086647e+002 -5.913807e+001 1.131721e+002 -1.357827e-001 1.366607e+002
517500000 -2.524130e-001 -1.376311e+002 -5.838770e+001 1.024138e+002 -5.780301e+001 1.069793e+002 -1.470507e-001 1.365627e+002
518125000 -2.617483e-001 -1.379518e+002 -5.835423e+001 1.074767e+002 -5.860777e+001 9.308330e+001 -1.417123e-001 1.364703e+002
518750000 -2.768759e-001 -1.382717e+002 -5.755770e+001 9.189285e+001 -5.728758e+001 9.486137e+001 -1.495521e-001 1.363954e+002
519375000 -2.814673e-001 -1.384856e+002 -5.844036e+001 9.877580e+001 -5.917324e+001 1.011021e+002 -1.400380e-001 1.362924e+002
520000000 -2.937359e-001 -1.388248e+002 -5.790451e+001 9.147138e+001 -5.841769e+001 9.215034e+001 -1.439205e-001 1.361764e+002
520625000 -2.990502e-001 -1.391338e+002 -5.642105e+001 1.001012e+002 -5.934655e+001 1.017083e+002 -1.367252e-001 1.360690e+002
521250000 -3.074486e-001 -1.394276e+002 -5.873123e+001 9.882949e+001 -5.835808e+001 7.808362e+001 -1.341620e-001 1.360606e+002
521875000 -3.087271e-001 -1.397120e+002 -5.728594e+001 9.002348e+001 -5.755697e+001 9.324229e+001 -1.321473e-001 1.360103e+002
522500000 -3.216071e-001 -1.399985e+002 -5.731438e+001 1.017642e+002 -5.732591e+001 8.913474e+001 -1.319735e-001 1.359449e+002
523125000 -3.287330e-001 -1.403134e+002 -5.669344e+001 8.058593e+001 -5.721158e+001 8.778625e+001 -1.340141e-001 1.359343e+002
523750000 -3.331420e-001 -1.406442e+002 -5.824733e+001 8.856313e+001 -5.777369e+001 8.684000e+001 -1.272433e-001 1.358945e+002
524375000 -3.504493e-001 -1.409563e+002 -5.668744e+001 7.912470e+001 -5.799931e+001 8.790541e+001 -1.271955e-001 1.358820e+002
525000000 -3.469664e-001 -1.412296e+002 -5.816920e+001 8.397079e+001 -5.706940e+001 9.261446e+001 -1.338139e-001 1.358311e+002
525625000 -3.679560e-001 -1.414925e+002 -5.608586e+001 8.328213e+001 -5.728633e+001 8.662998e+001 -1.413334e-001 1.358394e+002
526250000 -3.718648e-001 -1.418358e+002 -5.697708e+001 8.075343e+001 -5.635394e+001 8.214357e+001 -1.331108e-001 1.357689e+002
526875000 -3.785490e-001 -1.421782e+002 -5.652701e+001 8.737388e+001 -5.803765e+001 8.036272e+001 -1.229248e-001 1.357324e+002
527500000 -3.855164e-001 -1.424460e+002 -5.483774e+001 7.943702e+001 -5.793778e+001 8.299221e+001 -1.268516e-001 1.357158e+002
528125000 -4.084210e-001 -1.427853e+002 -5.615388e+001 7.262772e+001 -5.681490e+001 7.931950e+001 -1.343948e-001 1.357535e+002
528750000 -4.037767e-001 -1.430660e+002 -5.766848e+001 7.662195e+001 -5.627301e+001 7.138177e+001 -1.281428e-001 1.358542e+002
529375000 -4.225516e-001 -1.433500e+002 -5.676389e+001 8.607583e+001 -5.717567e+001 8.207549e+001 -1.346194e-001 1.357113e+002
530000000 -4.273902e-001 -1.436602e+002 -5.605975e+001 6.442574e+001 -5.679502e+001 6.407422e+001 -1.358349e-001 1.357483e+002
530625000 -4.353198e-001 -1.440064e+002 -5.631539e+001 6.550040e+001 -5.631376e+001 6.975430e+001 -1.321710e-001 1.356207e+002
531250000 -4.522991e-001 -1.443426e+002 -5.611542e+001 6.257772e+001 -5.621476e+001 7.213356e+001 -1.208961e-001 1.356347e+002
531875000 -4.645876e-001 -1.445721e+002 -5.654998e+001 6.499702e+001 -5.603440e+001 6.829053e+001 -1.420407e-001 1.355899e+002
532500000 -4.672895e-001 -1.448328e+002 -5.570194e+001 6.077199e+001 -5.732788e+001 6.932640e+001 -1.314334e-001 1.355764e+002
533125000 -4.715608e-001 -1.452547e+002 -5.529658e+001 5.451183e+001 -5.614481e+001 6.423109e+001 -1.418424e-001 1.355473e+002
533750000 -4.820473e-001 -1.455833e+002 -5.685249e+001 5.659767e+001 -5.635678e+001 6.925092e+001 -1.544668e-001 1.354836e+002
534375000 -4.873271e-001 -1.458742e+002 -5.526083e+001 5.843608e+001 -5.524277e+001 5.821173e+001 -1.410234e-001 1.353934e+002
535000000 -5.048982e-001 -1.461654e+002 -5.608860e+001 5.364434e+001 -5.594441e+001 5.801281e+001 -1.538412e-001 1.353303e+002
535625000 -5.126461e-001 -1.465255e+002 -5.519521e+001 5.516718e+001 -5.523193e+001 6.184808e+001 -1.471738e-001 1.352847e+002
536250000 -5.278313e-001 -1.468670e+002 -5.616546e+001 5.649461e+001 -5.583697e+001 5.895269e+001 -1.392662e-001 1.351396e+002
536875000 -5.473814e-001 -1.471787e+002 -5.537842e+001 5.499910e+001 -5.616695e+001 5.161662e+001 -1.398630e-001 1.351047e+002
537500000 -5.470617e-001 -1.474187e+002 -5.555740e+001 5.346500e+001 -5.500944e+001 4.670808e+001 -1.317173e-001 1.350946e+002
538125000 -5.599882e-001 -1.477537e+002 -5.553905e+001 5.592415e+001 -5.576880e+001 5.694103e+001 -1.398685e-001 1.350510e+002
538750000 -5.786381e-001 -1.480840e+002 -5.529207e+001 5.546455e+001 -5.512169e+001 5.339207e+001 -1.428436e-001 1.349726e+002
539375000 -5.862024e-001 -1.483829e+002 -5.577652e+001 5.777363e+001 -5.510366e+001 4.700107e+001 -1.386520e-001 1.349688e+002
540000000 -5.974290e-001 -1.487074e+002 -5.577581e+001 4.425645e+001 -5.481996e+001 4.954926e+001 -1.377071e-001 1.348929e+002
540625000 -6.004680e-001 -1.490430e+002 -5.417767e+001 4.378192e+001 -5.474224e+001 4.797297e+001 -1.385579e-001 1.348697e+002
541250000 -6.155259e-001 -1.492613e+002 -5.455374e+001 5.223510e+001 -5.511217e+001 4.154380e+001 -1.290337e-001 1.348146e+002
541875000 -6.247233e-001 -1.495530e+002 -5.523276e+001 4.722644e+001 -5.430247e+001 4.881263e+001 -1.470647e-001 1.347484e+002
542500000 -6.299742e-001 -1.499188e+002 -5.439607e+001 4.423483e+001 -5.393915e+001 4.905553e+001 -1.381621e-001 1.347667e+002
543125000 -6.386874e-001 -1.502716e+002 -5.430777e+001 4.324193e+001 -5.418210e+001 4.414793e+001 -1.318649e-001 1.346794e+002
543750000 -6.444142e-001 -1.505415e+002 -5.413271e+001 3.697765e+001 -5.400027e+001 3.331953e+001 -1.475738e-001 1.346958e+002
544375000 -6.662386e-001 -1.508449e+002 -5.433511e+001 3.510020e+001 -5.442439e+001 3.379586e+001 -1.417931e-001 1.346397e+002
545000000 -6.591008e-001 -1.511720e+002 -5.394744e+001 3.138114e+001 -5.518813e+001 3.828264e+001 -1.383469e-001 1.345622e+002
545625000 -6.715513e-001 -1.515288e+002 -5.462107e+001 3.573579e+001 -5.373174e+001 3.705113e+001 -1.449569e-001 1.345747e+002
546250000 -6.837398e-001 -1.518164e+002 -5.460229e+001 4.038061e+001 -5.463445e+001 3.538436e+001 -1.480372e-001 1.344004e+002
546875000 -6.919788e-001 -1.521795e+002 -5.375460e+001 3.090406e+001 -5.354893e+001 3.189588e+001 -1.433989e-001 1.344123e+002
547500000 -7.100669e-001 -1.525217e+002 -5.417995e+001 2.584788e+001 -5.417229e+001 3.167748e+001 -1.558417e-001 1.343098e+002
548125000 -7.159650e-001 -1.527923e+002 -5.447691e+001 2.284750e+001 -5.411055e+001 2.814841e+001 -1.482418e-001 1.342095e+002
548750000 -7.266492e-001 -1.531957e+002 -5.323736e+001 2.432643e+001 -5.437743e+001 2.346281e+001 -1.531333e-001 1.341731e+002
549375000 -7.308332e-001 -1.534963e+002 -5.275885e+001 2.237976e+001 -5.361618e+001 2.958111e+001 -1.503511e-001 1.339914e+002
550000000 -7.340943e-001 -1.537753e+002 -5.355764e+001 2.304030e+001 -5.388308e+001 2.141620e+001 -1.532265e-001 1.339886e+002
550625000 -7.506686e-001 -1.541273e+002 -5.417472e+001 1.954196e+001 -5.390126e+001 2.018499e+001 -1.451690e-001 1.338994e+002
551250000 -7.561116e-001 -1.544076e+002 -5.453584e+001 1.961379e+001 -5.326218e+001 1.851951e+001 -1.497677e-001 1.337994e+002
551875000 -7.662331e-001 -1.547146e+002 -5.310494e+001 2.161934e+001 -5.372254e+001 1.624675e+001 -1.390029e-001 1.337738e+002
552500000 -7.729738e-001 -1.550713e+002 -5.393884e+001 1.489240e+001 -5.414866e+001 1.765267e+001 -1.419208e-001 1.336773e+002
553125000 -7.781873e-001 -1.553016e+002 -5.287210e+001 1.019169e+001 -5.382883e+001 1.740092e+001 -1.418070e-001 1.336135e+002
553750000 -7.840208e-001 -1.556847e+002 -5.352147e+001 2.051035e+001 -5.397417e+001 1.969622e+001 -1.441612e-001 1.335695e+002
554375000 -7.878347e-001 -1.559809e+002 -5.376115e+001 5.698956e+000 -5.279214e+001 1.360002e+001 -1.435481e-001 1.335427e+002
555000000 -7.931510e-001 -1.563552e+002 -5.389341e+001 1.088620e+001 -5.373215e+001 1.148967e+001 -1.468460e-001 1.334456e+002
555625000 -8.138066e-001 -1.566441e+002 -5.289999e+001 7.994212e+000 -5.246948e+001 1.423790e+001 -1.360395e-001 1.334498e+002
556250000 -8.173140e-001 -1.570628e+002 -5.312432e+001 3.790481e+000 -5.373111e+001 1.005251e+001 -1.404965e-001 1.333925e+002
556875000 -8.150718e-001 -1.574217e+002 -5.357764e+001 7.676681e+000 -5.448779e+001 3.946024e+000 -1.474493e-001 1.334071e+002
557500000 -8.313878e-001 -1.577092e+002 -5.340582e+001 4.384031e+000 -5.386426e+001 5.176170e+000 -1.364176e-001 1.333705e+002
558125000 -8.336431e-001 -1.580702e+002 -5.285673e+001 3.115806e+000 -5.346206e+001 5.790595e+000 -1.522113e-001 1.333757e+002
558750000 -8.456916e-001 -1.584556e+002 -5.304350e+001 -8.395283e-001 -5.404311e+001 2.112675e-001 -1.369066e-001 1.333099e+002
559375000 -8.583702e-001 -1.588664e+002 -5.354536e+001 1.285658e+000 -5.314685e+001 -6.761603e-001 -1.407783e-001 1.333149e+002
560000000 -8.781992e-001 -1.592079e+002 -5.265328e+001 1.547519e+000 -5.369138e+001 -3.465005e+000 -1.348388e-001 1.332596e+002
560625000 -8.934198e-001 -1.595167e+002 -5.319135e+001 -3.466090e+000 -5.373520e+001 1.698134e+000 -1.429613e-001 1.332282e+002
561250000 -8.941565e-001 -1.598739e+002 -5.444737e+001 3.403342e-001 -5.384216e+001 -8.007674e+000 -1.420282e-001 1.331856e+002
561875000 -9.040225e-001 -1.602435e+002 -5.257474e+001 -4.097028e+000 -5.333535e+001 2.842654e+000 -1.486002e-001 1.331363e+002
562500000 -9.168162e-001 -1.605597e+002 -5.400408e+001 4.382066e+000 -5.302755e+001 -1.232973e+000 -1.475088e-001 1.331271e+002
563125000 -9.134984e-001 -1.609412e+002 -5.229489e+001 -4.791537e+000 -5.316558e+001 -6.365910e-001 -1.433344e-001 1.330251e+002
563750000 -9.331790e-001 -1.613549e+002 -5.300333e+001 -7.660919e+000 -5.372278e+001 -7.184200e+000 -1.626690e-001 1.330052e+002
564375000 -9.358492e-001 -1.617388e+002 -5.284933e+001 -4.660850e+000 -5.292190e+001 -5.279941e+000 -1.562331e-001 1.329228e+002
565000000 -9.490297e-001 -1.621758e+002 -5.256718e+001 -6.526174e+000 -5.322096e+001 -7.917803e+000 -1.662647e-001 1.327752e+002
565625000 -9.624996e-001 -1.625698e+002 -5.376871e+001 -1.616062e+001 -5.165253e+001 -9.229904e+000 -1.717822e-001 1.327242e+002
566250000 -9.681876e-001 -1.630115e+002 -5.283264e+001 -1.156117e+001 -5.207806e+001 -1.075537e+001 -1.666330e-001 1.326167e+002
566875000 -9.941608e-001 -1.634169e+002 -5.247858e+001 -1.682700e+001 -5.292602e+001 -8.345092e+000 -1.630434e-001 1.324186e+002
567500000 -1.017250e+000 -1.639011e+002 -5.199563e+001 -1.086937e+001 -5.203099e+001 -1.111847e+001 -1.654028e-001 1.323069e+002
568125000 -1.040528e+000 -1.642653e+002 -5.196361e+001 -1.968369e+001 -5.210959e+001 -1.284776e+001 -1.654293e-001 1.321891e+002
568750000 -1.054968e+000 -1.646559e+002 -5.216395e+001 -2.034594e+001 -5.200814e+001 -1.431361e+001 -1.701134e-001 1.319796e+002
569375000 -1.071488e+000 -1.650727e+002 -5.184200e+001 -1.491000e+001 -5.197209e+001 -1.546980e+001 -1.724237e-001 1.318734e+002
570000000 -1.086493e+000 -1.654756e+002 -5.253125e+001 -2.267000e+001 -5.231470e+001 -1.298673e+001 -1.693293e-001 1.316842e+002
570625000 -1.105638e+000 -1.659109e+002 -5.222597e+001 -1.865336e+001 -5.238979e+001 -2.098260e+001 -1.670180e-001 1.316166e+002
571250000 -1.116776e+000 -1.662977e+002 -5.157209e+001 -2.748434e+001 -5.180993e+001 -2.583448e+001 -1.722601e-001 1.314565e+002
571875000 -1.142755e+000 -1.667081e+002 -5.186939e+001 -2.821120e+001 -5.214035e+001 -1.978169e+001 -1.651269e-001 1.313080e+002
572500000 -1.165504e+000 -1.670985e+002 -5.197093e+001 -2.558403e+001 -5.204631e+001 -3.060457e+001 -1.689867e-001 1.311619e+002
573125000 -1.188521e+000 -1.674620e+002 -5.197229e+001 -2.777210e+001 -5.226469e+001 -2.780792e+001 -1.603723e-001 1.310565e+002
573750000 -1.197879e+000 -1.678030e+002 -5.154079e+001 -3.048559e+001 -5.234175e+001 -3.386778e+001 -1.708868e-001 1.309299e+002
574375000 -1.220104e+000 -1.681959e+002 -5.199508e+001 -3.307589e+001 -5.190347e+001 -3.326680e+001 -1.514866e-001 1.309466e+002
575000000 -1.226806e+000 -1.685855e+002 -5.153949e+001 -3.469742e+001 -5.234124e+001 -3.307172e+001 -1.494666e-001 1.307879e+002
575625000 -1.243441e+000 -1.689522e+002 -5.243276e+001 -3.291872e+001 -5.178909e+001 -3.925848e+001 -1.477003e-001 1.307722e+002
576250000 -1.250475e+000 -1.693166e+002 -5.162342e+001 -3.653531e+001 -5.199591e+001 -3.485671e+001 -1.458435e-001 1.307397e+002
576875000 -1.265477e+000 -1.697478e+002 -5.219119e+001 -3.492681e+001 -5.237573e+001 -3.645099e+001 -1.373512e-001 1.307153e+002
577500000 -1.285672e+000 -1.701487e+002 -5.226060e+001 -4.066772e+001 -5.215183e+001 -3.505509e+001 -1.456241e-001 1.306464e+002
578125000 -1.302227e+000 -1.704809e+002 -5.158706e+001 -4.031355e+001 -5.186644e+001 -3.770985e+001 -1.350456e-001 1.307112e+002
578750000 -1.311651e+000 -1.709035e+002 -5.181244e+001 -3.622060e+001 -5.164865e+001 -4.213568e+001 -1.471618e-001 1.306936e+002
579375000 -1.320143e+000 -1.713207e+002 -5.174363e+001 -4.608141e+001 -5.199334e+001 -3.969561e+001 -1.383858e-001 1.306486e+002
580000000 -1.334920e+000 -1.716578e+002 -5.136167e+001 -4.333056e+001 -5.179034e+001 -4.215117e+001 -1.431968e-001 1.306423e+002
580625000 -1.348380e+000 -1.720966e+002 -5.113671e+001 -4.490404e+001 -5.097927e+001 -3.977808e+001 -1.408885e-001 1.307044e+002
581250000 -1.369055e+000 -1.724754e+002 -5.158299e+001 -4.198252e+001 -5.212198e+001 -4.526502e+001 -1.411070e-001 1.307376e+002
581875000 -1.377287e+000 -1.729988e+002 -5.191113e+001 -4.752646e+001 -5.124126e+001 -4.730998e+001 -1.442712e-001 1.306771e+002
582500000 -1.398817e+000 -1.733969e+002 -5.174411e+001 -4.884288e+001 -5.194596e+001 -4.684852e+001 -1.390545e-001 1.306405e+002
583125000 -1.417603e+000 -1.739313e+002 -5.120592e+001 -5.290905e+001 -5.085135e+001 -4.857013e+001 -1.530247e-001 1.306001e+002
583750000 -1.443169e+000 -1.743940e+002 -5.145292e+001 -4.767040e+001 -5.160614e+001 -4.780159e+001 -1.532316e-001 1.305475e+002
584375000 -1.469426e+000 -1.748714e+002 -5.213828e+001 -5.141555e+001 -5.109873e+001 -5.654303e+001 -1.567907e-001 1.304826e+002
585000000 -1.485409e+000 -1.753327e+002 -5.058144e+001 -5.428835e+001 -5.107372e+001 -5.132751e+001 -1.627631e-001 1.304476e+002
585625000 -1.529159e+000 -1.757712e+002 -5.177819e+001 -5.521484e+001 -5.123006e+001 -5.400960e+001 -1.516902e-001 1.303902e+002
586250000 -1.547142e+000 -1.762652e+002 -5.124997e+001 -4.988665e+001 -5.148362e+001 -5.451214e+001 -1.527815e-001 1.303604e+002
586875000 -1.564857e+000 -1.767527e+002 -5.134415e+001 -5.462726e+001 -5.088031e+001 -5.388694e+001 -1.571801e-001 1.302496e+002
587500000 -1.598257e+000 -1.772457e+002 -5.073964e+001 -5.834820e+001 -5.134160e+001 -5.557073e+001 -1.516420e-001 1.301006e+002
588125000 -1.617779e+000 -1.776279e+002 -5.077086e+001 -5.759914e+001 -5.114079e+001 -5.445166e+001 -1.519267e-001 1.300555e+002
588750000 -1.644040e+000 -1.781780e+002 -5.080880e+001 -5.629165e+001 -5.109036e+001 -5.481295e+001 -1.667230e-001 1.300101e+002
589375000 -1.666013e+000 -1.786914e+002 -5.081932e+001 -6.321518e+001 -5.054996e+001 -5.874752e+001 -1.453566e-001 1.298755e+002
590000000 -1.704013e+000 -1.791593e+002 -5.163280e+001 -5.363148e+001 -5.076677e+001 -5.577675e+001 -1.534929e-001 1.298701e+002
590625000 -1.738079e+000 -1.796867e+002 -5.083400e+001 -6.249370e+001 -5.109506e+001 -6.293220e+001 -1.458598e-001 1.297744e+002
591250000 -1.777681e+000 1.798401e+002 -5.048985e+001 -6.440292e+001 -5.140715e+001 -6.341136e+001 -1.482268e-001 1.297450e+002
591875000 -1.828461e+000 1.794595e+002 -5.064304e+001 -6.519537e+001 -5.083233e+001 -6.102312e+001 -1.457604e-001 1.297872e+002
592500000 -1.856953e+000 1.789714e+002 -5.035830e+001 -6.473572e+001 -5.033455e+001 -6.362963e+001 -1.432990e-001 1.297897e+002
593125000 -1.897653e+000 1.786259e+002 -5.060580e+001 -6.773986e+001 -4.992577e+001 -6.393332e+001 -1.483161e-001 1.298540e+002
593750000 -1.925036e+000 1.781459e+002 -5.016338e+001 -6.789152e+001 -5.091184e+001 -6.641963e+001 -1.295913e-001 1.298592e+002
594375000 -1.950459e+000 1.777632e+002 -5.028983e+001 -6.455320e+001 -4.987541e+001 -6.758911e+001 -1.254052e-001 1.299002e+002
595000000 -1.981038e+000 1.772895e+002 -4.972509e+001 -6.944576e+001 -5.006221e+001 -6.639371e+001 -1.415095e-001 1.299198e+002
595625000 -2.015319e+000 1.768495e+002 -5.040807e+001 -7.382839e+001 -4.968946e+001 -7.230895e+001 -1.311792e-001 1.299513e+002
