!Agilent Technologies,E8364B,US42250235,A.06.04.32
!Agilent E8364B: A.06.04.32
!Date: Friday, January 15, 2021 12:05:30
!Correction: S11(Full 2 Port(1,2)) S21(Full 2 Port(1,2)) S12(Full 2 Port(1,2)) S22(Full 2 Port(1,2)) 
!S2P File: Measurements: S11, S21, S12, S22:
# Hz S  dB   R 50
500000000 -1.304398e-001 -1.288695e+002 -5.933603e+001 1.601742e+001 -6.023627e+001 1.337247e+001 -1.166840e-001 1.386054e+002
500625000 -1.285765e-001 -1.291532e+002 -6.006786e+001 1.231821e+001 -6.165156e+001 1.510397e+001 -1.159934e-001 1.386631e+002
501250000 -1.337897e-001 -1.293958e+002 -5.976255e+001 1.412245e+001 -6.231588e+001 1.097617e+001 -1.224372e-001 1.386114e+002
501875000 -1.373352e-001 -1.296597e+002 -6.178760e+001 1.212438e+001 -6.137340e+001 1.198305e+001 -1.106639e-001 1.385813e+002
502500000 -1.381611e-001 -1.299814e+002 -6.088547e+001 1.963122e+001 -6.142499e+001 1.013523e+001 -1.065348e-001 1.386472e+002
503125000 -1.476932e-001 -1.302943e+002 -6.066780e+001 6.146844e+000 -6.107933e+001 6.766793e+000 -1.183565e-001 1.385806e+002
503750000 -1.451974e-001 -1.305295e+002 -6.575071e+001 1.222583e+001 -6.196803e+001 2.579531e+000 -1.207656e-001 1.385068e+002
504375000 -1.604344e-001 -1.308067e+002 -6.193349e+001 -1.470359e+000 -5.974762e+001 1.285464e+001 -1.339027e-001 1.384330e+002
505000000 -1.638201e-001 -1.311291e+002 -6.055759e+001 2.406826e+000 -6.105054e+001 -4.070953e+000 -1.370786e-001 1.384283e+002
505625000 -1.620370e-001 -1.313454e+002 -6.122392e+001 -1.731057e+000 -6.247268e+001 2.190903e+000 -1.337432e-001 1.383856e+002
506250000 -1.694213e-001 -1.316404e+002 -6.011824e+001 -1.315781e+001 -5.983994e+001 7.009449e+000 -1.380426e-001 1.382339e+002
506875000 -1.640243e-001 -1.319046e+002 -6.042650e+001 4.318040e+000 -6.144217e+001 -2.461300e+000 -1.289642e-001 1.381743e+002
507500000 -1.704678e-001 -1.321998e+002 -6.055246e+001 -7.571609e+000 -6.124470e+001 8.986705e+000 -1.278911e-001 1.380073e+002
508125000 -1.749919e-001 -1.324902e+002 -6.148688e+001 3.615418e+000 -6.111253e+001 -1.007460e+001 -1.337479e-001 1.379402e+002
508750000 -1.666148e-001 -1.327284e+002 -5.941438e+001 -6.854080e+000 -6.026767e+001 6.240915e+000 -1.329496e-001 1.378553e+002
509375000 -1.771356e-001 -1.331059e+002 -6.022591e+001 1.026402e+001 -6.182509e+001 -5.711268e+000 -1.319728e-001 1.378253e+002
510000000 -1.770247e-001 -1.333853e+002 -5.958696e+001 -5.917500e+000 -5.979189e+001 -5.291129e+000 -1.326467e-001 1.376833e+002
510625000 -1.873237e-001 -1.336115e+002 -6.142149e+001 2.189601e+000 -5.918589e+001 -2.670115e+000 -1.234779e-001 1.376697e+002
511250000 -1.910424e-001 -1.338646e+002 -5.952558e+001 -3.247636e+000 -5.918540e+001 -3.006099e+000 -1.343431e-001 1.375302e+002
511875000 -1.879427e-001 -1.341952e+002 -6.012199e+001 -3.536649e-001 -5.971173e+001 -1.107186e+001 -1.235223e-001 1.374885e+002
512500000 -1.868768e-001 -1.345018e+002 -6.021689e+001 -1.510555e+001 -6.182865e+001 -2.017810e+001 -1.273597e-001 1.373526e+002
513125000 -1.924273e-001 -1.347923e+002 -6.063198e+001 -5.230433e+000 -5.819203e+001 -8.124913e+000 -1.284148e-001 1.373912e+002
513750000 -1.983179e-001 -1.350462e+002 -5.853402e+001 -1.579863e+001 -6.111882e+001 -1.048134e+001 -1.299902e-001 1.373049e+002
514375000 -1.923298e-001 -1.353355e+002 -6.192540e+001 -1.637492e+001 -6.278954e+001 -1.599974e+001 -1.268212e-001 1.372002e+002
515000000 -1.980744e-001 -1.355690e+002 -5.894844e+001 -1.676455e+001 -6.012983e+001 -1.357350e+001 -1.256302e-001 1.371825e+002
515625000 -2.083793e-001 -1.359703e+002 -5.976945e+001 -2.426568e+001 -6.311015e+001 -2.018566e+001 -1.316122e-001 1.370784e+002
516250000 -2.029807e-001 -1.362513e+002 -5.923873e+001 -1.599099e+001 -5.912439e+001 6.483718e-001 -1.318468e-001 1.370262e+002
516875000 -2.158604e-001 -1.365773e+002 -6.036530e+001 -7.729364e+000 -6.097344e+001 -4.752755e+000 -1.279673e-001 1.370339e+002
517500000 -2.130774e-001 -1.368671e+002 -6.080919e+001 -2.300876e+001 -6.039404e+001 -1.708203e+001 -1.320862e-001 1.369829e+002
518125000 -2.186562e-001 -1.371859e+002 -6.003620e+001 -1.837416e+001 -5.830706e+001 -1.883133e+001 -1.341323e-001 1.368617e+002
518750000 -2.221142e-001 -1.374994e+002 -6.146474e+001 -3.256014e+001 -5.968556e+001 -1.085751e+001 -1.383467e-001 1.368241e+002
519375000 -2.314673e-001 -1.377504e+002 -6.008634e+001 -3.249816e+001 -5.938927e+001 -1.645223e+001 -1.270214e-001 1.367548e+002
520000000 -2.368127e-001 -1.381003e+002 -5.775904e+001 -2.236077e+001 -6.138467e+001 -2.283329e+001 -1.448235e-001 1.366836e+002
520625000 -2.376423e-001 -1.384598e+002 -6.048074e+001 -3.342004e+001 -5.977979e+001 -2.415113e+001 -1.375956e-001 1.365223e+002
521250000 -2.475353e-001 -1.387370e+002 -5.849185e+001 -2.081097e+001 -5.994137e+001 -2.447033e+001 -1.365007e-001 1.365065e+002
521875000 -2.487246e-001 -1.390625e+002 -5.774478e+001 -3.157929e+001 -5.926929e+001 -2.956948e+001 -1.303462e-001 1.364464e+002
522500000 -2.588504e-001 -1.393888e+002 -5.823680e+001 -3.716498e+001 -6.075875e+001 -1.467916e+001 -1.292379e-001 1.363443e+002
523125000 -2.665932e-001 -1.397168e+002 -6.034961e+001 -2.893559e+001 -5.983778e+001 -2.809639e+001 -1.273848e-001 1.362302e+002
523750000 -2.602570e-001 -1.400133e+002 -5.945060e+001 -3.450334e+001 -5.864656e+001 -2.469400e+001 -1.397405e-001 1.361656e+002
524375000 -2.795204e-001 -1.403063e+002 -5.950782e+001 -3.678527e+001 -5.951450e+001 -2.431566e+001 -1.198881e-001 1.360631e+002
525000000 -2.779401e-001 -1.406190e+002 -5.993277e+001 -3.488541e+001 -6.015733e+001 -3.233073e+001 -1.326616e-001 1.360914e+002
525625000 -2.854144e-001 -1.408845e+002 -5.779510e+001 -1.759094e+001 -5.886124e+001 -3.652106e+001 -1.338212e-001 1.360016e+002
526250000 -2.811805e-001 -1.411993e+002 -5.806637e+001 -2.240411e+001 -5.848533e+001 -3.080147e+001 -1.317564e-001 1.359139e+002
526875000 -2.867114e-001 -1.415769e+002 -5.959762e+001 -2.954925e+001 -5.946548e+001 -3.206587e+001 -1.260758e-001 1.358683e+002
527500000 -2.930105e-001 -1.418800e+002 -6.069473e+001 -2.989472e+001 -5.817049e+001 -3.749087e+001 -1.268671e-001 1.358178e+002
528125000 -3.128518e-001 -1.422570e+002 -5.925800e+001 -3.858841e+001 -5.945311e+001 -3.761446e+001 -1.267612e-001 1.358377e+002
528750000 -2.988613e-001 -1.425867e+002 -6.057850e+001 -1.322321e+001 -5.812481e+001 -3.337718e+001 -1.230927e-001 1.358875e+002
529375000 -3.186539e-001 -1.428597e+002 -5.902369e+001 -2.898416e+001 -6.043918e+001 -3.207203e+001 -1.238011e-001 1.357986e+002
530000000 -3.215011e-001 -1.432631e+002 -5.935956e+001 -3.746480e+001 -5.900111e+001 -3.440068e+001 -1.337295e-001 1.357307e+002
530625000 -3.316807e-001 -1.435770e+002 -5.997407e+001 -3.924535e+001 -5.929951e+001 -3.588397e+001 -1.264002e-001 1.357082e+002
531250000 -3.401270e-001 -1.439694e+002 -5.955404e+001 -3.806513e+001 -6.017823e+001 -3.394669e+001 -1.260672e-001 1.356685e+002
531875000 -3.548474e-001 -1.442222e+002 -5.875073e+001 -4.087930e+001 -5.930278e+001 -4.052534e+001 -1.191433e-001 1.356489e+002
532500000 -3.528006e-001 -1.444959e+002 -5.830604e+001 -5.384267e+001 -5.988631e+001 -4.347120e+001 -1.187101e-001 1.356740e+002
533125000 -3.551148e-001 -1.448759e+002 -5.772676e+001 -3.672224e+001 -5.715598e+001 -3.672276e+001 -1.315011e-001 1.356679e+002
533750000 -3.677265e-001 -1.451661e+002 -5.722633e+001 -4.392267e+001 -5.894188e+001 -3.459644e+001 -1.380562e-001 1.356521e+002
534375000 -3.738046e-001 -1.454419e+002 -5.721635e+001 -4.356603e+001 -5.730529e+001 -5.073724e+001 -1.176618e-001 1.356640e+002
535000000 -3.754310e-001 -1.457649e+002 -5.790526e+001 -4.947996e+001 -5.756304e+001 -4.670344e+001 -1.277675e-001 1.355930e+002
535625000 -3.815421e-001 -1.461183e+002 -5.747030e+001 -4.994386e+001 -5.786460e+001 -4.807074e+001 -1.242574e-001 1.355656e+002
536250000 -3.853321e-001 -1.463818e+002 -5.724107e+001 -5.081015e+001 -5.823929e+001 -5.018064e+001 -1.188957e-001 1.355653e+002
536875000 -3.922192e-001 -1.467646e+002 -5.719752e+001 -5.578066e+001 -5.662041e+001 -4.160669e+001 -1.305498e-001 1.355109e+002
537500000 -3.918655e-001 -1.470579e+002 -5.696198e+001 -4.686108e+001 -5.813821e+001 -5.125526e+001 -1.253995e-001 1.355402e+002
538125000 -3.932176e-001 -1.474204e+002 -5.695329e+001 -4.403217e+001 -5.813520e+001 -4.614216e+001 -1.317688e-001 1.355372e+002
538750000 -4.094396e-001 -1.477516e+002 -5.636872e+001 -5.130698e+001 -5.827425e+001 -4.876948e+001 -1.315373e-001 1.354059e+002
539375000 -4.138518e-001 -1.480762e+002 -5.763861e+001 -5.907328e+001 -5.748765e+001 -5.905054e+001 -1.273505e-001 1.354268e+002
540000000 -4.104859e-001 -1.484238e+002 -5.778259e+001 -5.296942e+001 -5.779539e+001 -5.161593e+001 -1.344203e-001 1.353562e+002
540625000 -4.250477e-001 -1.488041e+002 -5.795507e+001 -5.510356e+001 -5.867280e+001 -5.741557e+001 -1.330300e-001 1.352973e+002
541250000 -4.312450e-001 -1.491054e+002 -5.779122e+001 -5.890242e+001 -5.704783e+001 -5.625454e+001 -1.342313e-001 1.352486e+002
541875000 -4.348982e-001 -1.494294e+002 -5.720619e+001 -5.532425e+001 -5.786592e+001 -5.655011e+001 -1.405715e-001 1.351588e+002
542500000 -4.388848e-001 -1.498293e+002 -5.791273e+001 -5.975723e+001 -5.722982e+001 -5.718085e+001 -1.404597e-001 1.350859e+002
543125000 -4.445760e-001 -1.502539e+002 -5.693253e+001 -5.233657e+001 -5.630839e+001 -5.685482e+001 -1.383982e-001 1.349056e+002
543750000 -4.473866e-001 -1.506102e+002 -5.795386e+001 -6.013559e+001 -5.877429e+001 -6.114959e+001 -1.525985e-001 1.348799e+002
544375000 -4.612235e-001 -1.509945e+002 -5.806078e+001 -5.814352e+001 -5.825328e+001 -6.650984e+001 -1.440685e-001 1.347470e+002
545000000 -4.707734e-001 -1.513079e+002 -5.611980e+001 -5.123760e+001 -5.707302e+001 -5.629445e+001 -1.406375e-001 1.345912e+002
545625000 -4.715521e-001 -1.517361e+002 -5.623006e+001 -5.927257e+001 -5.508668e+001 -6.060694e+001 -1.474127e-001 1.345941e+002
546250000 -4.943486e-001 -1.520776e+002 -5.678324e+001 -5.628205e+001 -5.727592e+001 -5.855501e+001 -1.527195e-001 1.343936e+002
546875000 -4.967362e-001 -1.525105e+002 -5.689113e+001 -6.131182e+001 -5.694088e+001 -6.695469e+001 -1.473475e-001 1.343508e+002
547500000 -5.132014e-001 -1.528939e+002 -5.659883e+001 -6.672615e+001 -5.621265e+001 -6.149606e+001 -1.435759e-001 1.342540e+002
548125000 -5.261447e-001 -1.532458e+002 -5.727208e+001 -6.270307e+001 -5.706970e+001 -6.309286e+001 -1.414042e-001 1.341202e+002
548750000 -5.360261e-001 -1.537396e+002 -5.715543e+001 -5.640643e+001 -5.701136e+001 -6.253333e+001 -1.408019e-001 1.341028e+002
549375000 -5.476305e-001 -1.541178e+002 -5.653180e+001 -6.862551e+001 -5.826601e+001 -6.435229e+001 -1.407375e-001 1.338833e+002
550000000 -5.600990e-001 -1.544489e+002 -5.581113e+001 -6.388285e+001 -5.577248e+001 -7.182352e+001 -1.406579e-001 1.339055e+002
550625000 -5.726667e-001 -1.548501e+002 -5.728478e+001 -6.672830e+001 -5.594869e+001 -6.903740e+001 -1.319836e-001 1.337977e+002
551250000 -5.807402e-001 -1.552486e+002 -5.632538e+001 -6.791699e+001 -5.639838e+001 -7.108908e+001 -1.349776e-001 1.338254e+002
551875000 -5.913132e-001 -1.556171e+002 -5.566524e+001 -7.400191e+001 -5.750060e+001 -7.172361e+001 -1.272525e-001 1.337983e+002
552500000 -5.970050e-001 -1.559830e+002 -5.764784e+001 -6.930372e+001 -5.585265e+001 -7.496199e+001 -1.260097e-001 1.337276e+002
553125000 -6.061349e-001 -1.563896e+002 -5.599264e+001 -7.014363e+001 -5.784645e+001 -6.696655e+001 -1.361356e-001 1.338112e+002
553750000 -6.284422e-001 -1.567679e+002 -5.614391e+001 -7.409579e+001 -5.655847e+001 -7.404546e+001 -1.325620e-001 1.337328e+002
554375000 -6.312056e-001 -1.571748e+002 -5.606064e+001 -7.636189e+001 -5.672449e+001 -7.712455e+001 -1.295511e-001 1.337490e+002
555000000 -6.434228e-001 -1.575724e+002 -5.750615e+001 -7.630808e+001 -5.572886e+001 -6.030484e+001 -1.296373e-001 1.337224e+002
555625000 -6.704609e-001 -1.579209e+002 -5.583421e+001 -7.787222e+001 -5.722991e+001 -7.906458e+001 -1.233494e-001 1.337788e+002
556250000 -6.877748e-001 -1.582888e+002 -5.629854e+001 -7.043537e+001 -5.574092e+001 -7.292731e+001 -1.317795e-001 1.336952e+002
556875000 -6.962000e-001 -1.587059e+002 -5.573353e+001 -7.973772e+001 -5.570055e+001 -7.849651e+001 -1.403671e-001 1.336796e+002
557500000 -7.142403e-001 -1.590320e+002 -5.509578e+001 -7.919608e+001 -5.675120e+001 -7.062178e+001 -1.359245e-001 1.336166e+002
558125000 -7.314035e-001 -1.593641e+002 -5.523642e+001 -7.735663e+001 -5.622646e+001 -8.347339e+001 -1.486880e-001 1.335896e+002
558750000 -7.442242e-001 -1.597834e+002 -5.643045e+001 -8.151062e+001 -5.547697e+001 -7.832011e+001 -1.454985e-001 1.335094e+002
559375000 -7.623436e-001 -1.601463e+002 -5.547695e+001 -8.293332e+001 -5.585492e+001 -8.288935e+001 -1.493862e-001 1.334382e+002
560000000 -7.759730e-001 -1.604662e+002 -5.504726e+001 -7.859348e+001 -5.452633e+001 -7.802667e+001 -1.382800e-001 1.333506e+002
560625000 -7.930364e-001 -1.607740e+002 -5.594884e+001 -7.241517e+001 -5.458387e+001 -8.472794e+001 -1.465466e-001 1.332914e+002
561250000 -8.079662e-001 -1.611632e+002 -5.450553e+001 -8.483672e+001 -5.559908e+001 -8.392502e+001 -1.429535e-001 1.331978e+002
561875000 -8.177099e-001 -1.615695e+002 -5.404398e+001 -8.780779e+001 -5.491825e+001 -8.622349e+001 -1.475231e-001 1.330888e+002
562500000 -8.349575e-001 -1.618791e+002 -5.467038e+001 -9.110312e+001 -5.489780e+001 -9.015719e+001 -1.568663e-001 1.330827e+002
563125000 -8.429579e-001 -1.622136e+002 -5.410709e+001 -9.072138e+001 -5.457730e+001 -8.647396e+001 -1.463725e-001 1.329633e+002
563750000 -8.643559e-001 -1.626174e+002 -5.464931e+001 -9.130340e+001 -5.434869e+001 -8.703616e+001 -1.476051e-001 1.328705e+002
564375000 -8.785690e-001 -1.629555e+002 -5.405815e+001 -9.099397e+001 -5.458248e+001 -9.618573e+001 -1.495786e-001 1.327997e+002
565000000 -8.939384e-001 -1.633707e+002 -5.527986e+001 -8.950323e+001 -5.457952e+001 -9.379282e+001 -1.511966e-001 1.327128e+002
565625000 -9.011677e-001 -1.637310e+002 -5.458865e+001 -9.192740e+001 -5.559525e+001 -9.806812e+001 -1.389884e-001 1.326743e+002
566250000 -9.031194e-001 -1.642255e+002 -5.522388e+001 -9.844568e+001 -5.430531e+001 -9.324800e+001 -1.356048e-001 1.326042e+002
566875000 -9.251248e-001 -1.646307e+002 -5.478678e+001 -9.454781e+001 -5.552314e+001 -1.037223e+002 -1.455332e-001 1.325037e+002
567500000 -9.351129e-001 -1.650844e+002 -5.466363e+001 -9.223203e+001 -5.543695e+001 -9.576954e+001 -1.400784e-001 1.323952e+002
568125000 -9.542447e-001 -1.655314e+002 -5.512311e+001 -9.813103e+001 -5.470930e+001 -1.087718e+002 -1.508733e-001 1.323517e+002
568750000 -9.676445e-001 -1.659852e+002 -5.418013e+001 -9.814390e+001 -5.473093e+001 -9.738175e+001 -1.494745e-001 1.322581e+002
569375000 -9.871339e-001 -1.664620e+002 -5.531796e+001 -1.004809e+002 -5.361526e+001 -1.009405e+002 -1.476221e-001 1.322242e+002
570000000 -1.008480e+000 -1.669677e+002 -5.257160e+001 -9.450541e+001 -5.444436e+001 -9.898826e+001 -1.393749e-001 1.321633e+002
570625000 -1.027145e+000 -1.674400e+002 -5.395361e+001 -1.035823e+002 -5.498098e+001 -1.054063e+002 -1.455147e-001 1.320493e+002
571250000 -1.052873e+000 -1.679034e+002 -5.393790e+001 -1.101794e+002 -5.383960e+001 -1.035281e+002 -1.464041e-001 1.320078e+002
571875000 -1.089339e+000 -1.683580e+002 -5.384074e+001 -1.089981e+002 -5.403893e+001 -1.049949e+002 -1.386476e-001 1.318678e+002
572500000 -1.114888e+000 -1.688641e+002 -5.454799e+001 -1.087049e+002 -5.381203e+001 -1.083657e+002 -1.565180e-001 1.318018e+002
573125000 -1.152025e+000 -1.693660e+002 -5.326431e+001 -1.073598e+002 -5.354326e+001 -1.034768e+002 -1.438722e-001 1.317029e+002
573750000 -1.175971e+000 -1.697565e+002 -5.417007e+001 -1.141268e+002 -5.467708e+001 -1.086841e+002 -1.616151e-001 1.315764e+002
574375000 -1.209821e+000 -1.701840e+002 -5.361291e+001 -1.094793e+002 -5.490223e+001 -1.063272e+002 -1.469948e-001 1.315527e+002
575000000 -1.243723e+000 -1.706363e+002 -5.338995e+001 -1.081212e+002 -5.495930e+001 -1.138034e+002 -1.452588e-001 1.314094e+002
575625000 -1.271024e+000 -1.709654e+002 -5.418499e+001 -1.109863e+002 -5.407145e+001 -1.158861e+002 -1.454166e-001 1.313703e+002
576250000 -1.297210e+000 -1.714071e+002 -5.335997e+001 -1.147605e+002 -5.407236e+001 -1.144539e+002 -1.462608e-001 1.312522e+002
576875000 -1.312676e+000 -1.718057e+002 -5.473686e+001 -1.122242e+002 -5.462399e+001 -1.080897e+002 -1.421577e-001 1.311899e+002
577500000 -1.345858e+000 -1.722319e+002 -5.416391e+001 -1.088414e+002 -5.398809e+001 -1.132671e+002 -1.444088e-001 1.310771e+002
578125000 -1.375903e+000 -1.727186e+002 -5.410268e+001 -1.191209e+002 -5.379278e+001 -1.130305e+002 -1.412919e-001 1.311497e+002
578750000 -1.403539e+000 -1.731212e+002 -5.368351e+001 -1.115290e+002 -5.369899e+001 -1.170693e+002 -1.357363e-001 1.310517e+002
579375000 -1.432238e+000 -1.735182e+002 -5.313765e+001 -1.191878e+002 -5.368770e+001 -1.127569e+002 -1.344718e-001 1.309510e+002
580000000 -1.460999e+000 -1.738921e+002 -5.420990e+001 -1.216084e+002 -5.320804e+001 -1.188036e+002 -1.341624e-001 1.309835e+002
580625000 -1.495472e+000 -1.743716e+002 -5.319504e+001 -1.173598e+002 -5.396482e+001 -1.169852e+002 -1.304649e-001 1.309563e+002
581250000 -1.528771e+000 -1.747014e+002 -5.366214e+001 -1.188037e+002 -5.333637e+001 -1.108474e+002 -1.309666e-001 1.309636e+002
581875000 -1.558394e+000 -1.751572e+002 -5.407647e+001 -1.237154e+002 -5.397452e+001 -1.140567e+002 -1.304129e-001 1.310047e+002
582500000 -1.606637e+000 -1.755658e+002 -5.377613e+001 -1.270348e+002 -5.315228e+001 -1.220804e+002 -1.341034e-001 1.309402e+002
583125000 -1.638887e+000 -1.759845e+002 -5.435572e+001 -1.286740e+002 -5.352228e+001 -1.250003e+002 -1.374705e-001 1.308669e+002
583750000 -1.679711e+000 -1.763868e+002 -5.330410e+001 -1.284789e+002 -5.345988e+001 -1.206165e+002 -1.461773e-001 1.308699e+002
584375000 -1.722013e+000 -1.766972e+002 -5.383398e+001 -1.304159e+002 -5.273939e+001 -1.274930e+002 -1.328618e-001 1.309057e+002
585000000 -1.756316e+000 -1.770521e+002 -5.357885e+001 -1.230202e+002 -5.343464e+001 -1.323015e+002 -1.410159e-001 1.308163e+002
585625000 -1.800746e+000 -1.773744e+002 -5.380140e+001 -1.310922e+002 -5.409444e+001 -1.291292e+002 -1.347190e-001 1.307857e+002
586250000 -1.824810e+000 -1.777580e+002 -5.350696e+001 -1.303620e+002 -5.242155e+001 -1.303252e+002 -1.377423e-001 1.308259e+002
586875000 -1.850305e+000 -1.781496e+002 -5.356736e+001 -1.344708e+002 -5.408811e+001 -1.335751e+002 -1.448290e-001 1.307042e+002
587500000 -1.895491e+000 -1.784489e+002 -5.300414e+001 -1.274066e+002 -5.230906e+001 -1.284394e+002 -1.315366e-001 1.306221e+002
588125000 -1.920389e+000 -1.788440e+002 -5.315110e+001 -1.291600e+002 -5.298346e+001 -1.287017e+002 -1.512211e-001 1.305790e+002
588750000 -1.944115e+000 -1.791848e+002 -5.377401e+001 -1.277008e+002 -5.273176e+001 -1.334228e+002 -1.540989e-001 1.305483e+002
589375000 -1.966142e+000 -1.795742e+002 -5.273039e+001 -1.400737e+002 -5.320255e+001 -1.361098e+002 -1.470647e-001 1.303635e+002
590000000 -1.994707e+000 1.799882e+002 -5.359085e+001 -1.332948e+002 -5.311143e+001 -1.372738e+002 -1.487027e-001 1.302851e+002
590625000 -2.022333e+000 1.795803e+002 -5.356821e+001 -1.367651e+002 -5.323870e+001 -1.365625e+002 -1.492703e-001 1.302185e+002
591250000 -2.043183e+000 1.791126e+002 -5.275332e+001 -1.364256e+002 -5.269718e+001 -1.352810e+002 -1.566172e-001 1.301376e+002
591875000 -2.084320e+000 1.786923e+002 -5.394949e+001 -1.423671e+002 -5.341406e+001 -1.410273e+002 -1.500563e-001 1.301063e+002
592500000 -2.130208e+000 1.781307e+002 -5.252557e+001 -1.387421e+002 -5.280779e+001 -1.374662e+002 -1.468749e-001 1.300073e+002
593125000 -2.180414e+000 1.776868e+002 -5.230466e+001 -1.390003e+002 -5.353391e+001 -1.362848e+002 -1.540442e-001 1.299735e+002
593750000 -2.234517e+000 1.772283e+002 -5.265223e+001 -1.442571e+002 -5.199933e+001 -1.396790e+002 -1.325198e-001 1.299573e+002
594375000 -2.282596e+000 1.768197e+002 -5.289525e+001 -1.379866e+002 -5.244740e+001 -1.415370e+002 -1.352166e-001 1.299164e+002
595000000 -2.345440e+000 1.764633e+002 -5.156263e+001 -1.432219e+002 -5.246635e+001 -1.436947e+002 -1.500501e-001 1.298932e+002
