!Agilent Technologies,E8364B,US42250235,A.06.04.32
!Agilent E8364B: A.06.04.32
!Date: Friday, January 15, 2021 12:06:17
!Correction: S11(Full 2 Port(1,2)) S21(Full 2 Port(1,2)) S12(Full 2 Port(1,2)) S22(Full 2 Port(1,2)) 
!S2P File: Measurements: S11, S21, S12, S22:
# Hz S  dB   R 50
500000000 -1.014919e-001 -1.292733e+002 -6.535867e+001 -7.931219e+001 -6.482018e+001 -9.295998e+001 -1.141750e-001 1.387590e+002
500625000 -9.829665e-002 -1.295470e+002 -6.061297e+001 -9.173544e+001 -6.636706e+001 -6.371423e+001 -1.180842e-001 1.387760e+002
501250000 -1.109212e-001 -1.297909e+002 -6.754330e+001 -5.389333e+001 -6.262182e+001 -8.331726e+001 -1.125910e-001 1.387674e+002
501875000 -1.111429e-001 -1.300920e+002 -6.211137e+001 -8.575004e+001 -6.557101e+001 -7.873535e+001 -1.207958e-001 1.387994e+002
502500000 -1.143238e-001 -1.303869e+002 -6.283584e+001 -6.022289e+001 -6.467785e+001 -8.183809e+001 -1.153915e-001 1.387225e+002
503125000 -1.246805e-001 -1.307292e+002 -6.437391e+001 -7.663284e+001 -6.188256e+001 -9.642717e+001 -1.208688e-001 1.386031e+002
503750000 -1.331217e-001 -1.310156e+002 -6.520915e+001 -7.302201e+001 -6.426925e+001 -9.504757e+001 -1.182750e-001 1.386268e+002
504375000 -1.427063e-001 -1.313205e+002 -6.578757e+001 -7.138941e+001 -6.296963e+001 -7.995750e+001 -1.353756e-001 1.386482e+002
505000000 -1.535689e-001 -1.315787e+002 -6.505762e+001 -1.146793e+002 -6.478997e+001 -9.860827e+001 -1.333339e-001 1.385511e+002
505625000 -1.512732e-001 -1.318128e+002 -6.653754e+001 -5.872550e+001 -6.679863e+001 -7.597658e+001 -1.308367e-001 1.385193e+002
506250000 -1.612573e-001 -1.321302e+002 -6.694148e+001 -6.270907e+001 -6.447726e+001 -8.923742e+001 -1.387164e-001 1.383808e+002
506875000 -1.622041e-001 -1.324133e+002 -6.260936e+001 -8.736387e+001 -6.327661e+001 -1.050277e+002 -1.309916e-001 1.382970e+002
507500000 -1.649036e-001 -1.326982e+002 -6.319219e+001 -1.050720e+002 -6.337642e+001 -8.870564e+001 -1.308411e-001 1.381646e+002
508125000 -1.713968e-001 -1.330073e+002 -6.314348e+001 -9.520034e+001 -6.381094e+001 -9.849871e+001 -1.308666e-001 1.380877e+002
508750000 -1.723790e-001 -1.332506e+002 -6.392200e+001 -9.513483e+001 -6.172366e+001 -1.013640e+002 -1.290576e-001 1.379973e+002
509375000 -1.809897e-001 -1.336262e+002 -6.062298e+001 -8.327786e+001 -6.260897e+001 -1.048302e+002 -1.288686e-001 1.379597e+002
510000000 -1.862143e-001 -1.339441e+002 -6.329996e+001 -7.579628e+001 -6.275546e+001 -1.006037e+002 -1.326627e-001 1.378503e+002
510625000 -1.925047e-001 -1.341759e+002 -6.076009e+001 -9.001039e+001 -6.242623e+001 -1.106896e+002 -1.200002e-001 1.377953e+002
511250000 -2.044559e-001 -1.344159e+002 -6.119315e+001 -9.478370e+001 -6.355646e+001 -9.981971e+001 -1.253571e-001 1.376568e+002
511875000 -2.005778e-001 -1.347983e+002 -6.153489e+001 -7.743032e+001 -6.259390e+001 -9.638998e+001 -1.273329e-001 1.376204e+002
512500000 -2.016753e-001 -1.350481e+002 -6.181572e+001 -8.423749e+001 -6.256503e+001 -9.058608e+001 -1.314149e-001 1.375292e+002
513125000 -2.131204e-001 -1.353635e+002 -6.409173e+001 -9.114378e+001 -6.321841e+001 -1.224947e+002 -1.366828e-001 1.375527e+002
513750000 -2.160762e-001 -1.356629e+002 -6.349972e+001 -7.757215e+001 -6.198975e+001 -9.377024e+001 -1.331398e-001 1.374457e+002
514375000 -2.225605e-001 -1.359643e+002 -6.444581e+001 -9.558192e+001 -6.161871e+001 -9.239352e+001 -1.289055e-001 1.373638e+002
515000000 -2.293356e-001 -1.362173e+002 -6.091675e+001 -8.741147e+001 -6.121155e+001 -1.094125e+002 -1.151125e-001 1.373330e+002
515625000 -2.368581e-001 -1.366075e+002 -5.947641e+001 -1.034465e+002 -6.100750e+001 -1.089670e+002 -1.274182e-001 1.372276e+002
516250000 -2.466075e-001 -1.368618e+002 -6.041537e+001 -9.558058e+001 -6.184138e+001 -1.097919e+002 -1.333848e-001 1.371998e+002
516875000 -2.626253e-001 -1.371518e+002 -6.230855e+001 -1.097216e+002 -5.959831e+001 -1.173159e+002 -1.312819e-001 1.371778e+002
517500000 -2.664513e-001 -1.374848e+002 -6.156038e+001 -9.708865e+001 -6.047861e+001 -1.119252e+002 -1.427932e-001 1.371106e+002
518125000 -2.724971e-001 -1.378220e+002 -6.168790e+001 -1.133744e+002 -6.141444e+001 -1.143368e+002 -1.329484e-001 1.370227e+002
518750000 -2.839118e-001 -1.381310e+002 -6.018763e+001 -9.941058e+001 -6.297758e+001 -1.157878e+002 -1.378288e-001 1.369704e+002
519375000 -3.007592e-001 -1.383749e+002 -6.162941e+001 -1.082282e+002 -6.013612e+001 -1.207735e+002 -1.279652e-001 1.368967e+002
520000000 -3.110839e-001 -1.387236e+002 -6.092043e+001 -1.027846e+002 -6.076091e+001 -9.307592e+001 -1.372579e-001 1.367888e+002
520625000 -3.188535e-001 -1.390415e+002 -6.050446e+001 -1.128624e+002 -6.011310e+001 -1.185497e+002 -1.361592e-001 1.366784e+002
521250000 -3.267111e-001 -1.392808e+002 -6.101054e+001 -1.120408e+002 -5.967398e+001 -1.283409e+002 -1.378616e-001 1.365948e+002
521875000 -3.386702e-001 -1.396312e+002 -6.053778e+001 -1.068542e+002 -5.888083e+001 -1.116073e+002 -1.280828e-001 1.365751e+002
522500000 -3.467601e-001 -1.399141e+002 -6.017144e+001 -1.127604e+002 -6.027626e+001 -1.274952e+002 -1.392799e-001 1.364691e+002
523125000 -3.584745e-001 -1.402326e+002 -5.843399e+001 -1.172130e+002 -5.973270e+001 -1.280444e+002 -1.345498e-001 1.363956e+002
523750000 -3.600194e-001 -1.405433e+002 -5.887802e+001 -1.185591e+002 -5.912916e+001 -1.210248e+002 -1.323974e-001 1.363433e+002
524375000 -3.859354e-001 -1.408007e+002 -6.089028e+001 -1.296238e+002 -5.931020e+001 -1.275726e+002 -1.253852e-001 1.362515e+002
525000000 -3.805294e-001 -1.411186e+002 -6.025120e+001 -1.245310e+002 -6.033778e+001 -1.218688e+002 -1.250855e-001 1.361700e+002
525625000 -4.017816e-001 -1.413748e+002 -6.049181e+001 -1.125501e+002 -5.897766e+001 -1.369204e+002 -1.334316e-001 1.360922e+002
526250000 -3.904698e-001 -1.416975e+002 -5.856142e+001 -1.145500e+002 -6.165460e+001 -1.296729e+002 -1.314758e-001 1.360690e+002
526875000 -4.068832e-001 -1.419870e+002 -6.038451e+001 -1.237838e+002 -6.005043e+001 -1.363073e+002 -1.176803e-001 1.360063e+002
527500000 -4.166580e-001 -1.422589e+002 -6.008729e+001 -1.246281e+002 -6.003791e+001 -1.377383e+002 -1.274538e-001 1.359897e+002
528125000 -4.347866e-001 -1.425740e+002 -6.023521e+001 -1.281981e+002 -5.953388e+001 -1.396366e+002 -1.326233e-001 1.359906e+002
528750000 -4.348798e-001 -1.429026e+002 -5.888588e+001 -1.293353e+002 -5.944005e+001 -1.137976e+002 -1.220323e-001 1.359959e+002
529375000 -4.446429e-001 -1.432402e+002 -5.874791e+001 -1.261495e+002 -5.895202e+001 -1.365694e+002 -1.210584e-001 1.359269e+002
530000000 -4.574285e-001 -1.436186e+002 -5.827266e+001 -1.250085e+002 -5.971685e+001 -1.329922e+002 -1.269940e-001 1.358620e+002
530625000 -4.700497e-001 -1.438483e+002 -5.926133e+001 -1.352460e+002 -5.895853e+001 -1.347956e+002 -1.260347e-001 1.358248e+002
531250000 -4.800094e-001 -1.441912e+002 -5.977070e+001 -1.402405e+002 -5.853692e+001 -1.441852e+002 -1.155031e-001 1.358575e+002
531875000 -5.021605e-001 -1.444385e+002 -6.014244e+001 -1.281840e+002 -5.694601e+001 -1.376575e+002 -1.207339e-001 1.358177e+002
532500000 -5.116939e-001 -1.446750e+002 -5.748414e+001 -1.342632e+002 -6.042084e+001 -1.398724e+002 -1.203709e-001 1.358757e+002
533125000 -5.119412e-001 -1.450168e+002 -5.977467e+001 -1.436749e+002 -6.008693e+001 -1.487542e+002 -1.246181e-001 1.358145e+002
533750000 -5.316779e-001 -1.452736e+002 -5.999055e+001 -1.339349e+002 -5.823372e+001 -1.526185e+002 -1.450222e-001 1.358031e+002
534375000 -5.341992e-001 -1.455001e+002 -5.898987e+001 -1.476095e+002 -5.954428e+001 -1.458029e+002 -1.157454e-001 1.357707e+002
535000000 -5.475256e-001 -1.457392e+002 -6.096188e+001 -1.393963e+002 -5.907416e+001 -1.555575e+002 -1.290423e-001 1.357962e+002
535625000 -5.498949e-001 -1.460483e+002 -5.872095e+001 -1.329656e+002 -5.879200e+001 -1.565463e+002 -1.223879e-001 1.357314e+002
536250000 -5.576735e-001 -1.462951e+002 -5.750743e+001 -1.416076e+002 -5.850300e+001 -1.426307e+002 -1.216187e-001 1.357227e+002
536875000 -5.620968e-001 -1.466113e+002 -5.801922e+001 -1.299909e+002 -6.023780e+001 -1.422317e+002 -1.328194e-001 1.356825e+002
537500000 -5.584207e-001 -1.468566e+002 -5.861576e+001 -1.414738e+002 -5.879985e+001 -1.529916e+002 -1.167359e-001 1.357188e+002
538125000 -5.596739e-001 -1.471535e+002 -5.777126e+001 -1.428723e+002 -5.845420e+001 -1.487977e+002 -1.333058e-001 1.356524e+002
538750000 -5.726249e-001 -1.474867e+002 -5.838269e+001 -1.466063e+002 -5.850486e+001 -1.485957e+002 -1.294145e-001 1.356383e+002
539375000 -5.760508e-001 -1.477850e+002 -6.012033e+001 -1.419048e+002 -5.811426e+001 -1.534943e+002 -1.226021e-001 1.355978e+002
540000000 -5.810450e-001 -1.480620e+002 -5.816022e+001 -1.569834e+002 -5.953637e+001 -1.513662e+002 -1.320613e-001 1.354965e+002
540625000 -5.945271e-001 -1.484600e+002 -5.711670e+001 -1.516622e+002 -5.817495e+001 -1.603293e+002 -1.394013e-001 1.354756e+002
541250000 -5.954390e-001 -1.487166e+002 -5.951276e+001 -1.381479e+002 -5.797431e+001 -1.621053e+002 -1.337533e-001 1.353652e+002
541875000 -6.056927e-001 -1.490366e+002 -5.798373e+001 -1.489452e+002 -5.701036e+001 -1.574790e+002 -1.464537e-001 1.352631e+002
542500000 -6.079174e-001 -1.493750e+002 -5.873967e+001 -1.561593e+002 -5.853002e+001 -1.608129e+002 -1.443253e-001 1.352092e+002
543125000 -6.093948e-001 -1.496987e+002 -5.743827e+001 -1.515403e+002 -5.819332e+001 -1.597696e+002 -1.414646e-001 1.350314e+002
543750000 -6.215243e-001 -1.500313e+002 -5.707611e+001 -1.578042e+002 -5.729065e+001 -1.639539e+002 -1.482652e-001 1.349977e+002
544375000 -6.331152e-001 -1.504207e+002 -5.587226e+001 -1.469401e+002 -5.836839e+001 -1.606631e+002 -1.455304e-001 1.348753e+002
545000000 -6.302943e-001 -1.507252e+002 -5.804089e+001 -1.578082e+002 -5.696119e+001 -1.676366e+002 -1.466419e-001 1.347660e+002
545625000 -6.434168e-001 -1.510517e+002 -5.732602e+001 -1.521669e+002 -5.914341e+001 -1.664970e+002 -1.427887e-001 1.347018e+002
546250000 -6.557361e-001 -1.513666e+002 -5.828981e+001 -1.520209e+002 -5.669745e+001 -1.661438e+002 -1.534518e-001 1.345200e+002
546875000 -6.591964e-001 -1.517545e+002 -5.668495e+001 -1.592100e+002 -5.752955e+001 -1.643516e+002 -1.492127e-001 1.345032e+002
547500000 -6.713600e-001 -1.520671e+002 -5.701944e+001 -1.713406e+002 -5.679668e+001 -1.689202e+002 -1.466073e-001 1.343728e+002
548125000 -6.874042e-001 -1.524137e+002 -5.601894e+001 -1.548134e+002 -5.677688e+001 -1.730796e+002 -1.399455e-001 1.342787e+002
548750000 -6.962015e-001 -1.528063e+002 -5.559361e+001 -1.670654e+002 -5.723818e+001 -1.666376e+002 -1.454942e-001 1.342332e+002
549375000 -7.125124e-001 -1.531166e+002 -5.574891e+001 -1.622554e+002 -5.693909e+001 -1.733129e+002 -1.392611e-001 1.340294e+002
550000000 -7.138374e-001 -1.534740e+002 -5.572799e+001 -1.588785e+002 -5.660868e+001 1.795892e+002 -1.391550e-001 1.340815e+002
550625000 -7.206072e-001 -1.537870e+002 -5.561137e+001 -1.764202e+002 -5.679857e+001 1.793809e+002 -1.416182e-001 1.339707e+002
551250000 -7.225033e-001 -1.541166e+002 -5.647075e+001 -1.731419e+002 -5.679031e+001 -1.779845e+002 -1.295066e-001 1.339638e+002
551875000 -7.313307e-001 -1.544342e+002 -5.721523e+001 -1.737884e+002 -5.613531e+001 -1.787283e+002 -1.327127e-001 1.339209e+002
552500000 -7.368250e-001 -1.548026e+002 -5.653218e+001 -1.773479e+002 -5.610103e+001 1.758462e+002 -1.291600e-001 1.339034e+002
553125000 -7.372349e-001 -1.550838e+002 -5.632837e+001 -1.730982e+002 -5.646289e+001 1.736931e+002 -1.366083e-001 1.339422e+002
553750000 -7.521539e-001 -1.554586e+002 -5.614123e+001 -1.770451e+002 -5.641771e+001 1.733672e+002 -1.376343e-001 1.338296e+002
554375000 -7.548542e-001 -1.558074e+002 -5.530654e+001 -1.798144e+002 -5.676369e+001 1.781107e+002 -1.284846e-001 1.338429e+002
555000000 -7.662250e-001 -1.561536e+002 -5.642232e+001 1.798454e+002 -5.596649e+001 1.739094e+002 -1.310660e-001 1.338874e+002
555625000 -7.816566e-001 -1.564482e+002 -5.617883e+001 1.723203e+002 -5.707407e+001 1.731963e+002 -1.266057e-001 1.339005e+002
556250000 -7.840078e-001 -1.567567e+002 -5.511960e+001 -1.692026e+002 -5.688977e+001 -1.796120e+002 -1.341952e-001 1.338354e+002
556875000 -7.922394e-001 -1.571233e+002 -5.578144e+001 1.757224e+002 -5.813326e+001 1.685251e+002 -1.419403e-001 1.338261e+002
557500000 -7.990986e-001 -1.574066e+002 -5.595796e+001 1.727927e+002 -5.616232e+001 1.713019e+002 -1.426908e-001 1.337907e+002
558125000 -7.971540e-001 -1.577132e+002 -5.556877e+001 1.773271e+002 -5.547633e+001 1.728305e+002 -1.532841e-001 1.336996e+002
558750000 -8.029655e-001 -1.580791e+002 -5.670642e+001 1.768186e+002 -5.561056e+001 1.671929e+002 -1.479616e-001 1.336503e+002
559375000 -8.127199e-001 -1.584240e+002 -5.599398e+001 1.757950e+002 -5.616780e+001 1.722530e+002 -1.490317e-001 1.336071e+002
560000000 -8.253045e-001 -1.587685e+002 -5.528276e+001 1.746010e+002 -5.630122e+001 1.683842e+002 -1.411258e-001 1.334434e+002
560625000 -8.282417e-001 -1.590804e+002 -5.658446e+001 1.705617e+002 -5.530144e+001 1.651169e+002 -1.389229e-001 1.334438e+002
561250000 -8.313096e-001 -1.594641e+002 -5.591359e+001 1.786358e+002 -5.622337e+001 1.591852e+002 -1.465980e-001 1.333537e+002
561875000 -8.414026e-001 -1.598129e+002 -5.667517e+001 1.682827e+002 -5.610831e+001 1.618853e+002 -1.509400e-001 1.332556e+002
562500000 -8.439487e-001 -1.601470e+002 -5.643987e+001 1.711197e+002 -5.675269e+001 1.670433e+002 -1.472221e-001 1.332054e+002
563125000 -8.379138e-001 -1.604698e+002 -5.510790e+001 1.690926e+002 -5.715294e+001 1.596017e+002 -1.480996e-001 1.330969e+002
563750000 -8.543159e-001 -1.608864e+002 -5.603423e+001 1.649882e+002 -5.610214e+001 1.562100e+002 -1.593370e-001 1.329805e+002
564375000 -8.554094e-001 -1.612738e+002 -5.449221e+001 1.616516e+002 -5.467344e+001 1.584963e+002 -1.495839e-001 1.329802e+002
565000000 -8.540817e-001 -1.616708e+002 -5.597709e+001 1.624646e+002 -5.547543e+001 1.637558e+002 -1.482321e-001 1.328585e+002
565625000 -8.601322e-001 -1.620511e+002 -5.504057e+001 1.706076e+002 -5.576406e+001 1.553716e+002 -1.471598e-001 1.327749e+002
566250000 -8.646916e-001 -1.624795e+002 -5.377990e+001 1.664941e+002 -5.523923e+001 1.564687e+002 -1.492336e-001 1.327256e+002
566875000 -8.799295e-001 -1.629564e+002 -5.546267e+001 1.622058e+002 -5.612684e+001 1.526555e+002 -1.499272e-001 1.325875e+002
567500000 -8.850960e-001 -1.634228e+002 -5.634758e+001 1.512899e+002 -5.475932e+001 1.521946e+002 -1.354084e-001 1.325465e+002
568125000 -9.013687e-001 -1.638189e+002 -5.431396e+001 1.573569e+002 -5.484979e+001 1.590096e+002 -1.500984e-001 1.324993e+002
568750000 -9.137619e-001 -1.643011e+002 -5.475561e+001 1.658340e+002 -5.596226e+001 1.609319e+002 -1.489251e-001 1.324119e+002
569375000 -9.363081e-001 -1.647141e+002 -5.388923e+001 1.550200e+002 -5.454454e+001 1.559003e+002 -1.440291e-001 1.323714e+002
570000000 -9.395713e-001 -1.652237e+002 -5.403250e+001 1.588331e+002 -5.535914e+001 1.553102e+002 -1.491255e-001 1.322289e+002
570625000 -9.535519e-001 -1.656742e+002 -5.439700e+001 1.665909e+002 -5.396159e+001 1.527115e+002 -1.420544e-001 1.321996e+002
571250000 -9.743843e-001 -1.661152e+002 -5.444237e+001 1.612774e+002 -5.341035e+001 1.519186e+002 -1.414883e-001 1.321523e+002
571875000 -1.001727e+000 -1.665228e+002 -5.369751e+001 1.610058e+002 -5.416679e+001 1.513645e+002 -1.543085e-001 1.320293e+002
572500000 -1.023225e+000 -1.669964e+002 -5.346138e+001 1.591905e+002 -5.361470e+001 1.557515e+002 -1.557003e-001 1.318990e+002
573125000 -1.037662e+000 -1.673815e+002 -5.363722e+001 1.531117e+002 -5.403753e+001 1.492712e+002 -1.401488e-001 1.318717e+002
573750000 -1.056899e+000 -1.678323e+002 -5.356701e+001 1.548057e+002 -5.404316e+001 1.520322e+002 -1.618236e-001 1.317336e+002
574375000 -1.077795e+000 -1.682040e+002 -5.307866e+001 1.534636e+002 -5.454133e+001 1.495283e+002 -1.562723e-001 1.316884e+002
575000000 -1.100933e+000 -1.686511e+002 -5.314045e+001 1.526471e+002 -5.365681e+001 1.423613e+002 -1.509029e-001 1.315823e+002
575625000 -1.120462e+000 -1.690305e+002 -5.314595e+001 1.505704e+002 -5.224652e+001 1.436177e+002 -1.486730e-001 1.314975e+002
576250000 -1.114285e+000 -1.694034e+002 -5.306503e+001 1.493499e+002 -5.338884e+001 1.490610e+002 -1.484352e-001 1.314012e+002
576875000 -1.130476e+000 -1.698232e+002 -5.234663e+001 1.458393e+002 -5.336260e+001 1.407000e+002 -1.503247e-001 1.313565e+002
577500000 -1.145153e+000 -1.702376e+002 -5.314656e+001 1.458963e+002 -5.418325e+001 1.393319e+002 -1.461712e-001 1.312372e+002
578125000 -1.161103e+000 -1.707353e+002 -5.227896e+001 1.374303e+002 -5.384595e+001 1.340163e+002 -1.316379e-001 1.312630e+002
578750000 -1.169392e+000 -1.711329e+002 -5.300042e+001 1.430164e+002 -5.292072e+001 1.328828e+002 -1.402652e-001 1.311892e+002
579375000 -1.184226e+000 -1.715891e+002 -5.237121e+001 1.373232e+002 -5.256086e+001 1.336517e+002 -1.360419e-001 1.311421e+002
580000000 -1.201275e+000 -1.720000e+002 -5.272493e+001 1.344032e+002 -5.318354e+001 1.371405e+002 -1.315161e-001 1.310908e+002
580625000 -1.217257e+000 -1.724502e+002 -5.192329e+001 1.352881e+002 -5.255724e+001 1.290767e+002 -1.376120e-001 1.310688e+002
581250000 -1.237459e+000 -1.729063e+002 -5.203561e+001 1.343701e+002 -5.227004e+001 1.347630e+002 -1.299954e-001 1.311147e+002
581875000 -1.257555e+000 -1.733450e+002 -5.226650e+001 1.323550e+002 -5.265480e+001 1.311763e+002 -1.344070e-001 1.311135e+002
582500000 -1.283787e+000 -1.737594e+002 -5.228584e+001 1.304214e+002 -5.257304e+001 1.266591e+002 -1.335701e-001 1.311099e+002
583125000 -1.295553e+000 -1.742649e+002 -5.192854e+001 1.306151e+002 -5.177081e+001 1.247249e+002 -1.425439e-001 1.310461e+002
583750000 -1.321051e+000 -1.747394e+002 -5.167852e+001 1.312851e+002 -5.290014e+001 1.198230e+002 -1.462439e-001 1.310530e+002
584375000 -1.340410e+000 -1.751900e+002 -5.180076e+001 1.272939e+002 -5.262407e+001 1.238065e+002 -1.332766e-001 1.310626e+002
585000000 -1.365668e+000 -1.756362e+002 -5.176280e+001 1.269251e+002 -5.226368e+001 1.233259e+002 -1.428189e-001 1.309855e+002
585625000 -1.392267e+000 -1.760608e+002 -5.263859e+001 1.260145e+002 -5.214110e+001 1.241379e+002 -1.388168e-001 1.309770e+002
586250000 -1.409457e+000 -1.765285e+002 -5.224103e+001 1.243005e+002 -5.165799e+001 1.239859e+002 -1.432187e-001 1.310231e+002
586875000 -1.419101e+000 -1.769883e+002 -5.239742e+001 1.259445e+002 -5.236952e+001 1.200826e+002 -1.441590e-001 1.308638e+002
587500000 -1.452641e+000 -1.774994e+002 -5.218304e+001 1.245394e+002 -5.263152e+001 1.240708e+002 -1.428407e-001 1.307803e+002
588125000 -1.469617e+000 -1.778979e+002 -5.177147e+001 1.224185e+002 -5.254144e+001 1.191969e+002 -1.533166e-001 1.307365e+002
588750000 -1.492761e+000 -1.784415e+002 -5.141302e+001 1.197127e+002 -5.223422e+001 1.118913e+002 -1.602051e-001 1.306624e+002
589375000 -1.508573e+000 -1.788805e+002 -5.208540e+001 1.216158e+002 -5.230695e+001 1.095042e+002 -1.438346e-001 1.305100e+002
590000000 -1.537806e+000 -1.794471e+002 -5.182886e+001 1.168064e+002 -5.172926e+001 1.106546e+002 -1.588016e-001 1.304627e+002
590625000 -1.561623e+000 -1.799424e+002 -5.087989e+001 1.209848e+002 -5.197667e+001 1.097187e+002 -1.516962e-001 1.303714e+002
591250000 -1.581596e+000 1.795428e+002 -5.201583e+001 1.143925e+002 -5.180085e+001 1.077567e+002 -1.556242e-001 1.303248e+002
591875000 -1.618597e+000 1.790023e+002 -5.206197e+001 1.151829e+002 -5.188414e+001 1.083382e+002 -1.593915e-001 1.301891e+002
592500000 -1.650667e+000 1.784234e+002 -5.224807e+001 1.139568e+002 -5.205662e+001 1.079708e+002 -1.499048e-001 1.301785e+002
593125000 -1.691543e+000 1.779426e+002 -5.089725e+001 1.148902e+002 -5.154824e+001 1.105809e+002 -1.485549e-001 1.301543e+002
593750000 -1.736324e+000 1.773602e+002 -5.140696e+001 1.155272e+002 -5.155899e+001 1.092523e+002 -1.409341e-001 1.301452e+002
594375000 -1.773208e+000 1.769007e+002 -5.080570e+001 1.159851e+002 -5.165245e+001 1.038561e+002 -1.387995e-001 1.300571e+002
595000000 -1.817920e+000 1.763845e+002 -5.144433e+001 1.155850e+002 -5.105109e+001 1.069597e+002 -1.471090e-001 1.300421e+002
