!Agilent Technologies,E8364B,US42250235,A.06.04.32
!Agilent E8364B: A.06.04.32
!Date: Friday, January 15, 2021 12:45:43
!Correction: S11(Full 2 Port(1,2)) S21(Full 2 Port(1,2)) S12(Full 2 Port(1,2)) S22(Full 2 Port(1,2)) 
!S2P File: Measurements: S11, S21, S12, S22:
# Hz S  dB   R 50
500000000 -1.065285e-001 -1.288913e+002 -6.029680e+001 1.086655e+001 -6.500640e+001 2.092790e+001 -1.392685e-001 1.382826e+002
500625000 -1.019664e-001 -1.291146e+002 -6.200732e+001 3.403260e+000 -6.198428e+001 1.599321e+001 -1.461538e-001 1.382088e+002
501250000 -1.087159e-001 -1.293401e+002 -6.071729e+001 3.059842e+001 -6.397730e+001 1.755068e+001 -1.464527e-001 1.381493e+002
501875000 -1.104144e-001 -1.296187e+002 -6.096065e+001 2.120218e+001 -6.198148e+001 1.884300e+001 -1.420315e-001 1.381350e+002
502500000 -1.136217e-001 -1.299155e+002 -6.271608e+001 9.738897e+000 -6.308024e+001 2.146524e+001 -1.347305e-001 1.381349e+002
503125000 -1.296143e-001 -1.301628e+002 -6.287091e+001 2.229108e+001 -6.193636e+001 2.037872e+001 -1.436128e-001 1.379818e+002
503750000 -1.280511e-001 -1.304087e+002 -6.265408e+001 1.317155e+001 -6.168169e+001 1.672519e+001 -1.491853e-001 1.378749e+002
504375000 -1.374334e-001 -1.307072e+002 -6.246421e+001 2.088190e+001 -6.095668e+001 8.923817e+000 -1.562891e-001 1.378472e+002
505000000 -1.392864e-001 -1.310168e+002 -6.308045e+001 -8.122730e+000 -6.117316e+001 1.682366e+001 -1.582870e-001 1.378649e+002
505625000 -1.381797e-001 -1.312578e+002 -6.161712e+001 5.354812e-001 -6.157066e+001 2.664531e+000 -1.485785e-001 1.377555e+002
506250000 -1.451064e-001 -1.315529e+002 -6.012375e+001 -4.915956e+000 -6.059512e+001 3.345073e-002 -1.536533e-001 1.376355e+002
506875000 -1.472208e-001 -1.317946e+002 -6.141909e+001 1.141749e+000 -6.401672e+001 -3.753737e+000 -1.507164e-001 1.376257e+002
507500000 -1.499564e-001 -1.321309e+002 -5.924391e+001 4.571192e-002 -6.013457e+001 2.469480e+000 -1.491852e-001 1.374702e+002
508125000 -1.501220e-001 -1.324098e+002 -6.183006e+001 1.398323e+001 -5.963940e+001 -2.122585e+001 -1.468443e-001 1.374638e+002
508750000 -1.562027e-001 -1.326525e+002 -5.887422e+001 1.080710e+000 -6.026106e+001 -4.336028e+000 -1.535817e-001 1.373560e+002
509375000 -1.538277e-001 -1.329858e+002 -6.011859e+001 -5.270108e+000 -5.970285e+001 -1.969214e+000 -1.412181e-001 1.373338e+002
510000000 -1.557669e-001 -1.333126e+002 -6.079723e+001 -2.144161e+000 -6.026780e+001 -3.582712e+000 -1.446878e-001 1.373150e+002
510625000 -1.642438e-001 -1.335602e+002 -6.036336e+001 -3.740379e+000 -6.040279e+001 -1.194675e+001 -1.346550e-001 1.373057e+002
511250000 -1.649458e-001 -1.338512e+002 -5.902399e+001 -8.586382e+000 -6.218116e+001 -1.876512e+000 -1.528322e-001 1.371986e+002
511875000 -1.628644e-001 -1.341664e+002 -6.256479e+001 -2.612822e+001 -6.269349e+001 -2.891277e+001 -1.387059e-001 1.371213e+002
512500000 -1.664941e-001 -1.344830e+002 -6.216860e+001 -2.208146e+001 -5.996088e+001 -7.723812e+000 -1.367679e-001 1.371093e+002
513125000 -1.669408e-001 -1.348009e+002 -6.079752e+001 -5.864145e+000 -6.280434e+001 -1.604112e+001 -1.602897e-001 1.371315e+002
513750000 -1.673377e-001 -1.350559e+002 -6.371943e+001 -5.526805e+000 -6.088283e+001 -3.017330e+001 -1.514172e-001 1.370543e+002
514375000 -1.730151e-001 -1.354030e+002 -5.995944e+001 -6.044900e+000 -6.031116e+001 -8.467690e+000 -1.486739e-001 1.369652e+002
515000000 -1.763605e-001 -1.357020e+002 -6.110493e+001 -1.102359e+001 -6.143058e+001 -1.776064e+001 -1.398928e-001 1.368632e+002
515625000 -1.791444e-001 -1.361067e+002 -6.126427e+001 -1.536761e+001 -5.941354e+001 -1.521309e+001 -1.482671e-001 1.368119e+002
516250000 -1.766236e-001 -1.363840e+002 -6.254805e+001 -3.183581e+001 -6.009900e+001 -2.380834e+001 -1.538936e-001 1.367507e+002
516875000 -1.973679e-001 -1.367272e+002 -6.143970e+001 -2.963576e+001 -5.938601e+001 -1.977784e+001 -1.511366e-001 1.366961e+002
517500000 -1.908002e-001 -1.370574e+002 -5.979028e+001 -2.130689e+001 -6.033512e+001 -2.008625e+001 -1.662354e-001 1.365781e+002
518125000 -1.891880e-001 -1.374179e+002 -5.970788e+001 -1.592255e+001 -5.914259e+001 -1.578690e+001 -1.600078e-001 1.364115e+002
518750000 -1.959350e-001 -1.377310e+002 -5.807027e+001 -2.903133e+001 -5.853048e+001 -2.363017e+001 -1.608473e-001 1.364190e+002
519375000 -2.046646e-001 -1.380240e+002 -5.916363e+001 -1.180871e+001 -5.909007e+001 -1.655393e+001 -1.501431e-001 1.362462e+002
520000000 -2.120277e-001 -1.383829e+002 -5.874467e+001 -1.994083e+001 -5.967366e+001 -2.877707e+001 -1.648909e-001 1.361467e+002
520625000 -2.139075e-001 -1.387003e+002 -5.910903e+001 -2.988472e+001 -5.978416e+001 -3.595101e+001 -1.611495e-001 1.360090e+002
521250000 -2.238058e-001 -1.390418e+002 -5.823996e+001 -2.203394e+001 -5.999733e+001 -2.206761e+001 -1.537708e-001 1.359786e+002
521875000 -2.273320e-001 -1.393906e+002 -6.188135e+001 -1.581120e+001 -6.099667e+001 -2.711714e+001 -1.462576e-001 1.359270e+002
522500000 -2.337827e-001 -1.396978e+002 -5.817190e+001 -2.204515e+001 -5.873794e+001 -2.693866e+001 -1.549520e-001 1.358059e+002
523125000 -2.454568e-001 -1.400631e+002 -5.754025e+001 -3.513937e+001 -6.027487e+001 -3.748837e+001 -1.500529e-001 1.357641e+002
523750000 -2.442472e-001 -1.403847e+002 -5.847953e+001 -2.555276e+001 -5.805462e+001 -3.325397e+001 -1.460256e-001 1.356904e+002
524375000 -2.628762e-001 -1.407282e+002 -5.709918e+001 -4.335041e+001 -5.757367e+001 -3.711613e+001 -1.365715e-001 1.356589e+002
525000000 -2.646845e-001 -1.410230e+002 -5.847190e+001 -3.234628e+001 -5.826402e+001 -4.200528e+001 -1.466943e-001 1.355701e+002
525625000 -2.818080e-001 -1.413104e+002 -5.686514e+001 -4.262176e+001 -5.690018e+001 -3.367357e+001 -1.516221e-001 1.355627e+002
526250000 -2.801120e-001 -1.416077e+002 -5.834847e+001 -3.250488e+001 -5.779440e+001 -4.588490e+001 -1.466609e-001 1.355666e+002
526875000 -2.860800e-001 -1.419661e+002 -5.837309e+001 -3.825163e+001 -5.626498e+001 -4.293355e+001 -1.351121e-001 1.355192e+002
527500000 -2.931549e-001 -1.422741e+002 -5.657814e+001 -3.879596e+001 -5.802131e+001 -3.867605e+001 -1.419630e-001 1.355045e+002
528125000 -3.155071e-001 -1.426451e+002 -5.741670e+001 -4.046420e+001 -5.931647e+001 -5.679077e+001 -1.430214e-001 1.355014e+002
528750000 -3.102067e-001 -1.429688e+002 -5.691100e+001 -5.035215e+001 -5.925794e+001 -5.063216e+001 -1.402921e-001 1.356274e+002
529375000 -3.272024e-001 -1.432417e+002 -5.738104e+001 -4.281308e+001 -5.911717e+001 -4.822601e+001 -1.437326e-001 1.355124e+002
530000000 -3.307275e-001 -1.436034e+002 -5.771880e+001 -5.513026e+001 -5.822497e+001 -4.096170e+001 -1.471156e-001 1.354986e+002
530625000 -3.431622e-001 -1.438943e+002 -5.745807e+001 -5.520104e+001 -5.894249e+001 -5.195483e+001 -1.496294e-001 1.354586e+002
531250000 -3.506439e-001 -1.442653e+002 -5.754821e+001 -3.759882e+001 -5.874946e+001 -5.564538e+001 -1.451013e-001 1.354008e+002
531875000 -3.659459e-001 -1.445210e+002 -5.671196e+001 -6.376224e+001 -5.844798e+001 -5.762085e+001 -1.460173e-001 1.353793e+002
532500000 -3.646635e-001 -1.448180e+002 -5.744938e+001 -6.030656e+001 -5.823655e+001 -6.237615e+001 -1.532189e-001 1.353251e+002
533125000 -3.705521e-001 -1.451936e+002 -5.723661e+001 -6.001549e+001 -5.746273e+001 -5.746210e+001 -1.563679e-001 1.353208e+002
533750000 -3.794611e-001 -1.455598e+002 -5.728562e+001 -5.830192e+001 -5.837650e+001 -5.550382e+001 -1.633350e-001 1.352612e+002
534375000 -3.845731e-001 -1.459202e+002 -5.753990e+001 -5.409047e+001 -5.751157e+001 -5.306818e+001 -1.479994e-001 1.352074e+002
535000000 -3.990264e-001 -1.461773e+002 -5.733722e+001 -6.291597e+001 -5.681553e+001 -5.684865e+001 -1.562572e-001 1.351761e+002
535625000 -4.142284e-001 -1.465738e+002 -5.732186e+001 -5.175224e+001 -5.833848e+001 -6.100069e+001 -1.458456e-001 1.351271e+002
536250000 -4.178801e-001 -1.469403e+002 -5.649657e+001 -6.327174e+001 -5.601745e+001 -6.825777e+001 -1.456604e-001 1.350578e+002
536875000 -4.311595e-001 -1.472980e+002 -5.751886e+001 -7.342432e+001 -5.667291e+001 -6.674635e+001 -1.481938e-001 1.350218e+002
537500000 -4.386164e-001 -1.476179e+002 -5.656653e+001 -6.233551e+001 -5.649784e+001 -6.464026e+001 -1.432105e-001 1.350466e+002
538125000 -4.388209e-001 -1.480007e+002 -5.624247e+001 -7.468649e+001 -5.715565e+001 -6.868071e+001 -1.512876e-001 1.349836e+002
538750000 -4.639085e-001 -1.483708e+002 -5.535080e+001 -6.923134e+001 -5.655106e+001 -6.451787e+001 -1.562365e-001 1.349715e+002
539375000 -4.741385e-001 -1.487137e+002 -5.467219e+001 -7.021196e+001 -5.651233e+001 -7.523843e+001 -1.466051e-001 1.349224e+002
540000000 -4.902025e-001 -1.490699e+002 -5.632567e+001 -6.512506e+001 -5.686781e+001 -6.914323e+001 -1.455015e-001 1.348608e+002
540625000 -5.023795e-001 -1.494673e+002 -5.539208e+001 -6.889796e+001 -5.613374e+001 -6.818802e+001 -1.514706e-001 1.348080e+002
541250000 -5.105839e-001 -1.497622e+002 -5.605311e+001 -7.703300e+001 -5.673711e+001 -7.402401e+001 -1.485158e-001 1.347773e+002
541875000 -5.262759e-001 -1.501301e+002 -5.636668e+001 -8.127450e+001 -5.549150e+001 -7.790997e+001 -1.545468e-001 1.347312e+002
542500000 -5.424665e-001 -1.505029e+002 -5.624350e+001 -7.975983e+001 -5.610293e+001 -7.675534e+001 -1.449233e-001 1.346620e+002
543125000 -5.438271e-001 -1.509001e+002 -5.593460e+001 -8.331612e+001 -5.601855e+001 -8.510648e+001 -1.431498e-001 1.345797e+002
543750000 -5.584238e-001 -1.512457e+002 -5.579901e+001 -7.686371e+001 -5.520685e+001 -7.330975e+001 -1.561721e-001 1.345488e+002
544375000 -5.745144e-001 -1.516416e+002 -5.512394e+001 -8.606774e+001 -5.509336e+001 -8.422495e+001 -1.567767e-001 1.344245e+002
545000000 -5.841204e-001 -1.519613e+002 -5.502583e+001 -8.133761e+001 -5.550850e+001 -7.808789e+001 -1.519398e-001 1.344247e+002
545625000 -6.033903e-001 -1.523665e+002 -5.586733e+001 -8.252152e+001 -5.659270e+001 -8.536612e+001 -1.559842e-001 1.343264e+002
546250000 -6.274586e-001 -1.527262e+002 -5.631064e+001 -8.412543e+001 -5.614336e+001 -8.511431e+001 -1.704262e-001 1.342249e+002
546875000 -6.419023e-001 -1.531747e+002 -5.557814e+001 -8.550663e+001 -5.600803e+001 -8.338638e+001 -1.702328e-001 1.341731e+002
547500000 -6.598364e-001 -1.535446e+002 -5.438658e+001 -9.013247e+001 -5.500801e+001 -8.946844e+001 -1.622825e-001 1.340170e+002
548125000 -6.845810e-001 -1.538452e+002 -5.521610e+001 -8.794353e+001 -5.458503e+001 -8.773714e+001 -1.634632e-001 1.339350e+002
548750000 -6.997582e-001 -1.542965e+002 -5.483960e+001 -9.610677e+001 -5.543839e+001 -8.361232e+001 -1.665452e-001 1.338373e+002
549375000 -7.306405e-001 -1.545866e+002 -5.473077e+001 -9.676292e+001 -5.424344e+001 -8.732830e+001 -1.601780e-001 1.336319e+002
550000000 -7.417899e-001 -1.549224e+002 -5.390416e+001 -9.486721e+001 -5.365408e+001 -9.194480e+001 -1.682198e-001 1.336326e+002
550625000 -7.650812e-001 -1.552515e+002 -5.483181e+001 -9.819807e+001 -5.417975e+001 -9.686607e+001 -1.696070e-001 1.335371e+002
551250000 -7.781668e-001 -1.555382e+002 -5.437891e+001 -9.601653e+001 -5.485598e+001 -9.551685e+001 -1.609043e-001 1.334236e+002
551875000 -8.038914e-001 -1.559250e+002 -5.331823e+001 -9.935196e+001 -5.323682e+001 -9.324802e+001 -1.638684e-001 1.333771e+002
552500000 -8.163927e-001 -1.561751e+002 -5.339821e+001 -9.664491e+001 -5.263227e+001 -9.959726e+001 -1.584126e-001 1.332798e+002
553125000 -8.335364e-001 -1.564979e+002 -5.299661e+001 -9.989079e+001 -5.385621e+001 -1.058403e+002 -1.601788e-001 1.332749e+002
553750000 -8.625317e-001 -1.568382e+002 -5.329878e+001 -1.007766e+002 -5.402355e+001 -1.019039e+002 -1.573274e-001 1.331950e+002
554375000 -8.789740e-001 -1.571022e+002 -5.252200e+001 -1.069259e+002 -5.335600e+001 -1.097527e+002 -1.535811e-001 1.331563e+002
555000000 -8.911873e-001 -1.574154e+002 -5.250213e+001 -1.098186e+002 -5.271605e+001 -1.037977e+002 -1.512359e-001 1.331289e+002
555625000 -9.210144e-001 -1.576639e+002 -5.294875e+001 -1.075199e+002 -5.258121e+001 -1.138489e+002 -1.450766e-001 1.331814e+002
556250000 -9.452963e-001 -1.579995e+002 -5.256382e+001 -1.104883e+002 -5.320687e+001 -1.104035e+002 -1.509302e-001 1.331235e+002
556875000 -9.490623e-001 -1.582808e+002 -5.187194e+001 -1.116529e+002 -5.244443e+001 -1.139835e+002 -1.634786e-001 1.330792e+002
557500000 -9.787611e-001 -1.585219e+002 -5.218142e+001 -1.180704e+002 -5.276478e+001 -1.207143e+002 -1.495428e-001 1.330917e+002
558125000 -9.925840e-001 -1.588118e+002 -5.253158e+001 -1.181331e+002 -5.238928e+001 -1.176720e+002 -1.627590e-001 1.330805e+002
558750000 -1.002221e+000 -1.590854e+002 -5.148281e+001 -1.219011e+002 -5.210121e+001 -1.219540e+002 -1.545426e-001 1.330735e+002
559375000 -1.020875e+000 -1.594246e+002 -5.190412e+001 -1.253561e+002 -5.210472e+001 -1.199073e+002 -1.546406e-001 1.330670e+002
560000000 -1.044135e+000 -1.596101e+002 -5.203417e+001 -1.278521e+002 -5.246753e+001 -1.276690e+002 -1.489321e-001 1.329734e+002
560625000 -1.049302e+000 -1.599074e+002 -5.261141e+001 -1.271423e+002 -5.182695e+001 -1.219635e+002 -1.475059e-001 1.329930e+002
561250000 -1.058484e+000 -1.602348e+002 -5.131489e+001 -1.323765e+002 -5.228306e+001 -1.295215e+002 -1.514901e-001 1.329292e+002
561875000 -1.058947e+000 -1.605140e+002 -5.218574e+001 -1.286988e+002 -5.195671e+001 -1.316468e+002 -1.586678e-001 1.328298e+002
562500000 -1.083625e+000 -1.608139e+002 -5.227989e+001 -1.274622e+002 -5.136155e+001 -1.302473e+002 -1.639669e-001 1.328192e+002
563125000 -1.081125e+000 -1.611042e+002 -5.177021e+001 -1.319313e+002 -5.221302e+001 -1.368705e+002 -1.609671e-001 1.327816e+002
563750000 -1.095695e+000 -1.614455e+002 -5.139464e+001 -1.359072e+002 -5.189683e+001 -1.336706e+002 -1.760248e-001 1.327042e+002
564375000 -1.107892e+000 -1.617429e+002 -5.122844e+001 -1.353775e+002 -5.170962e+001 -1.379510e+002 -1.658155e-001 1.326073e+002
565000000 -1.115855e+000 -1.621272e+002 -5.167616e+001 -1.420398e+002 -5.127111e+001 -1.400138e+002 -1.719738e-001 1.325426e+002
565625000 -1.127792e+000 -1.624879e+002 -5.106047e+001 -1.401874e+002 -5.118411e+001 -1.387825e+002 -1.726574e-001 1.324513e+002
566250000 -1.131018e+000 -1.628626e+002 -5.107256e+001 -1.378500e+002 -5.122686e+001 -1.447159e+002 -1.858066e-001 1.322958e+002
566875000 -1.153999e+000 -1.632449e+002 -5.168478e+001 -1.542014e+002 -5.142390e+001 -1.445980e+002 -1.724607e-001 1.321935e+002
567500000 -1.169831e+000 -1.636766e+002 -5.155477e+001 -1.501552e+002 -5.163452e+001 -1.456668e+002 -1.751528e-001 1.320461e+002
568125000 -1.184354e+000 -1.640038e+002 -5.141512e+001 -1.469214e+002 -5.147294e+001 -1.498313e+002 -1.745949e-001 1.319653e+002
568750000 -1.206949e+000 -1.643583e+002 -5.080207e+001 -1.506144e+002 -5.251619e+001 -1.507411e+002 -1.794769e-001 1.318007e+002
569375000 -1.222232e+000 -1.646935e+002 -5.116260e+001 -1.571609e+002 -5.140182e+001 -1.560355e+002 -1.802069e-001 1.317062e+002
570000000 -1.232552e+000 -1.650918e+002 -5.171856e+001 -1.552442e+002 -5.212133e+001 -1.569398e+002 -1.713734e-001 1.314953e+002
570625000 -1.251517e+000 -1.655030e+002 -5.100518e+001 -1.588660e+002 -5.099562e+001 -1.567744e+002 -1.792502e-001 1.314193e+002
571250000 -1.272381e+000 -1.658284e+002 -5.238678e+001 -1.565526e+002 -5.127414e+001 -1.526090e+002 -1.827471e-001 1.313251e+002
571875000 -1.295025e+000 -1.661737e+002 -5.138745e+001 -1.591582e+002 -5.142715e+001 -1.594473e+002 -1.718190e-001 1.311468e+002
572500000 -1.311652e+000 -1.665405e+002 -5.150935e+001 -1.594883e+002 -5.065149e+001 -1.637478e+002 -1.768111e-001 1.310795e+002
573125000 -1.330818e+000 -1.668762e+002 -5.147783e+001 -1.660007e+002 -5.142738e+001 -1.650921e+002 -1.630821e-001 1.310212e+002
573750000 -1.350845e+000 -1.671848e+002 -5.153099e+001 -1.672552e+002 -5.169276e+001 -1.674035e+002 -1.786300e-001 1.309465e+002
574375000 -1.370373e+000 -1.674938e+002 -5.143133e+001 -1.679189e+002 -5.157640e+001 -1.644811e+002 -1.668033e-001 1.309012e+002
575000000 -1.371882e+000 -1.678326e+002 -5.181179e+001 -1.677208e+002 -5.117296e+001 -1.671579e+002 -1.637641e-001 1.308182e+002
575625000 -1.382412e+000 -1.681344e+002 -5.140004e+001 -1.704560e+002 -5.212391e+001 -1.704773e+002 -1.604450e-001 1.307962e+002
576250000 -1.400249e+000 -1.684623e+002 -5.121240e+001 -1.734158e+002 -5.122434e+001 -1.676949e+002 -1.638153e-001 1.307342e+002
576875000 -1.410050e+000 -1.688946e+002 -5.134412e+001 -1.756227e+002 -5.163773e+001 -1.699915e+002 -1.607399e-001 1.307795e+002
577500000 -1.431617e+000 -1.691677e+002 -5.198223e+001 -1.772623e+002 -5.105588e+001 -1.725896e+002 -1.572966e-001 1.307076e+002
578125000 -1.439634e+000 -1.694832e+002 -5.150432e+001 -1.691898e+002 -5.139674e+001 -1.765676e+002 -1.452006e-001 1.307777e+002
578750000 -1.446712e+000 -1.698362e+002 -5.126844e+001 -1.743395e+002 -5.160831e+001 -1.745478e+002 -1.528650e-001 1.307272e+002
579375000 -1.460221e+000 -1.701234e+002 -5.083043e+001 1.788150e+002 -5.043019e+001 -1.763675e+002 -1.469002e-001 1.307365e+002
580000000 -1.462766e+000 -1.704407e+002 -5.033868e+001 -1.783606e+002 -5.096630e+001 -1.782373e+002 -1.513982e-001 1.308117e+002
580625000 -1.471982e+000 -1.707381e+002 -5.055315e+001 1.768581e+002 -5.076111e+001 -1.778716e+002 -1.430733e-001 1.308138e+002
581250000 -1.485741e+000 -1.710573e+002 -4.929122e+001 1.783163e+002 -5.069753e+001 1.788480e+002 -1.531045e-001 1.308071e+002
581875000 -1.489495e+000 -1.714632e+002 -5.140487e+001 1.761639e+002 -5.050443e+001 1.777512e+002 -1.526439e-001 1.307932e+002
582500000 -1.499135e+000 -1.717563e+002 -5.036221e+001 1.779910e+002 -5.028437e+001 1.755457e+002 -1.465596e-001 1.307821e+002
583125000 -1.495090e+000 -1.721923e+002 -5.028350e+001 1.738419e+002 -5.087359e+001 1.762514e+002 -1.607435e-001 1.307020e+002
583750000 -1.504560e+000 -1.726061e+002 -5.029472e+001 1.694180e+002 -5.001996e+001 1.682303e+002 -1.753959e-001 1.306245e+002
584375000 -1.520776e+000 -1.730954e+002 -5.036609e+001 1.701968e+002 -5.022052e+001 1.708590e+002 -1.724339e-001 1.305910e+002
585000000 -1.538137e+000 -1.734805e+002 -5.061811e+001 1.713787e+002 -5.066662e+001 1.663781e+002 -1.818531e-001 1.304848e+002
585625000 -1.558744e+000 -1.739137e+002 -5.067800e+001 1.671860e+002 -5.086683e+001 1.681204e+002 -1.707583e-001 1.303890e+002
586250000 -1.564449e+000 -1.743355e+002 -5.051489e+001 1.617618e+002 -5.047199e+001 1.653206e+002 -1.769370e-001 1.303406e+002
586875000 -1.578900e+000 -1.747637e+002 -5.071886e+001 1.598836e+002 -5.067617e+001 1.606957e+002 -1.842176e-001 1.302061e+002
587500000 -1.595355e+000 -1.751325e+002 -5.056878e+001 1.636837e+002 -5.032543e+001 1.633914e+002 -1.771292e-001 1.300904e+002
588125000 -1.599185e+000 -1.755551e+002 -5.029613e+001 1.582726e+002 -5.066674e+001 1.613893e+002 -1.805298e-001 1.299407e+002
588750000 -1.606357e+000 -1.760057e+002 -5.097977e+001 1.586496e+002 -5.061809e+001 1.603441e+002 -1.790400e-001 1.298647e+002
589375000 -1.612181e+000 -1.764886e+002 -5.067062e+001 1.572577e+002 -5.077474e+001 1.590042e+002 -1.692433e-001 1.296920e+002
590000000 -1.619523e+000 -1.770176e+002 -5.058513e+001 1.555933e+002 -5.073276e+001 1.560457e+002 -1.811612e-001 1.296595e+002
590625000 -1.630475e+000 -1.775321e+002 -5.002705e+001 1.598164e+002 -5.054836e+001 1.552837e+002 -1.740610e-001 1.294704e+002
591250000 -1.636979e+000 -1.781116e+002 -5.068963e+001 1.519223e+002 -5.015329e+001 1.575882e+002 -1.695698e-001 1.294512e+002
591875000 -1.664516e+000 -1.785874e+002 -5.029136e+001 1.555302e+002 -5.055333e+001 1.546349e+002 -1.623090e-001 1.294658e+002
592500000 -1.689814e+000 -1.792021e+002 -5.038074e+001 1.534509e+002 -5.049863e+001 1.537102e+002 -1.662361e-001 1.294692e+002
593125000 -1.721116e+000 -1.796535e+002 -4.999157e+001 1.566039e+002 -4.988595e+001 1.560259e+002 -1.617157e-001 1.295243e+002
593750000 -1.752827e+000 1.798043e+002 -4.986753e+001 1.551803e+002 -4.986422e+001 1.497735e+002 -1.506286e-001 1.295098e+002
594375000 -1.774955e+000 1.793544e+002 -4.960799e+001 1.465746e+002 -4.955021e+001 1.507061e+002 -1.513750e-001 1.295169e+002
595000000 -1.806173e+000 1.789340e+002 -4.946622e+001 1.526212e+002 -4.922818e+001 1.483981e+002 -1.566909e-001 1.295625e+002
