!Agilent Technologies,E8364B,US42250235,A.06.04.32
!Agilent E8364B: A.06.04.32
!Date: Friday, January 15, 2021 11:17:32
!Correction: S11(Full 2 Port(1,2)) S21(Full 2 Port(1,2)) S12(Full 2 Port(1,2)) S22(Full 2 Port(1,2)) 
!S2P File: Measurements: S11, S21, S12, S22:
# Hz S  dB   R 50
500000000 -7.235092e-002 -1.289439e+002 -6.733294e+001 8.271617e+001 -6.765077e+001 1.100677e+002 -1.382472e-001 1.379547e+002
500625000 -6.767728e-002 -1.291960e+002 -6.579568e+001 1.114939e+002 -6.497213e+001 1.260010e+002 -1.449164e-001 1.379962e+002
501250000 -7.593571e-002 -1.294745e+002 -6.523826e+001 1.262653e+002 -6.856430e+001 9.440571e+001 -1.435016e-001 1.379871e+002
501875000 -7.505136e-002 -1.298278e+002 -6.770963e+001 1.241172e+002 -6.189915e+001 1.045960e+002 -1.329331e-001 1.379776e+002
502500000 -7.235482e-002 -1.300928e+002 -6.459424e+001 1.145238e+002 -6.570889e+001 1.261116e+002 -1.314670e-001 1.379783e+002
503125000 -7.861252e-002 -1.303987e+002 -6.549408e+001 1.123455e+002 -6.415806e+001 1.069642e+002 -1.480636e-001 1.378528e+002
503750000 -8.322224e-002 -1.306729e+002 -6.340594e+001 1.182151e+002 -6.308802e+001 1.006780e+002 -1.488127e-001 1.377924e+002
504375000 -9.645365e-002 -1.309264e+002 -6.541705e+001 8.624253e+001 -6.484582e+001 1.299685e+002 -1.600279e-001 1.377594e+002
505000000 -1.048146e-001 -1.312720e+002 -6.979013e+001 1.112212e+002 -6.403250e+001 1.063681e+002 -1.589640e-001 1.377861e+002
505625000 -1.000348e-001 -1.315458e+002 -6.624679e+001 1.033829e+002 -6.445855e+001 1.301699e+002 -1.566508e-001 1.377110e+002
506250000 -1.058982e-001 -1.319044e+002 -6.500227e+001 1.184419e+002 -6.427504e+001 1.361795e+002 -1.605458e-001 1.375668e+002
506875000 -1.033876e-001 -1.321471e+002 -6.289519e+001 1.137775e+002 -6.370660e+001 1.231661e+002 -1.582465e-001 1.374579e+002
507500000 -1.090828e-001 -1.324923e+002 -6.470346e+001 1.121608e+002 -6.383516e+001 1.376639e+002 -1.624578e-001 1.373886e+002
508125000 -1.129045e-001 -1.327550e+002 -6.167348e+001 1.050820e+002 -6.365160e+001 1.189066e+002 -1.541216e-001 1.372882e+002
508750000 -1.214100e-001 -1.330142e+002 -6.111742e+001 1.370921e+002 -6.181963e+001 1.084514e+002 -1.554081e-001 1.371828e+002
509375000 -1.242369e-001 -1.333954e+002 -6.226583e+001 1.036521e+002 -6.828906e+001 1.125354e+002 -1.523127e-001 1.371225e+002
510000000 -1.245202e-001 -1.337121e+002 -6.053201e+001 1.068352e+002 -6.206227e+001 1.188530e+002 -1.568672e-001 1.370355e+002
510625000 -1.306379e-001 -1.339704e+002 -6.284451e+001 1.137280e+002 -6.291800e+001 1.163843e+002 -1.452364e-001 1.369958e+002
511250000 -1.337446e-001 -1.342200e+002 -6.062685e+001 1.091919e+002 -6.137155e+001 1.434021e+002 -1.493864e-001 1.368671e+002
511875000 -1.355258e-001 -1.345865e+002 -6.129055e+001 1.264383e+002 -6.205922e+001 9.301147e+001 -1.464199e-001 1.367789e+002
512500000 -1.309555e-001 -1.348326e+002 -6.230994e+001 1.173989e+002 -6.431750e+001 1.077031e+002 -1.501127e-001 1.367138e+002
513125000 -1.467320e-001 -1.352004e+002 -6.447337e+001 1.182644e+002 -6.167828e+001 1.107137e+002 -1.556304e-001 1.367963e+002
513750000 -1.547915e-001 -1.354657e+002 -6.124898e+001 1.228185e+002 -6.370250e+001 1.008428e+002 -1.568281e-001 1.367392e+002
514375000 -1.588968e-001 -1.358181e+002 -6.119931e+001 1.076432e+002 -6.119206e+001 9.457704e+001 -1.413922e-001 1.366296e+002
515000000 -1.597163e-001 -1.360806e+002 -6.022364e+001 9.845757e+001 -6.133403e+001 1.164538e+002 -1.393056e-001 1.366058e+002
515625000 -1.626308e-001 -1.364349e+002 -6.332885e+001 8.950204e+001 -6.378235e+001 8.426872e+001 -1.392519e-001 1.364951e+002
516250000 -1.755549e-001 -1.367086e+002 -6.183973e+001 9.754724e+001 -6.542071e+001 1.177444e+002 -1.559611e-001 1.365247e+002
516875000 -1.907413e-001 -1.370298e+002 -6.126752e+001 1.062441e+002 -6.002676e+001 1.250005e+002 -1.470095e-001 1.365358e+002
517500000 -1.895047e-001 -1.373689e+002 -5.933177e+001 1.081242e+002 -6.101141e+001 1.011141e+002 -1.582084e-001 1.364228e+002
518125000 -1.956536e-001 -1.377367e+002 -5.922672e+001 1.138867e+002 -6.022440e+001 9.534444e+001 -1.622006e-001 1.363431e+002
518750000 -1.989121e-001 -1.380517e+002 -5.937914e+001 1.158772e+002 -6.005752e+001 1.016692e+002 -1.537964e-001 1.363403e+002
519375000 -2.142656e-001 -1.382975e+002 -5.940298e+001 1.128283e+002 -5.974117e+001 1.124506e+002 -1.506513e-001 1.361887e+002
520000000 -2.195791e-001 -1.386979e+002 -5.883589e+001 1.107113e+002 -5.979425e+001 1.174637e+002 -1.564527e-001 1.361525e+002
520625000 -2.219097e-001 -1.389711e+002 -6.079416e+001 1.140702e+002 -5.930399e+001 9.684606e+001 -1.510340e-001 1.360462e+002
521250000 -2.328996e-001 -1.393487e+002 -6.245183e+001 1.050325e+002 -5.993435e+001 1.030364e+002 -1.578851e-001 1.359960e+002
521875000 -2.391710e-001 -1.397000e+002 -6.102393e+001 1.103119e+002 -6.013695e+001 1.089298e+002 -1.508589e-001 1.359630e+002
522500000 -2.452020e-001 -1.400187e+002 -6.029554e+001 9.007174e+001 -5.805141e+001 1.004373e+002 -1.561227e-001 1.357585e+002
523125000 -2.588326e-001 -1.403861e+002 -5.958382e+001 1.046725e+002 -5.883435e+001 1.020094e+002 -1.592627e-001 1.357158e+002
523750000 -2.615279e-001 -1.407404e+002 -5.875901e+001 9.770380e+001 -5.866582e+001 1.045870e+002 -1.550834e-001 1.357014e+002
524375000 -2.766008e-001 -1.410563e+002 -5.951860e+001 9.825758e+001 -5.877724e+001 9.291089e+001 -1.499951e-001 1.355984e+002
525000000 -2.847925e-001 -1.414082e+002 -5.812821e+001 9.673723e+001 -5.886046e+001 1.030926e+002 -1.570452e-001 1.355460e+002
525625000 -2.949756e-001 -1.416900e+002 -6.002957e+001 9.640784e+001 -5.771007e+001 9.805140e+001 -1.649984e-001 1.354209e+002
526250000 -2.874166e-001 -1.420430e+002 -6.117466e+001 9.608990e+001 -5.922202e+001 9.551174e+001 -1.541227e-001 1.353995e+002
526875000 -3.049749e-001 -1.424271e+002 -5.822289e+001 9.242955e+001 -5.871785e+001 8.823874e+001 -1.523193e-001 1.352735e+002
527500000 -3.173343e-001 -1.427492e+002 -5.912474e+001 8.818484e+001 -5.818932e+001 9.745850e+001 -1.565656e-001 1.352282e+002
528125000 -3.361676e-001 -1.431284e+002 -5.794157e+001 9.461921e+001 -5.891265e+001 9.442964e+001 -1.526026e-001 1.352980e+002
528750000 -3.324631e-001 -1.434768e+002 -5.854427e+001 9.471888e+001 -5.827248e+001 1.013418e+002 -1.499516e-001 1.353070e+002
529375000 -3.487424e-001 -1.438099e+002 -5.871218e+001 9.475635e+001 -5.727787e+001 9.297227e+001 -1.552128e-001 1.352364e+002
530000000 -3.634293e-001 -1.441877e+002 -5.870091e+001 8.796333e+001 -5.710421e+001 7.458701e+001 -1.503345e-001 1.352218e+002
530625000 -3.730916e-001 -1.445337e+002 -5.664378e+001 8.902045e+001 -5.669764e+001 9.515194e+001 -1.533239e-001 1.351495e+002
531250000 -3.830955e-001 -1.449209e+002 -5.686374e+001 9.259042e+001 -5.705254e+001 9.536488e+001 -1.396776e-001 1.351541e+002
531875000 -4.037296e-001 -1.452257e+002 -5.845854e+001 9.091959e+001 -5.954609e+001 9.253481e+001 -1.414876e-001 1.350522e+002
532500000 -4.176865e-001 -1.455358e+002 -5.851754e+001 8.668608e+001 -5.810229e+001 8.830254e+001 -1.577266e-001 1.351496e+002
533125000 -4.251566e-001 -1.458900e+002 -5.633910e+001 8.682486e+001 -5.774491e+001 8.923902e+001 -1.535416e-001 1.351539e+002
533750000 -4.369770e-001 -1.462875e+002 -5.715042e+001 8.095123e+001 -5.645111e+001 9.089840e+001 -1.602739e-001 1.351437e+002
534375000 -4.510541e-001 -1.466273e+002 -5.767102e+001 9.395544e+001 -5.675800e+001 8.189157e+001 -1.460123e-001 1.350764e+002
535000000 -4.634482e-001 -1.469516e+002 -5.647616e+001 8.554464e+001 -5.681332e+001 8.843414e+001 -1.584125e-001 1.350540e+002
535625000 -4.815636e-001 -1.472907e+002 -5.587344e+001 8.103101e+001 -5.740633e+001 8.971309e+001 -1.465830e-001 1.350623e+002
536250000 -4.948437e-001 -1.476726e+002 -5.719777e+001 8.581079e+001 -5.518603e+001 8.668015e+001 -1.414187e-001 1.349783e+002
536875000 -5.146384e-001 -1.480184e+002 -5.628556e+001 8.626335e+001 -5.618045e+001 8.249555e+001 -1.457342e-001 1.349568e+002
537500000 -5.267559e-001 -1.483283e+002 -5.629031e+001 8.832201e+001 -5.569078e+001 7.774182e+001 -1.505807e-001 1.349850e+002
538125000 -5.470590e-001 -1.487231e+002 -5.512449e+001 8.012275e+001 -5.540490e+001 8.039291e+001 -1.594704e-001 1.349440e+002
538750000 -5.714974e-001 -1.490536e+002 -5.653598e+001 7.980819e+001 -5.514797e+001 8.365376e+001 -1.613091e-001 1.349172e+002
539375000 -5.935612e-001 -1.493812e+002 -5.455618e+001 8.054874e+001 -5.523656e+001 7.505919e+001 -1.557396e-001 1.348200e+002
540000000 -6.072265e-001 -1.497427e+002 -5.551499e+001 7.266089e+001 -5.489555e+001 7.163000e+001 -1.673407e-001 1.346953e+002
540625000 -6.307881e-001 -1.501164e+002 -5.569486e+001 8.079392e+001 -5.475323e+001 8.205804e+001 -1.659835e-001 1.346670e+002
541250000 -6.445454e-001 -1.504044e+002 -5.405824e+001 7.377467e+001 -5.483772e+001 7.525479e+001 -1.665061e-001 1.345622e+002
541875000 -6.641319e-001 -1.507292e+002 -5.494806e+001 7.140389e+001 -5.468821e+001 7.446669e+001 -1.713295e-001 1.344138e+002
542500000 -6.859874e-001 -1.510697e+002 -5.430804e+001 7.856626e+001 -5.381241e+001 7.030954e+001 -1.701616e-001 1.343291e+002
543125000 -6.964022e-001 -1.514370e+002 -5.458631e+001 7.394792e+001 -5.483659e+001 7.107439e+001 -1.640038e-001 1.341799e+002
543750000 -7.231991e-001 -1.518070e+002 -5.391769e+001 6.524362e+001 -5.434996e+001 7.123170e+001 -1.772773e-001 1.341107e+002
544375000 -7.422769e-001 -1.521291e+002 -5.363881e+001 6.307092e+001 -5.411872e+001 6.918492e+001 -1.695525e-001 1.340057e+002
545000000 -7.600719e-001 -1.524777e+002 -5.496380e+001 7.221655e+001 -5.419484e+001 6.861469e+001 -1.656089e-001 1.338775e+002
545625000 -7.814837e-001 -1.528131e+002 -5.422152e+001 6.670024e+001 -5.304052e+001 6.626237e+001 -1.700030e-001 1.337688e+002
546250000 -8.105947e-001 -1.531898e+002 -5.462583e+001 6.173471e+001 -5.439374e+001 6.453523e+001 -1.725892e-001 1.335917e+002
546875000 -8.268371e-001 -1.536012e+002 -5.443514e+001 6.148594e+001 -5.404051e+001 6.267321e+001 -1.740504e-001 1.335585e+002
547500000 -8.589029e-001 -1.539090e+002 -5.317252e+001 5.947992e+001 -5.333330e+001 5.946574e+001 -1.749312e-001 1.335055e+002
548125000 -8.846046e-001 -1.542308e+002 -5.355544e+001 6.008860e+001 -5.346880e+001 6.294324e+001 -1.573132e-001 1.333645e+002
548750000 -9.054446e-001 -1.546047e+002 -5.350070e+001 6.512895e+001 -5.321778e+001 6.207846e+001 -1.585923e-001 1.332719e+002
549375000 -9.319506e-001 -1.549867e+002 -5.273622e+001 5.659565e+001 -5.256929e+001 5.997813e+001 -1.600524e-001 1.331323e+002
550000000 -9.580302e-001 -1.552974e+002 -5.321463e+001 5.809083e+001 -5.297987e+001 5.753379e+001 -1.609591e-001 1.332053e+002
550625000 -9.883897e-001 -1.556090e+002 -5.315714e+001 5.959951e+001 -5.255002e+001 5.474243e+001 -1.598958e-001 1.331327e+002
551250000 -1.007723e+000 -1.559299e+002 -5.301137e+001 5.298408e+001 -5.228529e+001 5.514146e+001 -1.602148e-001 1.330510e+002
551875000 -1.038119e+000 -1.562443e+002 -5.266239e+001 5.611510e+001 -5.208885e+001 5.769632e+001 -1.472332e-001 1.330310e+002
552500000 -1.063484e+000 -1.565576e+002 -5.267162e+001 5.379486e+001 -5.188329e+001 4.935532e+001 -1.491174e-001 1.330107e+002
553125000 -1.082638e+000 -1.568310e+002 -5.219563e+001 5.128235e+001 -5.137360e+001 5.264627e+001 -1.511983e-001 1.330897e+002
553750000 -1.121700e+000 -1.571339e+002 -5.175342e+001 5.231159e+001 -5.225142e+001 5.243879e+001 -1.541961e-001 1.329944e+002
554375000 -1.144951e+000 -1.574146e+002 -5.261029e+001 4.993931e+001 -5.164185e+001 4.863856e+001 -1.479915e-001 1.330022e+002
555000000 -1.173646e+000 -1.577065e+002 -5.096802e+001 5.151849e+001 -5.170959e+001 4.866292e+001 -1.573119e-001 1.330033e+002
555625000 -1.204495e+000 -1.579147e+002 -5.262647e+001 5.110100e+001 -5.174488e+001 4.971565e+001 -1.445594e-001 1.330638e+002
556250000 -1.233090e+000 -1.582342e+002 -5.073216e+001 4.831270e+001 -5.078875e+001 4.801019e+001 -1.568828e-001 1.329756e+002
556875000 -1.254117e+000 -1.584907e+002 -5.152299e+001 4.688078e+001 -5.136004e+001 4.567587e+001 -1.678739e-001 1.329796e+002
557500000 -1.289649e+000 -1.586997e+002 -5.065339e+001 4.200469e+001 -5.092583e+001 4.320242e+001 -1.616838e-001 1.329747e+002
558125000 -1.317161e+000 -1.589234e+002 -5.066785e+001 4.310098e+001 -5.074506e+001 3.584112e+001 -1.664575e-001 1.328798e+002
558750000 -1.331038e+000 -1.591333e+002 -5.074067e+001 4.374577e+001 -5.074786e+001 3.831124e+001 -1.666562e-001 1.328064e+002
559375000 -1.359407e+000 -1.594069e+002 -5.122538e+001 4.364153e+001 -4.977058e+001 3.492076e+001 -1.664772e-001 1.327861e+002
560000000 -1.381993e+000 -1.595731e+002 -5.083207e+001 3.884047e+001 -5.001409e+001 3.268824e+001 -1.620841e-001 1.326457e+002
560625000 -1.405113e+000 -1.598220e+002 -5.101177e+001 3.535743e+001 -4.999907e+001 3.402462e+001 -1.615178e-001 1.326682e+002
561250000 -1.416101e+000 -1.600939e+002 -5.019851e+001 3.623228e+001 -5.067892e+001 3.167180e+001 -1.698267e-001 1.325278e+002
561875000 -1.439565e+000 -1.602973e+002 -5.086032e+001 3.487054e+001 -5.056392e+001 2.974664e+001 -1.752394e-001 1.324817e+002
562500000 -1.461195e+000 -1.605510e+002 -5.048809e+001 2.985548e+001 -5.043304e+001 3.167369e+001 -1.758049e-001 1.324533e+002
563125000 -1.468223e+000 -1.607175e+002 -5.002813e+001 2.698853e+001 -4.987790e+001 2.790132e+001 -1.586486e-001 1.323014e+002
563750000 -1.503819e+000 -1.609958e+002 -4.994342e+001 3.246667e+001 -4.997308e+001 2.553168e+001 -1.725249e-001 1.322198e+002
564375000 -1.519798e+000 -1.612231e+002 -4.981299e+001 2.754064e+001 -4.950459e+001 2.848532e+001 -1.632248e-001 1.321882e+002
565000000 -1.542713e+000 -1.614888e+002 -4.956466e+001 2.855688e+001 -4.977203e+001 2.511750e+001 -1.662048e-001 1.321325e+002
565625000 -1.562127e+000 -1.617132e+002 -5.020523e+001 2.568204e+001 -4.957126e+001 2.289414e+001 -1.696250e-001 1.321038e+002
566250000 -1.577177e+000 -1.620032e+002 -4.945915e+001 2.541049e+001 -4.996358e+001 2.024632e+001 -1.692938e-001 1.320073e+002
566875000 -1.610152e+000 -1.621937e+002 -4.932881e+001 2.151730e+001 -4.898680e+001 2.171619e+001 -1.701146e-001 1.319354e+002
567500000 -1.631452e+000 -1.624785e+002 -4.873816e+001 2.454130e+001 -4.934256e+001 2.193335e+001 -1.583150e-001 1.318212e+002
568125000 -1.653996e+000 -1.626505e+002 -4.932577e+001 2.426645e+001 -4.913843e+001 1.825458e+001 -1.662939e-001 1.317785e+002
568750000 -1.671546e+000 -1.628400e+002 -4.988174e+001 1.808097e+001 -4.899964e+001 1.775294e+001 -1.659746e-001 1.316754e+002
569375000 -1.687913e+000 -1.631436e+002 -4.914468e+001 1.513710e+001 -4.879742e+001 1.399446e+001 -1.744183e-001 1.317171e+002
570000000 -1.705090e+000 -1.633511e+002 -4.885195e+001 1.407198e+001 -4.855807e+001 1.104059e+001 -1.695057e-001 1.315534e+002
570625000 -1.714726e+000 -1.636288e+002 -4.914850e+001 1.100408e+001 -4.890712e+001 1.257680e+001 -1.671493e-001 1.315460e+002
571250000 -1.722854e+000 -1.638479e+002 -4.851177e+001 9.777024e+000 -4.876224e+001 1.100770e+001 -1.675194e-001 1.314788e+002
571875000 -1.746377e+000 -1.640211e+002 -4.889034e+001 9.075277e+000 -4.877851e+001 5.767961e+000 -1.685885e-001 1.313572e+002
572500000 -1.759802e+000 -1.642984e+002 -4.910228e+001 7.343916e+000 -4.861105e+001 7.691196e+000 -1.740030e-001 1.312600e+002
573125000 -1.768274e+000 -1.644930e+002 -4.862781e+001 8.570004e+000 -4.846803e+001 6.490919e+000 -1.613550e-001 1.311451e+002
573750000 -1.773436e+000 -1.647293e+002 -4.831813e+001 6.472488e+000 -4.848962e+001 1.744555e+000 -1.840975e-001 1.310944e+002
574375000 -1.791747e+000 -1.649445e+002 -4.849951e+001 9.070953e-001 -4.835568e+001 -6.825547e-002 -1.801078e-001 1.310323e+002
575000000 -1.796599e+000 -1.652127e+002 -4.867592e+001 2.052651e+000 -4.874707e+001 -2.107612e+000 -1.799173e-001 1.308962e+002
575625000 -1.798831e+000 -1.653997e+002 -4.837894e+001 -6.460557e-001 -4.769487e+001 -2.721743e+000 -1.714105e-001 1.308269e+002
576250000 -1.803669e+000 -1.656244e+002 -4.832116e+001 -1.072351e+000 -4.838197e+001 -1.926631e+000 -1.771516e-001 1.307146e+002
576875000 -1.806575e+000 -1.658850e+002 -4.864756e+001 2.359938e+000 -4.821624e+001 -2.213392e+000 -1.713755e-001 1.306322e+002
577500000 -1.821961e+000 -1.661262e+002 -4.847467e+001 -3.557151e+000 -4.791664e+001 -4.972677e+000 -1.701373e-001 1.305371e+002
578125000 -1.823321e+000 -1.663179e+002 -4.843732e+001 -2.860267e+000 -4.774580e+001 -5.798727e+000 -1.650154e-001 1.305927e+002
578750000 -1.815045e+000 -1.665449e+002 -4.875298e+001 -7.708412e+000 -4.767176e+001 -8.329240e+000 -1.548463e-001 1.304099e+002
579375000 -1.811695e+000 -1.667256e+002 -4.849953e+001 -6.204327e+000 -4.800895e+001 -1.041348e+001 -1.584158e-001 1.304022e+002
580000000 -1.797252e+000 -1.669585e+002 -4.831933e+001 -1.018957e+001 -4.788228e+001 -8.874724e+000 -1.570393e-001 1.303814e+002
580625000 -1.800162e+000 -1.672246e+002 -4.823807e+001 -1.292523e+001 -4.794244e+001 -9.055921e+000 -1.539485e-001 1.303330e+002
581250000 -1.790032e+000 -1.674465e+002 -4.876612e+001 -8.688480e+000 -4.783166e+001 -1.406980e+001 -1.518784e-001 1.303574e+002
581875000 -1.788233e+000 -1.678150e+002 -4.816814e+001 -1.181885e+001 -4.794339e+001 -9.967629e+000 -1.568365e-001 1.303978e+002
582500000 -1.785501e+000 -1.681050e+002 -4.874371e+001 -1.254886e+001 -4.791479e+001 -1.122683e+001 -1.525469e-001 1.303906e+002
583125000 -1.773354e+000 -1.684743e+002 -4.791301e+001 -1.501850e+001 -4.766903e+001 -1.487623e+001 -1.623898e-001 1.302949e+002
583750000 -1.783833e+000 -1.687887e+002 -4.831312e+001 -1.415962e+001 -4.736741e+001 -1.666402e+001 -1.657304e-001 1.302990e+002
584375000 -1.779551e+000 -1.690482e+002 -4.863605e+001 -1.680737e+001 -4.771688e+001 -1.865026e+001 -1.553911e-001 1.303508e+002
585000000 -1.771569e+000 -1.693877e+002 -4.796966e+001 -1.587934e+001 -4.725802e+001 -1.649056e+001 -1.627832e-001 1.302370e+002
585625000 -1.774725e+000 -1.696982e+002 -4.803241e+001 -1.937996e+001 -4.748130e+001 -1.862380e+001 -1.638672e-001 1.302176e+002
586250000 -1.768349e+000 -1.700894e+002 -4.757531e+001 -1.848856e+001 -4.730642e+001 -2.005964e+001 -1.617038e-001 1.302688e+002
586875000 -1.760052e+000 -1.704520e+002 -4.782082e+001 -1.961185e+001 -4.771772e+001 -2.222628e+001 -1.698098e-001 1.301686e+002
587500000 -1.761289e+000 -1.708291e+002 -4.801520e+001 -2.062027e+001 -4.720347e+001 -2.329977e+001 -1.722137e-001 1.300732e+002
588125000 -1.758672e+000 -1.712274e+002 -4.799080e+001 -2.459171e+001 -4.709745e+001 -2.395029e+001 -1.740363e-001 1.299838e+002
588750000 -1.761029e+000 -1.716202e+002 -4.793574e+001 -2.129683e+001 -4.740061e+001 -2.424649e+001 -1.747648e-001 1.299366e+002
589375000 -1.757523e+000 -1.720500e+002 -4.725653e+001 -2.295893e+001 -4.715019e+001 -2.407894e+001 -1.722618e-001 1.297529e+002
590000000 -1.761667e+000 -1.724496e+002 -4.738593e+001 -2.385148e+001 -4.724752e+001 -2.539344e+001 -1.780746e-001 1.297585e+002
590625000 -1.772097e+000 -1.728681e+002 -4.684463e+001 -2.655416e+001 -4.692847e+001 -2.632215e+001 -1.803503e-001 1.295806e+002
591250000 -1.782975e+000 -1.732598e+002 -4.700724e+001 -2.890832e+001 -4.695540e+001 -2.797845e+001 -1.855340e-001 1.294927e+002
591875000 -1.797023e+000 -1.736292e+002 -4.741626e+001 -2.708804e+001 -4.682101e+001 -3.056840e+001 -1.740483e-001 1.294375e+002
592500000 -1.798612e+000 -1.739870e+002 -4.709823e+001 -3.079049e+001 -4.650325e+001 -3.093945e+001 -1.725227e-001 1.294048e+002
593125000 -1.808430e+000 -1.743105e+002 -4.691070e+001 -2.860336e+001 -4.672932e+001 -3.192945e+001 -1.787241e-001 1.293287e+002
593750000 -1.818818e+000 -1.746686e+002 -4.693059e+001 -3.493311e+001 -4.658752e+001 -3.462845e+001 -1.604735e-001 1.293134e+002
594375000 -1.813123e+000 -1.750097e+002 -4.655908e+001 -3.440878e+001 -4.598272e+001 -3.581509e+001 -1.647515e-001 1.292829e+002
595000000 -1.815896e+000 -1.754381e+002 -4.685715e+001 -3.773201e+001 -4.653929e+001 -3.715528e+001 -1.652057e-001 1.292727e+002
595625000 -1.814328e+000 -1.758398e+002 -4.688514e+001 -3.461583e+001 -4.592969e+001 -3.949456e+001 -1.657586e-001 1.292268e+002
