!Agilent Technologies,E8364B,US42250235,A.06.04.32
!Agilent E8364B: A.06.04.32
!Date: Friday, January 15, 2021 12:37:26
!Correction: S11(Full 2 Port(1,2)) S21(Full 2 Port(1,2)) S12(Full 2 Port(1,2)) S22(Full 2 Port(1,2)) 
!S2P File: Measurements: S11, S21, S12, S22:
# Hz S  dB   R 50
500000000 -1.087919e-001 -1.289264e+002 -6.134859e+001 1.719338e+001 -6.162987e+001 2.686578e+001 -1.374259e-001 1.384964e+002
500625000 -1.079345e-001 -1.292353e+002 -6.158669e+001 2.208007e+001 -6.261790e+001 2.514946e+001 -1.436544e-001 1.385223e+002
501250000 -1.166777e-001 -1.294389e+002 -6.149180e+001 2.783231e+001 -5.999006e+001 2.112606e+001 -1.475527e-001 1.384402e+002
501875000 -1.151738e-001 -1.297608e+002 -6.205494e+001 4.283677e+001 -6.480641e+001 3.331641e+001 -1.339927e-001 1.383982e+002
502500000 -1.186611e-001 -1.300208e+002 -6.497706e+001 3.175389e+001 -6.092561e+001 1.559947e+001 -1.325617e-001 1.384094e+002
503125000 -1.277156e-001 -1.302815e+002 -6.197776e+001 1.428607e+001 -6.183120e+001 1.406461e+001 -1.374750e-001 1.382899e+002
503750000 -1.247099e-001 -1.305560e+002 -6.055758e+001 -4.336174e+000 -6.298674e+001 2.357319e+001 -1.460058e-001 1.382057e+002
504375000 -1.397425e-001 -1.308420e+002 -6.079920e+001 1.468114e+001 -6.425480e+001 1.352636e+001 -1.506625e-001 1.381430e+002
505000000 -1.361231e-001 -1.311788e+002 -6.646420e+001 2.748142e+001 -6.049186e+001 9.079677e-001 -1.521018e-001 1.380841e+002
505625000 -1.420328e-001 -1.313799e+002 -6.004330e+001 1.151809e+001 -6.211852e+001 2.008488e+001 -1.460775e-001 1.380590e+002
506250000 -1.551086e-001 -1.316404e+002 -6.058175e+001 5.048178e+000 -6.119357e+001 1.234847e+001 -1.503711e-001 1.379340e+002
506875000 -1.507533e-001 -1.319702e+002 -6.130513e+001 -9.090447e+000 -6.071771e+001 1.470246e+001 -1.375233e-001 1.378890e+002
507500000 -1.534101e-001 -1.322503e+002 -5.883769e+001 8.933389e+000 -6.197205e+001 -4.373998e+000 -1.405335e-001 1.377509e+002
508125000 -1.646319e-001 -1.325371e+002 -6.061896e+001 3.626994e+000 -6.155988e+001 1.028658e+000 -1.412386e-001 1.377292e+002
508750000 -1.559539e-001 -1.327472e+002 -6.006762e+001 9.354773e-001 -6.037574e+001 9.647822e+000 -1.397929e-001 1.376736e+002
509375000 -1.674674e-001 -1.331332e+002 -6.217984e+001 1.025096e+001 -5.990635e+001 -1.233992e+001 -1.359722e-001 1.376509e+002
510000000 -1.667605e-001 -1.334353e+002 -6.003751e+001 -6.219524e+000 -5.968664e+001 -7.660390e+000 -1.490592e-001 1.375762e+002
510625000 -1.705757e-001 -1.336899e+002 -5.989782e+001 -4.712448e+000 -5.924461e+001 7.157266e-001 -1.351282e-001 1.376050e+002
511250000 -1.726144e-001 -1.339788e+002 -5.941850e+001 -8.238212e+000 -6.051795e+001 -1.993287e+000 -1.454592e-001 1.374707e+002
511875000 -1.714774e-001 -1.342943e+002 -5.826023e+001 -5.546900e+000 -6.031682e+001 -1.406102e+001 -1.288659e-001 1.374643e+002
512500000 -1.716630e-001 -1.345939e+002 -5.785463e+001 -4.675068e+000 -6.072864e+001 -7.277941e+000 -1.446833e-001 1.374153e+002
513125000 -1.796570e-001 -1.348936e+002 -6.334960e+001 -1.446541e+001 -6.027898e+001 -7.032432e+000 -1.501799e-001 1.373998e+002
513750000 -1.847549e-001 -1.351799e+002 -6.063215e+001 -8.525325e+000 -5.799638e+001 -1.144664e+001 -1.454319e-001 1.373082e+002
514375000 -1.863464e-001 -1.355269e+002 -5.979175e+001 -1.437673e+001 -5.839232e+001 -1.456864e+001 -1.383830e-001 1.372556e+002
515000000 -1.931205e-001 -1.358059e+002 -5.952114e+001 -2.527127e+001 -5.976252e+001 -2.439438e+001 -1.362660e-001 1.371910e+002
515625000 -1.895864e-001 -1.361791e+002 -6.094424e+001 -2.035838e+001 -6.113884e+001 -2.208751e+001 -1.387938e-001 1.371389e+002
516250000 -1.930477e-001 -1.364479e+002 -6.185971e+001 -2.067054e+000 -6.016526e+001 -2.694903e+001 -1.484073e-001 1.370265e+002
516875000 -2.084170e-001 -1.368043e+002 -6.311649e+001 -2.279481e+001 -6.013383e+001 -2.466418e+001 -1.607399e-001 1.369766e+002
517500000 -2.013404e-001 -1.371275e+002 -6.200875e+001 -1.839698e+001 -5.970366e+001 -2.633533e+001 -1.567316e-001 1.368680e+002
518125000 -2.041441e-001 -1.374899e+002 -5.935285e+001 -2.444855e+001 -5.902844e+001 -2.064238e+001 -1.653920e-001 1.367477e+002
518750000 -2.118973e-001 -1.377933e+002 -6.030076e+001 -9.239248e+000 -6.110238e+001 -2.524420e+001 -1.551713e-001 1.367140e+002
519375000 -2.183472e-001 -1.380771e+002 -6.129024e+001 -1.121728e+001 -5.920820e+001 -1.574799e+001 -1.573828e-001 1.365636e+002
520000000 -2.257416e-001 -1.384089e+002 -6.113219e+001 -2.786312e+001 -6.007182e+001 -3.679861e+001 -1.536054e-001 1.364400e+002
520625000 -2.290396e-001 -1.387498e+002 -5.942606e+001 -2.337016e+001 -6.014236e+001 -2.513133e+001 -1.479614e-001 1.362924e+002
521250000 -2.339127e-001 -1.390639e+002 -5.828341e+001 -3.250657e+001 -5.941995e+001 -2.225631e+001 -1.499436e-001 1.362511e+002
521875000 -2.345780e-001 -1.394466e+002 -5.798722e+001 -1.611606e+001 -5.812759e+001 -2.096312e+001 -1.445258e-001 1.362058e+002
522500000 -2.444064e-001 -1.397803e+002 -5.990117e+001 -3.183894e+001 -5.903858e+001 -2.799158e+001 -1.477169e-001 1.361034e+002
523125000 -2.575993e-001 -1.401104e+002 -5.960847e+001 -2.621886e+001 -5.755066e+001 -3.803459e+001 -1.478854e-001 1.360477e+002
523750000 -2.546141e-001 -1.404489e+002 -5.907430e+001 -2.585689e+001 -5.789104e+001 -3.790741e+001 -1.482748e-001 1.359679e+002
524375000 -2.722872e-001 -1.407714e+002 -5.986785e+001 -2.810450e+001 -5.835870e+001 -3.559468e+001 -1.367871e-001 1.359198e+002
525000000 -2.762104e-001 -1.411110e+002 -6.058781e+001 -3.123146e+001 -5.789584e+001 -3.659373e+001 -1.486412e-001 1.358909e+002
525625000 -2.925119e-001 -1.413392e+002 -5.776393e+001 -3.896035e+001 -5.682282e+001 -2.717351e+001 -1.468302e-001 1.358100e+002
526250000 -2.886528e-001 -1.416904e+002 -5.730986e+001 -3.611935e+001 -5.889877e+001 -3.321292e+001 -1.433744e-001 1.358476e+002
526875000 -3.054805e-001 -1.420417e+002 -5.728341e+001 -3.223474e+001 -5.727956e+001 -4.368566e+001 -1.318654e-001 1.358163e+002
527500000 -3.145099e-001 -1.423665e+002 -5.801854e+001 -4.559837e+001 -5.935049e+001 -3.921832e+001 -1.406540e-001 1.358064e+002
528125000 -3.292085e-001 -1.427012e+002 -5.737313e+001 -3.542890e+001 -5.830343e+001 -4.085067e+001 -1.429660e-001 1.358012e+002
528750000 -3.281897e-001 -1.429981e+002 -5.727303e+001 -5.342299e+001 -5.951812e+001 -4.574053e+001 -1.344660e-001 1.358691e+002
529375000 -3.411984e-001 -1.433042e+002 -5.740071e+001 -4.354559e+001 -5.671224e+001 -5.141148e+001 -1.394537e-001 1.357678e+002
530000000 -3.526264e-001 -1.436866e+002 -5.719531e+001 -4.459565e+001 -5.696946e+001 -4.786460e+001 -1.447985e-001 1.357485e+002
530625000 -3.607865e-001 -1.439459e+002 -5.816825e+001 -5.263103e+001 -5.676296e+001 -5.096241e+001 -1.412368e-001 1.357338e+002
531250000 -3.664503e-001 -1.442955e+002 -5.835028e+001 -4.648440e+001 -5.853440e+001 -5.971236e+001 -1.327958e-001 1.356881e+002
531875000 -3.824425e-001 -1.445606e+002 -5.896820e+001 -5.484798e+001 -5.741554e+001 -6.090629e+001 -1.431775e-001 1.356598e+002
532500000 -3.830460e-001 -1.448257e+002 -5.662406e+001 -5.306691e+001 -5.722930e+001 -6.093508e+001 -1.451534e-001 1.356161e+002
533125000 -3.838808e-001 -1.452081e+002 -5.522158e+001 -5.951807e+001 -5.697492e+001 -5.389658e+001 -1.449536e-001 1.356042e+002
533750000 -3.974155e-001 -1.455513e+002 -5.552589e+001 -6.166667e+001 -5.681448e+001 -5.538666e+001 -1.603261e-001 1.355753e+002
534375000 -4.002211e-001 -1.459211e+002 -5.813756e+001 -6.395813e+001 -5.740339e+001 -6.495758e+001 -1.458220e-001 1.355044e+002
535000000 -4.134116e-001 -1.461761e+002 -5.645400e+001 -5.350945e+001 -5.700568e+001 -6.550974e+001 -1.518052e-001 1.354977e+002
535625000 -4.170402e-001 -1.465464e+002 -5.754252e+001 -6.126933e+001 -5.725293e+001 -5.310173e+001 -1.484257e-001 1.354448e+002
536250000 -4.228571e-001 -1.468793e+002 -5.809357e+001 -6.088239e+001 -5.680656e+001 -6.347391e+001 -1.429788e-001 1.353053e+002
536875000 -4.330772e-001 -1.472668e+002 -5.618888e+001 -6.511131e+001 -5.739140e+001 -6.628652e+001 -1.462784e-001 1.352856e+002
537500000 -4.382601e-001 -1.475518e+002 -5.573959e+001 -6.016313e+001 -5.648401e+001 -6.447897e+001 -1.384825e-001 1.353358e+002
538125000 -4.507219e-001 -1.479502e+002 -5.661663e+001 -7.518420e+001 -5.646747e+001 -6.527634e+001 -1.528514e-001 1.353278e+002
538750000 -4.628791e-001 -1.483211e+002 -5.694881e+001 -6.942676e+001 -5.592669e+001 -7.453397e+001 -1.428684e-001 1.352269e+002
539375000 -4.821834e-001 -1.486473e+002 -5.647612e+001 -6.675893e+001 -5.510493e+001 -6.206719e+001 -1.447788e-001 1.352276e+002
540000000 -4.867343e-001 -1.489863e+002 -5.595705e+001 -6.444415e+001 -5.667235e+001 -6.817969e+001 -1.417245e-001 1.351403e+002
540625000 -4.983993e-001 -1.493953e+002 -5.612040e+001 -6.781491e+001 -5.686003e+001 -7.132572e+001 -1.405680e-001 1.351199e+002
541250000 -5.061760e-001 -1.497178e+002 -5.553009e+001 -7.321936e+001 -5.664890e+001 -7.520332e+001 -1.401952e-001 1.350906e+002
541875000 -5.229810e-001 -1.500390e+002 -5.493516e+001 -7.640510e+001 -5.582177e+001 -7.419556e+001 -1.526269e-001 1.350238e+002
542500000 -5.332546e-001 -1.504051e+002 -5.714380e+001 -7.287283e+001 -5.573759e+001 -7.414297e+001 -1.442540e-001 1.349958e+002
543125000 -5.360376e-001 -1.508441e+002 -5.587433e+001 -7.812775e+001 -5.581653e+001 -7.404951e+001 -1.446416e-001 1.348982e+002
543750000 -5.541720e-001 -1.512187e+002 -5.555680e+001 -7.188845e+001 -5.551435e+001 -7.073530e+001 -1.542381e-001 1.348735e+002
544375000 -5.685324e-001 -1.515572e+002 -5.677388e+001 -7.702052e+001 -5.514320e+001 -7.742937e+001 -1.539583e-001 1.347801e+002
545000000 -5.767775e-001 -1.519804e+002 -5.500025e+001 -8.214477e+001 -5.510617e+001 -8.015419e+001 -1.556047e-001 1.346942e+002
545625000 -5.887407e-001 -1.523464e+002 -5.599092e+001 -8.104896e+001 -5.462887e+001 -7.785158e+001 -1.615959e-001 1.346105e+002
546250000 -6.165736e-001 -1.527218e+002 -5.578381e+001 -7.987553e+001 -5.448473e+001 -7.627206e+001 -1.644711e-001 1.345477e+002
546875000 -6.304693e-001 -1.531575e+002 -5.570068e+001 -8.522663e+001 -5.566350e+001 -8.533633e+001 -1.678108e-001 1.344888e+002
547500000 -6.479598e-001 -1.534813e+002 -5.541232e+001 -9.057988e+001 -5.576463e+001 -8.982535e+001 -1.714677e-001 1.343584e+002
548125000 -6.735700e-001 -1.538385e+002 -5.541741e+001 -8.702657e+001 -5.449694e+001 -9.069247e+001 -1.583935e-001 1.342237e+002
548750000 -6.924594e-001 -1.542497e+002 -5.444616e+001 -9.381429e+001 -5.372787e+001 -9.056211e+001 -1.623901e-001 1.341573e+002
549375000 -7.203326e-001 -1.545788e+002 -5.495179e+001 -9.114171e+001 -5.323996e+001 -9.213718e+001 -1.731552e-001 1.339021e+002
550000000 -7.286538e-001 -1.549348e+002 -5.370395e+001 -9.406019e+001 -5.418776e+001 -9.509171e+001 -1.749804e-001 1.339202e+002
550625000 -7.497547e-001 -1.552476e+002 -5.375492e+001 -9.140094e+001 -5.354985e+001 -8.542416e+001 -1.640712e-001 1.338423e+002
551250000 -7.667078e-001 -1.555863e+002 -5.408770e+001 -9.380324e+001 -5.352939e+001 -9.743151e+001 -1.645620e-001 1.337784e+002
551875000 -7.832442e-001 -1.558579e+002 -5.413605e+001 -9.658096e+001 -5.453646e+001 -1.054509e+002 -1.466973e-001 1.337024e+002
552500000 -8.039404e-001 -1.562315e+002 -5.377518e+001 -1.046452e+002 -5.350948e+001 -1.036962e+002 -1.484676e-001 1.336139e+002
553125000 -8.233563e-001 -1.565395e+002 -5.418845e+001 -9.985094e+001 -5.350714e+001 -1.029585e+002 -1.508189e-001 1.335893e+002
553750000 -8.504610e-001 -1.568359e+002 -5.407063e+001 -1.069948e+002 -5.308240e+001 -1.040502e+002 -1.545134e-001 1.334861e+002
554375000 -8.625612e-001 -1.571297e+002 -5.407764e+001 -9.478555e+001 -5.347977e+001 -1.081841e+002 -1.505970e-001 1.335501e+002
555000000 -8.841004e-001 -1.574679e+002 -5.380590e+001 -1.055915e+002 -5.274339e+001 -1.116202e+002 -1.539923e-001 1.334450e+002
555625000 -9.059683e-001 -1.576920e+002 -5.310708e+001 -1.083352e+002 -5.263560e+001 -1.112060e+002 -1.468776e-001 1.335312e+002
556250000 -9.222254e-001 -1.580122e+002 -5.267294e+001 -1.085071e+002 -5.332449e+001 -1.096346e+002 -1.517325e-001 1.334498e+002
556875000 -9.347153e-001 -1.583118e+002 -5.275255e+001 -1.120797e+002 -5.341488e+001 -1.093991e+002 -1.487839e-001 1.334578e+002
557500000 -9.579455e-001 -1.585508e+002 -5.286645e+001 -1.157260e+002 -5.267405e+001 -1.173726e+002 -1.534578e-001 1.334305e+002
558125000 -9.674951e-001 -1.588392e+002 -5.290088e+001 -1.171992e+002 -5.267203e+001 -1.230753e+002 -1.504871e-001 1.334705e+002
558750000 -9.755563e-001 -1.591615e+002 -5.279647e+001 -1.201935e+002 -5.163919e+001 -1.232159e+002 -1.487894e-001 1.334033e+002
559375000 -1.001352e+000 -1.594311e+002 -5.200230e+001 -1.225239e+002 -5.151030e+001 -1.219118e+002 -1.503243e-001 1.333840e+002
560000000 -1.006483e+000 -1.597451e+002 -5.212274e+001 -1.211978e+002 -5.233068e+001 -1.260138e+002 -1.414850e-001 1.333127e+002
560625000 -1.015001e+000 -1.600411e+002 -5.226102e+001 -1.214083e+002 -5.211844e+001 -1.247709e+002 -1.466774e-001 1.333196e+002
561250000 -1.032092e+000 -1.603958e+002 -5.277185e+001 -1.267256e+002 -5.348965e+001 -1.280320e+002 -1.454971e-001 1.332524e+002
561875000 -1.039654e+000 -1.607231e+002 -5.156367e+001 -1.287242e+002 -5.297125e+001 -1.293300e+002 -1.615696e-001 1.332240e+002
562500000 -1.058613e+000 -1.610168e+002 -5.235006e+001 -1.314278e+002 -5.148264e+001 -1.283520e+002 -1.596610e-001 1.331953e+002
563125000 -1.062923e+000 -1.613286e+002 -5.173940e+001 -1.331596e+002 -5.198082e+001 -1.353957e+002 -1.572383e-001 1.331335e+002
563750000 -1.080853e+000 -1.616817e+002 -5.170773e+001 -1.296981e+002 -5.177830e+001 -1.361536e+002 -1.622958e-001 1.330516e+002
564375000 -1.100758e+000 -1.620172e+002 -5.171267e+001 -1.379121e+002 -5.192557e+001 -1.330145e+002 -1.577711e-001 1.329693e+002
565000000 -1.105722e+000 -1.623932e+002 -5.149310e+001 -1.362854e+002 -5.092415e+001 -1.380415e+002 -1.692216e-001 1.328584e+002
565625000 -1.117450e+000 -1.627384e+002 -5.093071e+001 -1.329068e+002 -5.156702e+001 -1.313984e+002 -1.657204e-001 1.328034e+002
566250000 -1.130496e+000 -1.631184e+002 -5.182122e+001 -1.418407e+002 -5.169138e+001 -1.426114e+002 -1.678553e-001 1.326926e+002
566875000 -1.148711e+000 -1.634701e+002 -5.083730e+001 -1.433629e+002 -5.094373e+001 -1.456145e+002 -1.747648e-001 1.325184e+002
567500000 -1.171302e+000 -1.639105e+002 -5.117612e+001 -1.406483e+002 -5.051963e+001 -1.441155e+002 -1.660354e-001 1.324230e+002
568125000 -1.189460e+000 -1.642023e+002 -5.084935e+001 -1.473264e+002 -5.121900e+001 -1.437946e+002 -1.713244e-001 1.323109e+002
568750000 -1.211962e+000 -1.645598e+002 -5.080922e+001 -1.483074e+002 -5.113006e+001 -1.454319e+002 -1.781349e-001 1.321812e+002
569375000 -1.229438e+000 -1.649674e+002 -5.086770e+001 -1.503986e+002 -5.122429e+001 -1.471339e+002 -1.759132e-001 1.320389e+002
570000000 -1.236305e+000 -1.652983e+002 -5.137693e+001 -1.515976e+002 -5.015135e+001 -1.512293e+002 -1.754022e-001 1.318935e+002
570625000 -1.260588e+000 -1.656456e+002 -5.176714e+001 -1.563599e+002 -5.147091e+001 -1.554710e+002 -1.656279e-001 1.317798e+002
571250000 -1.274770e+000 -1.659808e+002 -5.127579e+001 -1.574461e+002 -5.079188e+001 -1.635814e+002 -1.744416e-001 1.317206e+002
571875000 -1.297681e+000 -1.663056e+002 -5.081902e+001 -1.575261e+002 -5.109847e+001 -1.576670e+002 -1.693600e-001 1.315289e+002
572500000 -1.313911e+000 -1.666594e+002 -5.108250e+001 -1.595938e+002 -5.113164e+001 -1.581649e+002 -1.740744e-001 1.314662e+002
573125000 -1.333162e+000 -1.669902e+002 -5.109671e+001 -1.664103e+002 -5.059820e+001 -1.611790e+002 -1.517752e-001 1.313727e+002
573750000 -1.339016e+000 -1.673223e+002 -5.151859e+001 -1.619780e+002 -5.126176e+001 -1.645166e+002 -1.666628e-001 1.312417e+002
574375000 -1.359081e+000 -1.676407e+002 -5.094674e+001 -1.654249e+002 -5.092584e+001 -1.664462e+002 -1.600698e-001 1.312179e+002
575000000 -1.369842e+000 -1.680334e+002 -5.128649e+001 -1.645712e+002 -5.043397e+001 -1.659316e+002 -1.557921e-001 1.311420e+002
575625000 -1.388670e+000 -1.683462e+002 -5.087321e+001 -1.693818e+002 -5.054572e+001 -1.654028e+002 -1.457833e-001 1.311559e+002
576250000 -1.398801e+000 -1.687266e+002 -5.082267e+001 -1.712460e+002 -5.075103e+001 -1.711567e+002 -1.504136e-001 1.310834e+002
576875000 -1.413159e+000 -1.690697e+002 -5.096333e+001 -1.681335e+002 -5.103640e+001 -1.678198e+002 -1.548497e-001 1.311265e+002
577500000 -1.437847e+000 -1.693834e+002 -5.125638e+001 -1.688413e+002 -5.041311e+001 -1.725410e+002 -1.504396e-001 1.310612e+002
578125000 -1.450351e+000 -1.697295e+002 -5.114911e+001 -1.689872e+002 -5.052044e+001 -1.756436e+002 -1.428071e-001 1.311331e+002
578750000 -1.454216e+000 -1.700437e+002 -5.119762e+001 -1.727775e+002 -5.105804e+001 -1.706983e+002 -1.489955e-001 1.311065e+002
579375000 -1.475596e+000 -1.703646e+002 -5.119230e+001 -1.775102e+002 -5.050028e+001 -1.735675e+002 -1.493310e-001 1.310627e+002
580000000 -1.490130e+000 -1.706240e+002 -5.082234e+001 -1.732201e+002 -4.958026e+001 -1.749130e+002 -1.490889e-001 1.311531e+002
580625000 -1.498333e+000 -1.710043e+002 -5.049889e+001 -1.747850e+002 -5.015506e+001 -1.792630e+002 -1.409716e-001 1.311529e+002
581250000 -1.511176e+000 -1.712736e+002 -5.056304e+001 1.794151e+002 -4.964167e+001 -1.793254e+002 -1.423562e-001 1.311853e+002
581875000 -1.520422e+000 -1.716149e+002 -5.028253e+001 1.784682e+002 -5.017361e+001 1.767918e+002 -1.536534e-001 1.311599e+002
582500000 -1.525123e+000 -1.719207e+002 -5.011126e+001 1.782050e+002 -4.993983e+001 1.767099e+002 -1.479259e-001 1.311261e+002
583125000 -1.529073e+000 -1.723503e+002 -5.021180e+001 1.731808e+002 -5.018325e+001 1.739660e+002 -1.710093e-001 1.310632e+002
583750000 -1.536362e+000 -1.727586e+002 -5.032230e+001 1.765760e+002 -4.949190e+001 1.728386e+002 -1.705441e-001 1.309955e+002
584375000 -1.545692e+000 -1.731650e+002 -5.044082e+001 1.662410e+002 -5.031741e+001 1.717937e+002 -1.651168e-001 1.309128e+002
585000000 -1.553610e+000 -1.736218e+002 -5.042543e+001 1.697051e+002 -5.028437e+001 1.723988e+002 -1.797960e-001 1.308284e+002
585625000 -1.575179e+000 -1.740627e+002 -5.041460e+001 1.704620e+002 -4.939380e+001 1.693635e+002 -1.651142e-001 1.307267e+002
586250000 -1.591550e+000 -1.744669e+002 -5.024339e+001 1.679164e+002 -4.980276e+001 1.688322e+002 -1.655370e-001 1.307605e+002
586875000 -1.598976e+000 -1.748589e+002 -5.066210e+001 1.611195e+002 -4.999714e+001 1.664943e+002 -1.725434e-001 1.305487e+002
587500000 -1.611372e+000 -1.753066e+002 -5.057547e+001 1.662618e+002 -4.981870e+001 1.626566e+002 -1.769994e-001 1.304106e+002
588125000 -1.626956e+000 -1.756638e+002 -5.050264e+001 1.603559e+002 -5.022405e+001 1.635567e+002 -1.752492e-001 1.303324e+002
588750000 -1.627380e+000 -1.761615e+002 -4.984894e+001 1.613302e+002 -5.026978e+001 1.564528e+002 -1.834579e-001 1.302343e+002
589375000 -1.629110e+000 -1.766448e+002 -5.023864e+001 1.602509e+002 -4.945293e+001 1.592192e+002 -1.663904e-001 1.300401e+002
590000000 -1.640554e+000 -1.771966e+002 -5.082963e+001 1.579579e+002 -5.006617e+001 1.573131e+002 -1.711254e-001 1.300132e+002
590625000 -1.653979e+000 -1.776828e+002 -5.017125e+001 1.606793e+002 -4.995808e+001 1.589411e+002 -1.696612e-001 1.298791e+002
591250000 -1.668278e+000 -1.782124e+002 -5.026392e+001 1.584886e+002 -5.033361e+001 1.594480e+002 -1.702962e-001 1.298405e+002
591875000 -1.696491e+000 -1.787439e+002 -5.022038e+001 1.564189e+002 -5.004052e+001 1.570394e+002 -1.552072e-001 1.298078e+002
592500000 -1.720811e+000 -1.793152e+002 -4.947285e+001 1.562842e+002 -4.966580e+001 1.532179e+002 -1.482576e-001 1.297601e+002
593125000 -1.757524e+000 -1.797677e+002 -4.983779e+001 1.498793e+002 -5.017878e+001 1.512657e+002 -1.599087e-001 1.298525e+002
593750000 -1.782826e+000 1.797588e+002 -5.024794e+001 1.552856e+002 -5.001140e+001 1.482739e+002 -1.384103e-001 1.298704e+002
594375000 -1.806985e+000 1.793742e+002 -4.960461e+001 1.519704e+002 -4.920284e+001 1.515057e+002 -1.377991e-001 1.298963e+002
595000000 -1.832541e+000 1.788778e+002 -4.928230e+001 1.521090e+002 -4.935908e+001 1.496382e+002 -1.535728e-001 1.298993e+002
