!Agilent Technologies,E8364B,US42250235,A.06.04.32
!Agilent E8364B: A.06.04.32
!Date: Thursday, October 01, 2020 13:17:24
!Correction: S11(Full 2 Port(1,2)) S21(Full 2 Port(1,2)) S12(Full 2 Port(1,2)) S22(Full 2 Port(1,2)) 
!S2P File: Measurements: S11, S21, S12, S22:
# Hz S  dB   R 50
500000000 -2.094730e-001 -1.753844e+002 -5.825782e+001 -1.264814e+002 -5.750811e+001 -1.304934e+002 -1.872288e-001 1.373278e+002
500377500.94375 -2.182156e-001 -1.755637e+002 -5.761543e+001 -1.284251e+002 -5.797644e+001 -1.282790e+002 -1.853990e-001 1.372061e+002
500755001.8875 -2.171197e-001 -1.757670e+002 -5.777094e+001 -1.299006e+002 -5.741489e+001 -1.304317e+002 -1.896431e-001 1.370881e+002
501132502.83126 -2.298519e-001 -1.759221e+002 -5.736205e+001 -1.292093e+002 -5.725470e+001 -1.304812e+002 -1.836488e-001 1.369852e+002
501510003.77501 -2.362624e-001 -1.761193e+002 -5.774894e+001 -1.309297e+002 -5.773713e+001 -1.306708e+002 -1.789470e-001 1.369398e+002
501887504.71876 -2.390602e-001 -1.763255e+002 -5.759346e+001 -1.321994e+002 -5.748357e+001 -1.331877e+002 -1.812776e-001 1.368024e+002
502265005.66251 -2.450321e-001 -1.765366e+002 -5.784308e+001 -1.352905e+002 -5.742672e+001 -1.337679e+002 -1.775222e-001 1.367311e+002
502642506.60627 -2.485570e-001 -1.767979e+002 -5.744654e+001 -1.374184e+002 -5.721569e+001 -1.344030e+002 -1.751034e-001 1.366587e+002
503020007.55002 -2.539431e-001 -1.769876e+002 -5.754016e+001 -1.348658e+002 -5.725560e+001 -1.359363e+002 -1.722089e-001 1.366115e+002
503397508.49377 -2.613179e-001 -1.771780e+002 -5.748331e+001 -1.338716e+002 -5.716130e+001 -1.335984e+002 -1.652741e-001 1.365338e+002
503775009.43752 -2.623799e-001 -1.774450e+002 -5.698347e+001 -1.389234e+002 -5.700226e+001 -1.378502e+002 -1.639230e-001 1.365058e+002
504152510.38128 -2.674744e-001 -1.776597e+002 -5.679745e+001 -1.362841e+002 -5.755480e+001 -1.384367e+002 -1.579226e-001 1.364803e+002
504530011.32503 -2.749953e-001 -1.778814e+002 -5.706925e+001 -1.396956e+002 -5.673656e+001 -1.361819e+002 -1.543859e-001 1.364666e+002
504907512.26878 -2.812100e-001 -1.780380e+002 -5.676928e+001 -1.372107e+002 -5.685321e+001 -1.390649e+002 -1.491290e-001 1.364722e+002
505285013.21253 -2.832982e-001 -1.783176e+002 -5.715649e+001 -1.391086e+002 -5.702471e+001 -1.383871e+002 -1.454624e-001 1.364688e+002
505662514.15629 -2.864687e-001 -1.784751e+002 -5.665903e+001 -1.398215e+002 -5.714820e+001 -1.395906e+002 -1.390263e-001 1.364593e+002
506040015.10004 -2.910223e-001 -1.787296e+002 -5.693343e+001 -1.437220e+002 -5.675599e+001 -1.427339e+002 -1.361291e-001 1.364922e+002
506417516.04379 -2.912352e-001 -1.789023e+002 -5.657520e+001 -1.418786e+002 -5.715082e+001 -1.403447e+002 -1.237130e-001 1.365526e+002
506795016.98754 -2.983507e-001 -1.791447e+002 -5.668090e+001 -1.423948e+002 -5.658352e+001 -1.431809e+002 -1.216675e-001 1.365985e+002
507172517.93129 -3.026187e-001 -1.793072e+002 -5.658013e+001 -1.414112e+002 -5.684524e+001 -1.403505e+002 -1.169359e-001 1.366622e+002
507550018.87505 -3.074858e-001 -1.795210e+002 -5.657499e+001 -1.458439e+002 -5.629773e+001 -1.405177e+002 -1.055024e-001 1.367357e+002
507927519.8188 -3.129306e-001 -1.797081e+002 -5.623373e+001 -1.443631e+002 -5.649415e+001 -1.451996e+002 -1.028565e-001 1.368429e+002
508305020.76255 -3.172748e-001 -1.798975e+002 -5.624053e+001 -1.474503e+002 -5.634340e+001 -1.426153e+002 -9.976565e-002 1.369315e+002
508682521.7063 -3.163443e-001 1.798665e+002 -5.590680e+001 -1.490763e+002 -5.651282e+001 -1.472248e+002 -9.472163e-002 1.370229e+002
509060022.65006 -3.219212e-001 1.797416e+002 -5.642277e+001 -1.467596e+002 -5.652759e+001 -1.451203e+002 -9.074551e-002 1.371524e+002
509437523.59381 -3.273924e-001 1.795393e+002 -5.643850e+001 -1.481884e+002 -5.619778e+001 -1.472607e+002 -8.539279e-002 1.372819e+002
509815024.53756 -3.281497e-001 1.793422e+002 -5.628024e+001 -1.484031e+002 -5.594979e+001 -1.465106e+002 -8.273838e-002 1.374166e+002
510192525.48131 -3.302514e-001 1.791905e+002 -5.604922e+001 -1.478873e+002 -5.606719e+001 -1.489537e+002 -8.158816e-002 1.375493e+002
510570026.42507 -3.360172e-001 1.789719e+002 -5.625025e+001 -1.511156e+002 -5.609776e+001 -1.489812e+002 -8.289471e-002 1.377349e+002
510947527.36882 -3.378024e-001 1.787760e+002 -5.613556e+001 -1.500758e+002 -5.589085e+001 -1.503243e+002 -7.326134e-002 1.378673e+002
511325028.31257 -3.388145e-001 1.786261e+002 -5.662801e+001 -1.494444e+002 -5.613540e+001 -1.514913e+002 -7.269306e-002 1.380490e+002
511702529.25632 -3.420097e-001 1.784260e+002 -5.582804e+001 -1.491248e+002 -5.566536e+001 -1.534274e+002 -7.427916e-002 1.381994e+002
512080030.20008 -3.414665e-001 1.782435e+002 -5.587131e+001 -1.528348e+002 -5.549816e+001 -1.548687e+002 -7.447522e-002 1.383745e+002
512457531.14383 -3.448758e-001 1.780556e+002 -5.572506e+001 -1.530312e+002 -5.543872e+001 -1.535494e+002 -7.256494e-002 1.385129e+002
512835032.08758 -3.459569e-001 1.778561e+002 -5.600075e+001 -1.551953e+002 -5.593503e+001 -1.566861e+002 -7.339156e-002 1.386783e+002
513212533.03133 -3.539121e-001 1.776685e+002 -5.585824e+001 -1.538335e+002 -5.548591e+001 -1.545026e+002 -7.727160e-002 1.388223e+002
513590033.97508 -3.530795e-001 1.774648e+002 -5.583269e+001 -1.547332e+002 -5.536704e+001 -1.575788e+002 -7.894675e-002 1.389698e+002
513967534.91884 -3.551766e-001 1.773327e+002 -5.570400e+001 -1.529278e+002 -5.518975e+001 -1.556185e+002 -8.128899e-002 1.391140e+002
514345035.86259 -3.563065e-001 1.770595e+002 -5.560103e+001 -1.553003e+002 -5.522423e+001 -1.587678e+002 -8.528796e-002 1.392411e+002
514722536.80634 -3.619567e-001 1.768607e+002 -5.527637e+001 -1.559142e+002 -5.547660e+001 -1.579659e+002 -8.929120e-002 1.393720e+002
515100037.75009 -3.674773e-001 1.767001e+002 -5.550394e+001 -1.567631e+002 -5.511125e+001 -1.603770e+002 -9.402016e-002 1.394859e+002
515477538.69385 -3.721559e-001 1.764174e+002 -5.525792e+001 -1.598662e+002 -5.548812e+001 -1.599092e+002 -9.711448e-002 1.395885e+002
515855039.6376 -3.751598e-001 1.762612e+002 -5.511449e+001 -1.569033e+002 -5.524280e+001 -1.611611e+002 -1.043527e-001 1.396629e+002
516232540.58135 -3.823029e-001 1.760523e+002 -5.456114e+001 -1.587213e+002 -5.498088e+001 -1.623565e+002 -1.071525e-001 1.397271e+002
516610041.5251 -3.879971e-001 1.758073e+002 -5.481023e+001 -1.592959e+002 -5.446952e+001 -1.621957e+002 -1.180148e-001 1.397805e+002
516987542.46886 -3.909126e-001 1.756602e+002 -5.447726e+001 -1.615847e+002 -5.485378e+001 -1.622517e+002 -1.228398e-001 1.398169e+002
517365043.41261 -3.964781e-001 1.753742e+002 -5.463604e+001 -1.606830e+002 -5.488658e+001 -1.629278e+002 -1.294184e-001 1.398482e+002
517742544.35636 -4.024274e-001 1.751909e+002 -5.431950e+001 -1.611832e+002 -5.462819e+001 -1.653684e+002 -1.371829e-001 1.398296e+002
518120045.30011 -4.147371e-001 1.749858e+002 -5.437386e+001 -1.635457e+002 -5.443381e+001 -1.662609e+002 -1.416548e-001 1.398084e+002
518497546.24387 -4.156168e-001 1.747543e+002 -5.416131e+001 -1.648459e+002 -5.485830e+001 -1.663886e+002 -1.479731e-001 1.397912e+002
518875047.18762 -4.210760e-001 1.745249e+002 -5.403720e+001 -1.676656e+002 -5.421039e+001 -1.693250e+002 -1.565111e-001 1.397354e+002
519252548.13137 -4.275287e-001 1.743654e+002 -5.380104e+001 -1.667650e+002 -5.411053e+001 -1.653754e+002 -1.588885e-001 1.396890e+002
519630049.07512 -4.315811e-001 1.741444e+002 -5.364046e+001 -1.691429e+002 -5.432330e+001 -1.689163e+002 -1.698231e-001 1.395586e+002
520007550.01888 -4.360874e-001 1.738414e+002 -5.394388e+001 -1.694103e+002 -5.406504e+001 -1.696388e+002 -1.738409e-001 1.394706e+002
520385050.96263 -4.407874e-001 1.736660e+002 -5.377618e+001 -1.691672e+002 -5.419516e+001 -1.703586e+002 -1.793252e-001 1.393389e+002
520762551.90638 -4.514205e-001 1.734860e+002 -5.357718e+001 -1.697192e+002 -5.390226e+001 -1.719565e+002 -1.829296e-001 1.392124e+002
521140052.85013 -4.522083e-001 1.732389e+002 -5.390257e+001 -1.728932e+002 -5.387078e+001 -1.723448e+002 -1.896928e-001 1.390588e+002
521517553.79388 -4.575668e-001 1.730316e+002 -5.347986e+001 -1.738847e+002 -5.380606e+001 -1.733735e+002 -1.932688e-001 1.388919e+002
521895054.73764 -4.612510e-001 1.728316e+002 -5.325165e+001 -1.754296e+002 -5.392364e+001 -1.763820e+002 -1.976569e-001 1.387355e+002
522272555.68139 -4.614880e-001 1.726531e+002 -5.311390e+001 -1.787849e+002 -5.354589e+001 -1.769100e+002 -1.987920e-001 1.385663e+002
522650056.62514 -4.646820e-001 1.724536e+002 -5.346124e+001 -1.798880e+002 -5.376064e+001 -1.761097e+002 -1.979569e-001 1.384042e+002
523027557.56889 -4.681199e-001 1.721850e+002 -5.344321e+001 1.796518e+002 -5.359376e+001 -1.782368e+002 -2.016984e-001 1.381967e+002
523405058.51265 -4.738092e-001 1.720115e+002 -5.326724e+001 1.781521e+002 -5.342467e+001 -1.791276e+002 -2.035912e-001 1.379969e+002
523782559.4564 -4.745331e-001 1.717484e+002 -5.306779e+001 1.779806e+002 -5.346416e+001 1.787549e+002 -2.022079e-001 1.378040e+002
524160060.40015 -4.763619e-001 1.715626e+002 -5.323972e+001 1.775759e+002 -5.379133e+001 1.782376e+002 -2.005148e-001 1.376259e+002
524537561.3439 -4.795266e-001 1.713700e+002 -5.325787e+001 1.763764e+002 -5.339423e+001 1.769667e+002 -1.988205e-001 1.374807e+002
524915062.28766 -4.841798e-001 1.710924e+002 -5.361178e+001 1.754779e+002 -5.348128e+001 1.775850e+002 -2.015503e-001 1.372462e+002
525292563.23141 -4.824474e-001 1.708326e+002 -5.304555e+001 1.755430e+002 -5.330398e+001 1.766959e+002 -1.972312e-001 1.370612e+002
525670064.17516 -4.876080e-001 1.706399e+002 -5.332491e+001 1.728488e+002 -5.336114e+001 1.725770e+002 -1.965445e-001 1.368955e+002
526047565.11891 -4.915437e-001 1.704817e+002 -5.339927e+001 1.738972e+002 -5.333166e+001 1.730870e+002 -1.917097e-001 1.367296e+002
526425066.06267 -4.968124e-001 1.702018e+002 -5.312036e+001 1.730555e+002 -5.317052e+001 1.730366e+002 -1.895530e-001 1.365819e+002
526802567.00642 -5.003977e-001 1.699903e+002 -5.352264e+001 1.710292e+002 -5.339281e+001 1.716874e+002 -1.823165e-001 1.364465e+002
527180067.95017 -5.040334e-001 1.697437e+002 -5.327152e+001 1.689283e+002 -5.305130e+001 1.723485e+002 -1.783365e-001 1.362953e+002
527557568.89392 -5.115654e-001 1.695641e+002 -5.354751e+001 1.690273e+002 -5.350743e+001 1.700341e+002 -1.705289e-001 1.361413e+002
527935069.83767 -5.163597e-001 1.693757e+002 -5.326696e+001 1.684815e+002 -5.306596e+001 1.681321e+002 -1.684521e-001 1.359594e+002
528312570.78143 -5.193571e-001 1.690754e+002 -5.344866e+001 1.686177e+002 -5.323969e+001 1.714823e+002 -1.609715e-001 1.360046e+002
528690071.72518 -5.268753e-001 1.689451e+002 -5.346485e+001 1.672159e+002 -5.300611e+001 1.684425e+002 -1.566633e-001 1.358479e+002
529067572.66893 -5.322295e-001 1.687451e+002 -5.298323e+001 1.678186e+002 -5.301814e+001 1.667919e+002 -1.542072e-001 1.357560e+002
529445073.61268 -5.358564e-001 1.685284e+002 -5.358509e+001 1.675304e+002 -5.312846e+001 1.653701e+002 -1.513824e-001 1.356926e+002
529822574.55644 -5.410973e-001 1.683134e+002 -5.310271e+001 1.647135e+002 -5.286478e+001 1.653968e+002 -1.463960e-001 1.356364e+002
530200075.50019 -5.441620e-001 1.680294e+002 -5.306922e+001 1.668696e+002 -5.303253e+001 1.639073e+002 -1.400715e-001 1.355696e+002
530577576.44394 -5.515412e-001 1.678481e+002 -5.323175e+001 1.627785e+002 -5.286982e+001 1.647070e+002 -1.391906e-001 1.355253e+002
530955077.38769 -5.540048e-001 1.676774e+002 -5.310219e+001 1.660219e+002 -5.308216e+001 1.639128e+002 -1.347099e-001 1.354529e+002
531332578.33145 -5.607748e-001 1.674672e+002 -5.324873e+001 1.615176e+002 -5.306789e+001 1.631864e+002 -1.348116e-001 1.354398e+002
531710079.2752 -5.644433e-001 1.672296e+002 -5.313525e+001 1.635285e+002 -5.246921e+001 1.610403e+002 -1.283128e-001 1.353993e+002
532087580.21895 -5.679776e-001 1.670147e+002 -5.296231e+001 1.623592e+002 -5.285819e+001 1.610835e+002 -1.231185e-001 1.353902e+002
532465081.1627 -5.730666e-001 1.669053e+002 -5.276011e+001 1.613883e+002 -5.255269e+001 1.600756e+002 -1.246128e-001 1.353924e+002
532842582.10646 -5.720871e-001 1.666496e+002 -5.275571e+001 1.601113e+002 -5.259988e+001 1.586385e+002 -1.201662e-001 1.353596e+002
533220083.05021 -5.784994e-001 1.664423e+002 -5.259283e+001 1.586619e+002 -5.227552e+001 1.587495e+002 -1.168347e-001 1.353588e+002
533597583.99396 -5.836498e-001 1.662896e+002 -5.255501e+001 1.613961e+002 -5.263473e+001 1.577620e+002 -1.178360e-001 1.353410e+002
533975084.93771 -5.864631e-001 1.660430e+002 -5.252114e+001 1.591031e+002 -5.238095e+001 1.567760e+002 -1.149934e-001 1.353303e+002
534352585.88146 -5.905701e-001 1.658326e+002 -5.229179e+001 1.562127e+002 -5.241747e+001 1.545239e+002 -1.121865e-001 1.353229e+002
534730086.82522 -5.919164e-001 1.656041e+002 -5.236543e+001 1.547056e+002 -5.233582e+001 1.532679e+002 -1.154610e-001 1.353198e+002
535107587.76897 -5.923587e-001 1.654429e+002 -5.227231e+001 1.540123e+002 -5.223626e+001 1.525862e+002 -1.114959e-001 1.353579e+002
535485088.71272 -5.969779e-001 1.652227e+002 -5.230536e+001 1.540554e+002 -5.210875e+001 1.520874e+002 -1.143567e-001 1.353049e+002
535862589.65647 -6.016318e-001 1.650281e+002 -5.224646e+001 1.523380e+002 -5.214233e+001 1.525219e+002 -1.145068e-001 1.353059e+002
536240090.60023 -6.004617e-001 1.648250e+002 -5.243645e+001 1.517785e+002 -5.241346e+001 1.511576e+002 -1.131182e-001 1.352927e+002
536617591.54398 -6.021135e-001 1.646061e+002 -5.192033e+001 1.480177e+002 -5.221709e+001 1.491200e+002 -1.178868e-001 1.352895e+002
536995092.48773 -6.048571e-001 1.643954e+002 -5.227848e+001 1.503407e+002 -5.198021e+001 1.482203e+002 -1.166610e-001 1.353252e+002
537372593.43148 -6.072596e-001 1.641692e+002 -5.199682e+001 1.482786e+002 -5.218718e+001 1.473388e+002 -1.189543e-001 1.352696e+002
537750094.37524 -6.090125e-001 1.639743e+002 -5.200669e+001 1.483708e+002 -5.216318e+001 1.471790e+002 -1.214427e-001 1.352623e+002
538127595.31899 -6.092976e-001 1.637294e+002 -5.228351e+001 1.483245e+002 -5.211542e+001 1.442350e+002 -1.209944e-001 1.352460e+002
538505096.26274 -6.105638e-001 1.635355e+002 -5.203679e+001 1.469570e+002 -5.204269e+001 1.440354e+002 -1.218931e-001 1.352733e+002
538882597.20649 -6.104627e-001 1.633146e+002 -5.214107e+001 1.460565e+002 -5.224957e+001 1.434863e+002 -1.203572e-001 1.352383e+002
539260098.15025 -6.133085e-001 1.630814e+002 -5.247372e+001 1.459908e+002 -5.209024e+001 1.438602e+002 -1.230766e-001 1.352180e+002
539637599.094 -6.168314e-001 1.628537e+002 -5.214516e+001 1.441102e+002 -5.194146e+001 1.418450e+002 -1.246726e-001 1.352142e+002
540015100.03775 -6.212117e-001 1.626679e+002 -5.197922e+001 1.440226e+002 -5.199656e+001 1.410836e+002 -1.304924e-001 1.351975e+002
540392600.9815 -6.226239e-001 1.624330e+002 -5.189289e+001 1.439465e+002 -5.183222e+001 1.405051e+002 -1.258742e-001 1.351782e+002
540770101.92525 -6.262539e-001 1.621468e+002 -5.204589e+001 1.401846e+002 -5.199627e+001 1.385879e+002 -1.257384e-001 1.351715e+002
541147602.86901 -6.282881e-001 1.619289e+002 -5.191396e+001 1.403359e+002 -5.190473e+001 1.387037e+002 -1.243093e-001 1.351826e+002
541525103.81276 -6.284610e-001 1.616833e+002 -5.195322e+001 1.408657e+002 -5.207911e+001 1.378035e+002 -1.263186e-001 1.351682e+002
541902604.75651 -6.322680e-001 1.614604e+002 -5.196280e+001 1.401686e+002 -5.195172e+001 1.376151e+002 -1.217087e-001 1.352008e+002
542280105.70026 -6.350384e-001 1.612013e+002 -5.184718e+001 1.398409e+002 -5.212307e+001 1.371913e+002 -1.247905e-001 1.351536e+002
542657606.64402 -6.342115e-001 1.609812e+002 -5.178714e+001 1.373086e+002 -5.209542e+001 1.349188e+002 -1.230432e-001 1.351593e+002
543035107.58777 -6.402060e-001 1.607759e+002 -5.217926e+001 1.387139e+002 -5.213803e+001 1.343270e+002 -1.258541e-001 1.351710e+002
543412608.53152 -6.459405e-001 1.605010e+002 -5.196595e+001 1.362692e+002 -5.217362e+001 1.353579e+002 -1.241278e-001 1.351610e+002
543790109.47527 -6.467137e-001 1.602409e+002 -5.198244e+001 1.363344e+002 -5.199767e+001 1.320637e+002 -1.231603e-001 1.351667e+002
544167610.41903 -6.493886e-001 1.600334e+002 -5.183429e+001 1.352832e+002 -5.192006e+001 1.337429e+002 -1.236307e-001 1.352012e+002
544545111.36278 -6.503608e-001 1.597438e+002 -5.189003e+001 1.355093e+002 -5.204280e+001 1.323554e+002 -1.212968e-001 1.351766e+002
544922612.30653 -6.486441e-001 1.595149e+002 -5.192136e+001 1.343665e+002 -5.216108e+001 1.307621e+002 -1.219820e-001 1.351541e+002
545300113.25028 -6.496793e-001 1.592708e+002 -5.185046e+001 1.325682e+002 -5.211158e+001 1.299193e+002 -1.222921e-001 1.351853e+002
545677614.19404 -6.500904e-001 1.590030e+002 -5.189602e+001 1.323200e+002 -5.228724e+001 1.305770e+002 -1.213412e-001 1.351901e+002
546055115.13779 -6.512718e-001 1.587608e+002 -5.186888e+001 1.316929e+002 -5.229267e+001 1.295386e+002 -1.220166e-001 1.351942e+002
546432616.08154 -6.571861e-001 1.584887e+002 -5.210619e+001 1.309530e+002 -5.225575e+001 1.307538e+002 -1.194575e-001 1.351970e+002
546810117.02529 -6.561228e-001 1.582333e+002 -5.200841e+001 1.324340e+002 -5.194145e+001 1.292157e+002 -1.215079e-001 1.351994e+002
547187617.96904 -6.621833e-001 1.579772e+002 -5.163585e+001 1.310736e+002 -5.214106e+001 1.282307e+002 -1.227167e-001 1.352207e+002
547565118.9128 -6.633018e-001 1.576884e+002 -5.162593e+001 1.288411e+002 -5.204382e+001 1.278201e+002 -1.223965e-001 1.352099e+002
547942619.85655 -6.701119e-001 1.574433e+002 -5.160154e+001 1.281712e+002 -5.198051e+001 1.277269e+002 -1.252953e-001 1.352345e+002
548320120.8003 -6.734702e-001 1.572269e+002 -5.159930e+001 1.278697e+002 -5.195279e+001 1.266551e+002 -1.252674e-001 1.352333e+002
548697621.74405 -6.788656e-001 1.569687e+002 -5.146933e+001 1.286091e+002 -5.212409e+001 1.273588e+002 -1.295345e-001 1.352489e+002
549075122.68781 -6.815005e-001 1.567298e+002 -5.134656e+001 1.272721e+002 -5.166018e+001 1.280524e+002 -1.319069e-001 1.352404e+002
549452623.63156 -6.851432e-001 1.564731e+002 -5.148774e+001 1.273047e+002 -5.193021e+001 1.263127e+002 -1.325123e-001 1.352299e+002
549830124.57531 -6.876428e-001 1.562283e+002 -5.137616e+001 1.255228e+002 -5.182874e+001 1.268642e+002 -1.360470e-001 1.352321e+002
550207625.51906 -6.898544e-001 1.559755e+002 -5.150552e+001 1.237997e+002 -5.174879e+001 1.245550e+002 -1.384353e-001 1.352395e+002
550585126.46282 -6.963402e-001 1.557020e+002 -5.129904e+001 1.237082e+002 -5.156913e+001 1.239419e+002 -1.381179e-001 1.352169e+002
550962627.40657 -6.982294e-001 1.554668e+002 -5.118824e+001 1.225860e+002 -5.146693e+001 1.244176e+002 -1.451586e-001 1.351991e+002
551340128.35032 -7.033820e-001 1.552511e+002 -5.127567e+001 1.240094e+002 -5.141140e+001 1.230229e+002 -1.430395e-001 1.352104e+002
551717629.29407 -7.071415e-001 1.549364e+002 -5.134817e+001 1.221868e+002 -5.162035e+001 1.231502e+002 -1.475521e-001 1.352034e+002
552095130.23783 -7.094519e-001 1.547192e+002 -5.130029e+001 1.223114e+002 -5.143270e+001 1.208095e+002 -1.500783e-001 1.351926e+002
552472631.18158 -7.140932e-001 1.544707e+002 -5.148088e+001 1.206981e+002 -5.124176e+001 1.201258e+002 -1.522555e-001 1.351767e+002
552850132.12533 -7.224267e-001 1.542674e+002 -5.146185e+001 1.178145e+002 -5.158852e+001 1.202555e+002 -1.538141e-001 1.351391e+002
553227633.06908 -7.288510e-001 1.539572e+002 -5.148819e+001 1.175884e+002 -5.152744e+001 1.187398e+002 -1.597227e-001 1.351226e+002
553605134.01284 -7.289717e-001 1.537107e+002 -5.145538e+001 1.183422e+002 -5.125421e+001 1.180928e+002 -1.637965e-001 1.350802e+002
553982634.95659 -7.417606e-001 1.534658e+002 -5.139288e+001 1.171057e+002 -5.113512e+001 1.179558e+002 -1.651665e-001 1.350428e+002
554360135.90034 -7.498525e-001 1.532584e+002 -5.138870e+001 1.172552e+002 -5.115755e+001 1.157568e+002 -1.640399e-001 1.350091e+002
554737636.84409 -7.562956e-001 1.529942e+002 -5.134246e+001 1.162459e+002 -5.127078e+001 1.179385e+002 -1.694154e-001 1.349733e+002
555115137.78784 -7.623140e-001 1.527078e+002 -5.146443e+001 1.173575e+002 -5.124402e+001 1.157032e+002 -1.682673e-001 1.349366e+002
555492638.7316 -7.685136e-001 1.524270e+002 -5.105021e+001 1.167811e+002 -5.116347e+001 1.165896e+002 -1.702428e-001 1.348731e+002
