!Agilent Technologies,E8364B,US42250235,A.06.04.32
!Agilent E8364B: A.06.04.32
!Date: Thursday, October 01, 2020 13:21:36
!Correction: S11(Full 2 Port(1,2)) S21(Full 2 Port(1,2)) S12(Full 2 Port(1,2)) S22(Full 2 Port(1,2)) 
!S2P File: Measurements: S11, S21, S12, S22:
# Hz S  dB   R 50
500000000 -1.771609e-001 -1.752751e+002 -6.167420e+001 9.882068e+001 -6.176008e+001 9.668356e+001 -2.650092e-001 1.361754e+002
500377500.94375 -1.801870e-001 -1.754730e+002 -6.082373e+001 9.888532e+001 -6.230617e+001 9.895926e+001 -2.639339e-001 1.360681e+002
500755001.8875 -1.849762e-001 -1.756818e+002 -6.171782e+001 9.997651e+001 -6.168805e+001 1.001479e+002 -2.655899e-001 1.359508e+002
501132502.83126 -1.884503e-001 -1.759029e+002 -6.136062e+001 9.495454e+001 -6.140365e+001 9.316204e+001 -2.602386e-001 1.358466e+002
501510003.77501 -1.952845e-001 -1.761296e+002 -6.125928e+001 9.604597e+001 -6.144518e+001 9.925822e+001 -2.583295e-001 1.357811e+002
501887504.71876 -2.026275e-001 -1.763167e+002 -6.098212e+001 9.482883e+001 -6.236159e+001 9.715033e+001 -2.613759e-001 1.356693e+002
502265005.66251 -2.044442e-001 -1.765547e+002 -6.111267e+001 9.198952e+001 -6.090248e+001 8.942265e+001 -2.553961e-001 1.355791e+002
502642506.60627 -2.082440e-001 -1.767689e+002 -6.065333e+001 8.961726e+001 -6.076677e+001 8.945191e+001 -2.555350e-001 1.354636e+002
503020007.55002 -2.112999e-001 -1.769955e+002 -6.027327e+001 8.921687e+001 -6.109454e+001 8.848181e+001 -2.515022e-001 1.354581e+002
503397508.49377 -2.175526e-001 -1.772240e+002 -6.074249e+001 9.604539e+001 -6.148529e+001 8.630836e+001 -2.471507e-001 1.353772e+002
503775009.43752 -2.231079e-001 -1.773845e+002 -6.007568e+001 9.212132e+001 -6.118142e+001 8.977574e+001 -2.444309e-001 1.353607e+002
504152510.38128 -2.256436e-001 -1.776555e+002 -6.028074e+001 8.891079e+001 -6.081935e+001 8.884836e+001 -2.385009e-001 1.353246e+002
504530011.32503 -2.315073e-001 -1.778709e+002 -6.030483e+001 9.047295e+001 -6.072032e+001 8.405586e+001 -2.337025e-001 1.353055e+002
504907512.26878 -2.370068e-001 -1.780788e+002 -6.023847e+001 9.213326e+001 -6.120012e+001 8.720066e+001 -2.273395e-001 1.353017e+002
505285013.21253 -2.398640e-001 -1.783268e+002 -6.007143e+001 8.485570e+001 -6.114670e+001 8.527693e+001 -2.258168e-001 1.352965e+002
505662514.15629 -2.435659e-001 -1.784551e+002 -6.006402e+001 8.494756e+001 -6.043223e+001 8.658263e+001 -2.179674e-001 1.352949e+002
506040015.10004 -2.467883e-001 -1.787348e+002 -5.998945e+001 8.385950e+001 -6.077222e+001 8.336095e+001 -2.180633e-001 1.353360e+002
506417516.04379 -2.513878e-001 -1.788679e+002 -5.998861e+001 7.954015e+001 -5.987418e+001 8.538769e+001 -2.038345e-001 1.353745e+002
506795016.98754 -2.502743e-001 -1.791592e+002 -5.931343e+001 8.031872e+001 -6.010076e+001 8.249883e+001 -1.987573e-001 1.354360e+002
507172517.93129 -2.555688e-001 -1.793302e+002 -5.931528e+001 8.028820e+001 -6.014585e+001 7.908087e+001 -1.946949e-001 1.355015e+002
507550018.87505 -2.604907e-001 -1.795767e+002 -5.943122e+001 8.009606e+001 -6.055058e+001 8.239699e+001 -1.841831e-001 1.355633e+002
507927519.8188 -2.618092e-001 -1.797657e+002 -5.943184e+001 7.604913e+001 -6.002556e+001 8.200687e+001 -1.802759e-001 1.356825e+002
508305020.76255 -2.668863e-001 -1.799048e+002 -5.906147e+001 7.384232e+001 -5.960594e+001 7.760294e+001 -1.770128e-001 1.357559e+002
508682521.7063 -2.637488e-001 1.798464e+002 -5.950401e+001 7.840808e+001 -5.942140e+001 7.510088e+001 -1.697408e-001 1.358769e+002
509060022.65006 -2.680791e-001 1.796364e+002 -5.923307e+001 7.698428e+001 -5.944955e+001 7.297701e+001 -1.673379e-001 1.359947e+002
509437523.59381 -2.715129e-001 1.794850e+002 -5.950541e+001 7.406387e+001 -5.956968e+001 7.486794e+001 -1.619122e-001 1.361269e+002
509815024.53756 -2.751535e-001 1.792438e+002 -5.891585e+001 7.345296e+001 -5.947361e+001 7.177833e+001 -1.575626e-001 1.362733e+002
510192525.48131 -2.707608e-001 1.790412e+002 -5.887811e+001 7.371324e+001 -5.934597e+001 7.078045e+001 -1.575721e-001 1.363806e+002
510570026.42507 -2.746371e-001 1.788366e+002 -5.934265e+001 7.120076e+001 -5.974355e+001 7.234508e+001 -1.551293e-001 1.365663e+002
510947527.36882 -2.827388e-001 1.786301e+002 -5.869955e+001 7.054248e+001 -5.943819e+001 7.350241e+001 -1.486252e-001 1.366992e+002
511325028.31257 -2.818446e-001 1.784161e+002 -5.898219e+001 7.019604e+001 -5.951480e+001 6.813863e+001 -1.493659e-001 1.368682e+002
511702529.25632 -2.898833e-001 1.782869e+002 -5.927192e+001 6.965756e+001 -5.885658e+001 7.087733e+001 -1.499829e-001 1.370282e+002
512080030.20008 -2.880038e-001 1.780434e+002 -5.896078e+001 6.652042e+001 -5.901096e+001 6.571584e+001 -1.505059e-001 1.371964e+002
512457531.14383 -2.925166e-001 1.778468e+002 -5.874214e+001 6.725745e+001 -5.912689e+001 6.877338e+001 -1.500161e-001 1.373588e+002
512835032.08758 -2.994273e-001 1.776494e+002 -5.858310e+001 6.496959e+001 -5.940797e+001 6.683907e+001 -1.485329e-001 1.374943e+002
513212533.03133 -3.057853e-001 1.774699e+002 -5.883496e+001 6.579156e+001 -5.894081e+001 6.593550e+001 -1.558537e-001 1.376437e+002
513590033.97508 -3.063942e-001 1.772801e+002 -5.842870e+001 6.457189e+001 -5.884859e+001 6.327648e+001 -1.600177e-001 1.378105e+002
513967534.91884 -3.111716e-001 1.770356e+002 -5.822724e+001 6.318060e+001 -5.853133e+001 6.277673e+001 -1.590478e-001 1.379252e+002
514345035.86259 -3.153058e-001 1.768095e+002 -5.828421e+001 6.478025e+001 -5.910518e+001 6.321299e+001 -1.666324e-001 1.380541e+002
514722536.80634 -3.211704e-001 1.766440e+002 -5.822448e+001 6.298575e+001 -5.903239e+001 6.085034e+001 -1.698934e-001 1.381858e+002
515100037.75009 -3.241804e-001 1.763751e+002 -5.859731e+001 6.157952e+001 -5.897507e+001 6.160138e+001 -1.766306e-001 1.382780e+002
515477538.69385 -3.286908e-001 1.761921e+002 -5.833217e+001 6.315718e+001 -5.882780e+001 5.869676e+001 -1.794575e-001 1.383708e+002
515855039.6376 -3.341995e-001 1.759347e+002 -5.776796e+001 5.946107e+001 -5.848560e+001 6.244350e+001 -1.859283e-001 1.384657e+002
516232540.58135 -3.393297e-001 1.757137e+002 -5.749250e+001 5.877406e+001 -5.882658e+001 5.688047e+001 -1.924424e-001 1.385032e+002
516610041.5251 -3.455514e-001 1.755033e+002 -5.806487e+001 5.804057e+001 -5.881196e+001 5.892247e+001 -2.005343e-001 1.385461e+002
516987542.46886 -3.561225e-001 1.752867e+002 -5.754854e+001 6.073471e+001 -5.890979e+001 5.583373e+001 -2.089242e-001 1.385853e+002
517365043.41261 -3.612534e-001 1.750599e+002 -5.743245e+001 5.644630e+001 -5.872663e+001 5.845346e+001 -2.200792e-001 1.385921e+002
517742544.35636 -3.654690e-001 1.748493e+002 -5.723207e+001 5.536456e+001 -5.884623e+001 5.485418e+001 -2.259611e-001 1.385650e+002
518120045.30011 -3.768523e-001 1.745838e+002 -5.734748e+001 5.645755e+001 -5.838830e+001 5.533188e+001 -2.346287e-001 1.385422e+002
518497546.24387 -3.849702e-001 1.743938e+002 -5.752243e+001 5.588966e+001 -5.843887e+001 5.059907e+001 -2.407881e-001 1.385036e+002
518875047.18762 -3.894932e-001 1.741878e+002 -5.769503e+001 5.409073e+001 -5.816371e+001 5.173305e+001 -2.477858e-001 1.384544e+002
519252548.13137 -3.943854e-001 1.739463e+002 -5.697682e+001 5.208054e+001 -5.809925e+001 4.910971e+001 -2.519295e-001 1.383935e+002
519630049.07512 -3.995908e-001 1.737101e+002 -5.677102e+001 5.252835e+001 -5.846217e+001 4.898963e+001 -2.626278e-001 1.382741e+002
520007550.01888 -4.085812e-001 1.734895e+002 -5.695817e+001 4.955539e+001 -5.813567e+001 4.780367e+001 -2.673824e-001 1.381873e+002
520385050.96263 -4.177277e-001 1.733131e+002 -5.708921e+001 4.713266e+001 -5.775057e+001 4.938656e+001 -2.734445e-001 1.380446e+002
520762551.90638 -4.237963e-001 1.730394e+002 -5.677287e+001 4.786918e+001 -5.805715e+001 4.958748e+001 -2.793966e-001 1.378915e+002
521140052.85013 -4.252068e-001 1.728328e+002 -5.703144e+001 4.581580e+001 -5.806239e+001 4.603645e+001 -2.824282e-001 1.377486e+002
521517553.79388 -4.325421e-001 1.726017e+002 -5.646680e+001 4.390554e+001 -5.765342e+001 4.636999e+001 -2.869122e-001 1.375803e+002
521895054.73764 -4.399513e-001 1.723923e+002 -5.666184e+001 4.233507e+001 -5.767833e+001 4.741022e+001 -2.910755e-001 1.374116e+002
522272555.68139 -4.439741e-001 1.721833e+002 -5.641403e+001 4.269993e+001 -5.768431e+001 4.283348e+001 -2.950698e-001 1.372442e+002
522650056.62514 -4.505669e-001 1.719637e+002 -5.654482e+001 3.905132e+001 -5.769869e+001 4.253541e+001 -2.954659e-001 1.370827e+002
523027557.56889 -4.532668e-001 1.717383e+002 -5.642643e+001 4.198435e+001 -5.770516e+001 3.973653e+001 -2.979793e-001 1.368716e+002
523405058.51265 -4.604917e-001 1.715453e+002 -5.637809e+001 3.911594e+001 -5.804318e+001 4.162241e+001 -3.005466e-001 1.366704e+002
523782559.4564 -4.634816e-001 1.712926e+002 -5.645404e+001 3.922893e+001 -5.771052e+001 4.367371e+001 -2.942912e-001 1.365133e+002
524160060.40015 -4.662580e-001 1.710794e+002 -5.639474e+001 3.917552e+001 -5.776315e+001 4.080753e+001 -2.942243e-001 1.362995e+002
524537561.3439 -4.716842e-001 1.708813e+002 -5.657117e+001 3.972911e+001 -5.747386e+001 3.989684e+001 -2.939546e-001 1.361723e+002
524915062.28766 -4.762081e-001 1.706388e+002 -5.662994e+001 3.280933e+001 -5.781470e+001 4.111718e+001 -2.927531e-001 1.359515e+002
525292563.23141 -4.822989e-001 1.704148e+002 -5.647155e+001 3.483571e+001 -5.726391e+001 3.791188e+001 -2.892302e-001 1.357498e+002
525670064.17516 -4.838437e-001 1.701751e+002 -5.682116e+001 3.731573e+001 -5.742489e+001 3.619241e+001 -2.835342e-001 1.356108e+002
526047565.11891 -4.890587e-001 1.699936e+002 -5.632517e+001 3.318344e+001 -5.714555e+001 3.717339e+001 -2.824091e-001 1.354586e+002
526425066.06267 -4.987148e-001 1.697718e+002 -5.682522e+001 3.462178e+001 -5.724372e+001 3.830296e+001 -2.812693e-001 1.353047e+002
526802567.00642 -5.004847e-001 1.695416e+002 -5.637535e+001 3.245457e+001 -5.700829e+001 3.791564e+001 -2.736239e-001 1.351778e+002
527180067.95017 -5.094117e-001 1.692825e+002 -5.618589e+001 3.152124e+001 -5.669036e+001 3.677381e+001 -2.655143e-001 1.350420e+002
527557568.89392 -5.175493e-001 1.690731e+002 -5.599194e+001 3.077582e+001 -5.677641e+001 3.863248e+001 -2.573729e-001 1.349030e+002
527935069.83767 -5.200368e-001 1.688486e+002 -5.609104e+001 3.006452e+001 -5.670376e+001 3.385526e+001 -2.577739e-001 1.347398e+002
528312570.78143 -5.325372e-001 1.686167e+002 -5.592436e+001 3.088172e+001 -5.643940e+001 3.193260e+001 -2.500949e-001 1.347582e+002
528690071.72518 -5.420232e-001 1.683944e+002 -5.624780e+001 2.712909e+001 -5.624998e+001 3.573566e+001 -2.425177e-001 1.346287e+002
529067572.66893 -5.479349e-001 1.682161e+002 -5.617212e+001 2.635431e+001 -5.660878e+001 3.188758e+001 -2.371220e-001 1.345475e+002
529445073.61268 -5.559050e-001 1.679815e+002 -5.617176e+001 2.907054e+001 -5.606033e+001 3.207087e+001 -2.346854e-001 1.344842e+002
529822574.55644 -5.634037e-001 1.677796e+002 -5.590122e+001 2.662659e+001 -5.622039e+001 3.084943e+001 -2.277637e-001 1.344182e+002
530200075.50019 -5.694518e-001 1.675989e+002 -5.564356e+001 2.450202e+001 -5.618337e+001 3.149889e+001 -2.192014e-001 1.343937e+002
530577576.44394 -5.787135e-001 1.674283e+002 -5.549167e+001 2.307096e+001 -5.598742e+001 2.918479e+001 -2.172619e-001 1.343183e+002
530955077.38769 -5.845897e-001 1.672280e+002 -5.577072e+001 2.331674e+001 -5.580432e+001 2.736596e+001 -2.118828e-001 1.342683e+002
531332578.33145 -5.913438e-001 1.669923e+002 -5.506230e+001 2.036032e+001 -5.556905e+001 2.717808e+001 -2.094879e-001 1.342767e+002
531710079.2752 -5.986355e-001 1.667911e+002 -5.543425e+001 2.266901e+001 -5.592547e+001 2.419608e+001 -2.072142e-001 1.342507e+002
532087580.21895 -6.008382e-001 1.665603e+002 -5.557853e+001 1.939381e+001 -5.540662e+001 2.477223e+001 -2.024765e-001 1.342302e+002
532465081.1627 -6.088673e-001 1.664366e+002 -5.504012e+001 1.826214e+001 -5.547813e+001 2.323718e+001 -1.998179e-001 1.342254e+002
532842582.10646 -6.139510e-001 1.662410e+002 -5.531247e+001 1.901982e+001 -5.549388e+001 2.503945e+001 -1.927969e-001 1.342028e+002
533220083.05021 -6.198297e-001 1.659986e+002 -5.516206e+001 1.910178e+001 -5.557107e+001 2.055695e+001 -1.898720e-001 1.341935e+002
533597583.99396 -6.237370e-001 1.658248e+002 -5.510118e+001 1.847153e+001 -5.540692e+001 2.020656e+001 -1.896345e-001 1.341920e+002
533975084.93771 -6.304495e-001 1.656822e+002 -5.500500e+001 1.550859e+001 -5.511228e+001 1.949908e+001 -1.868162e-001 1.341925e+002
534352585.88146 -6.353039e-001 1.654282e+002 -5.506182e+001 1.324232e+001 -5.517675e+001 1.603111e+001 -1.833012e-001 1.341871e+002
534730086.82522 -6.379028e-001 1.652547e+002 -5.491596e+001 1.392737e+001 -5.529921e+001 1.778378e+001 -1.845896e-001 1.341938e+002
535107587.76897 -6.412982e-001 1.650476e+002 -5.484459e+001 1.407699e+001 -5.502409e+001 1.773878e+001 -1.784069e-001 1.342379e+002
535485088.71272 -6.440451e-001 1.648383e+002 -5.479301e+001 1.310536e+001 -5.525767e+001 1.517235e+001 -1.826466e-001 1.341873e+002
535862589.65647 -6.520087e-001 1.646876e+002 -5.471043e+001 1.296502e+001 -5.497902e+001 1.418612e+001 -1.787104e-001 1.341961e+002
536240090.60023 -6.528963e-001 1.644521e+002 -5.441906e+001 1.176405e+001 -5.491143e+001 1.373858e+001 -1.782656e-001 1.341884e+002
536617591.54398 -6.568265e-001 1.642763e+002 -5.432761e+001 8.856215e+000 -5.477730e+001 1.232951e+001 -1.787557e-001 1.342066e+002
536995092.48773 -6.593750e-001 1.640251e+002 -5.421879e+001 7.980112e+000 -5.446477e+001 1.039736e+001 -1.777736e-001 1.342469e+002
537372593.43148 -6.639057e-001 1.638060e+002 -5.392125e+001 6.942278e+000 -5.471650e+001 1.091574e+001 -1.796484e-001 1.341985e+002
537750094.37524 -6.653652e-001 1.636503e+002 -5.441602e+001 5.843312e+000 -5.461644e+001 9.293742e+000 -1.857944e-001 1.342023e+002
538127595.31899 -6.730338e-001 1.633753e+002 -5.401340e+001 5.846583e+000 -5.451012e+001 9.832128e+000 -1.808379e-001 1.341921e+002
538505096.26274 -6.734570e-001 1.631536e+002 -5.430441e+001 3.675668e+000 -5.443341e+001 8.256991e+000 -1.855154e-001 1.342360e+002
538882597.20649 -6.803041e-001 1.629848e+002 -5.406611e+001 5.842523e-001 -5.441454e+001 6.239239e+000 -1.817914e-001 1.342062e+002
539260098.15025 -6.827659e-001 1.627967e+002 -5.402653e+001 2.428813e+000 -5.438912e+001 3.891135e+000 -1.818162e-001 1.341910e+002
539637599.094 -6.920339e-001 1.625908e+002 -5.379222e+001 1.830744e+000 -5.424353e+001 3.215789e+000 -1.827384e-001 1.342034e+002
540015100.03775 -6.946875e-001 1.623552e+002 -5.358005e+001 -1.953957e+000 -5.410995e+001 1.407420e+000 -1.860030e-001 1.341967e+002
540392600.9815 -6.988952e-001 1.621219e+002 -5.366388e+001 -2.396997e+000 -5.427005e+001 1.046584e+000 -1.821289e-001 1.341933e+002
540770101.92525 -6.971817e-001 1.619215e+002 -5.355577e+001 -2.552202e+000 -5.377218e+001 2.650706e-001 -1.825086e-001 1.342024e+002
541147602.86901 -7.058789e-001 1.616632e+002 -5.366278e+001 -3.188592e+000 -5.378305e+001 4.070818e-002 -1.816102e-001 1.342364e+002
541525103.81276 -7.088115e-001 1.615546e+002 -5.330652e+001 -5.885314e+000 -5.411348e+001 -2.325050e+000 -1.823231e-001 1.342174e+002
541902604.75651 -7.051105e-001 1.612847e+002 -5.338186e+001 -8.622299e+000 -5.388921e+001 -2.744445e+000 -1.754198e-001 1.342782e+002
542280105.70026 -7.114352e-001 1.610341e+002 -5.369744e+001 -8.009282e+000 -5.389859e+001 -5.022021e+000 -1.784329e-001 1.342358e+002
542657606.64402 -7.128322e-001 1.608934e+002 -5.347976e+001 -7.429219e+000 -5.398677e+001 -6.769440e+000 -1.770033e-001 1.342630e+002
543035107.58777 -7.119554e-001 1.606371e+002 -5.350425e+001 -7.749434e+000 -5.386523e+001 -5.627591e+000 -1.786676e-001 1.342646e+002
543412608.53152 -7.180993e-001 1.604637e+002 -5.346781e+001 -7.910198e+000 -5.381970e+001 -7.185220e+000 -1.780941e-001 1.342798e+002
543790109.47527 -7.177204e-001 1.601875e+002 -5.340133e+001 -1.113574e+001 -5.387034e+001 -6.867233e+000 -1.753155e-001 1.342922e+002
544167610.41903 -7.137917e-001 1.599556e+002 -5.335357e+001 -1.084295e+001 -5.402293e+001 -1.098965e+001 -1.774899e-001 1.343288e+002
544545111.36278 -7.226266e-001 1.596594e+002 -5.347702e+001 -1.155352e+001 -5.399630e+001 -1.054528e+001 -1.766316e-001 1.343142e+002
544922612.30653 -7.182223e-001 1.594957e+002 -5.339457e+001 -1.175841e+001 -5.365823e+001 -1.054917e+001 -1.797767e-001 1.343004e+002
545300113.25028 -7.189291e-001 1.592431e+002 -5.338570e+001 -1.241673e+001 -5.373007e+001 -1.168586e+001 -1.806876e-001 1.343373e+002
545677614.19404 -7.227547e-001 1.589600e+002 -5.313513e+001 -1.411028e+001 -5.349657e+001 -1.190699e+001 -1.794282e-001 1.343406e+002
546055115.13779 -7.196661e-001 1.587190e+002 -5.303210e+001 -1.599966e+001 -5.384194e+001 -1.417211e+001 -1.823298e-001 1.343499e+002
546432616.08154 -7.245402e-001 1.584576e+002 -5.338919e+001 -1.621473e+001 -5.353822e+001 -1.588720e+001 -1.794488e-001 1.343740e+002
546810117.02529 -7.273508e-001 1.582391e+002 -5.322047e+001 -1.783710e+001 -5.349359e+001 -1.536567e+001 -1.830802e-001 1.343576e+002
547187617.96904 -7.339498e-001 1.579417e+002 -5.316715e+001 -1.854913e+001 -5.369537e+001 -1.685121e+001 -1.855702e-001 1.343758e+002
547565118.9128 -7.330604e-001 1.576263e+002 -5.294878e+001 -1.840252e+001 -5.349213e+001 -1.678751e+001 -1.852396e-001 1.343646e+002
547942619.85655 -7.386871e-001 1.574575e+002 -5.291098e+001 -1.935250e+001 -5.352840e+001 -1.742992e+001 -1.911704e-001 1.343816e+002
548320120.8003 -7.447950e-001 1.571717e+002 -5.278147e+001 -2.096702e+001 -5.353612e+001 -1.826447e+001 -1.916193e-001 1.343860e+002
548697621.74405 -7.477850e-001 1.569185e+002 -5.283877e+001 -2.131374e+001 -5.328440e+001 -1.966597e+001 -1.960912e-001 1.344055e+002
549075122.68781 -7.563685e-001 1.566972e+002 -5.257786e+001 -2.437275e+001 -5.347203e+001 -1.959793e+001 -1.998830e-001 1.343965e+002
549452623.63156 -7.595100e-001 1.564650e+002 -5.240445e+001 -2.440256e+001 -5.330281e+001 -2.135889e+001 -2.034328e-001 1.343702e+002
549830124.57531 -7.645801e-001 1.562318e+002 -5.251564e+001 -2.521982e+001 -5.294310e+001 -2.270865e+001 -2.064115e-001 1.343614e+002
550207625.51906 -7.654272e-001 1.560241e+002 -5.245699e+001 -2.641540e+001 -5.286203e+001 -2.420713e+001 -2.098596e-001 1.343602e+002
550585126.46282 -7.697171e-001 1.557909e+002 -5.237698e+001 -2.781826e+001 -5.291477e+001 -2.523748e+001 -2.154118e-001 1.343252e+002
550962627.40657 -7.725760e-001 1.555654e+002 -5.258009e+001 -2.860993e+001 -5.330859e+001 -2.526369e+001 -2.206085e-001 1.343213e+002
551340128.35032 -7.734464e-001 1.553285e+002 -5.252184e+001 -3.147876e+001 -5.322746e+001 -2.736668e+001 -2.228720e-001 1.343505e+002
551717629.29407 -7.768341e-001 1.550811e+002 -5.261861e+001 -3.076989e+001 -5.312388e+001 -2.843262e+001 -2.238120e-001 1.343015e+002
552095130.23783 -7.805871e-001 1.548642e+002 -5.262815e+001 -3.058364e+001 -5.276571e+001 -2.799682e+001 -2.290435e-001 1.342736e+002
552472631.18158 -7.825119e-001 1.546226e+002 -5.244101e+001 -3.313287e+001 -5.307482e+001 -3.067906e+001 -2.325341e-001 1.342490e+002
552850132.12533 -7.891864e-001 1.543543e+002 -5.244148e+001 -3.314668e+001 -5.299538e+001 -3.266349e+001 -2.338547e-001 1.342198e+002
553227633.06908 -7.922208e-001 1.541129e+002 -5.245978e+001 -3.408265e+001 -5.268016e+001 -3.241573e+001 -2.417754e-001 1.341971e+002
553605134.01284 -7.970605e-001 1.538405e+002 -5.255759e+001 -3.467323e+001 -5.272589e+001 -3.243265e+001 -2.478418e-001 1.341494e+002
553982634.95659 -8.031776e-001 1.535978e+002 -5.259106e+001 -3.691075e+001 -5.308159e+001 -3.497818e+001 -2.474065e-001 1.341055e+002
554360135.90034 -8.106232e-001 1.533612e+002 -5.269924e+001 -3.826723e+001 -5.306915e+001 -3.637440e+001 -2.489451e-001 1.340716e+002
554737636.84409 -8.164283e-001 1.530904e+002 -5.241581e+001 -3.947141e+001 -5.287862e+001 -3.567398e+001 -2.544174e-001 1.340346e+002
555115137.78784 -8.242485e-001 1.528868e+002 -5.229214e+001 -4.014090e+001 -5.298981e+001 -3.792010e+001 -2.564176e-001 1.340044e+002
555492638.7316 -8.281326e-001 1.525691e+002 -5.264133e+001 -4.128917e+001 -5.270757e+001 -3.722150e+001 -2.545586e-001 1.339364e+002
