!Agilent Technologies,E8364B,US42250235,A.06.04.32
!Agilent E8364B: A.06.04.32
!Date: Thursday, October 01, 2020 10:56:46
!Correction: S11(Full 2 Port(1,2)) S21(Full 2 Port(1,2)) S12(Full 2 Port(1,2)) S22(Full 2 Port(1,2)) 
!S2P File: Measurements: S11, S21, S12, S22:
# Hz S  dB   R 50
500000000 -1.567844e-001 -1.754421e+002 -6.644926e+001 8.651044e+001 -6.064677e+001 5.525624e+001 -2.595600e-001 1.376889e+002
500377500.94375 -1.602865e-001 -1.756313e+002 -6.715191e+001 8.823066e+001 -6.059102e+001 5.604514e+001 -2.607535e-001 1.376437e+002
500755001.8875 -1.609150e-001 -1.758103e+002 -6.736096e+001 8.170818e+001 -6.024802e+001 4.983227e+001 -2.643603e-001 1.375924e+002
501132502.83126 -1.631413e-001 -1.760284e+002 -6.542803e+001 8.898030e+001 -5.961406e+001 5.304806e+001 -2.626692e-001 1.375338e+002
501510003.77501 -1.669155e-001 -1.762576e+002 -6.716190e+001 8.557291e+001 -6.034283e+001 4.673720e+001 -2.650523e-001 1.375210e+002
501887504.71876 -1.732227e-001 -1.764375e+002 -6.550038e+001 8.628594e+001 -6.002124e+001 5.288681e+001 -2.729709e-001 1.374375e+002
502265005.66251 -1.723936e-001 -1.766705e+002 -6.673938e+001 8.751234e+001 -5.961097e+001 4.815918e+001 -2.685485e-001 1.373773e+002
502642506.60627 -1.800571e-001 -1.768943e+002 -6.570638e+001 8.248456e+001 -5.967029e+001 4.959436e+001 -2.714717e-001 1.373377e+002
503020007.55002 -1.767841e-001 -1.771069e+002 -6.434750e+001 9.240688e+001 -5.944886e+001 4.940833e+001 -2.699229e-001 1.372950e+002
503397508.49377 -1.822467e-001 -1.773219e+002 -6.562505e+001 8.035493e+001 -5.938555e+001 4.534779e+001 -2.662880e-001 1.372103e+002
503775009.43752 -1.867162e-001 -1.774881e+002 -6.522211e+001 8.073885e+001 -5.975740e+001 4.925173e+001 -2.727415e-001 1.371798e+002
504152510.38128 -1.873959e-001 -1.777662e+002 -6.603842e+001 7.360100e+001 -5.933743e+001 4.842925e+001 -2.675940e-001 1.371221e+002
504530011.32503 -1.923377e-001 -1.779582e+002 -6.619401e+001 8.737841e+001 -5.961057e+001 4.804447e+001 -2.700498e-001 1.370772e+002
504907512.26878 -1.963230e-001 -1.781595e+002 -6.588925e+001 8.710182e+001 -5.988042e+001 4.845023e+001 -2.684292e-001 1.370233e+002
505285013.21253 -1.971935e-001 -1.784008e+002 -6.647886e+001 7.785354e+001 -5.914915e+001 4.529847e+001 -2.695281e-001 1.369777e+002
505662514.15629 -2.001600e-001 -1.785439e+002 -6.640638e+001 7.860118e+001 -5.925814e+001 4.737830e+001 -2.680404e-001 1.368978e+002
506040015.10004 -2.018627e-001 -1.788169e+002 -6.646769e+001 8.470443e+001 -5.923804e+001 4.706026e+001 -2.681772e-001 1.368758e+002
506417516.04379 -2.063720e-001 -1.789959e+002 -6.598053e+001 7.475624e+001 -5.913777e+001 4.541578e+001 -2.593752e-001 1.368291e+002
506795016.98754 -2.050813e-001 -1.792361e+002 -6.550272e+001 7.638200e+001 -5.892949e+001 4.468869e+001 -2.600325e-001 1.367983e+002
507172517.93129 -2.079394e-001 -1.794230e+002 -6.554235e+001 8.071218e+001 -5.881758e+001 4.126082e+001 -2.611364e-001 1.367608e+002
507550018.87505 -2.098555e-001 -1.796629e+002 -6.566052e+001 7.813776e+001 -5.810813e+001 4.544156e+001 -2.517246e-001 1.367309e+002
507927519.8188 -2.115859e-001 -1.798433e+002 -6.632785e+001 7.829583e+001 -5.854191e+001 4.509578e+001 -2.536083e-001 1.367158e+002
508305020.76255 -2.157439e-001 1.799960e+002 -6.501219e+001 8.022519e+001 -5.865207e+001 4.584542e+001 -2.531216e-001 1.366850e+002
508682521.7063 -2.110662e-001 1.797533e+002 -6.534702e+001 7.459837e+001 -5.816952e+001 4.433470e+001 -2.494473e-001 1.366958e+002
509060022.65006 -2.156594e-001 1.795297e+002 -6.503707e+001 8.286113e+001 -5.820746e+001 4.025578e+001 -2.474401e-001 1.366584e+002
509437523.59381 -2.171125e-001 1.793610e+002 -6.556387e+001 8.578957e+001 -5.829723e+001 4.069225e+001 -2.448453e-001 1.366652e+002
509815024.53756 -2.182446e-001 1.791473e+002 -6.571776e+001 7.715015e+001 -5.806239e+001 4.093441e+001 -2.451447e-001 1.366679e+002
510192525.48131 -2.151747e-001 1.788963e+002 -6.513689e+001 7.091555e+001 -5.852979e+001 3.857106e+001 -2.432076e-001 1.366610e+002
510570026.42507 -2.192897e-001 1.786806e+002 -6.529338e+001 8.179092e+001 -5.795584e+001 3.741395e+001 -2.427837e-001 1.367002e+002
510947527.36882 -2.238332e-001 1.784551e+002 -6.543184e+001 7.599853e+001 -5.773642e+001 3.799098e+001 -2.375176e-001 1.366943e+002
511325028.31257 -2.236948e-001 1.782142e+002 -6.597955e+001 7.922361e+001 -5.805816e+001 3.917927e+001 -2.382240e-001 1.367249e+002
511702529.25632 -2.278610e-001 1.780776e+002 -6.555457e+001 7.582937e+001 -5.698246e+001 4.005962e+001 -2.374511e-001 1.367440e+002
512080030.20008 -2.252297e-001 1.778222e+002 -6.611008e+001 7.239560e+001 -5.771521e+001 4.060101e+001 -2.356014e-001 1.367702e+002
512457531.14383 -2.304077e-001 1.776061e+002 -6.570838e+001 7.667684e+001 -5.684290e+001 4.198902e+001 -2.346893e-001 1.367738e+002
512835032.08758 -2.335334e-001 1.774133e+002 -6.583624e+001 7.956612e+001 -5.738246e+001 3.724691e+001 -2.357087e-001 1.367880e+002
513212533.03133 -2.394718e-001 1.772145e+002 -6.552079e+001 7.201400e+001 -5.719991e+001 3.540470e+001 -2.375220e-001 1.368082e+002
513590033.97508 -2.398618e-001 1.770086e+002 -6.413091e+001 7.577251e+001 -5.697586e+001 3.427255e+001 -2.391383e-001 1.368451e+002
513967534.91884 -2.463857e-001 1.767678e+002 -6.452424e+001 7.592713e+001 -5.670409e+001 3.592736e+001 -2.369497e-001 1.368603e+002
514345035.86259 -2.465295e-001 1.765445e+002 -6.444957e+001 7.796068e+001 -5.659209e+001 3.614668e+001 -2.404981e-001 1.368907e+002
514722536.80634 -2.526898e-001 1.763736e+002 -6.457039e+001 8.718567e+001 -5.663822e+001 3.574774e+001 -2.414047e-001 1.368997e+002
515100037.75009 -2.540443e-001 1.761008e+002 -6.378431e+001 7.803424e+001 -5.675366e+001 3.359390e+001 -2.438738e-001 1.369094e+002
515477538.69385 -2.572224e-001 1.759076e+002 -6.458492e+001 7.770302e+001 -5.632738e+001 3.299034e+001 -2.436075e-001 1.369238e+002
515855039.6376 -2.604785e-001 1.756616e+002 -6.367719e+001 7.844811e+001 -5.624741e+001 3.272764e+001 -2.494879e-001 1.369298e+002
516232540.58135 -2.609587e-001 1.754488e+002 -6.445428e+001 7.821255e+001 -5.637182e+001 3.120280e+001 -2.461564e-001 1.369167e+002
516610041.5251 -2.645067e-001 1.752121e+002 -6.401593e+001 7.506008e+001 -5.615133e+001 2.986345e+001 -2.533509e-001 1.369072e+002
516987542.46886 -2.698251e-001 1.750038e+002 -6.361037e+001 7.896801e+001 -5.554499e+001 3.315235e+001 -2.543430e-001 1.368938e+002
517365043.41261 -2.712291e-001 1.747683e+002 -6.338910e+001 7.446638e+001 -5.618764e+001 2.917495e+001 -2.591340e-001 1.368722e+002
517742544.35636 -2.749957e-001 1.745396e+002 -6.370750e+001 7.451511e+001 -5.591632e+001 2.818938e+001 -2.620578e-001 1.368408e+002
518120045.30011 -2.808565e-001 1.742896e+002 -6.388646e+001 7.921184e+001 -5.552402e+001 3.045193e+001 -2.639560e-001 1.368177e+002
518497546.24387 -2.873262e-001 1.740751e+002 -6.321251e+001 7.394221e+001 -5.542169e+001 3.064733e+001 -2.636884e-001 1.367635e+002
518875047.18762 -2.922913e-001 1.738288e+002 -6.306386e+001 7.462616e+001 -5.525803e+001 2.964626e+001 -2.656879e-001 1.367415e+002
519252548.13137 -2.951873e-001 1.736243e+002 -6.405959e+001 7.099012e+001 -5.527192e+001 2.994864e+001 -2.667156e-001 1.367191e+002
519630049.07512 -2.978552e-001 1.733806e+002 -6.257304e+001 7.259230e+001 -5.544677e+001 2.701954e+001 -2.710198e-001 1.366419e+002
520007550.01888 -3.038009e-001 1.731566e+002 -6.250230e+001 7.175356e+001 -5.497058e+001 2.678523e+001 -2.702609e-001 1.365902e+002
520385050.96263 -3.097325e-001 1.729542e+002 -6.296109e+001 7.662086e+001 -5.483505e+001 2.639911e+001 -2.705579e-001 1.365340e+002
520762551.90638 -3.160845e-001 1.726737e+002 -6.235925e+001 6.623324e+001 -5.491008e+001 2.323316e+001 -2.706318e-001 1.364700e+002
521140052.85013 -3.137724e-001 1.724611e+002 -6.269615e+001 7.217705e+001 -5.470231e+001 2.356805e+001 -2.713442e-001 1.364074e+002
521517553.79388 -3.164974e-001 1.722227e+002 -6.238769e+001 6.859044e+001 -5.467523e+001 2.232666e+001 -2.722645e-001 1.363714e+002
521895054.73764 -3.207409e-001 1.719908e+002 -6.192595e+001 6.911317e+001 -5.455233e+001 2.327796e+001 -2.731018e-001 1.363224e+002
522272555.68139 -3.223356e-001 1.717597e+002 -6.264813e+001 6.163041e+001 -5.459786e+001 1.921715e+001 -2.704479e-001 1.362716e+002
522650056.62514 -3.241105e-001 1.715392e+002 -6.261528e+001 6.462510e+001 -5.449689e+001 2.306674e+001 -2.701426e-001 1.362417e+002
523027557.56889 -3.252712e-001 1.712757e+002 -6.396431e+001 7.144470e+001 -5.405704e+001 1.905181e+001 -2.683326e-001 1.361606e+002
523405058.51265 -3.296259e-001 1.710551e+002 -6.298091e+001 7.178067e+001 -5.418888e+001 1.915742e+001 -2.670538e-001 1.361203e+002
523782559.4564 -3.338160e-001 1.707767e+002 -6.286408e+001 7.204185e+001 -5.392047e+001 2.077234e+001 -2.646978e-001 1.360797e+002
524160060.40015 -3.337954e-001 1.705460e+002 -6.200593e+001 6.954568e+001 -5.425002e+001 1.797478e+001 -2.624215e-001 1.360515e+002
524537561.3439 -3.392721e-001 1.703094e+002 -6.125517e+001 6.483141e+001 -5.383394e+001 1.805278e+001 -2.578664e-001 1.360697e+002
524915062.28766 -3.422107e-001 1.700492e+002 -6.222045e+001 6.707005e+001 -5.420593e+001 1.900716e+001 -2.580492e-001 1.359861e+002
525292563.23141 -3.435741e-001 1.698121e+002 -6.222153e+001 6.622420e+001 -5.375961e+001 1.622928e+001 -2.563583e-001 1.359630e+002
525670064.17516 -3.464489e-001 1.695663e+002 -6.168464e+001 6.513165e+001 -5.327953e+001 1.655235e+001 -2.546425e-001 1.359611e+002
526047565.11891 -3.509693e-001 1.693637e+002 -6.238803e+001 6.973219e+001 -5.370938e+001 1.588828e+001 -2.488304e-001 1.359646e+002
526425066.06267 -3.566295e-001 1.690898e+002 -6.190984e+001 6.398407e+001 -5.328695e+001 1.489741e+001 -2.486224e-001 1.359723e+002
526802567.00642 -3.606373e-001 1.688329e+002 -6.217229e+001 6.360093e+001 -5.331577e+001 1.246227e+001 -2.437957e-001 1.359280e+002
527180067.95017 -3.628325e-001 1.685406e+002 -6.257560e+001 6.298718e+001 -5.291053e+001 1.246930e+001 -2.380568e-001 1.359856e+002
527557568.89392 -3.710163e-001 1.683046e+002 -6.104789e+001 6.800449e+001 -5.301590e+001 1.180025e+001 -2.375873e-001 1.359216e+002
527935069.83767 -3.727973e-001 1.680342e+002 -6.152151e+001 6.407775e+001 -5.287354e+001 1.204441e+001 -2.366932e-001 1.360156e+002
528312570.78143 -3.830947e-001 1.677600e+002 -6.112018e+001 5.897012e+001 -5.326760e+001 1.196509e+001 -2.332162e-001 1.360975e+002
528690071.72518 -3.899016e-001 1.675153e+002 -6.119194e+001 6.548006e+001 -5.255667e+001 8.479602e+000 -2.297796e-001 1.360812e+002
529067572.66893 -3.972986e-001 1.672918e+002 -6.105392e+001 5.790544e+001 -5.255668e+001 1.014795e+001 -2.312717e-001 1.361078e+002
529445073.61268 -4.021946e-001 1.670204e+002 -6.130281e+001 6.306197e+001 -5.228314e+001 1.033761e+001 -2.311406e-001 1.361368e+002
529822574.55644 -4.108283e-001 1.667707e+002 -6.085068e+001 6.269526e+001 -5.223881e+001 7.516844e+000 -2.315375e-001 1.361581e+002
530200075.50019 -4.120520e-001 1.665307e+002 -6.099902e+001 6.073427e+001 -5.234592e+001 6.275576e+000 -2.274368e-001 1.361789e+002
530577576.44394 -4.208284e-001 1.663010e+002 -6.056506e+001 5.804688e+001 -5.181900e+001 5.727913e+000 -2.293446e-001 1.362082e+002
530955077.38769 -4.263269e-001 1.660778e+002 -6.019542e+001 6.156511e+001 -5.174935e+001 3.977902e+000 -2.288132e-001 1.361251e+002
531332578.33145 -4.332541e-001 1.657861e+002 -6.016128e+001 5.860879e+001 -5.202507e+001 5.528203e+000 -2.337207e-001 1.362106e+002
531710079.2752 -4.412045e-001 1.655463e+002 -6.065141e+001 5.559577e+001 -5.165225e+001 2.941173e+000 -2.341255e-001 1.362090e+002
532087580.21895 -4.448007e-001 1.652619e+002 -6.014244e+001 5.769144e+001 -5.135532e+001 1.285385e+000 -2.346743e-001 1.361999e+002
532465081.1627 -4.530477e-001 1.650723e+002 -5.992754e+001 5.396867e+001 -5.144466e+001 8.837486e-001 -2.416627e-001 1.361979e+002
532842582.10646 -4.596651e-001 1.648474e+002 -6.028979e+001 5.595695e+001 -5.119338e+001 8.595271e-001 -2.396805e-001 1.361361e+002
533220083.05021 -4.674639e-001 1.645615e+002 -5.976768e+001 5.386962e+001 -5.130955e+001 -6.061867e-001 -2.383323e-001 1.361121e+002
533597583.99396 -4.736677e-001 1.643371e+002 -5.994369e+001 5.670091e+001 -5.118789e+001 -1.783506e+000 -2.459178e-001 1.360052e+002
533975084.93771 -4.805650e-001 1.641199e+002 -6.018982e+001 5.332507e+001 -5.128304e+001 -3.283568e+000 -2.449182e-001 1.360202e+002
534352585.88146 -4.898055e-001 1.638184e+002 -6.022814e+001 5.378653e+001 -5.099771e+001 -4.064501e+000 -2.449754e-001 1.359314e+002
534730086.82522 -4.964028e-001 1.635941e+002 -5.979628e+001 5.168899e+001 -5.105443e+001 -5.444706e+000 -2.537611e-001 1.358457e+002
535107587.76897 -5.037571e-001 1.633370e+002 -5.931591e+001 5.443784e+001 -5.088681e+001 -5.397940e+000 -2.457847e-001 1.358145e+002
535485088.71272 -5.133804e-001 1.631080e+002 -5.970475e+001 5.114025e+001 -5.087618e+001 -6.799586e+000 -2.595114e-001 1.356772e+002
535862589.65647 -5.227428e-001 1.628980e+002 -6.000057e+001 4.970980e+001 -5.102352e+001 -7.812282e+000 -2.601722e-001 1.355912e+002
536240090.60023 -5.279097e-001 1.626431e+002 -5.922269e+001 4.883893e+001 -5.060825e+001 -8.552558e+000 -2.634391e-001 1.354761e+002
536617591.54398 -5.357792e-001 1.624257e+002 -5.953697e+001 5.035463e+001 -5.061303e+001 -8.774303e+000 -2.658900e-001 1.353696e+002
536995092.48773 -5.423924e-001 1.621276e+002 -5.919897e+001 4.933707e+001 -5.059352e+001 -1.020235e+001 -2.659777e-001 1.352977e+002
537372593.43148 -5.523093e-001 1.618728e+002 -5.925368e+001 4.882375e+001 -5.063184e+001 -1.170095e+001 -2.674120e-001 1.351263e+002
537750094.37524 -5.616608e-001 1.617000e+002 -5.946138e+001 4.778708e+001 -5.050488e+001 -1.227635e+001 -2.723355e-001 1.350061e+002
538127595.31899 -5.707169e-001 1.613643e+002 -5.923480e+001 4.563858e+001 -5.038595e+001 -1.254356e+001 -2.712297e-001 1.348739e+002
538505096.26274 -5.790019e-001 1.611453e+002 -5.996902e+001 4.208163e+001 -5.034649e+001 -1.410460e+001 -2.723437e-001 1.347781e+002
538882597.20649 -5.915804e-001 1.609306e+002 -5.939938e+001 4.212652e+001 -5.034598e+001 -1.426972e+001 -2.707606e-001 1.346284e+002
539260098.15025 -5.984086e-001 1.607325e+002 -5.911608e+001 4.319798e+001 -5.012001e+001 -1.546607e+001 -2.688959e-001 1.344952e+002
539637599.094 -6.084639e-001 1.604834e+002 -5.916970e+001 4.174295e+001 -5.012820e+001 -1.664821e+001 -2.677981e-001 1.343927e+002
540015100.03775 -6.203520e-001 1.602250e+002 -5.948862e+001 4.459121e+001 -5.026040e+001 -1.818440e+001 -2.718479e-001 1.342558e+002
540392600.9815 -6.270025e-001 1.599784e+002 -5.937298e+001 4.350529e+001 -5.011066e+001 -1.877410e+001 -2.625100e-001 1.341636e+002
540770101.92525 -6.311293e-001 1.597612e+002 -5.944617e+001 4.378027e+001 -4.982107e+001 -1.850668e+001 -2.634508e-001 1.340482e+002
541147602.86901 -6.443645e-001 1.594761e+002 -5.943364e+001 4.422716e+001 -4.990327e+001 -1.850592e+001 -2.588061e-001 1.339672e+002
541525103.81276 -6.529214e-001 1.593054e+002 -5.941633e+001 4.617264e+001 -4.992026e+001 -2.037329e+001 -2.557369e-001 1.338746e+002
541902604.75651 -6.586357e-001 1.590395e+002 -5.939685e+001 4.668089e+001 -4.971998e+001 -2.074378e+001 -2.520670e-001 1.338379e+002
542280105.70026 -6.669245e-001 1.587531e+002 -5.912403e+001 4.094686e+001 -4.955144e+001 -2.206615e+001 -2.487064e-001 1.337271e+002
542657606.64402 -6.748884e-001 1.585920e+002 -5.946925e+001 4.190326e+001 -4.978899e+001 -2.420436e+001 -2.449041e-001 1.336783e+002
543035107.58777 -6.805485e-001 1.583178e+002 -5.887811e+001 4.448941e+001 -4.963548e+001 -2.375316e+001 -2.418314e-001 1.336289e+002
543412608.53152 -6.905724e-001 1.581169e+002 -5.882469e+001 4.260226e+001 -4.948402e+001 -2.477375e+001 -2.370120e-001 1.335886e+002
543790109.47527 -6.998526e-001 1.578295e+002 -5.911625e+001 4.016182e+001 -4.954282e+001 -2.659813e+001 -2.320815e-001 1.335513e+002
544167610.41903 -6.986096e-001 1.575732e+002 -5.883225e+001 4.233306e+001 -4.949918e+001 -2.634314e+001 -2.296360e-001 1.335079e+002
544545111.36278 -7.104180e-001 1.572711e+002 -5.841468e+001 4.335183e+001 -4.939504e+001 -2.665802e+001 -2.302252e-001 1.335145e+002
544922612.30653 -7.134961e-001 1.570889e+002 -5.870404e+001 4.306653e+001 -4.936777e+001 -2.802295e+001 -2.258677e-001 1.334763e+002
545300113.25028 -7.201707e-001 1.568257e+002 -5.808641e+001 3.970559e+001 -4.896093e+001 -3.003424e+001 -2.240474e-001 1.334932e+002
545677614.19404 -7.273341e-001 1.565063e+002 -5.824549e+001 4.389999e+001 -4.915095e+001 -2.960648e+001 -2.186524e-001 1.335091e+002
546055115.13779 -7.310871e-001 1.562561e+002 -5.817792e+001 4.134406e+001 -4.912883e+001 -3.080642e+001 -2.205768e-001 1.335006e+002
546432616.08154 -7.423336e-001 1.559772e+002 -5.801094e+001 3.938844e+001 -4.898183e+001 -3.272923e+001 -2.147937e-001 1.334810e+002
546810117.02529 -7.502378e-001 1.557500e+002 -5.757722e+001 3.754290e+001 -4.903517e+001 -3.326653e+001 -2.124200e-001 1.335217e+002
547187617.96904 -7.617179e-001 1.554020e+002 -5.804881e+001 3.709960e+001 -4.890125e+001 -3.384750e+001 -2.171558e-001 1.335471e+002
547565118.9128 -7.681862e-001 1.550783e+002 -5.753064e+001 3.861263e+001 -4.891415e+001 -3.506295e+001 -2.149308e-001 1.335637e+002
547942619.85655 -7.819287e-001 1.548270e+002 -5.786618e+001 3.816771e+001 -4.873688e+001 -3.487579e+001 -2.173146e-001 1.336151e+002
548320120.8003 -7.937506e-001 1.545570e+002 -5.776703e+001 3.718462e+001 -4.878183e+001 -3.701035e+001 -2.184561e-001 1.336371e+002
548697621.74405 -8.082557e-001 1.542781e+002 -5.687131e+001 3.716510e+001 -4.881178e+001 -3.686096e+001 -2.221299e-001 1.336731e+002
549075122.68781 -8.226732e-001 1.540217e+002 -5.734701e+001 3.669164e+001 -4.878314e+001 -3.891574e+001 -2.268317e-001 1.336762e+002
549452623.63156 -8.384977e-001 1.537457e+002 -5.706665e+001 3.512405e+001 -4.882773e+001 -3.856755e+001 -2.265258e-001 1.337071e+002
549830124.57531 -8.525723e-001 1.535092e+002 -5.683262e+001 3.808429e+001 -4.878867e+001 -3.931992e+001 -2.302752e-001 1.337324e+002
550207625.51906 -8.670321e-001 1.532884e+002 -5.656224e+001 3.377930e+001 -4.857295e+001 -3.929825e+001 -2.327537e-001 1.337525e+002
550585126.46282 -8.826126e-001 1.530482e+002 -5.700986e+001 3.288854e+001 -4.863733e+001 -4.158524e+001 -2.348368e-001 1.337488e+002
550962627.40657 -8.950673e-001 1.528184e+002 -5.681297e+001 3.436927e+001 -4.868723e+001 -4.218139e+001 -2.450105e-001 1.337674e+002
551340128.35032 -9.044557e-001 1.525841e+002 -5.679972e+001 2.953927e+001 -4.837380e+001 -4.363926e+001 -2.463501e-001 1.337847e+002
551717629.29407 -9.183882e-001 1.523315e+002 -5.628521e+001 3.051111e+001 -4.845493e+001 -4.373886e+001 -2.499571e-001 1.337959e+002
552095130.23783 -9.309877e-001 1.521268e+002 -5.608932e+001 2.934383e+001 -4.847916e+001 -4.354359e+001 -2.545846e-001 1.337924e+002
552472631.18158 -9.444094e-001 1.518874e+002 -5.638427e+001 2.934305e+001 -4.850592e+001 -4.420260e+001 -2.573821e-001 1.337912e+002
552850132.12533 -9.565780e-001 1.516209e+002 -5.641163e+001 3.006459e+001 -4.837300e+001 -4.592151e+001 -2.587261e-001 1.337931e+002
553227633.06908 -9.675594e-001 1.513748e+002 -5.617638e+001 2.773143e+001 -4.837515e+001 -4.627769e+001 -2.696576e-001 1.337785e+002
553605134.01284 -9.767504e-001 1.511028e+002 -5.594583e+001 2.870105e+001 -4.811116e+001 -4.556069e+001 -2.740045e-001 1.337444e+002
553982634.95659 -9.931065e-001 1.508382e+002 -5.582538e+001 2.781640e+001 -4.825063e+001 -4.724158e+001 -2.783963e-001 1.337141e+002
554360135.90034 -1.008515e+000 1.505862e+002 -5.599479e+001 2.763680e+001 -4.823796e+001 -4.738902e+001 -2.808338e-001 1.336992e+002
554737636.84409 -1.023612e+000 1.503237e+002 -5.605371e+001 2.539152e+001 -4.796114e+001 -4.839426e+001 -2.865107e-001 1.336748e+002
555115137.78784 -1.041909e+000 1.501022e+002 -5.594707e+001 2.528393e+001 -4.801237e+001 -4.898217e+001 -2.884589e-001 1.336442e+002
555492638.7316 -1.058368e+000 1.497825e+002 -5.560411e+001 2.583792e+001 -4.773590e+001 -5.086056e+001 -2.906501e-001 1.335826e+002
