!Agilent Technologies,E8364B,US42250235,A.06.04.32
!Agilent E8364B: A.06.04.32
!Date: Thursday, October 01, 2020 11:00:50
!Correction: S11(Full 2 Port(1,2)) S21(Full 2 Port(1,2)) S12(Full 2 Port(1,2)) S22(Full 2 Port(1,2)) 
!S2P File: Measurements: S11, S21, S12, S22:
# Hz S  dB   R 50
500000000 -2.519094e-001 -1.753703e+002 -5.643340e+001 6.379992e+000 -5.655616e+001 -1.867863e+000 -2.526543e-001 1.376622e+002
500377500.94375 -2.508938e-001 -1.755914e+002 -5.638441e+001 3.726585e-001 -5.600966e+001 -5.865219e+000 -2.523225e-001 1.376100e+002
500755001.8875 -2.572106e-001 -1.757662e+002 -5.611216e+001 9.771592e-001 -5.631564e+001 -5.369685e+000 -2.569603e-001 1.375505e+002
501132502.83126 -2.624489e-001 -1.759830e+002 -5.562785e+001 -1.121868e+000 -5.603540e+001 -6.638607e+000 -2.545909e-001 1.375150e+002
501510003.77501 -2.683653e-001 -1.761758e+002 -5.600503e+001 -2.125070e-001 -5.624693e+001 -8.536260e+000 -2.531042e-001 1.375096e+002
501887504.71876 -2.753806e-001 -1.763706e+002 -5.632057e+001 -4.335884e+000 -5.619509e+001 -8.981099e+000 -2.599984e-001 1.374230e+002
502265005.66251 -2.743048e-001 -1.765653e+002 -5.584316e+001 -3.752868e+000 -5.619958e+001 -8.548448e+000 -2.565573e-001 1.373839e+002
502642506.60627 -2.814496e-001 -1.767571e+002 -5.621049e+001 -4.319242e+000 -5.592735e+001 -1.203521e+001 -2.597827e-001 1.372966e+002
503020007.55002 -2.825445e-001 -1.769927e+002 -5.609272e+001 -6.402508e+000 -5.606513e+001 -1.254197e+001 -2.605692e-001 1.373006e+002
503397508.49377 -2.894590e-001 -1.771928e+002 -5.557153e+001 -1.023402e+001 -5.621050e+001 -1.360387e+001 -2.568591e-001 1.372309e+002
503775009.43752 -2.906395e-001 -1.773937e+002 -5.571821e+001 -8.772016e+000 -5.608425e+001 -1.380073e+001 -2.591826e-001 1.371891e+002
504152510.38128 -2.968074e-001 -1.776115e+002 -5.537162e+001 -8.735787e+000 -5.631593e+001 -1.324721e+001 -2.570741e-001 1.371660e+002
504530011.32503 -3.022189e-001 -1.778068e+002 -5.559735e+001 -1.141969e+001 -5.604768e+001 -1.742479e+001 -2.577872e-001 1.371117e+002
504907512.26878 -3.066388e-001 -1.779819e+002 -5.546809e+001 -1.271551e+001 -5.602813e+001 -1.613629e+001 -2.561150e-001 1.370836e+002
505285013.21253 -3.097462e-001 -1.781784e+002 -5.557193e+001 -1.173025e+001 -5.605853e+001 -1.857351e+001 -2.568849e-001 1.370384e+002
505662514.15629 -3.118857e-001 -1.783724e+002 -5.573065e+001 -1.332037e+001 -5.621587e+001 -1.711991e+001 -2.531805e-001 1.369666e+002
506040015.10004 -3.161436e-001 -1.786005e+002 -5.552900e+001 -1.527242e+001 -5.546022e+001 -2.226761e+001 -2.547406e-001 1.369370e+002
506417516.04379 -3.185296e-001 -1.787626e+002 -5.558073e+001 -1.391372e+001 -5.579016e+001 -1.862099e+001 -2.468903e-001 1.369106e+002
506795016.98754 -3.204211e-001 -1.789939e+002 -5.529604e+001 -1.612741e+001 -5.570713e+001 -2.001136e+001 -2.503611e-001 1.369012e+002
507172517.93129 -3.233148e-001 -1.791139e+002 -5.572846e+001 -1.755034e+001 -5.561368e+001 -2.188839e+001 -2.445805e-001 1.368589e+002
507550018.87505 -3.267748e-001 -1.793983e+002 -5.575262e+001 -1.589245e+001 -5.561021e+001 -2.206195e+001 -2.390545e-001 1.368384e+002
507927519.8188 -3.292965e-001 -1.795017e+002 -5.543900e+001 -1.990512e+001 -5.569999e+001 -2.229825e+001 -2.395558e-001 1.368361e+002
508305020.76255 -3.333640e-001 -1.797174e+002 -5.548183e+001 -1.974528e+001 -5.575252e+001 -2.393283e+001 -2.369849e-001 1.368214e+002
508682521.7063 -3.317318e-001 -1.799065e+002 -5.519258e+001 -1.987152e+001 -5.575389e+001 -2.353487e+001 -2.334735e-001 1.368011e+002
509060022.65006 -3.345439e-001 1.799265e+002 -5.500405e+001 -2.137340e+001 -5.577211e+001 -2.608750e+001 -2.321904e-001 1.367874e+002
509437523.59381 -3.366247e-001 1.797359e+002 -5.559026e+001 -1.956894e+001 -5.505829e+001 -2.495717e+001 -2.284407e-001 1.367904e+002
509815024.53756 -3.376140e-001 1.795462e+002 -5.546041e+001 -2.353353e+001 -5.542497e+001 -2.734385e+001 -2.289529e-001 1.368092e+002
510192525.48131 -3.339371e-001 1.793093e+002 -5.522095e+001 -2.331904e+001 -5.554119e+001 -2.846866e+001 -2.256850e-001 1.368046e+002
510570026.42507 -3.376425e-001 1.791101e+002 -5.526267e+001 -2.436248e+001 -5.522953e+001 -2.777233e+001 -2.267556e-001 1.368333e+002
510947527.36882 -3.410276e-001 1.789113e+002 -5.531808e+001 -2.580718e+001 -5.517847e+001 -2.837441e+001 -2.211304e-001 1.368598e+002
511325028.31257 -3.421404e-001 1.787056e+002 -5.520096e+001 -2.802624e+001 -5.501456e+001 -2.984608e+001 -2.193748e-001 1.368897e+002
511702529.25632 -3.476759e-001 1.785707e+002 -5.536021e+001 -2.531741e+001 -5.476258e+001 -3.159926e+001 -2.191883e-001 1.369161e+002
512080030.20008 -3.461997e-001 1.783432e+002 -5.495236e+001 -2.528288e+001 -5.463239e+001 -3.128040e+001 -2.181258e-001 1.369348e+002
512457531.14383 -3.493411e-001 1.781214e+002 -5.509478e+001 -2.850035e+001 -5.489924e+001 -3.264906e+001 -2.174951e-001 1.369626e+002
512835032.08758 -3.511201e-001 1.780123e+002 -5.496322e+001 -2.738590e+001 -5.522081e+001 -3.336487e+001 -2.165238e-001 1.369900e+002
513212533.03133 -3.590418e-001 1.777749e+002 -5.502967e+001 -2.671075e+001 -5.469233e+001 -3.320075e+001 -2.186711e-001 1.370146e+002
513590033.97508 -3.569148e-001 1.776145e+002 -5.490841e+001 -2.951570e+001 -5.468783e+001 -3.518620e+001 -2.198741e-001 1.370577e+002
513967534.91884 -3.623821e-001 1.774437e+002 -5.464490e+001 -2.888788e+001 -5.472995e+001 -3.609621e+001 -2.194005e-001 1.370857e+002
514345035.86259 -3.633959e-001 1.771939e+002 -5.507553e+001 -3.003463e+001 -5.456810e+001 -3.585310e+001 -2.212657e-001 1.371133e+002
514722536.80634 -3.696516e-001 1.770507e+002 -5.443696e+001 -3.355927e+001 -5.478891e+001 -3.914336e+001 -2.205568e-001 1.371491e+002
515100037.75009 -3.689057e-001 1.767905e+002 -5.454255e+001 -3.122485e+001 -5.448084e+001 -3.845146e+001 -2.229495e-001 1.371518e+002
515477538.69385 -3.719964e-001 1.766278e+002 -5.425848e+001 -3.534476e+001 -5.487586e+001 -4.125296e+001 -2.240616e-001 1.371849e+002
515855039.6376 -3.745185e-001 1.763906e+002 -5.440496e+001 -3.364044e+001 -5.466860e+001 -4.123172e+001 -2.285043e-001 1.371841e+002
516232540.58135 -3.762001e-001 1.761716e+002 -5.400810e+001 -3.479055e+001 -5.462097e+001 -4.050154e+001 -2.269323e-001 1.371884e+002
516610041.5251 -3.808005e-001 1.760267e+002 -5.397359e+001 -3.680871e+001 -5.455623e+001 -4.152389e+001 -2.297236e-001 1.371948e+002
516987542.46886 -3.852163e-001 1.757956e+002 -5.404370e+001 -3.520039e+001 -5.462082e+001 -4.605758e+001 -2.335774e-001 1.371860e+002
517365043.41261 -3.864875e-001 1.755681e+002 -5.389919e+001 -4.062109e+001 -5.462453e+001 -4.318895e+001 -2.385164e-001 1.371667e+002
517742544.35636 -3.882287e-001 1.753676e+002 -5.384999e+001 -3.922892e+001 -5.432553e+001 -4.458147e+001 -2.384604e-001 1.371406e+002
518120045.30011 -3.950326e-001 1.751398e+002 -5.388391e+001 -4.135848e+001 -5.405956e+001 -4.606451e+001 -2.412240e-001 1.371199e+002
518497546.24387 -4.009575e-001 1.749625e+002 -5.403644e+001 -4.001855e+001 -5.441872e+001 -4.480434e+001 -2.411203e-001 1.371031e+002
518875047.18762 -4.050452e-001 1.747242e+002 -5.356585e+001 -4.190900e+001 -5.384507e+001 -4.754295e+001 -2.471901e-001 1.370601e+002
519252548.13137 -4.086017e-001 1.745345e+002 -5.347104e+001 -4.214191e+001 -5.439559e+001 -4.820665e+001 -2.440731e-001 1.370562e+002
519630049.07512 -4.070472e-001 1.743757e+002 -5.348707e+001 -4.613020e+001 -5.441954e+001 -4.703215e+001 -2.475527e-001 1.369761e+002
520007550.01888 -4.108421e-001 1.741068e+002 -5.347519e+001 -4.470137e+001 -5.421938e+001 -4.979904e+001 -2.508135e-001 1.369440e+002
520385050.96263 -4.139387e-001 1.739416e+002 -5.358338e+001 -4.626455e+001 -5.395669e+001 -4.985138e+001 -2.495835e-001 1.368867e+002
520762551.90638 -4.174175e-001 1.736913e+002 -5.358053e+001 -4.785147e+001 -5.411406e+001 -5.176410e+001 -2.524248e-001 1.368372e+002
521140052.85013 -4.149409e-001 1.734724e+002 -5.373383e+001 -4.997903e+001 -5.391671e+001 -5.162828e+001 -2.497730e-001 1.367643e+002
521517553.79388 -4.206010e-001 1.732488e+002 -5.351130e+001 -4.920011e+001 -5.377274e+001 -5.260992e+001 -2.521060e-001 1.367283e+002
521895054.73764 -4.196900e-001 1.730400e+002 -5.355799e+001 -5.027103e+001 -5.414865e+001 -5.329779e+001 -2.523628e-001 1.366707e+002
522272555.68139 -4.225211e-001 1.728126e+002 -5.342263e+001 -5.229302e+001 -5.388101e+001 -5.520895e+001 -2.499817e-001 1.366337e+002
522650056.62514 -4.237257e-001 1.726044e+002 -5.376561e+001 -5.373053e+001 -5.388917e+001 -5.491933e+001 -2.471954e-001 1.365946e+002
523027557.56889 -4.249012e-001 1.723735e+002 -5.341025e+001 -5.611856e+001 -5.426835e+001 -5.472202e+001 -2.509013e-001 1.365305e+002
523405058.51265 -4.281516e-001 1.721795e+002 -5.388277e+001 -5.370607e+001 -5.384681e+001 -5.524972e+001 -2.507917e-001 1.365005e+002
523782559.4564 -4.299345e-001 1.719170e+002 -5.390178e+001 -5.475948e+001 -5.409966e+001 -5.488131e+001 -2.457527e-001 1.364690e+002
524160060.40015 -4.307348e-001 1.717047e+002 -5.392759e+001 -5.430101e+001 -5.410801e+001 -5.843393e+001 -2.475049e-001 1.364351e+002
524537561.3439 -4.338599e-001 1.714862e+002 -5.367710e+001 -5.543694e+001 -5.389606e+001 -5.901809e+001 -2.434853e-001 1.364612e+002
524915062.28766 -4.398763e-001 1.712966e+002 -5.393029e+001 -5.594806e+001 -5.398508e+001 -5.940725e+001 -2.421541e-001 1.363866e+002
525292563.23141 -4.369999e-001 1.710446e+002 -5.360415e+001 -5.731705e+001 -5.399214e+001 -5.856550e+001 -2.416717e-001 1.363665e+002
525670064.17516 -4.395125e-001 1.708570e+002 -5.381392e+001 -5.756804e+001 -5.381142e+001 -6.023160e+001 -2.354190e-001 1.363666e+002
526047565.11891 -4.410726e-001 1.706471e+002 -5.344656e+001 -5.794043e+001 -5.337513e+001 -6.228656e+001 -2.343872e-001 1.363717e+002
526425066.06267 -4.443127e-001 1.703941e+002 -5.380614e+001 -5.816249e+001 -5.370882e+001 -5.997361e+001 -2.331669e-001 1.363954e+002
526802567.00642 -4.462775e-001 1.701374e+002 -5.346751e+001 -5.945563e+001 -5.360577e+001 -6.363581e+001 -2.280200e-001 1.364177e+002
527180067.95017 -4.485965e-001 1.699088e+002 -5.381958e+001 -6.069770e+001 -5.350567e+001 -6.362158e+001 -2.256805e-001 1.364141e+002
527557568.89392 -4.520185e-001 1.697321e+002 -5.368872e+001 -6.229372e+001 -5.338376e+001 -6.313917e+001 -2.224543e-001 1.363699e+002
527935069.83767 -4.546852e-001 1.694553e+002 -5.343528e+001 -6.183155e+001 -5.348437e+001 -6.554892e+001 -2.227094e-001 1.364500e+002
528312570.78143 -4.589970e-001 1.692124e+002 -5.357683e+001 -6.197343e+001 -5.338538e+001 -6.601492e+001 -2.181098e-001 1.365328e+002
528690071.72518 -4.644540e-001 1.690583e+002 -5.337094e+001 -6.039536e+001 -5.344592e+001 -6.736332e+001 -2.141120e-001 1.365142e+002
529067572.66893 -4.657876e-001 1.687907e+002 -5.315598e+001 -6.405425e+001 -5.350400e+001 -6.593295e+001 -2.166072e-001 1.365443e+002
529445073.61268 -4.689363e-001 1.685999e+002 -5.356319e+001 -6.302577e+001 -5.324123e+001 -6.817893e+001 -2.139549e-001 1.365663e+002
529822574.55644 -4.729100e-001 1.683725e+002 -5.330288e+001 -6.541575e+001 -5.335583e+001 -6.851746e+001 -2.144536e-001 1.365922e+002
530200075.50019 -4.729585e-001 1.681259e+002 -5.326007e+001 -6.669450e+001 -5.303222e+001 -6.957757e+001 -2.122903e-001 1.366175e+002
530577576.44394 -4.797888e-001 1.678977e+002 -5.307019e+001 -6.352917e+001 -5.321749e+001 -6.923270e+001 -2.152002e-001 1.366454e+002
530955077.38769 -4.834776e-001 1.677296e+002 -5.302459e+001 -6.676979e+001 -5.318172e+001 -7.081346e+001 -2.141472e-001 1.365977e+002
531332578.33145 -4.858854e-001 1.675166e+002 -5.282055e+001 -6.849308e+001 -5.320162e+001 -7.089906e+001 -2.186081e-001 1.366642e+002
531710079.2752 -4.861443e-001 1.672409e+002 -5.310317e+001 -6.881654e+001 -5.309572e+001 -7.269495e+001 -2.225452e-001 1.366554e+002
532087580.21895 -4.886053e-001 1.670056e+002 -5.295531e+001 -6.886620e+001 -5.295433e+001 -7.320219e+001 -2.185898e-001 1.366552e+002
532465081.1627 -4.928218e-001 1.668702e+002 -5.264647e+001 -6.978127e+001 -5.304926e+001 -7.327576e+001 -2.236036e-001 1.366682e+002
532842582.10646 -4.913504e-001 1.666133e+002 -5.287009e+001 -7.026573e+001 -5.293272e+001 -7.330089e+001 -2.238384e-001 1.366108e+002
533220083.05021 -4.992527e-001 1.663688e+002 -5.263129e+001 -7.113352e+001 -5.296314e+001 -7.371159e+001 -2.226766e-001 1.366003e+002
533597583.99396 -4.992366e-001 1.662088e+002 -5.267232e+001 -7.361566e+001 -5.302210e+001 -7.661655e+001 -2.272094e-001 1.365066e+002
533975084.93771 -5.012202e-001 1.659781e+002 -5.262584e+001 -7.269538e+001 -5.284730e+001 -7.765210e+001 -2.303479e-001 1.365125e+002
534352585.88146 -5.075628e-001 1.657134e+002 -5.260123e+001 -7.427711e+001 -5.315292e+001 -7.766774e+001 -2.286167e-001 1.364588e+002
534730086.82522 -5.080919e-001 1.654712e+002 -5.264052e+001 -7.393359e+001 -5.276500e+001 -7.823877e+001 -2.355826e-001 1.363716e+002
535107587.76897 -5.118102e-001 1.652990e+002 -5.254066e+001 -7.499281e+001 -5.256536e+001 -7.820669e+001 -2.301401e-001 1.363414e+002
535485088.71272 -5.150077e-001 1.650613e+002 -5.279210e+001 -7.607952e+001 -5.294442e+001 -8.151905e+001 -2.408218e-001 1.362052e+002
535862589.65647 -5.202752e-001 1.648540e+002 -5.271851e+001 -7.529826e+001 -5.259682e+001 -8.065741e+001 -2.433051e-001 1.361129e+002
536240090.60023 -5.171075e-001 1.646601e+002 -5.259483e+001 -7.762586e+001 -5.244946e+001 -8.003961e+001 -2.438635e-001 1.360119e+002
536617591.54398 -5.205263e-001 1.644248e+002 -5.256640e+001 -7.727711e+001 -5.261092e+001 -8.092720e+001 -2.485673e-001 1.359131e+002
536995092.48773 -5.260471e-001 1.641842e+002 -5.249627e+001 -7.781753e+001 -5.253518e+001 -8.135363e+001 -2.487970e-001 1.358440e+002
537372593.43148 -5.275209e-001 1.639604e+002 -5.279135e+001 -8.135224e+001 -5.223080e+001 -8.240074e+001 -2.516240e-001 1.356974e+002
537750094.37524 -5.299305e-001 1.637758e+002 -5.236192e+001 -8.048494e+001 -5.255678e+001 -8.493946e+001 -2.559814e-001 1.355646e+002
538127595.31899 -5.334725e-001 1.634986e+002 -5.241194e+001 -8.211430e+001 -5.232797e+001 -8.425955e+001 -2.510334e-001 1.354521e+002
538505096.26274 -5.328568e-001 1.633148e+002 -5.223760e+001 -8.156696e+001 -5.233794e+001 -8.522221e+001 -2.528379e-001 1.353798e+002
538882597.20649 -5.370541e-001 1.630738e+002 -5.204593e+001 -8.152985e+001 -5.263515e+001 -8.782268e+001 -2.500176e-001 1.352253e+002
539260098.15025 -5.365666e-001 1.628378e+002 -5.228603e+001 -8.398347e+001 -5.245551e+001 -8.793058e+001 -2.517869e-001 1.350969e+002
539637599.094 -5.381296e-001 1.626074e+002 -5.230597e+001 -8.217685e+001 -5.242361e+001 -8.843621e+001 -2.500393e-001 1.349560e+002
540015100.03775 -5.428780e-001 1.624175e+002 -5.213227e+001 -8.549223e+001 -5.270618e+001 -8.879082e+001 -2.560710e-001 1.348886e+002
540392600.9815 -5.447695e-001 1.621548e+002 -5.195597e+001 -8.473705e+001 -5.230264e+001 -9.045128e+001 -2.494685e-001 1.347859e+002
540770101.92525 -5.437244e-001 1.618502e+002 -5.243079e+001 -8.770242e+001 -5.236255e+001 -8.970788e+001 -2.485255e-001 1.346702e+002
541147602.86901 -5.501041e-001 1.616336e+002 -5.213414e+001 -8.822914e+001 -5.258046e+001 -9.260367e+001 -2.434045e-001 1.346019e+002
541525103.81276 -5.497456e-001 1.613978e+002 -5.214688e+001 -8.957453e+001 -5.247113e+001 -9.262373e+001 -2.416799e-001 1.345349e+002
541902604.75651 -5.492909e-001 1.611434e+002 -5.221560e+001 -8.916379e+001 -5.247424e+001 -9.408324e+001 -2.357392e-001 1.344808e+002
542280105.70026 -5.557206e-001 1.608403e+002 -5.199983e+001 -8.998906e+001 -5.226471e+001 -9.416005e+001 -2.345244e-001 1.343698e+002
542657606.64402 -5.594231e-001 1.606981e+002 -5.198522e+001 -9.082265e+001 -5.241802e+001 -9.341232e+001 -2.294718e-001 1.343437e+002
543035107.58777 -5.606389e-001 1.604507e+002 -5.205730e+001 -9.138152e+001 -5.265307e+001 -9.507123e+001 -2.269192e-001 1.342964e+002
543412608.53152 -5.661579e-001 1.602139e+002 -5.204967e+001 -9.139608e+001 -5.239061e+001 -9.494315e+001 -2.243359e-001 1.342625e+002
543790109.47527 -5.710703e-001 1.599506e+002 -5.202515e+001 -9.348710e+001 -5.236895e+001 -9.656198e+001 -2.194980e-001 1.342349e+002
544167610.41903 -5.692868e-001 1.596584e+002 -5.188673e+001 -9.398350e+001 -5.252938e+001 -9.585520e+001 -2.162647e-001 1.342374e+002
544545111.36278 -5.757230e-001 1.594238e+002 -5.209202e+001 -9.348772e+001 -5.250763e+001 -9.607768e+001 -2.140656e-001 1.342038e+002
544922612.30653 -5.733007e-001 1.591779e+002 -5.206285e+001 -9.287746e+001 -5.240634e+001 -9.735123e+001 -2.123609e-001 1.341727e+002
545300113.25028 -5.764300e-001 1.589534e+002 -5.194494e+001 -9.521978e+001 -5.227466e+001 -9.588406e+001 -2.110827e-001 1.341935e+002
545677614.19404 -5.778829e-001 1.586622e+002 -5.181273e+001 -9.412245e+001 -5.244426e+001 -9.732586e+001 -2.078478e-001 1.341983e+002
546055115.13779 -5.777330e-001 1.584158e+002 -5.194352e+001 -9.543996e+001 -5.223543e+001 -9.878061e+001 -2.042660e-001 1.342086e+002
546432616.08154 -5.826511e-001 1.581554e+002 -5.158899e+001 -9.756039e+001 -5.216375e+001 -9.779897e+001 -2.027490e-001 1.342303e+002
546810117.02529 -5.828075e-001 1.578832e+002 -5.172110e+001 -9.838865e+001 -5.202493e+001 -9.899988e+001 -2.003793e-001 1.342506e+002
547187617.96904 -5.900587e-001 1.576461e+002 -5.175708e+001 -9.834710e+001 -5.195175e+001 -9.882432e+001 -2.041783e-001 1.342669e+002
547565118.9128 -5.896776e-001 1.573640e+002 -5.165681e+001 -9.895197e+001 -5.186792e+001 -9.797306e+001 -2.007617e-001 1.343071e+002
547942619.85655 -5.970830e-001 1.571023e+002 -5.126795e+001 -9.865929e+001 -5.202347e+001 -9.891669e+001 -2.009180e-001 1.343238e+002
548320120.8003 -5.998775e-001 1.568765e+002 -5.137648e+001 -1.006930e+002 -5.201770e+001 -1.008835e+002 -2.040132e-001 1.343572e+002
548697621.74405 -6.027376e-001 1.565808e+002 -5.145814e+001 -9.942287e+001 -5.147419e+001 -1.010071e+002 -2.064001e-001 1.344134e+002
549075122.68781 -6.085087e-001 1.563834e+002 -5.127228e+001 -1.015085e+002 -5.145975e+001 -1.037491e+002 -2.099633e-001 1.344171e+002
549452623.63156 -6.158553e-001 1.560677e+002 -5.120479e+001 -1.003323e+002 -5.139396e+001 -1.048403e+002 -2.109265e-001 1.344685e+002
549830124.57531 -6.219125e-001 1.558449e+002 -5.103279e+001 -1.017770e+002 -5.132264e+001 -1.040556e+002 -2.113023e-001 1.344341e+002
550207625.51906 -6.235210e-001 1.556136e+002 -5.129140e+001 -1.031836e+002 -5.133928e+001 -1.064580e+002 -2.164532e-001 1.345077e+002
550585126.46282 -6.303025e-001 1.553627e+002 -5.109271e+001 -1.057137e+002 -5.124948e+001 -1.069086e+002 -2.171755e-001 1.345161e+002
550962627.40657 -6.348089e-001 1.551493e+002 -5.121598e+001 -1.066394e+002 -5.126387e+001 -1.091629e+002 -2.243470e-001 1.345240e+002
551340128.35032 -6.366810e-001 1.548880e+002 -5.116129e+001 -1.050263e+002 -5.130508e+001 -1.081371e+002 -2.276327e-001 1.345390e+002
551717629.29407 -6.406560e-001 1.546002e+002 -5.107225e+001 -1.071296e+002 -5.107173e+001 -1.101302e+002 -2.329442e-001 1.345813e+002
552095130.23783 -6.465238e-001 1.543394e+002 -5.118771e+001 -1.090824e+002 -5.137718e+001 -1.097625e+002 -2.357355e-001 1.345936e+002
552472631.18158 -6.509940e-001 1.540823e+002 -5.104942e+001 -1.081213e+002 -5.113858e+001 -1.098236e+002 -2.392093e-001 1.345887e+002
552850132.12533 -6.559383e-001 1.538700e+002 -5.084681e+001 -1.097598e+002 -5.123611e+001 -1.110810e+002 -2.414093e-001 1.345786e+002
553227633.06908 -6.645701e-001 1.535502e+002 -5.087730e+001 -1.096921e+002 -5.118563e+001 -1.133085e+002 -2.479668e-001 1.345781e+002
553605134.01284 -6.640429e-001 1.532941e+002 -5.106232e+001 -1.122914e+002 -5.121101e+001 -1.126833e+002 -2.561339e-001 1.345661e+002
553982634.95659 -6.747795e-001 1.530362e+002 -5.080128e+001 -1.118059e+002 -5.099912e+001 -1.144841e+002 -2.617051e-001 1.345359e+002
554360135.90034 -6.838647e-001 1.527648e+002 -5.110132e+001 -1.118395e+002 -5.118227e+001 -1.139829e+002 -2.619317e-001 1.345251e+002
554737636.84409 -6.891968e-001 1.525480e+002 -5.091061e+001 -1.123469e+002 -5.103727e+001 -1.155726e+002 -2.647734e-001 1.345015e+002
555115137.78784 -6.965331e-001 1.522742e+002 -5.096117e+001 -1.152288e+002 -5.111189e+001 -1.155221e+002 -2.679665e-001 1.344708e+002
