!Agilent Technologies,E8364B,US42250235,A.06.04.32
!Agilent E8364B: A.06.04.32
!Date: Thursday, October 01, 2020 11:06:52
!Correction: S11(Full 2 Port(1,2)) S21(Full 2 Port(1,2)) S12(Full 2 Port(1,2)) S22(Full 2 Port(1,2)) 
!S2P File: Measurements: S11, S21, S12, S22:
# Hz S  dB   R 50
500000000 -1.751537e-001 -1.753786e+002 -6.128318e+001 -1.046794e+002 -6.133889e+001 -1.127586e+002 -2.474716e-001 1.360365e+002
500377500.94375 -1.785444e-001 -1.755214e+002 -6.112121e+001 -1.139093e+002 -6.054902e+001 -1.135035e+002 -2.465566e-001 1.359798e+002
500755001.8875 -1.757877e-001 -1.757980e+002 -6.079575e+001 -1.068355e+002 -6.135913e+001 -1.117100e+002 -2.439312e-001 1.358980e+002
501132502.83126 -1.835138e-001 -1.759688e+002 -6.135703e+001 -1.053144e+002 -6.136114e+001 -1.124625e+002 -2.432375e-001 1.358525e+002
501510003.77501 -1.884335e-001 -1.761453e+002 -6.081922e+001 -1.110967e+002 -6.121247e+001 -1.124317e+002 -2.377297e-001 1.358538e+002
501887504.71876 -1.932072e-001 -1.764119e+002 -6.099118e+001 -1.026179e+002 -6.094138e+001 -1.154781e+002 -2.416032e-001 1.357645e+002
502265005.66251 -1.929485e-001 -1.765729e+002 -6.061017e+001 -1.046358e+002 -6.103135e+001 -1.136023e+002 -2.358218e-001 1.357565e+002
502642506.60627 -1.971473e-001 -1.768418e+002 -6.076274e+001 -1.129396e+002 -6.125570e+001 -1.118757e+002 -2.325741e-001 1.357412e+002
503020007.55002 -2.028674e-001 -1.770572e+002 -6.117262e+001 -1.109875e+002 -6.114669e+001 -1.169704e+002 -2.324840e-001 1.357239e+002
503397508.49377 -2.058103e-001 -1.772366e+002 -6.142692e+001 -1.080798e+002 -6.114771e+001 -1.149804e+002 -2.241530e-001 1.357058e+002
503775009.43752 -2.099795e-001 -1.775140e+002 -6.030877e+001 -1.138226e+002 -6.120266e+001 -1.170799e+002 -2.264165e-001 1.357238e+002
504152510.38128 -2.118531e-001 -1.777429e+002 -6.074934e+001 -1.179342e+002 -6.110009e+001 -1.156550e+002 -2.201462e-001 1.357380e+002
504530011.32503 -2.179452e-001 -1.779117e+002 -6.039079e+001 -1.111416e+002 -6.081657e+001 -1.186423e+002 -2.191788e-001 1.357533e+002
504907512.26878 -2.240086e-001 -1.781122e+002 -6.109420e+001 -1.172269e+002 -6.022157e+001 -1.169418e+002 -2.148096e-001 1.357984e+002
505285013.21253 -2.248955e-001 -1.783958e+002 -5.967508e+001 -1.161868e+002 -6.070658e+001 -1.193671e+002 -2.122714e-001 1.358567e+002
505662514.15629 -2.256737e-001 -1.785693e+002 -6.050353e+001 -1.160068e+002 -6.008988e+001 -1.218469e+002 -2.061710e-001 1.358894e+002
506040015.10004 -2.305250e-001 -1.787702e+002 -6.034393e+001 -1.154839e+002 -6.036052e+001 -1.176617e+002 -2.039431e-001 1.359589e+002
506417516.04379 -2.275090e-001 -1.790009e+002 -6.062836e+001 -1.161024e+002 -6.054963e+001 -1.213650e+002 -1.988906e-001 1.360474e+002
506795016.98754 -2.308974e-001 -1.791965e+002 -6.010907e+001 -1.177520e+002 -6.031953e+001 -1.195602e+002 -1.944023e-001 1.361303e+002
507172517.93129 -2.334166e-001 -1.794108e+002 -6.048727e+001 -1.195397e+002 -6.068589e+001 -1.261084e+002 -1.928447e-001 1.362062e+002
507550018.87505 -2.336411e-001 -1.796349e+002 -6.040414e+001 -1.222834e+002 -6.040968e+001 -1.238096e+002 -1.853646e-001 1.363112e+002
507927519.8188 -2.355933e-001 -1.798394e+002 -6.048142e+001 -1.173053e+002 -6.002138e+001 -1.221462e+002 -1.830722e-001 1.364306e+002
508305020.76255 -2.370214e-001 1.799612e+002 -6.031273e+001 -1.225740e+002 -5.983263e+001 -1.245365e+002 -1.809692e-001 1.365453e+002
508682521.7063 -2.349346e-001 1.797196e+002 -6.045560e+001 -1.198839e+002 -5.968127e+001 -1.271912e+002 -1.752765e-001 1.366296e+002
509060022.65006 -2.368401e-001 1.795164e+002 -5.989430e+001 -1.229351e+002 -5.922894e+001 -1.213256e+002 -1.756554e-001 1.367926e+002
509437523.59381 -2.412760e-001 1.793299e+002 -5.986121e+001 -1.249205e+002 -5.999414e+001 -1.217151e+002 -1.692644e-001 1.369363e+002
509815024.53756 -2.405658e-001 1.791074e+002 -6.023689e+001 -1.209992e+002 -5.980965e+001 -1.244702e+002 -1.684519e-001 1.370787e+002
510192525.48131 -2.431688e-001 1.788934e+002 -6.055696e+001 -1.212240e+002 -5.926517e+001 -1.265461e+002 -1.694270e-001 1.371941e+002
510570026.42507 -2.451304e-001 1.787105e+002 -5.990227e+001 -1.185860e+002 -5.948576e+001 -1.241579e+002 -1.708932e-001 1.373664e+002
510947527.36882 -2.484819e-001 1.784813e+002 -5.950331e+001 -1.229161e+002 -5.964426e+001 -1.270350e+002 -1.655643e-001 1.375084e+002
511325028.31257 -2.470448e-001 1.782759e+002 -6.000977e+001 -1.232064e+002 -5.926085e+001 -1.263211e+002 -1.667431e-001 1.376607e+002
511702529.25632 -2.546608e-001 1.780456e+002 -6.050882e+001 -1.232861e+002 -5.910946e+001 -1.292056e+002 -1.694274e-001 1.377975e+002
512080030.20008 -2.539609e-001 1.778725e+002 -5.984197e+001 -1.254883e+002 -5.911334e+001 -1.305383e+002 -1.680970e-001 1.379420e+002
512457531.14383 -2.581151e-001 1.775941e+002 -5.998323e+001 -1.238800e+002 -5.927466e+001 -1.256177e+002 -1.673874e-001 1.380723e+002
512835032.08758 -2.649724e-001 1.774039e+002 -6.029059e+001 -1.198474e+002 -5.885972e+001 -1.298901e+002 -1.708554e-001 1.381942e+002
513212533.03133 -2.718898e-001 1.771958e+002 -6.002470e+001 -1.253224e+002 -5.859165e+001 -1.333554e+002 -1.776738e-001 1.383118e+002
513590033.97508 -2.730919e-001 1.770032e+002 -5.991570e+001 -1.240763e+002 -5.870567e+001 -1.268974e+002 -1.810544e-001 1.384237e+002
513967534.91884 -2.757593e-001 1.767907e+002 -5.948899e+001 -1.260788e+002 -5.957318e+001 -1.332801e+002 -1.845751e-001 1.385313e+002
514345035.86259 -2.749657e-001 1.765484e+002 -5.940549e+001 -1.219901e+002 -5.900078e+001 -1.330939e+002 -1.924787e-001 1.386065e+002
514722536.80634 -2.871051e-001 1.763779e+002 -5.939364e+001 -1.246347e+002 -5.966497e+001 -1.329911e+002 -1.935280e-001 1.386958e+002
515100037.75009 -2.877755e-001 1.761640e+002 -5.850201e+001 -1.207818e+002 -5.931157e+001 -1.329898e+002 -1.993719e-001 1.387427e+002
515477538.69385 -2.927776e-001 1.759205e+002 -5.930436e+001 -1.269558e+002 -5.927774e+001 -1.349447e+002 -2.070437e-001 1.388009e+002
515855039.6376 -2.958279e-001 1.756990e+002 -5.913095e+001 -1.277009e+002 -5.834838e+001 -1.363696e+002 -2.149317e-001 1.388240e+002
516232540.58135 -2.974155e-001 1.754907e+002 -5.922235e+001 -1.262788e+002 -5.875422e+001 -1.320756e+002 -2.181000e-001 1.388174e+002
516610041.5251 -3.031801e-001 1.752661e+002 -5.887057e+001 -1.295443e+002 -5.824510e+001 -1.365399e+002 -2.255108e-001 1.388134e+002
516987542.46886 -3.063142e-001 1.750318e+002 -5.830222e+001 -1.266942e+002 -5.836110e+001 -1.340708e+002 -2.333135e-001 1.387762e+002
517365043.41261 -3.127506e-001 1.748467e+002 -5.807289e+001 -1.306062e+002 -5.815973e+001 -1.367262e+002 -2.396497e-001 1.387226e+002
517742544.35636 -3.162673e-001 1.745920e+002 -5.785738e+001 -1.292265e+002 -5.836998e+001 -1.367659e+002 -2.476972e-001 1.386419e+002
518120045.30011 -3.246618e-001 1.743818e+002 -5.852308e+001 -1.308534e+002 -5.786990e+001 -1.347662e+002 -2.546385e-001 1.385604e+002
518497546.24387 -3.303752e-001 1.741639e+002 -5.780147e+001 -1.312244e+002 -5.805782e+001 -1.365863e+002 -2.608518e-001 1.384552e+002
518875047.18762 -3.363379e-001 1.738738e+002 -5.741185e+001 -1.322299e+002 -5.783397e+001 -1.379523e+002 -2.691265e-001 1.383483e+002
519252548.13137 -3.421037e-001 1.737003e+002 -5.779780e+001 -1.347045e+002 -5.707227e+001 -1.370910e+002 -2.709573e-001 1.381895e+002
519630049.07512 -3.446771e-001 1.734250e+002 -5.747026e+001 -1.359644e+002 -5.727760e+001 -1.378568e+002 -2.761613e-001 1.380641e+002
520007550.01888 -3.484571e-001 1.731347e+002 -5.723357e+001 -1.338601e+002 -5.743270e+001 -1.415081e+002 -2.826118e-001 1.378965e+002
520385050.96263 -3.563701e-001 1.729435e+002 -5.753465e+001 -1.376638e+002 -5.710857e+001 -1.413088e+002 -2.846091e-001 1.377213e+002
520762551.90638 -3.649180e-001 1.727421e+002 -5.739537e+001 -1.380739e+002 -5.730902e+001 -1.430710e+002 -2.916074e-001 1.375336e+002
521140052.85013 -3.678067e-001 1.725185e+002 -5.745955e+001 -1.374072e+002 -5.676200e+001 -1.420835e+002 -2.926757e-001 1.373361e+002
521517553.79388 -3.714299e-001 1.722503e+002 -5.724045e+001 -1.405776e+002 -5.749853e+001 -1.430350e+002 -2.924317e-001 1.371339e+002
521895054.73764 -3.779439e-001 1.720585e+002 -5.687623e+001 -1.391212e+002 -5.696912e+001 -1.444059e+002 -2.948349e-001 1.369342e+002
522272555.68139 -3.773993e-001 1.717861e+002 -5.692185e+001 -1.400177e+002 -5.720847e+001 -1.446003e+002 -2.943628e-001 1.367359e+002
522650056.62514 -3.849204e-001 1.715914e+002 -5.738095e+001 -1.401117e+002 -5.663921e+001 -1.443268e+002 -2.924073e-001 1.365247e+002
523027557.56889 -3.879964e-001 1.713578e+002 -5.692836e+001 -1.424891e+002 -5.682272e+001 -1.464234e+002 -2.928626e-001 1.362581e+002
523405058.51265 -3.948187e-001 1.711285e+002 -5.700358e+001 -1.455500e+002 -5.650119e+001 -1.455417e+002 -2.952108e-001 1.361088e+002
523782559.4564 -3.986353e-001 1.708717e+002 -5.688893e+001 -1.450136e+002 -5.662153e+001 -1.491614e+002 -2.898032e-001 1.359424e+002
524160060.40015 -4.059269e-001 1.706013e+002 -5.685566e+001 -1.434813e+002 -5.645380e+001 -1.465195e+002 -2.885825e-001 1.357527e+002
524537561.3439 -4.075493e-001 1.704288e+002 -5.671852e+001 -1.457638e+002 -5.631723e+001 -1.506259e+002 -2.825292e-001 1.356150e+002
524915062.28766 -4.141994e-001 1.701369e+002 -5.675410e+001 -1.446889e+002 -5.669255e+001 -1.498706e+002 -2.817912e-001 1.354017e+002
525292563.23141 -4.157770e-001 1.698489e+002 -5.707329e+001 -1.500892e+002 -5.659102e+001 -1.458877e+002 -2.764105e-001 1.352414e+002
525670064.17516 -4.244971e-001 1.696563e+002 -5.623046e+001 -1.490851e+002 -5.659164e+001 -1.524071e+002 -2.665369e-001 1.350985e+002
526047565.11891 -4.268737e-001 1.694173e+002 -5.600862e+001 -1.499965e+002 -5.607989e+001 -1.507496e+002 -2.656439e-001 1.349786e+002
526425066.06267 -4.337258e-001 1.691731e+002 -5.571301e+001 -1.520145e+002 -5.576895e+001 -1.525667e+002 -2.578412e-001 1.348830e+002
526802567.00642 -4.352507e-001 1.689430e+002 -5.646377e+001 -1.480692e+002 -5.585485e+001 -1.516186e+002 -2.489405e-001 1.347778e+002
527180067.95017 -4.411601e-001 1.687153e+002 -5.593552e+001 -1.530861e+002 -5.603477e+001 -1.533226e+002 -2.443541e-001 1.346826e+002
527557568.89392 -4.496204e-001 1.684639e+002 -5.612039e+001 -1.521771e+002 -5.582547e+001 -1.562051e+002 -2.343004e-001 1.345941e+002
527935069.83767 -4.525807e-001 1.682602e+002 -5.666295e+001 -1.524655e+002 -5.550751e+001 -1.559007e+002 -2.318798e-001 1.344759e+002
528312570.78143 -4.624526e-001 1.679713e+002 -5.611124e+001 -1.551388e+002 -5.577137e+001 -1.573978e+002 -2.208330e-001 1.345414e+002
528690071.72518 -4.651195e-001 1.677515e+002 -5.635059e+001 -1.549850e+002 -5.602700e+001 -1.584007e+002 -2.135387e-001 1.344902e+002
529067572.66893 -4.757368e-001 1.675462e+002 -5.635528e+001 -1.552182e+002 -5.561262e+001 -1.592193e+002 -2.098927e-001 1.344816e+002
529445073.61268 -4.773940e-001 1.672673e+002 -5.633996e+001 -1.531234e+002 -5.554240e+001 -1.588593e+002 -2.041259e-001 1.344756e+002
529822574.55644 -4.843163e-001 1.670116e+002 -5.562458e+001 -1.535958e+002 -5.532413e+001 -1.603035e+002 -2.008951e-001 1.344680e+002
530200075.50019 -4.915574e-001 1.667388e+002 -5.583309e+001 -1.572669e+002 -5.482900e+001 -1.598337e+002 -1.914785e-001 1.344916e+002
530577576.44394 -5.023394e-001 1.665242e+002 -5.586839e+001 -1.577227e+002 -5.498798e+001 -1.636104e+002 -1.897754e-001 1.344963e+002
530955077.38769 -5.084320e-001 1.663011e+002 -5.541587e+001 -1.575479e+002 -5.500640e+001 -1.615180e+002 -1.837427e-001 1.345086e+002
531332578.33145 -5.179976e-001 1.660622e+002 -5.580176e+001 -1.577337e+002 -5.483928e+001 -1.606912e+002 -1.841704e-001 1.345744e+002
531710079.2752 -5.249627e-001 1.657860e+002 -5.522398e+001 -1.581827e+002 -5.494617e+001 -1.635497e+002 -1.781309e-001 1.345878e+002
532087580.21895 -5.336554e-001 1.655822e+002 -5.561584e+001 -1.602806e+002 -5.483989e+001 -1.670643e+002 -1.713081e-001 1.346196e+002
532465081.1627 -5.437320e-001 1.653543e+002 -5.495719e+001 -1.605491e+002 -5.472411e+001 -1.655812e+002 -1.753081e-001 1.346820e+002
532842582.10646 -5.454050e-001 1.651286e+002 -5.528248e+001 -1.605743e+002 -5.446224e+001 -1.678224e+002 -1.669243e-001 1.346867e+002
533220083.05021 -5.587481e-001 1.648979e+002 -5.491288e+001 -1.637322e+002 -5.438408e+001 -1.680856e+002 -1.646752e-001 1.347576e+002
533597583.99396 -5.683264e-001 1.647228e+002 -5.491842e+001 -1.624861e+002 -5.413267e+001 -1.701127e+002 -1.668091e-001 1.347341e+002
533975084.93771 -5.752935e-001 1.644577e+002 -5.472782e+001 -1.627824e+002 -5.451073e+001 -1.698064e+002 -1.626841e-001 1.348332e+002
534352585.88146 -5.837051e-001 1.642197e+002 -5.482703e+001 -1.650296e+002 -5.427757e+001 -1.699861e+002 -1.604098e-001 1.348792e+002
534730086.82522 -5.901629e-001 1.639710e+002 -5.476914e+001 -1.654303e+002 -5.399629e+001 -1.714102e+002 -1.630215e-001 1.349002e+002
535107587.76897 -5.995825e-001 1.638084e+002 -5.471518e+001 -1.653532e+002 -5.402431e+001 -1.719354e+002 -1.574084e-001 1.349714e+002
535485088.71272 -6.099111e-001 1.635686e+002 -5.483434e+001 -1.657289e+002 -5.412603e+001 -1.719488e+002 -1.635125e-001 1.349466e+002
535862589.65647 -6.195977e-001 1.633299e+002 -5.464571e+001 -1.657652e+002 -5.434224e+001 -1.736332e+002 -1.629755e-001 1.349799e+002
536240090.60023 -6.253883e-001 1.630979e+002 -5.418998e+001 -1.669288e+002 -5.389914e+001 -1.726945e+002 -1.663492e-001 1.349523e+002
536617591.54398 -6.333469e-001 1.628655e+002 -5.477763e+001 -1.672979e+002 -5.387645e+001 -1.740610e+002 -1.659910e-001 1.350288e+002
536995092.48773 -6.450068e-001 1.626859e+002 -5.439079e+001 -1.671187e+002 -5.377850e+001 -1.750868e+002 -1.672396e-001 1.350963e+002
537372593.43148 -6.534359e-001 1.623745e+002 -5.420091e+001 -1.660180e+002 -5.379295e+001 -1.752385e+002 -1.712242e-001 1.350594e+002
537750094.37524 -6.683082e-001 1.622368e+002 -5.416352e+001 -1.680995e+002 -5.354004e+001 -1.755252e+002 -1.742457e-001 1.350719e+002
538127595.31899 -6.755732e-001 1.619384e+002 -5.404033e+001 -1.703215e+002 -5.339214e+001 -1.784731e+002 -1.747445e-001 1.350921e+002
538505096.26274 -6.860106e-001 1.617521e+002 -5.354738e+001 -1.702128e+002 -5.332340e+001 -1.773133e+002 -1.759845e-001 1.351319e+002
538882597.20649 -6.946847e-001 1.615711e+002 -5.397300e+001 -1.711187e+002 -5.300298e+001 1.796737e+002 -1.767290e-001 1.351097e+002
539260098.15025 -7.055038e-001 1.613159e+002 -5.330499e+001 -1.723275e+002 -5.319701e+001 1.771857e+002 -1.792911e-001 1.351115e+002
539637599.094 -7.144735e-001 1.611203e+002 -5.349264e+001 -1.743504e+002 -5.294027e+001 1.754944e+002 -1.813907e-001 1.351097e+002
540015100.03775 -7.277600e-001 1.609056e+002 -5.337597e+001 -1.758477e+002 -5.291394e+001 1.775638e+002 -1.863172e-001 1.351366e+002
540392600.9815 -7.360417e-001 1.607287e+002 -5.344081e+001 -1.750054e+002 -5.301667e+001 1.743335e+002 -1.824151e-001 1.351118e+002
540770101.92525 -7.460665e-001 1.605182e+002 -5.331937e+001 -1.770508e+002 -5.294120e+001 1.751653e+002 -1.838415e-001 1.351650e+002
541147602.86901 -7.545077e-001 1.602760e+002 -5.343224e+001 -1.762312e+002 -5.292730e+001 1.741566e+002 -1.860756e-001 1.351788e+002
541525103.81276 -7.640441e-001 1.600606e+002 -5.299380e+001 -1.792110e+002 -5.281795e+001 1.728456e+002 -1.856430e-001 1.351930e+002
541902604.75651 -7.732190e-001 1.598906e+002 -5.314569e+001 1.797178e+002 -5.279961e+001 1.719429e+002 -1.853904e-001 1.352511e+002
542280105.70026 -7.800590e-001 1.596284e+002 -5.323933e+001 1.787133e+002 -5.271322e+001 1.699813e+002 -1.873595e-001 1.352196e+002
542657606.64402 -7.836933e-001 1.594191e+002 -5.297309e+001 1.793524e+002 -5.266572e+001 1.694707e+002 -1.897684e-001 1.352469e+002
543035107.58777 -7.928511e-001 1.592520e+002 -5.303219e+001 1.781708e+002 -5.266208e+001 1.680215e+002 -1.915908e-001 1.352694e+002
543412608.53152 -7.977692e-001 1.589835e+002 -5.272782e+001 1.769210e+002 -5.245259e+001 1.679067e+002 -1.912148e-001 1.353062e+002
543790109.47527 -8.045686e-001 1.587269e+002 -5.301544e+001 1.776756e+002 -5.259284e+001 1.675826e+002 -1.885891e-001 1.353207e+002
544167610.41903 -8.095803e-001 1.585463e+002 -5.296445e+001 1.761174e+002 -5.245282e+001 1.653221e+002 -1.901239e-001 1.353629e+002
544545111.36278 -8.160891e-001 1.582348e+002 -5.289441e+001 1.741951e+002 -5.238241e+001 1.657777e+002 -1.932616e-001 1.353535e+002
544922612.30653 -8.204277e-001 1.580248e+002 -5.269498e+001 1.747351e+002 -5.267850e+001 1.662175e+002 -1.970874e-001 1.353641e+002
545300113.25028 -8.249184e-001 1.577692e+002 -5.260582e+001 1.743325e+002 -5.243114e+001 1.657497e+002 -1.991861e-001 1.353846e+002
545677614.19404 -8.337426e-001 1.574974e+002 -5.245625e+001 1.747469e+002 -5.237579e+001 1.650417e+002 -2.001621e-001 1.354241e+002
546055115.13779 -8.410795e-001 1.573057e+002 -5.232772e+001 1.733674e+002 -5.222891e+001 1.633480e+002 -2.030467e-001 1.354100e+002
546432616.08154 -8.510060e-001 1.570126e+002 -5.228453e+001 1.729482e+002 -5.211955e+001 1.621785e+002 -2.033719e-001 1.354312e+002
546810117.02529 -8.587436e-001 1.567570e+002 -5.189653e+001 1.695440e+002 -5.206343e+001 1.635140e+002 -2.070963e-001 1.354173e+002
547187617.96904 -8.719722e-001 1.564984e+002 -5.212753e+001 1.673034e+002 -5.200701e+001 1.622896e+002 -2.105336e-001 1.354200e+002
547565118.9128 -8.832353e-001 1.561878e+002 -5.188765e+001 1.694967e+002 -5.172054e+001 1.605402e+002 -2.139098e-001 1.354163e+002
547942619.85655 -8.929654e-001 1.559926e+002 -5.174761e+001 1.671599e+002 -5.164126e+001 1.596051e+002 -2.179167e-001 1.354128e+002
548320120.8003 -9.055552e-001 1.557297e+002 -5.158805e+001 1.664770e+002 -5.169172e+001 1.599178e+002 -2.225112e-001 1.353902e+002
548697621.74405 -9.221736e-001 1.555369e+002 -5.148386e+001 1.658090e+002 -5.159429e+001 1.574685e+002 -2.299548e-001 1.353788e+002
549075122.68781 -9.311675e-001 1.552900e+002 -5.125836e+001 1.644541e+002 -5.144555e+001 1.565138e+002 -2.336652e-001 1.353249e+002
549452623.63156 -9.489734e-001 1.551038e+002 -5.146580e+001 1.643953e+002 -5.130077e+001 1.553148e+002 -2.369959e-001 1.352520e+002
549830124.57531 -9.565412e-001 1.548757e+002 -5.145106e+001 1.606403e+002 -5.124346e+001 1.559305e+002 -2.433705e-001 1.352284e+002
550207625.51906 -9.704763e-001 1.546965e+002 -5.097124e+001 1.604456e+002 -5.115604e+001 1.540270e+002 -2.517129e-001 1.351790e+002
550585126.46282 -9.806813e-001 1.544425e+002 -5.106813e+001 1.592644e+002 -5.106339e+001 1.520857e+002 -2.535540e-001 1.351004e+002
550962627.40657 -9.911388e-001 1.542532e+002 -5.108773e+001 1.564320e+002 -5.111718e+001 1.506123e+002 -2.635729e-001 1.350053e+002
551340128.35032 -1.001155e+000 1.540517e+002 -5.100873e+001 1.565244e+002 -5.120006e+001 1.483357e+002 -2.691539e-001 1.349455e+002
551717629.29407 -1.009193e+000 1.538204e+002 -5.103569e+001 1.560738e+002 -5.082083e+001 1.493592e+002 -2.741229e-001 1.348682e+002
552095130.23783 -1.019534e+000 1.536682e+002 -5.117153e+001 1.547171e+002 -5.074469e+001 1.481383e+002 -2.777379e-001 1.347726e+002
552472631.18158 -1.026089e+000 1.534604e+002 -5.094515e+001 1.533550e+002 -5.070432e+001 1.464099e+002 -2.825703e-001 1.346595e+002
552850132.12533 -1.039191e+000 1.532615e+002 -5.088087e+001 1.522422e+002 -5.079106e+001 1.451671e+002 -2.870936e-001 1.345267e+002
553227633.06908 -1.046332e+000 1.530358e+002 -5.104001e+001 1.521486e+002 -5.064310e+001 1.440125e+002 -2.937140e-001 1.344272e+002
553605134.01284 -1.052795e+000 1.528170e+002 -5.090228e+001 1.527414e+002 -5.076326e+001 1.430135e+002 -3.002374e-001 1.342627e+002
553982634.95659 -1.068067e+000 1.526162e+002 -5.079564e+001 1.487646e+002 -5.089982e+001 1.414376e+002 -3.030138e-001 1.341485e+002
554360135.90034 -1.081621e+000 1.524514e+002 -5.089120e+001 1.496985e+002 -5.063087e+001 1.398075e+002 -3.025084e-001 1.340105e+002
554737636.84409 -1.089835e+000 1.521940e+002 -5.088999e+001 1.475378e+002 -5.043478e+001 1.407271e+002 -3.082188e-001 1.338769e+002
555115137.78784 -1.104382e+000 1.519948e+002 -5.079679e+001 1.455402e+002 -5.066468e+001 1.390211e+002 -3.097461e-001 1.337222e+002
