!Agilent Technologies,E8364B,US42250235,A.06.04.32
!Agilent E8364B: A.06.04.32
!Date: Thursday, October 01, 2020 11:10:55
!Correction: S11(Full 2 Port(1,2)) S21(Full 2 Port(1,2)) S12(Full 2 Port(1,2)) S22(Full 2 Port(1,2)) 
!S2P File: Measurements: S11, S21, S12, S22:
# Hz S  dB   R 50
500000000 -1.951051e-001 -1.750458e+002 -6.069752e+001 1.334004e+002 -6.064948e+001 1.401631e+002 -2.131392e-001 1.369713e+002
500377500.94375 -1.963192e-001 -1.752756e+002 -6.151287e+001 1.380643e+002 -6.136242e+001 1.401333e+002 -2.159919e-001 1.368651e+002
500755001.8875 -1.977267e-001 -1.754541e+002 -6.095821e+001 1.356998e+002 -6.078546e+001 1.392834e+002 -2.226625e-001 1.367803e+002
501132502.83126 -2.034061e-001 -1.756792e+002 -6.103991e+001 1.327610e+002 -6.094772e+001 1.384702e+002 -2.185320e-001 1.366560e+002
501510003.77501 -2.070391e-001 -1.759149e+002 -6.074165e+001 1.326374e+002 -6.087608e+001 1.369318e+002 -2.192061e-001 1.365449e+002
501887504.71876 -2.140241e-001 -1.760533e+002 -6.090903e+001 1.353828e+002 -6.090801e+001 1.333771e+002 -2.228902e-001 1.364636e+002
502265005.66251 -2.135126e-001 -1.763188e+002 -6.025834e+001 1.320459e+002 -6.064901e+001 1.316344e+002 -2.214360e-001 1.363538e+002
502642506.60627 -2.210748e-001 -1.765093e+002 -6.139546e+001 1.320312e+002 -6.111868e+001 1.322733e+002 -2.225971e-001 1.362761e+002
503020007.55002 -2.186805e-001 -1.767623e+002 -6.053309e+001 1.258738e+002 -6.145064e+001 1.339034e+002 -2.193397e-001 1.361763e+002
503397508.49377 -2.261293e-001 -1.769699e+002 -6.083851e+001 1.231032e+002 -6.088873e+001 1.293469e+002 -2.167207e-001 1.360864e+002
503775009.43752 -2.280150e-001 -1.771876e+002 -6.091010e+001 1.239830e+002 -6.098582e+001 1.269793e+002 -2.152968e-001 1.360269e+002
504152510.38128 -2.317339e-001 -1.774258e+002 -6.121740e+001 1.257058e+002 -6.057010e+001 1.298162e+002 -2.119342e-001 1.359314e+002
504530011.32503 -2.361243e-001 -1.776121e+002 -6.140336e+001 1.271043e+002 -6.088313e+001 1.298884e+002 -2.063245e-001 1.358952e+002
504907512.26878 -2.397465e-001 -1.778136e+002 -6.074193e+001 1.194320e+002 -6.062592e+001 1.293062e+002 -2.037117e-001 1.358647e+002
505285013.21253 -2.393597e-001 -1.780167e+002 -6.057480e+001 1.175250e+002 -6.074155e+001 1.238334e+002 -1.994144e-001 1.358256e+002
505662514.15629 -2.401950e-001 -1.781931e+002 -6.108937e+001 1.170954e+002 -6.047904e+001 1.276503e+002 -1.941806e-001 1.358002e+002
506040015.10004 -2.405937e-001 -1.784528e+002 -6.068855e+001 1.177301e+002 -6.085685e+001 1.217371e+002 -1.883830e-001 1.358027e+002
506417516.04379 -2.431725e-001 -1.786436e+002 -6.054184e+001 1.128743e+002 -6.085688e+001 1.234792e+002 -1.795608e-001 1.358016e+002
506795016.98754 -2.435003e-001 -1.788811e+002 -6.052686e+001 1.125917e+002 -6.150369e+001 1.259838e+002 -1.731341e-001 1.358299e+002
507172517.93129 -2.420707e-001 -1.790174e+002 -6.134965e+001 1.184256e+002 -6.079066e+001 1.185455e+002 -1.692093e-001 1.358743e+002
507550018.87505 -2.445201e-001 -1.793057e+002 -6.168254e+001 1.197062e+002 -6.089246e+001 1.203215e+002 -1.620061e-001 1.359059e+002
507927519.8188 -2.421081e-001 -1.794470e+002 -6.124603e+001 1.158515e+002 -6.122664e+001 1.196691e+002 -1.543009e-001 1.360161e+002
508305020.76255 -2.432319e-001 -1.796791e+002 -6.109417e+001 1.166252e+002 -6.081936e+001 1.203005e+002 -1.488568e-001 1.360848e+002
508682521.7063 -2.416416e-001 -1.798882e+002 -6.180194e+001 1.154921e+002 -6.137841e+001 1.184114e+002 -1.445269e-001 1.361822e+002
509060022.65006 -2.394426e-001 1.799259e+002 -6.179087e+001 1.116491e+002 -6.080380e+001 1.227780e+002 -1.356318e-001 1.363030e+002
509437523.59381 -2.416483e-001 1.797239e+002 -6.164509e+001 1.221807e+002 -6.066788e+001 1.196636e+002 -1.289439e-001 1.364321e+002
509815024.53756 -2.417356e-001 1.795096e+002 -6.125658e+001 1.135907e+002 -6.137333e+001 1.214819e+002 -1.276600e-001 1.365820e+002
510192525.48131 -2.399783e-001 1.792576e+002 -6.118803e+001 1.186609e+002 -6.070709e+001 1.228665e+002 -1.237256e-001 1.367225e+002
510570026.42507 -2.408200e-001 1.790486e+002 -6.078990e+001 1.173380e+002 -6.047815e+001 1.172423e+002 -1.219218e-001 1.369099e+002
510947527.36882 -2.450242e-001 1.788455e+002 -6.102558e+001 1.133790e+002 -6.019924e+001 1.194352e+002 -1.123304e-001 1.370821e+002
511325028.31257 -2.454177e-001 1.786172e+002 -6.006216e+001 1.154634e+002 -6.046576e+001 1.167067e+002 -1.097046e-001 1.372741e+002
511702529.25632 -2.509126e-001 1.784824e+002 -6.047493e+001 1.139533e+002 -6.061807e+001 1.164549e+002 -1.098269e-001 1.374521e+002
512080030.20008 -2.464199e-001 1.782241e+002 -6.077859e+001 1.149270e+002 -6.005534e+001 1.183773e+002 -1.102980e-001 1.376536e+002
512457531.14383 -2.520683e-001 1.780316e+002 -6.051790e+001 1.123591e+002 -6.059045e+001 1.192420e+002 -1.092164e-001 1.378222e+002
512835032.08758 -2.553067e-001 1.778736e+002 -6.037486e+001 1.118636e+002 -5.998698e+001 1.161719e+002 -1.074102e-001 1.380038e+002
513212533.03133 -2.617547e-001 1.776568e+002 -5.969543e+001 1.134883e+002 -6.007427e+001 1.082730e+002 -1.119644e-001 1.381878e+002
513590033.97508 -2.605633e-001 1.774604e+002 -6.017447e+001 1.139469e+002 -6.079561e+001 1.131071e+002 -1.149783e-001 1.383846e+002
513967534.91884 -2.661340e-001 1.772278e+002 -6.052426e+001 1.122948e+002 -5.974382e+001 1.128718e+002 -1.189219e-001 1.385455e+002
514345035.86259 -2.688885e-001 1.770011e+002 -6.020491e+001 1.056618e+002 -6.056022e+001 1.126767e+002 -1.217911e-001 1.387011e+002
514722536.80634 -2.750019e-001 1.768383e+002 -6.046714e+001 1.081283e+002 -5.984195e+001 1.104525e+002 -1.278760e-001 1.388629e+002
515100037.75009 -2.755284e-001 1.765829e+002 -5.992698e+001 1.063071e+002 -5.986357e+001 1.103422e+002 -1.325338e-001 1.389956e+002
515477538.69385 -2.792939e-001 1.763833e+002 -6.017630e+001 1.046994e+002 -5.960981e+001 1.119204e+002 -1.386652e-001 1.391109e+002
515855039.6376 -2.804212e-001 1.761478e+002 -6.002067e+001 1.036505e+002 -5.930964e+001 1.086991e+002 -1.472853e-001 1.392097e+002
516232540.58135 -2.856205e-001 1.759305e+002 -5.968670e+001 1.040870e+002 -5.963321e+001 1.080758e+002 -1.532483e-001 1.392763e+002
516610041.5251 -2.905339e-001 1.757505e+002 -5.943697e+001 1.090775e+002 -5.947919e+001 1.112720e+002 -1.626676e-001 1.393513e+002
516987542.46886 -2.971741e-001 1.755039e+002 -5.993399e+001 1.060858e+002 -5.960611e+001 1.040241e+002 -1.747878e-001 1.393728e+002
517365043.41261 -3.007701e-001 1.752729e+002 -5.970057e+001 1.047579e+002 -5.974477e+001 1.095228e+002 -1.838188e-001 1.393772e+002
517742544.35636 -3.026243e-001 1.750507e+002 -5.981456e+001 9.997935e+001 -5.917224e+001 1.012617e+002 -1.909354e-001 1.393594e+002
518120045.30011 -3.094391e-001 1.747979e+002 -5.883453e+001 1.033771e+002 -5.967913e+001 1.052028e+002 -1.991992e-001 1.393304e+002
518497546.24387 -3.167749e-001 1.745854e+002 -5.904713e+001 1.046291e+002 -5.955994e+001 1.044495e+002 -2.068610e-001 1.392639e+002
518875047.18762 -3.198795e-001 1.743301e+002 -5.926731e+001 1.028223e+002 -5.913285e+001 1.034720e+002 -2.212462e-001 1.391850e+002
519252548.13137 -3.218940e-001 1.741297e+002 -5.852381e+001 9.863722e+001 -5.928658e+001 1.041549e+002 -2.255239e-001 1.390900e+002
519630049.07512 -3.242892e-001 1.738821e+002 -5.912701e+001 9.824895e+001 -5.956645e+001 1.011603e+002 -2.386867e-001 1.389411e+002
520007550.01888 -3.282562e-001 1.736447e+002 -5.837157e+001 9.613328e+001 -5.895094e+001 1.017525e+002 -2.488161e-001 1.387678e+002
520385050.96263 -3.344142e-001 1.734494e+002 -5.878394e+001 9.737457e+001 -5.886867e+001 1.014631e+002 -2.565298e-001 1.385870e+002
520762551.90638 -3.386816e-001 1.731844e+002 -5.853500e+001 9.741070e+001 -5.849556e+001 9.680986e+001 -2.630032e-001 1.383787e+002
521140052.85013 -3.411638e-001 1.729593e+002 -5.869678e+001 9.395399e+001 -5.928729e+001 9.613763e+001 -2.691011e-001 1.381511e+002
521517553.79388 -3.450226e-001 1.727279e+002 -5.838682e+001 9.406882e+001 -5.901090e+001 9.793459e+001 -2.766029e-001 1.379298e+002
521895054.73764 -3.489585e-001 1.725385e+002 -5.924171e+001 8.890306e+001 -5.846391e+001 1.000806e+002 -2.785602e-001 1.376914e+002
522272555.68139 -3.463636e-001 1.722597e+002 -5.828109e+001 9.193531e+001 -5.819828e+001 9.578875e+001 -2.812389e-001 1.374425e+002
522650056.62514 -3.509170e-001 1.720398e+002 -5.868033e+001 9.043935e+001 -5.867209e+001 9.603352e+001 -2.811109e-001 1.371486e+002
523027557.56889 -3.536325e-001 1.717882e+002 -5.828263e+001 9.065677e+001 -5.871757e+001 9.653336e+001 -2.874763e-001 1.369017e+002
523405058.51265 -3.568695e-001 1.715752e+002 -5.803835e+001 8.759428e+001 -5.860574e+001 9.476085e+001 -2.873382e-001 1.366426e+002
523782559.4564 -3.609217e-001 1.713098e+002 -5.816333e+001 8.546895e+001 -5.869873e+001 9.429262e+001 -2.878153e-001 1.363695e+002
524160060.40015 -3.597154e-001 1.710840e+002 -5.799007e+001 8.736426e+001 -5.839639e+001 9.328906e+001 -2.864423e-001 1.361080e+002
524537561.3439 -3.643194e-001 1.708513e+002 -5.846909e+001 8.583424e+001 -5.853779e+001 9.031473e+001 -2.856742e-001 1.359024e+002
524915062.28766 -3.664407e-001 1.706080e+002 -5.833773e+001 8.474813e+001 -5.845344e+001 8.676563e+001 -2.793290e-001 1.356092e+002
525292563.23141 -3.654736e-001 1.703574e+002 -5.796499e+001 8.400420e+001 -5.783419e+001 8.741026e+001 -2.765541e-001 1.353549e+002
525670064.17516 -3.698846e-001 1.701587e+002 -5.821751e+001 8.820771e+001 -5.845593e+001 8.750137e+001 -2.673951e-001 1.351388e+002
526047565.11891 -3.721420e-001 1.699495e+002 -5.811405e+001 8.183810e+001 -5.842209e+001 9.340051e+001 -2.604820e-001 1.349479e+002
526425066.06267 -3.782158e-001 1.696680e+002 -5.815477e+001 8.238105e+001 -5.794621e+001 8.443949e+001 -2.594466e-001 1.347783e+002
526802567.00642 -3.786126e-001 1.694005e+002 -5.783005e+001 8.102506e+001 -5.800967e+001 8.537151e+001 -2.459517e-001 1.345919e+002
527180067.95017 -3.822328e-001 1.691600e+002 -5.832605e+001 7.863053e+001 -5.809829e+001 8.828831e+001 -2.328518e-001 1.344347e+002
527557568.89392 -3.893777e-001 1.689714e+002 -5.811132e+001 8.057045e+001 -5.779638e+001 8.693590e+001 -2.247844e-001 1.342794e+002
527935069.83767 -3.911476e-001 1.686762e+002 -5.818072e+001 8.154308e+001 -5.775863e+001 8.425491e+001 -2.193668e-001 1.341747e+002
528312570.78143 -3.976986e-001 1.684253e+002 -5.798487e+001 7.661014e+001 -5.775389e+001 8.615514e+001 -2.055434e-001 1.341489e+002
528690071.72518 -4.056528e-001 1.681820e+002 -5.800108e+001 7.923491e+001 -5.854569e+001 8.398536e+001 -2.002702e-001 1.340323e+002
529067572.66893 -4.094005e-001 1.679727e+002 -5.808747e+001 8.105798e+001 -5.787405e+001 8.166061e+001 -1.886251e-001 1.339834e+002
529445073.61268 -4.116364e-001 1.677175e+002 -5.733518e+001 8.241019e+001 -5.812645e+001 8.295174e+001 -1.806567e-001 1.339616e+002
529822574.55644 -4.172816e-001 1.674700e+002 -5.815579e+001 7.933566e+001 -5.775398e+001 8.443574e+001 -1.723863e-001 1.339521e+002
530200075.50019 -4.196410e-001 1.672343e+002 -5.804726e+001 7.752176e+001 -5.747741e+001 8.164700e+001 -1.624220e-001 1.339600e+002
530577576.44394 -4.251019e-001 1.669789e+002 -5.799076e+001 7.907975e+001 -5.812717e+001 8.453368e+001 -1.531371e-001 1.339854e+002
530955077.38769 -4.361483e-001 1.667847e+002 -5.752502e+001 7.504826e+001 -5.785724e+001 7.622772e+001 -1.451385e-001 1.340036e+002
531332578.33145 -4.412782e-001 1.665510e+002 -5.755168e+001 7.263531e+001 -5.695095e+001 8.059413e+001 -1.407771e-001 1.340851e+002
531710079.2752 -4.444560e-001 1.662369e+002 -5.736525e+001 7.407480e+001 -5.717450e+001 7.817132e+001 -1.331167e-001 1.341592e+002
532087580.21895 -4.526348e-001 1.659731e+002 -5.767042e+001 7.454368e+001 -5.735775e+001 7.782909e+001 -1.275225e-001 1.342175e+002
532465081.1627 -4.601153e-001 1.658385e+002 -5.715207e+001 7.153449e+001 -5.709659e+001 7.765179e+001 -1.250410e-001 1.343255e+002
532842582.10646 -4.625259e-001 1.655783e+002 -5.768188e+001 6.936126e+001 -5.692661e+001 7.520328e+001 -1.159152e-001 1.343839e+002
533220083.05021 -4.729041e-001 1.652871e+002 -5.805917e+001 6.930436e+001 -5.708900e+001 7.520177e+001 -1.106468e-001 1.344980e+002
533597583.99396 -4.781038e-001 1.650763e+002 -5.733558e+001 6.663347e+001 -5.726964e+001 7.803175e+001 -1.097248e-001 1.345812e+002
533975084.93771 -4.868985e-001 1.648727e+002 -5.745331e+001 7.117148e+001 -5.719463e+001 7.448154e+001 -1.034352e-001 1.347203e+002
534352585.88146 -4.958921e-001 1.645851e+002 -5.702564e+001 6.797237e+001 -5.667912e+001 7.140585e+001 -9.951141e-002 1.348137e+002
534730086.82522 -5.013369e-001 1.643392e+002 -5.704020e+001 6.873691e+001 -5.699494e+001 7.114565e+001 -1.048540e-001 1.348727e+002
535107587.76897 -5.078955e-001 1.641382e+002 -5.711053e+001 6.733932e+001 -5.679918e+001 7.043581e+001 -9.674326e-002 1.350520e+002
535485088.71272 -5.166601e-001 1.639071e+002 -5.698703e+001 6.732076e+001 -5.683864e+001 7.142758e+001 -1.023145e-001 1.351281e+002
535862589.65647 -5.261064e-001 1.637054e+002 -5.638857e+001 6.621449e+001 -5.666753e+001 7.090675e+001 -9.989018e-002 1.352527e+002
536240090.60023 -5.287084e-001 1.634404e+002 -5.674126e+001 6.488932e+001 -5.675792e+001 6.783069e+001 -1.006650e-001 1.353510e+002
536617591.54398 -5.375451e-001 1.632084e+002 -5.711852e+001 6.407816e+001 -5.655981e+001 6.817535e+001 -1.037656e-001 1.354501e+002
536995092.48773 -5.437011e-001 1.629689e+002 -5.661243e+001 6.640289e+001 -5.656170e+001 6.742436e+001 -1.049733e-001 1.355879e+002
537372593.43148 -5.505192e-001 1.627240e+002 -5.661364e+001 6.815088e+001 -5.683854e+001 6.821143e+001 -1.088277e-001 1.356164e+002
537750094.37524 -5.559903e-001 1.625149e+002 -5.660998e+001 6.238123e+001 -5.643918e+001 6.710669e+001 -1.175354e-001 1.356901e+002
538127595.31899 -5.654804e-001 1.622317e+002 -5.623553e+001 6.318783e+001 -5.629886e+001 6.342310e+001 -1.162630e-001 1.357650e+002
538505096.26274 -5.695230e-001 1.620164e+002 -5.607268e+001 6.043129e+001 -5.589575e+001 6.408432e+001 -1.201600e-001 1.358354e+002
538882597.20649 -5.766644e-001 1.618151e+002 -5.606947e+001 5.845324e+001 -5.615226e+001 6.317395e+001 -1.208866e-001 1.358280e+002
539260098.15025 -5.847852e-001 1.615754e+002 -5.624922e+001 6.074434e+001 -5.603777e+001 6.311468e+001 -1.290619e-001 1.359168e+002
539637599.094 -5.920593e-001 1.613772e+002 -5.616723e+001 6.034314e+001 -5.589077e+001 6.119214e+001 -1.344819e-001 1.359536e+002
540015100.03775 -5.997730e-001 1.611673e+002 -5.632967e+001 5.893940e+001 -5.589128e+001 6.100304e+001 -1.417890e-001 1.359724e+002
540392600.9815 -6.084623e-001 1.608741e+002 -5.558037e+001 5.526008e+001 -5.549395e+001 5.927945e+001 -1.414794e-001 1.360051e+002
540770101.92525 -6.090047e-001 1.606368e+002 -5.609799e+001 5.665946e+001 -5.595213e+001 5.621944e+001 -1.480046e-001 1.360078e+002
541147602.86901 -6.188487e-001 1.603869e+002 -5.574860e+001 5.382290e+001 -5.575715e+001 5.595005e+001 -1.491106e-001 1.360185e+002
541525103.81276 -6.268488e-001 1.602434e+002 -5.570627e+001 5.250098e+001 -5.634175e+001 5.518681e+001 -1.546329e-001 1.360103e+002
541902604.75651 -6.277727e-001 1.599435e+002 -5.612828e+001 5.311866e+001 -5.600546e+001 5.362971e+001 -1.539949e-001 1.360441e+002
542280105.70026 -6.340007e-001 1.596792e+002 -5.617424e+001 4.927794e+001 -5.610868e+001 5.477895e+001 -1.594674e-001 1.359640e+002
542657606.64402 -6.377856e-001 1.595222e+002 -5.611790e+001 5.059655e+001 -5.642631e+001 5.379922e+001 -1.615861e-001 1.359684e+002
543035107.58777 -6.412240e-001 1.592412e+002 -5.585854e+001 5.401233e+001 -5.610654e+001 5.524165e+001 -1.684884e-001 1.359349e+002
543412608.53152 -6.493880e-001 1.590450e+002 -5.577683e+001 4.830220e+001 -5.607711e+001 5.364344e+001 -1.699294e-001 1.359003e+002
543790109.47527 -6.561886e-001 1.587268e+002 -5.613620e+001 5.004407e+001 -5.630141e+001 5.382985e+001 -1.694582e-001 1.358719e+002
544167610.41903 -6.577137e-001 1.584581e+002 -5.599373e+001 5.100659e+001 -5.602160e+001 5.240113e+001 -1.738675e-001 1.357885e+002
544545111.36278 -6.647944e-001 1.582083e+002 -5.544312e+001 5.003342e+001 -5.576135e+001 5.304266e+001 -1.779513e-001 1.357610e+002
544922612.30653 -6.677275e-001 1.579471e+002 -5.592462e+001 5.181918e+001 -5.579533e+001 5.330642e+001 -1.808294e-001 1.356913e+002
545300113.25028 -6.745751e-001 1.576992e+002 -5.570242e+001 4.966782e+001 -5.592450e+001 5.216096e+001 -1.812688e-001 1.356525e+002
545677614.19404 -6.791872e-001 1.573858e+002 -5.560498e+001 4.882921e+001 -5.600342e+001 5.372611e+001 -1.830449e-001 1.355885e+002
546055115.13779 -6.854559e-001 1.571198e+002 -5.560887e+001 4.946183e+001 -5.571795e+001 5.165252e+001 -1.867383e-001 1.355076e+002
546432616.08154 -6.916618e-001 1.568348e+002 -5.541470e+001 4.649699e+001 -5.564469e+001 5.338936e+001 -1.861662e-001 1.353999e+002
546810117.02529 -6.996582e-001 1.565927e+002 -5.554927e+001 4.762494e+001 -5.562315e+001 4.955770e+001 -1.864778e-001 1.353542e+002
547187617.96904 -7.102673e-001 1.562554e+002 -5.521192e+001 4.869405e+001 -5.536446e+001 5.041937e+001 -1.906395e-001 1.352867e+002
547565118.9128 -7.180485e-001 1.559186e+002 -5.502408e+001 4.672073e+001 -5.513002e+001 5.330884e+001 -1.896014e-001 1.352147e+002
547942619.85655 -7.299305e-001 1.557203e+002 -5.464355e+001 4.696288e+001 -5.496484e+001 5.312450e+001 -1.944002e-001 1.351541e+002
548320120.8003 -7.429640e-001 1.554003e+002 -5.439632e+001 4.476104e+001 -5.533968e+001 5.080099e+001 -1.947309e-001 1.350817e+002
548697621.74405 -7.569249e-001 1.551089e+002 -5.437982e+001 4.475625e+001 -5.480172e+001 5.123856e+001 -1.983187e-001 1.350089e+002
549075122.68781 -7.690949e-001 1.548974e+002 -5.425870e+001 4.264569e+001 -5.466531e+001 4.943180e+001 -2.008004e-001 1.349091e+002
549452623.63156 -7.842680e-001 1.545836e+002 -5.416009e+001 4.327764e+001 -5.416582e+001 4.807032e+001 -2.010943e-001 1.348285e+002
549830124.57531 -7.995741e-001 1.543417e+002 -5.390030e+001 3.976191e+001 -5.413295e+001 4.727318e+001 -2.030807e-001 1.347569e+002
550207625.51906 -8.118137e-001 1.541127e+002 -5.392662e+001 4.110489e+001 -5.412712e+001 4.600694e+001 -2.054756e-001 1.346893e+002
550585126.46282 -8.272837e-001 1.538757e+002 -5.401279e+001 3.957872e+001 -5.360270e+001 4.405599e+001 -2.057466e-001 1.345975e+002
550962627.40657 -8.390914e-001 1.536522e+002 -5.365381e+001 3.786230e+001 -5.361474e+001 4.485531e+001 -2.132697e-001 1.345314e+002
551340128.35032 -8.505733e-001 1.534094e+002 -5.347782e+001 3.599847e+001 -5.405120e+001 4.263535e+001 -2.117923e-001 1.344959e+002
551717629.29407 -8.615827e-001 1.531735e+002 -5.322702e+001 3.670149e+001 -5.344202e+001 4.238202e+001 -2.153081e-001 1.344159e+002
552095130.23783 -8.747175e-001 1.529352e+002 -5.327386e+001 3.573713e+001 -5.371143e+001 4.241728e+001 -2.131401e-001 1.343615e+002
552472631.18158 -8.883414e-001 1.527564e+002 -5.289354e+001 3.351043e+001 -5.334363e+001 3.922026e+001 -2.149972e-001 1.342978e+002
552850132.12533 -9.001194e-001 1.524807e+002 -5.325272e+001 3.279638e+001 -5.310889e+001 3.830713e+001 -2.154950e-001 1.342224e+002
553227633.06908 -9.121165e-001 1.522549e+002 -5.320726e+001 3.054473e+001 -5.318697e+001 3.598690e+001 -2.182283e-001 1.341783e+002
553605134.01284 -9.230016e-001 1.520124e+002 -5.289229e+001 2.796732e+001 -5.326685e+001 3.663462e+001 -2.204943e-001 1.340979e+002
553982634.95659 -9.384134e-001 1.517612e+002 -5.320412e+001 2.737375e+001 -5.294852e+001 3.297862e+001 -2.220425e-001 1.340556e+002
554360135.90034 -9.543647e-001 1.515439e+002 -5.287856e+001 2.704804e+001 -5.313041e+001 3.259760e+001 -2.226079e-001 1.339911e+002
554737636.84409 -9.680170e-001 1.513528e+002 -5.312515e+001 2.588279e+001 -5.303412e+001 3.259163e+001 -2.263892e-001 1.339520e+002
555115137.78784 -9.796558e-001 1.511382e+002 -5.302763e+001 2.297991e+001 -5.297558e+001 3.020565e+001 -2.253597e-001 1.339004e+002
555492638.7316 -9.960831e-001 1.508590e+002 -5.282937e+001 2.420833e+001 -5.283154e+001 2.823795e+001 -2.256757e-001 1.338483e+002
555870139.67535 -1.006098e+000 1.506535e+002 -5.267491e+001 2.363829e+001 -5.286789e+001 2.760779e+001 -2.285135e-001 1.338098e+002
