!Agilent Technologies,E8364B,US42250235,A.06.04.32
!Agilent E8364B: A.06.04.32
!Date: Thursday, October 01, 2020 11:14:54
!Correction: S11(Full 2 Port(1,2)) S21(Full 2 Port(1,2)) S12(Full 2 Port(1,2)) S22(Full 2 Port(1,2)) 
!S2P File: Measurements: S11, S21, S12, S22:
# Hz S  dB   R 50
500000000 -1.869024e-001 -1.753934e+002 -6.415050e+001 6.740659e+001 -6.348728e+001 6.026947e+001 -2.488659e-001 1.367080e+002
500377500.94375 -1.890543e-001 -1.755436e+002 -6.343633e+001 6.808590e+001 -6.338063e+001 6.207388e+001 -2.486341e-001 1.365984e+002
500755001.8875 -1.902575e-001 -1.757969e+002 -6.337074e+001 6.643507e+001 -6.362724e+001 6.363055e+001 -2.580282e-001 1.365069e+002
501132502.83126 -1.972326e-001 -1.759752e+002 -6.329100e+001 6.782873e+001 -6.415703e+001 5.594083e+001 -2.562587e-001 1.364093e+002
501510003.77501 -2.033196e-001 -1.761620e+002 -6.247392e+001 6.497696e+001 -6.270746e+001 5.882649e+001 -2.569926e-001 1.363134e+002
501887504.71876 -2.105734e-001 -1.764082e+002 -6.238299e+001 6.436909e+001 -6.173745e+001 5.924798e+001 -2.617155e-001 1.362300e+002
502265005.66251 -2.139259e-001 -1.765820e+002 -6.270940e+001 6.167262e+001 -6.259874e+001 5.465189e+001 -2.577873e-001 1.361350e+002
502642506.60627 -2.171038e-001 -1.768508e+002 -6.237829e+001 6.198525e+001 -6.230556e+001 5.577919e+001 -2.589408e-001 1.360802e+002
503020007.55002 -2.236570e-001 -1.770373e+002 -6.282674e+001 6.126558e+001 -6.242309e+001 5.979800e+001 -2.554807e-001 1.360050e+002
503397508.49377 -2.292153e-001 -1.772432e+002 -6.191983e+001 5.884728e+001 -6.270541e+001 5.389327e+001 -2.538882e-001 1.359268e+002
503775009.43752 -2.329022e-001 -1.774934e+002 -6.221158e+001 5.638539e+001 -6.243769e+001 4.975932e+001 -2.504206e-001 1.358658e+002
504152510.38128 -2.393416e-001 -1.776721e+002 -6.197843e+001 5.831311e+001 -6.237988e+001 5.363368e+001 -2.479009e-001 1.358159e+002
504530011.32503 -2.460148e-001 -1.779238e+002 -6.281324e+001 6.159011e+001 -6.209723e+001 5.112340e+001 -2.468556e-001 1.357733e+002
504907512.26878 -2.479683e-001 -1.780966e+002 -6.218404e+001 5.714828e+001 -6.181913e+001 5.208464e+001 -2.395757e-001 1.357480e+002
505285013.21253 -2.493731e-001 -1.783632e+002 -6.317070e+001 5.573530e+001 -6.170086e+001 5.143638e+001 -2.383931e-001 1.357226e+002
505662514.15629 -2.516252e-001 -1.785241e+002 -6.213399e+001 5.638441e+001 -6.162514e+001 5.231139e+001 -2.325558e-001 1.357034e+002
506040015.10004 -2.527502e-001 -1.787369e+002 -6.234207e+001 5.854580e+001 -6.208252e+001 4.726218e+001 -2.236249e-001 1.357199e+002
506417516.04379 -2.578597e-001 -1.789617e+002 -6.193968e+001 5.241821e+001 -6.219410e+001 4.690511e+001 -2.171256e-001 1.357429e+002
506795016.98754 -2.586749e-001 -1.791633e+002 -6.177916e+001 5.082170e+001 -6.118855e+001 4.934011e+001 -2.114992e-001 1.357860e+002
507172517.93129 -2.609583e-001 -1.793687e+002 -6.156229e+001 5.572459e+001 -6.169165e+001 4.198640e+001 -2.043811e-001 1.358256e+002
507550018.87505 -2.629005e-001 -1.795963e+002 -6.129520e+001 4.456425e+001 -6.141688e+001 4.274137e+001 -1.968686e-001 1.358822e+002
507927519.8188 -2.643079e-001 -1.797974e+002 -6.110261e+001 4.540494e+001 -6.109999e+001 4.278356e+001 -1.914571e-001 1.359733e+002
508305020.76255 -2.687991e-001 -1.799963e+002 -6.173834e+001 4.426990e+001 -6.084425e+001 4.254182e+001 -1.852892e-001 1.360453e+002
508682521.7063 -2.664595e-001 1.797650e+002 -6.294435e+001 4.806203e+001 -6.162905e+001 4.628138e+001 -1.788142e-001 1.361640e+002
509060022.65006 -2.663188e-001 1.795615e+002 -6.199064e+001 4.698191e+001 -6.121846e+001 3.588860e+001 -1.753301e-001 1.362612e+002
509437523.59381 -2.731352e-001 1.793739e+002 -6.236719e+001 4.327469e+001 -6.234705e+001 3.857560e+001 -1.695748e-001 1.364022e+002
509815024.53756 -2.733448e-001 1.791575e+002 -6.224871e+001 4.018770e+001 -6.112877e+001 3.384763e+001 -1.651906e-001 1.365394e+002
510192525.48131 -2.746989e-001 1.789736e+002 -6.177897e+001 4.153268e+001 -6.128497e+001 3.839451e+001 -1.595347e-001 1.366626e+002
510570026.42507 -2.794978e-001 1.787750e+002 -6.148243e+001 4.204710e+001 -6.143940e+001 3.780340e+001 -1.559073e-001 1.368496e+002
510947527.36882 -2.789907e-001 1.785125e+002 -6.143143e+001 4.677097e+001 -6.116594e+001 3.178381e+001 -1.495642e-001 1.370026e+002
511325028.31257 -2.791085e-001 1.783525e+002 -6.099510e+001 3.645828e+001 -6.051645e+001 3.728649e+001 -1.501859e-001 1.371752e+002
511702529.25632 -2.863365e-001 1.781114e+002 -6.143496e+001 4.158479e+001 -6.150156e+001 3.500951e+001 -1.513371e-001 1.373525e+002
512080030.20008 -2.909016e-001 1.779247e+002 -6.160221e+001 3.771721e+001 -6.064774e+001 3.621749e+001 -1.483016e-001 1.375223e+002
512457531.14383 -2.961067e-001 1.776739e+002 -6.096192e+001 3.979691e+001 -6.166273e+001 3.281091e+001 -1.474172e-001 1.376819e+002
512835032.08758 -3.017321e-001 1.775006e+002 -6.179230e+001 3.768759e+001 -6.158678e+001 3.289730e+001 -1.487035e-001 1.378432e+002
513212533.03133 -3.082811e-001 1.773002e+002 -6.068358e+001 4.255356e+001 -6.104152e+001 3.157404e+001 -1.522938e-001 1.380068e+002
513590033.97508 -3.077496e-001 1.771047e+002 -6.080838e+001 4.159512e+001 -6.105871e+001 3.171968e+001 -1.560054e-001 1.381781e+002
513967534.91884 -3.127494e-001 1.769530e+002 -6.109650e+001 3.778673e+001 -6.107158e+001 2.606985e+001 -1.572900e-001 1.383202e+002
514345035.86259 -3.140160e-001 1.766706e+002 -6.062437e+001 3.750111e+001 -6.064077e+001 3.098876e+001 -1.643102e-001 1.384725e+002
514722536.80634 -3.212771e-001 1.764886e+002 -6.050919e+001 3.736258e+001 -6.094559e+001 2.993332e+001 -1.698690e-001 1.386016e+002
515100037.75009 -3.283201e-001 1.763349e+002 -6.061183e+001 3.530308e+001 -6.031392e+001 2.924245e+001 -1.731419e-001 1.387114e+002
515477538.69385 -3.322846e-001 1.760546e+002 -6.098160e+001 3.643584e+001 -6.018676e+001 2.561561e+001 -1.804412e-001 1.388104e+002
515855039.6376 -3.355505e-001 1.758992e+002 -6.058545e+001 3.799739e+001 -6.063890e+001 2.950294e+001 -1.859685e-001 1.388994e+002
516232540.58135 -3.432570e-001 1.756733e+002 -6.054220e+001 3.686118e+001 -6.007747e+001 2.126619e+001 -1.941933e-001 1.389486e+002
516610041.5251 -3.482286e-001 1.754249e+002 -6.009290e+001 3.441307e+001 -6.068716e+001 3.150591e+001 -2.030997e-001 1.389984e+002
516987542.46886 -3.540457e-001 1.752617e+002 -5.966552e+001 3.097063e+001 -6.038110e+001 3.009409e+001 -2.109312e-001 1.390057e+002
517365043.41261 -3.608962e-001 1.749873e+002 -6.006304e+001 3.207949e+001 -6.093494e+001 2.375251e+001 -2.219722e-001 1.390201e+002
517742544.35636 -3.691371e-001 1.747879e+002 -5.973309e+001 2.895679e+001 -5.980198e+001 2.066309e+001 -2.320270e-001 1.389864e+002
518120045.30011 -3.761250e-001 1.745836e+002 -5.946304e+001 2.976813e+001 -5.955127e+001 2.223219e+001 -2.404007e-001 1.389415e+002
518497546.24387 -3.841786e-001 1.743631e+002 -5.889709e+001 2.717735e+001 -5.974529e+001 2.259945e+001 -2.467906e-001 1.388722e+002
518875047.18762 -3.906543e-001 1.741233e+002 -5.891117e+001 3.024560e+001 -5.918595e+001 2.329206e+001 -2.602085e-001 1.387953e+002
519252548.13137 -3.992496e-001 1.739632e+002 -5.905770e+001 2.633517e+001 -5.899869e+001 2.059545e+001 -2.656391e-001 1.387104e+002
519630049.07512 -4.041458e-001 1.737387e+002 -5.883167e+001 2.152625e+001 -5.879942e+001 1.638857e+001 -2.769169e-001 1.385581e+002
520007550.01888 -4.091064e-001 1.734512e+002 -5.865828e+001 2.446501e+001 -5.921692e+001 1.748807e+001 -2.822350e-001 1.384080e+002
520385050.96263 -4.178949e-001 1.732648e+002 -5.878915e+001 2.473917e+001 -5.894860e+001 1.384384e+001 -2.893980e-001 1.382207e+002
520762551.90638 -4.244917e-001 1.730866e+002 -5.877621e+001 2.023326e+001 -5.895576e+001 1.369324e+001 -2.940604e-001 1.380379e+002
521140052.85013 -4.284312e-001 1.728389e+002 -5.818826e+001 2.067282e+001 -5.888816e+001 1.368967e+001 -3.029286e-001 1.378293e+002
521517553.79388 -4.321112e-001 1.726650e+002 -5.853656e+001 1.922862e+001 -5.909853e+001 1.166426e+001 -3.041393e-001 1.376176e+002
521895054.73764 -4.364447e-001 1.724287e+002 -5.842566e+001 1.369833e+001 -5.870145e+001 1.082298e+001 -3.118395e-001 1.374251e+002
522272555.68139 -4.395867e-001 1.722459e+002 -5.883015e+001 1.248413e+001 -5.913251e+001 8.214224e+000 -3.135650e-001 1.371921e+002
522650056.62514 -4.450716e-001 1.720251e+002 -5.814442e+001 1.249347e+001 -5.845610e+001 9.063849e+000 -3.121294e-001 1.369617e+002
523027557.56889 -4.493706e-001 1.718127e+002 -5.856934e+001 9.936651e+000 -5.826729e+001 5.490890e+000 -3.164075e-001 1.367096e+002
523405058.51265 -4.532228e-001 1.715962e+002 -5.849416e+001 9.986032e+000 -5.911274e+001 7.556900e+000 -3.142978e-001 1.364629e+002
523782559.4564 -4.538028e-001 1.713098e+002 -5.889574e+001 8.983845e+000 -5.880876e+001 2.423666e+000 -3.135022e-001 1.362310e+002
524160060.40015 -4.592049e-001 1.711115e+002 -5.806453e+001 1.265165e+001 -5.867763e+001 4.491976e+000 -3.089954e-001 1.360134e+002
524537561.3439 -4.605211e-001 1.709399e+002 -5.823561e+001 8.936046e+000 -5.909721e+001 5.028782e+000 -3.068282e-001 1.358264e+002
524915062.28766 -4.669565e-001 1.706673e+002 -5.862754e+001 6.147883e+000 -5.859941e+001 3.585822e+000 -3.008690e-001 1.355294e+002
525292563.23141 -4.638618e-001 1.703869e+002 -5.901692e+001 4.892411e+000 -5.839883e+001 2.971965e+000 -2.995264e-001 1.353453e+002
525670064.17516 -4.692541e-001 1.701983e+002 -5.817095e+001 6.880999e+000 -5.818481e+001 3.603528e+000 -2.913571e-001 1.351345e+002
526047565.11891 -4.695153e-001 1.699794e+002 -5.832109e+001 5.815354e+000 -5.841100e+001 2.391119e-001 -2.869566e-001 1.349614e+002
526425066.06267 -4.771633e-001 1.697452e+002 -5.853268e+001 7.367921e+000 -5.840004e+001 -2.897627e-001 -2.819716e-001 1.347871e+002
526802567.00642 -4.793799e-001 1.695236e+002 -5.800677e+001 2.724140e+000 -5.743276e+001 4.622531e-001 -2.715719e-001 1.346563e+002
527180067.95017 -4.856243e-001 1.693051e+002 -5.764493e+001 4.445384e+000 -5.793902e+001 -3.133733e+000 -2.630748e-001 1.344959e+002
527557568.89392 -4.925597e-001 1.690568e+002 -5.785908e+001 3.175261e+000 -5.856552e+001 -2.855243e+000 -2.532269e-001 1.343689e+002
527935069.83767 -4.963571e-001 1.688631e+002 -5.744124e+001 3.737208e+000 -5.765836e+001 -3.515000e+000 -2.477092e-001 1.342733e+002
528312570.78143 -5.023957e-001 1.685608e+002 -5.860992e+001 -2.011869e+000 -5.797625e+001 -4.925061e+000 -2.403216e-001 1.342214e+002
528690071.72518 -5.072044e-001 1.684067e+002 -5.735589e+001 1.151902e+000 -5.739074e+001 -4.028398e+000 -2.305051e-001 1.341141e+002
529067572.66893 -5.154497e-001 1.681796e+002 -5.759459e+001 1.764602e+000 -5.718808e+001 -8.465493e+000 -2.245179e-001 1.340717e+002
529445073.61268 -5.211049e-001 1.679524e+002 -5.775441e+001 -1.966006e+000 -5.761460e+001 -8.622375e+000 -2.177729e-001 1.340423e+002
529822574.55644 -5.279829e-001 1.677215e+002 -5.711158e+001 -5.088065e+000 -5.728550e+001 -9.875227e+000 -2.077896e-001 1.340260e+002
530200075.50019 -5.307881e-001 1.674435e+002 -5.755119e+001 -3.237569e+000 -5.751151e+001 -1.031200e+001 -1.980107e-001 1.340095e+002
530577576.44394 -5.438125e-001 1.672563e+002 -5.720154e+001 -7.087525e+000 -5.673159e+001 -7.907416e+000 -1.933838e-001 1.340236e+002
530955077.38769 -5.494263e-001 1.670360e+002 -5.721461e+001 -3.051661e+000 -5.719763e+001 -1.391033e+001 -1.853523e-001 1.339991e+002
531332578.33145 -5.563597e-001 1.668410e+002 -5.714510e+001 -5.118345e+000 -5.714977e+001 -1.596847e+001 -1.821212e-001 1.340772e+002
531710079.2752 -5.625850e-001 1.665834e+002 -5.692384e+001 -9.685893e+000 -5.673700e+001 -1.405470e+001 -1.760224e-001 1.341049e+002
532087580.21895 -5.684164e-001 1.664202e+002 -5.742499e+001 -1.044957e+001 -5.694603e+001 -1.862510e+001 -1.704431e-001 1.341568e+002
532465081.1627 -5.734397e-001 1.662685e+002 -5.719294e+001 -1.506081e+001 -5.725604e+001 -2.059359e+001 -1.698061e-001 1.342280e+002
532842582.10646 -5.794170e-001 1.660328e+002 -5.672567e+001 -1.629525e+001 -5.702490e+001 -2.147297e+001 -1.633095e-001 1.342715e+002
533220083.05021 -5.869496e-001 1.658139e+002 -5.765278e+001 -1.689501e+001 -5.723671e+001 -2.310962e+001 -1.576703e-001 1.343594e+002
533597583.99396 -5.899948e-001 1.656569e+002 -5.705552e+001 -1.880715e+001 -5.690254e+001 -2.524057e+001 -1.584564e-001 1.344159e+002
533975084.93771 -5.935809e-001 1.654091e+002 -5.742572e+001 -1.604679e+001 -5.684876e+001 -2.422118e+001 -1.532256e-001 1.345072e+002
534352585.88146 -6.009901e-001 1.651997e+002 -5.713430e+001 -2.062167e+001 -5.742413e+001 -2.451135e+001 -1.502680e-001 1.345714e+002
534730086.82522 -6.065359e-001 1.649554e+002 -5.703644e+001 -1.725496e+001 -5.729998e+001 -2.440263e+001 -1.530772e-001 1.346658e+002
535107587.76897 -6.120530e-001 1.648141e+002 -5.692314e+001 -1.882999e+001 -5.737249e+001 -2.655676e+001 -1.468942e-001 1.347736e+002
535485088.71272 -6.181957e-001 1.645805e+002 -5.728443e+001 -1.876065e+001 -5.682970e+001 -2.592515e+001 -1.514893e-001 1.348104e+002
535862589.65647 -6.245447e-001 1.643853e+002 -5.725802e+001 -2.032681e+001 -5.738921e+001 -2.632771e+001 -1.539502e-001 1.348904e+002
536240090.60023 -6.284449e-001 1.641839e+002 -5.740411e+001 -1.760624e+001 -5.694614e+001 -2.707183e+001 -1.523422e-001 1.349617e+002
536617591.54398 -6.349170e-001 1.639714e+002 -5.665809e+001 -2.035520e+001 -5.727434e+001 -2.833357e+001 -1.565822e-001 1.350487e+002
536995092.48773 -6.423360e-001 1.637777e+002 -5.651572e+001 -2.105360e+001 -5.692918e+001 -2.789597e+001 -1.568653e-001 1.351590e+002
537372593.43148 -6.493104e-001 1.635542e+002 -5.701301e+001 -2.256159e+001 -5.715693e+001 -2.798106e+001 -1.586576e-001 1.351745e+002
537750094.37524 -6.543791e-001 1.634439e+002 -5.642492e+001 -2.215817e+001 -5.680589e+001 -2.798047e+001 -1.620910e-001 1.352308e+002
538127595.31899 -6.608124e-001 1.631765e+002 -5.683110e+001 -2.292831e+001 -5.665708e+001 -3.226259e+001 -1.626231e-001 1.353015e+002
538505096.26274 -6.596794e-001 1.630009e+002 -5.654274e+001 -2.488142e+001 -5.675125e+001 -3.212541e+001 -1.657445e-001 1.353901e+002
538882597.20649 -6.604725e-001 1.628052e+002 -5.601707e+001 -2.434536e+001 -5.610384e+001 -3.348273e+001 -1.645980e-001 1.353961e+002
539260098.15025 -6.641832e-001 1.626097e+002 -5.647258e+001 -2.611080e+001 -5.637723e+001 -3.276691e+001 -1.695322e-001 1.354392e+002
539637599.094 -6.657686e-001 1.623883e+002 -5.620790e+001 -2.935036e+001 -5.639994e+001 -3.651662e+001 -1.735126e-001 1.354982e+002
540015100.03775 -6.693031e-001 1.622343e+002 -5.625301e+001 -3.006168e+001 -5.645815e+001 -3.971008e+001 -1.800034e-001 1.355251e+002
540392600.9815 -6.696460e-001 1.620099e+002 -5.614164e+001 -3.111410e+001 -5.644712e+001 -3.932137e+001 -1.775024e-001 1.355427e+002
540770101.92525 -6.689904e-001 1.617413e+002 -5.639182e+001 -2.853368e+001 -5.645135e+001 -4.175327e+001 -1.797424e-001 1.355646e+002
541147602.86901 -6.670011e-001 1.615443e+002 -5.590025e+001 -3.382528e+001 -5.620610e+001 -4.112465e+001 -1.832186e-001 1.355853e+002
541525103.81276 -6.675423e-001 1.612993e+002 -5.627313e+001 -3.662371e+001 -5.608598e+001 -4.334042e+001 -1.859958e-001 1.355943e+002
541902604.75651 -6.706401e-001 1.610721e+002 -5.594629e+001 -3.469373e+001 -5.622440e+001 -4.442085e+001 -1.878713e-001 1.356533e+002
542280105.70026 -6.718442e-001 1.608194e+002 -5.602675e+001 -3.507901e+001 -5.636288e+001 -4.428145e+001 -1.905518e-001 1.356003e+002
542657606.64402 -6.657765e-001 1.606000e+002 -5.638106e+001 -3.661208e+001 -5.653651e+001 -4.588854e+001 -1.948126e-001 1.356019e+002
543035107.58777 -6.719947e-001 1.603797e+002 -5.585270e+001 -3.718657e+001 -5.614154e+001 -4.699681e+001 -1.964871e-001 1.356102e+002
543412608.53152 -6.737102e-001 1.600848e+002 -5.604947e+001 -4.001364e+001 -5.620811e+001 -4.741660e+001 -1.987483e-001 1.355941e+002
543790109.47527 -6.769375e-001 1.598224e+002 -5.588859e+001 -4.052792e+001 -5.643850e+001 -4.842656e+001 -1.993391e-001 1.355887e+002
544167610.41903 -6.778350e-001 1.596127e+002 -5.645670e+001 -4.156263e+001 -5.629557e+001 -4.911496e+001 -2.014458e-001 1.355913e+002
544545111.36278 -6.770090e-001 1.592956e+002 -5.597405e+001 -4.025234e+001 -5.612024e+001 -5.092989e+001 -2.060967e-001 1.355177e+002
544922612.30653 -6.815739e-001 1.590497e+002 -5.602399e+001 -4.200149e+001 -5.634668e+001 -4.856326e+001 -2.096641e-001 1.354688e+002
545300113.25028 -6.788322e-001 1.587874e+002 -5.599844e+001 -4.341817e+001 -5.614057e+001 -4.907011e+001 -2.112374e-001 1.354415e+002
545677614.19404 -6.840607e-001 1.585219e+002 -5.610155e+001 -4.446987e+001 -5.638334e+001 -5.181888e+001 -2.125540e-001 1.354069e+002
546055115.13779 -6.853111e-001 1.583071e+002 -5.598842e+001 -4.328484e+001 -5.670570e+001 -5.326500e+001 -2.174709e-001 1.353514e+002
546432616.08154 -6.906101e-001 1.579822e+002 -5.601406e+001 -4.669120e+001 -5.630222e+001 -5.304863e+001 -2.179786e-001 1.352964e+002
546810117.02529 -6.948780e-001 1.577037e+002 -5.632220e+001 -4.669391e+001 -5.641206e+001 -5.128246e+001 -2.239307e-001 1.352185e+002
547187617.96904 -7.039383e-001 1.574229e+002 -5.604777e+001 -4.700274e+001 -5.623824e+001 -5.336852e+001 -2.259708e-001 1.351525e+002
547565118.9128 -7.080796e-001 1.571233e+002 -5.620838e+001 -4.669931e+001 -5.598749e+001 -5.448581e+001 -2.271332e-001 1.350988e+002
547942619.85655 -7.158912e-001 1.568710e+002 -5.546353e+001 -4.573942e+001 -5.578482e+001 -5.443708e+001 -2.327002e-001 1.350363e+002
548320120.8003 -7.279415e-001 1.566089e+002 -5.545153e+001 -4.598080e+001 -5.599757e+001 -5.638766e+001 -2.367904e-001 1.349535e+002
548697621.74405 -7.384510e-001 1.563967e+002 -5.577054e+001 -4.809335e+001 -5.574531e+001 -5.367960e+001 -2.413012e-001 1.348930e+002
549075122.68781 -7.485489e-001 1.561521e+002 -5.546836e+001 -5.067637e+001 -5.606728e+001 -5.599180e+001 -2.449926e-001 1.347988e+002
549452623.63156 -7.576791e-001 1.559222e+002 -5.545517e+001 -5.081461e+001 -5.588253e+001 -5.501431e+001 -2.479632e-001 1.347094e+002
549830124.57531 -7.632887e-001 1.556958e+002 -5.522940e+001 -5.266878e+001 -5.544690e+001 -6.053205e+001 -2.487435e-001 1.346447e+002
550207625.51906 -7.696095e-001 1.554713e+002 -5.521254e+001 -5.719761e+001 -5.574246e+001 -5.993320e+001 -2.554607e-001 1.345419e+002
550585126.46282 -7.777903e-001 1.552047e+002 -5.559778e+001 -5.608393e+001 -5.540352e+001 -6.000084e+001 -2.569864e-001 1.344559e+002
550962627.40657 -7.850646e-001 1.550021e+002 -5.508363e+001 -5.731952e+001 -5.561826e+001 -5.953421e+001 -2.608182e-001 1.343477e+002
551340128.35032 -7.919014e-001 1.548152e+002 -5.497195e+001 -5.667345e+001 -5.543730e+001 -6.361371e+001 -2.601834e-001 1.342924e+002
551717629.29407 -7.994246e-001 1.545113e+002 -5.519085e+001 -5.843267e+001 -5.540101e+001 -6.392270e+001 -2.650209e-001 1.341721e+002
552095130.23783 -8.043646e-001 1.543343e+002 -5.508024e+001 -6.023158e+001 -5.524905e+001 -6.391305e+001 -2.680535e-001 1.341315e+002
552472631.18158 -8.086999e-001 1.541058e+002 -5.518994e+001 -6.179974e+001 -5.519831e+001 -6.670867e+001 -2.698071e-001 1.340638e+002
552850132.12533 -8.176486e-001 1.539231e+002 -5.481095e+001 -6.238506e+001 -5.522047e+001 -6.744553e+001 -2.651420e-001 1.339516e+002
553227633.06908 -8.247544e-001 1.536525e+002 -5.510683e+001 -6.095190e+001 -5.507747e+001 -7.016505e+001 -2.706490e-001 1.338872e+002
553605134.01284 -8.282419e-001 1.534124e+002 -5.510776e+001 -6.323196e+001 -5.527234e+001 -6.808329e+001 -2.704081e-001 1.338069e+002
553982634.95659 -8.392467e-001 1.532252e+002 -5.503583e+001 -6.367157e+001 -5.500269e+001 -6.735239e+001 -2.712654e-001 1.337258e+002
554360135.90034 -8.494394e-001 1.530023e+002 -5.513155e+001 -6.547850e+001 -5.498265e+001 -6.942774e+001 -2.709100e-001 1.336431e+002
554737636.84409 -8.507226e-001 1.527298e+002 -5.551371e+001 -6.516201e+001 -5.494973e+001 -6.947362e+001 -2.736119e-001 1.335955e+002
555115137.78784 -8.592083e-001 1.525207e+002 -5.498172e+001 -6.595800e+001 -5.520795e+001 -7.156437e+001 -2.723853e-001 1.335056e+002
555492638.7316 -8.640048e-001 1.522422e+002 -5.460529e+001 -6.723013e+001 -5.500364e+001 -7.388345e+001 -2.672603e-001 1.334280e+002
