!Agilent Technologies,E8364B,US42250235,A.06.04.32
!Agilent E8364B: A.06.04.32
!Date: Thursday, October 01, 2020 11:18:00
!Correction: S11(Full 2 Port(1,2)) S21(Full 2 Port(1,2)) S12(Full 2 Port(1,2)) S22(Full 2 Port(1,2)) 
!S2P File: Measurements: S11, S21, S12, S22:
# Hz S  dB   R 50
500000000 -1.858307e-001 -1.750843e+002 -6.357308e+001 -4.279840e+001 -6.436776e+001 -4.325366e+001 -2.429471e-001 1.366039e+002
500377500.94375 -1.865057e-001 -1.753182e+002 -6.376464e+001 -4.381632e+001 -6.448222e+001 -4.690620e+001 -2.421327e-001 1.365049e+002
500755001.8875 -1.873565e-001 -1.754938e+002 -6.487565e+001 -4.083707e+001 -6.460096e+001 -4.603497e+001 -2.456724e-001 1.363986e+002
501132502.83126 -1.936840e-001 -1.757443e+002 -6.543293e+001 -4.167284e+001 -6.449905e+001 -5.294791e+001 -2.427249e-001 1.362959e+002
501510003.77501 -1.974405e-001 -1.759351e+002 -6.435706e+001 -4.785408e+001 -6.411817e+001 -5.349768e+001 -2.410223e-001 1.361735e+002
501887504.71876 -2.037968e-001 -1.761219e+002 -6.428365e+001 -5.200862e+001 -6.478905e+001 -5.061227e+001 -2.462378e-001 1.361065e+002
502265005.66251 -2.057292e-001 -1.763509e+002 -6.478246e+001 -5.277619e+001 -6.443668e+001 -4.964476e+001 -2.427032e-001 1.360090e+002
502642506.60627 -2.123856e-001 -1.765526e+002 -6.309926e+001 -5.295391e+001 -6.413441e+001 -5.156726e+001 -2.438004e-001 1.359462e+002
503020007.55002 -2.092726e-001 -1.767935e+002 -6.400150e+001 -5.764745e+001 -6.318147e+001 -4.946827e+001 -2.389673e-001 1.358661e+002
503397508.49377 -2.174352e-001 -1.770194e+002 -6.335695e+001 -6.378303e+001 -6.471733e+001 -6.372958e+001 -2.356484e-001 1.357776e+002
503775009.43752 -2.206010e-001 -1.771785e+002 -6.401989e+001 -6.255220e+001 -6.381104e+001 -5.739940e+001 -2.322879e-001 1.357409e+002
504152510.38128 -2.211560e-001 -1.774410e+002 -6.354606e+001 -5.912363e+001 -6.368287e+001 -5.756392e+001 -2.296626e-001 1.356800e+002
504530011.32503 -2.280627e-001 -1.776394e+002 -6.457212e+001 -5.496337e+001 -6.435746e+001 -5.659094e+001 -2.248171e-001 1.356394e+002
504907512.26878 -2.301567e-001 -1.778429e+002 -6.320972e+001 -6.022055e+001 -6.383731e+001 -5.552772e+001 -2.234730e-001 1.356114e+002
505285013.21253 -2.313230e-001 -1.780883e+002 -6.259955e+001 -6.081694e+001 -6.512726e+001 -6.264127e+001 -2.196975e-001 1.355930e+002
505662514.15629 -2.338257e-001 -1.782098e+002 -6.401583e+001 -6.226804e+001 -6.418183e+001 -5.749899e+001 -2.146406e-001 1.355732e+002
506040015.10004 -2.347609e-001 -1.784900e+002 -6.378858e+001 -6.139139e+001 -6.356178e+001 -6.255985e+001 -2.108475e-001 1.355949e+002
506417516.04379 -2.350862e-001 -1.786361e+002 -6.362499e+001 -6.133403e+001 -6.364799e+001 -6.571783e+001 -1.981538e-001 1.356200e+002
506795016.98754 -2.336665e-001 -1.789186e+002 -6.329636e+001 -5.855072e+001 -6.473273e+001 -5.855146e+001 -1.958722e-001 1.356575e+002
507172517.93129 -2.339310e-001 -1.790866e+002 -6.344169e+001 -5.980510e+001 -6.341103e+001 -5.609106e+001 -1.897790e-001 1.357228e+002
507550018.87505 -2.374022e-001 -1.793486e+002 -6.395124e+001 -6.323196e+001 -6.280531e+001 -6.421718e+001 -1.830350e-001 1.357610e+002
507927519.8188 -2.370936e-001 -1.795254e+002 -6.305474e+001 -6.870218e+001 -6.319856e+001 -6.788734e+001 -1.790496e-001 1.358521e+002
508305020.76255 -2.398162e-001 -1.796876e+002 -6.262782e+001 -6.218402e+001 -6.377854e+001 -6.783611e+001 -1.750750e-001 1.359413e+002
508682521.7063 -2.377938e-001 -1.799274e+002 -6.301185e+001 -6.080321e+001 -6.328035e+001 -7.108597e+001 -1.700065e-001 1.360494e+002
509060022.65006 -2.383436e-001 1.798412e+002 -6.337336e+001 -6.641869e+001 -6.245676e+001 -6.757163e+001 -1.665774e-001 1.361496e+002
509437523.59381 -2.387197e-001 1.796822e+002 -6.312383e+001 -6.899931e+001 -6.323772e+001 -6.907817e+001 -1.567582e-001 1.362844e+002
509815024.53756 -2.406455e-001 1.794262e+002 -6.293833e+001 -6.524339e+001 -6.255880e+001 -6.884103e+001 -1.562344e-001 1.364062e+002
510192525.48131 -2.351700e-001 1.792077e+002 -6.255646e+001 -7.448399e+001 -6.235289e+001 -7.165469e+001 -1.546205e-001 1.365398e+002
510570026.42507 -2.398328e-001 1.790023e+002 -6.270264e+001 -7.859493e+001 -6.252498e+001 -6.989825e+001 -1.524761e-001 1.367204e+002
510947527.36882 -2.449374e-001 1.787751e+002 -6.308812e+001 -7.836443e+001 -6.198977e+001 -6.687640e+001 -1.482527e-001 1.368669e+002
511325028.31257 -2.426116e-001 1.785571e+002 -6.241054e+001 -7.354297e+001 -6.253968e+001 -7.093206e+001 -1.451442e-001 1.370207e+002
511702529.25632 -2.492455e-001 1.784071e+002 -6.263852e+001 -7.786826e+001 -6.219290e+001 -7.399122e+001 -1.463525e-001 1.372011e+002
512080030.20008 -2.481679e-001 1.781570e+002 -6.282376e+001 -7.560445e+001 -6.201729e+001 -8.036579e+001 -1.457549e-001 1.373669e+002
512457531.14383 -2.520157e-001 1.779562e+002 -6.313600e+001 -6.896927e+001 -6.180251e+001 -7.404755e+001 -1.479792e-001 1.375320e+002
512835032.08758 -2.560403e-001 1.777530e+002 -6.269221e+001 -8.129942e+001 -6.229226e+001 -7.560037e+001 -1.492312e-001 1.376777e+002
513212533.03133 -2.628738e-001 1.775728e+002 -6.301800e+001 -7.703966e+001 -6.204111e+001 -8.210976e+001 -1.526874e-001 1.378425e+002
513590033.97508 -2.625429e-001 1.773766e+002 -6.180757e+001 -7.975130e+001 -6.186124e+001 -8.167442e+001 -1.564701e-001 1.380043e+002
513967534.91884 -2.686672e-001 1.771487e+002 -6.215055e+001 -8.048026e+001 -6.344765e+001 -7.657462e+001 -1.587387e-001 1.381255e+002
514345035.86259 -2.687259e-001 1.769196e+002 -6.226945e+001 -8.137944e+001 -6.200829e+001 -8.140930e+001 -1.641322e-001 1.382598e+002
514722536.80634 -2.748625e-001 1.767704e+002 -6.197676e+001 -7.887387e+001 -6.140690e+001 -8.272442e+001 -1.703659e-001 1.384083e+002
515100037.75009 -2.755282e-001 1.764840e+002 -6.218767e+001 -8.158192e+001 -6.251815e+001 -8.078311e+001 -1.742218e-001 1.384974e+002
515477538.69385 -2.813264e-001 1.763199e+002 -6.243959e+001 -8.555134e+001 -6.181699e+001 -8.354853e+001 -1.811129e-001 1.385993e+002
515855039.6376 -2.844805e-001 1.760691e+002 -6.150158e+001 -8.245710e+001 -6.180886e+001 -8.527827e+001 -1.886431e-001 1.386754e+002
516232540.58135 -2.884548e-001 1.758524e+002 -6.171865e+001 -8.481760e+001 -6.223206e+001 -8.349481e+001 -1.928074e-001 1.387247e+002
516610041.5251 -2.926731e-001 1.756268e+002 -6.106194e+001 -8.645637e+001 -6.147625e+001 -8.737491e+001 -2.056084e-001 1.387724e+002
516987542.46886 -2.969021e-001 1.754110e+002 -6.146426e+001 -8.214860e+001 -6.145101e+001 -8.328077e+001 -2.125089e-001 1.387569e+002
517365043.41261 -3.010691e-001 1.751970e+002 -6.173494e+001 -8.347785e+001 -6.129303e+001 -8.841049e+001 -2.220362e-001 1.387590e+002
517742544.35636 -3.036048e-001 1.749670e+002 -6.092932e+001 -8.808527e+001 -6.130991e+001 -8.599760e+001 -2.299933e-001 1.387287e+002
518120045.30011 -3.095574e-001 1.747239e+002 -6.111979e+001 -9.325716e+001 -6.136034e+001 -8.733635e+001 -2.380778e-001 1.386831e+002
518497546.24387 -3.155467e-001 1.745136e+002 -6.069120e+001 -9.015766e+001 -6.098431e+001 -9.038251e+001 -2.449052e-001 1.386128e+002
518875047.18762 -3.179825e-001 1.743040e+002 -6.047194e+001 -9.138248e+001 -6.082344e+001 -9.232046e+001 -2.523835e-001 1.385216e+002
519252548.13137 -3.218766e-001 1.740463e+002 -6.091385e+001 -9.359396e+001 -6.164496e+001 -9.546387e+001 -2.586918e-001 1.384388e+002
519630049.07512 -3.252469e-001 1.738120e+002 -6.030072e+001 -9.535860e+001 -6.068303e+001 -9.210815e+001 -2.684524e-001 1.382855e+002
520007550.01888 -3.304653e-001 1.735761e+002 -6.069806e+001 -9.665306e+001 -6.126472e+001 -9.724068e+001 -2.744088e-001 1.381224e+002
520385050.96263 -3.380523e-001 1.733924e+002 -6.072477e+001 -1.053089e+002 -6.141427e+001 -9.754957e+001 -2.813321e-001 1.379405e+002
520762551.90638 -3.416336e-001 1.731145e+002 -5.997124e+001 -9.867874e+001 -6.086413e+001 -9.794801e+001 -2.875477e-001 1.377579e+002
521140052.85013 -3.417646e-001 1.728787e+002 -6.059657e+001 -1.034004e+002 -6.079616e+001 -9.866033e+001 -2.926098e-001 1.375441e+002
521517553.79388 -3.478296e-001 1.726429e+002 -6.043187e+001 -9.810331e+001 -6.079859e+001 -9.918042e+001 -2.987015e-001 1.373314e+002
521895054.73764 -3.515437e-001 1.724297e+002 -6.055109e+001 -9.990606e+001 -6.024760e+001 -9.742860e+001 -3.007561e-001 1.371171e+002
522272555.68139 -3.521477e-001 1.721807e+002 -6.064410e+001 -1.042283e+002 -6.022749e+001 -9.804386e+001 -3.012480e-001 1.369048e+002
522650056.62514 -3.610169e-001 1.719590e+002 -6.017773e+001 -1.063283e+002 -6.034334e+001 -9.991531e+001 -2.989031e-001 1.366763e+002
523027557.56889 -3.625440e-001 1.717049e+002 -6.052602e+001 -1.037595e+002 -6.057493e+001 -9.975100e+001 -3.050620e-001 1.364322e+002
523405058.51265 -3.663672e-001 1.714943e+002 -6.041924e+001 -1.092206e+002 -6.116098e+001 -1.019632e+002 -3.017924e-001 1.361948e+002
523782559.4564 -3.709272e-001 1.712244e+002 -6.086726e+001 -1.072301e+002 -6.120250e+001 -1.032638e+002 -2.962719e-001 1.359680e+002
524160060.40015 -3.713367e-001 1.709982e+002 -6.031480e+001 -1.072189e+002 -6.086034e+001 -1.086587e+002 -2.972488e-001 1.357284e+002
524537561.3439 -3.742810e-001 1.707725e+002 -6.067103e+001 -1.116064e+002 -6.095149e+001 -1.084329e+002 -2.942879e-001 1.355358e+002
524915062.28766 -3.810095e-001 1.705087e+002 -5.973934e+001 -1.150310e+002 -6.034697e+001 -1.102452e+002 -2.905400e-001 1.352753e+002
525292563.23141 -3.818505e-001 1.702791e+002 -6.043240e+001 -1.128852e+002 -6.006316e+001 -1.076483e+002 -2.873994e-001 1.350720e+002
525670064.17516 -3.845621e-001 1.700222e+002 -6.048965e+001 -1.124285e+002 -6.059253e+001 -1.103867e+002 -2.810754e-001 1.348775e+002
526047565.11891 -3.907007e-001 1.698459e+002 -6.006599e+001 -1.082719e+002 -6.025017e+001 -1.092518e+002 -2.751891e-001 1.347192e+002
526425066.06267 -3.960624e-001 1.695664e+002 -6.045815e+001 -1.138180e+002 -6.070303e+001 -1.127280e+002 -2.681394e-001 1.345864e+002
526802567.00642 -3.976940e-001 1.693318e+002 -6.034231e+001 -1.104613e+002 -6.009477e+001 -1.096936e+002 -2.610206e-001 1.344292e+002
527180067.95017 -4.052564e-001 1.690460e+002 -6.005455e+001 -1.160121e+002 -6.018504e+001 -1.150880e+002 -2.513366e-001 1.342896e+002
527557568.89392 -4.093950e-001 1.688090e+002 -6.045765e+001 -1.124372e+002 -5.988637e+001 -1.129700e+002 -2.387726e-001 1.341162e+002
527935069.83767 -4.128728e-001 1.685437e+002 -5.996206e+001 -1.138449e+002 -6.029038e+001 -1.110832e+002 -2.346515e-001 1.340839e+002
528312570.78143 -4.227739e-001 1.682876e+002 -6.006932e+001 -1.101919e+002 -5.990704e+001 -1.143098e+002 -2.243004e-001 1.340755e+002
528690071.72518 -4.281941e-001 1.680409e+002 -5.990287e+001 -1.133279e+002 -6.031639e+001 -1.141648e+002 -2.174668e-001 1.339705e+002
529067572.66893 -4.351839e-001 1.678163e+002 -5.958899e+001 -1.156364e+002 -6.001244e+001 -1.151861e+002 -2.090941e-001 1.339373e+002
529445073.61268 -4.432452e-001 1.675467e+002 -5.999968e+001 -1.152863e+002 -6.032767e+001 -1.122478e+002 -2.013749e-001 1.339198e+002
529822574.55644 -4.511542e-001 1.673229e+002 -5.942995e+001 -1.167156e+002 -5.914048e+001 -1.154263e+002 -1.949304e-001 1.339154e+002
530200075.50019 -4.541906e-001 1.670810e+002 -5.987138e+001 -1.151397e+002 -5.958854e+001 -1.157912e+002 -1.822255e-001 1.339287e+002
530577576.44394 -4.631880e-001 1.668264e+002 -5.926736e+001 -1.185638e+002 -5.950484e+001 -1.137106e+002 -1.811888e-001 1.339462e+002
530955077.38769 -4.741563e-001 1.666520e+002 -5.900714e+001 -1.133085e+002 -5.927301e+001 -1.169834e+002 -1.715203e-001 1.339567e+002
531332578.33145 -4.807703e-001 1.663769e+002 -5.922932e+001 -1.200209e+002 -5.936275e+001 -1.170891e+002 -1.685945e-001 1.340325e+002
531710079.2752 -4.885581e-001 1.661407e+002 -5.945806e+001 -1.206784e+002 -5.905092e+001 -1.156789e+002 -1.634253e-001 1.341011e+002
532087580.21895 -4.968676e-001 1.658616e+002 -5.864566e+001 -1.217732e+002 -5.850578e+001 -1.250914e+002 -1.535132e-001 1.341591e+002
532465081.1627 -5.040892e-001 1.656893e+002 -5.858613e+001 -1.192794e+002 -5.913702e+001 -1.210860e+002 -1.534452e-001 1.342542e+002
532842582.10646 -5.106534e-001 1.654813e+002 -5.862097e+001 -1.219540e+002 -5.885951e+001 -1.220594e+002 -1.464756e-001 1.342991e+002
533220083.05021 -5.234362e-001 1.652253e+002 -5.818237e+001 -1.270472e+002 -5.819493e+001 -1.222441e+002 -1.409147e-001 1.344020e+002
533597583.99396 -5.291016e-001 1.650004e+002 -5.834355e+001 -1.266686e+002 -5.810513e+001 -1.257182e+002 -1.402470e-001 1.344761e+002
533975084.93771 -5.399625e-001 1.648070e+002 -5.845141e+001 -1.237704e+002 -5.767206e+001 -1.263240e+002 -1.389839e-001 1.346006e+002
534352585.88146 -5.476815e-001 1.645437e+002 -5.868830e+001 -1.272932e+002 -5.804174e+001 -1.280384e+002 -1.326163e-001 1.346634e+002
534730086.82522 -5.555717e-001 1.643375e+002 -5.787223e+001 -1.319107e+002 -5.852554e+001 -1.309047e+002 -1.371548e-001 1.347589e+002
535107587.76897 -5.649572e-001 1.641195e+002 -5.852636e+001 -1.289217e+002 -5.838430e+001 -1.315619e+002 -1.299656e-001 1.348765e+002
535485088.71272 -5.730641e-001 1.639057e+002 -5.805400e+001 -1.285623e+002 -5.800839e+001 -1.324703e+002 -1.353224e-001 1.349342e+002
535862589.65647 -5.829108e-001 1.637195e+002 -5.833282e+001 -1.302788e+002 -5.782890e+001 -1.334497e+002 -1.366533e-001 1.350260e+002
536240090.60023 -5.869324e-001 1.634714e+002 -5.786323e+001 -1.343116e+002 -5.758838e+001 -1.340044e+002 -1.351501e-001 1.350883e+002
536617591.54398 -5.981760e-001 1.632946e+002 -5.789131e+001 -1.350179e+002 -5.760908e+001 -1.351294e+002 -1.388769e-001 1.351843e+002
536995092.48773 -6.058218e-001 1.630186e+002 -5.714209e+001 -1.364556e+002 -5.770947e+001 -1.356440e+002 -1.400602e-001 1.352981e+002
537372593.43148 -6.146690e-001 1.627808e+002 -5.729451e+001 -1.343849e+002 -5.718756e+001 -1.352700e+002 -1.429364e-001 1.353267e+002
537750094.37524 -6.218871e-001 1.626236e+002 -5.770560e+001 -1.360747e+002 -5.742959e+001 -1.407795e+002 -1.487053e-001 1.353815e+002
538127595.31899 -6.307062e-001 1.623507e+002 -5.721083e+001 -1.366875e+002 -5.703224e+001 -1.424715e+002 -1.498051e-001 1.354321e+002
538505096.26274 -6.362060e-001 1.621530e+002 -5.733593e+001 -1.418916e+002 -5.717177e+001 -1.413079e+002 -1.523704e-001 1.355247e+002
538882597.20649 -6.458403e-001 1.619654e+002 -5.693908e+001 -1.396167e+002 -5.677961e+001 -1.397895e+002 -1.514854e-001 1.355402e+002
539260098.15025 -6.499000e-001 1.617448e+002 -5.693246e+001 -1.419503e+002 -5.697851e+001 -1.413662e+002 -1.606756e-001 1.355726e+002
539637599.094 -6.582207e-001 1.615676e+002 -5.701530e+001 -1.438183e+002 -5.711771e+001 -1.428452e+002 -1.593775e-001 1.356165e+002
540015100.03775 -6.646426e-001 1.613570e+002 -5.704082e+001 -1.454228e+002 -5.685886e+001 -1.460703e+002 -1.679230e-001 1.356307e+002
540392600.9815 -6.697773e-001 1.610679e+002 -5.696112e+001 -1.484040e+002 -5.713860e+001 -1.493787e+002 -1.672796e-001 1.356535e+002
540770101.92525 -6.709664e-001 1.608688e+002 -5.664075e+001 -1.471313e+002 -5.673483e+001 -1.496846e+002 -1.703006e-001 1.356567e+002
541147602.86901 -6.816834e-001 1.606097e+002 -5.657520e+001 -1.507019e+002 -5.667255e+001 -1.487225e+002 -1.730677e-001 1.356810e+002
541525103.81276 -6.861439e-001 1.604710e+002 -5.691307e+001 -1.499160e+002 -5.670823e+001 -1.513104e+002 -1.752601e-001 1.356821e+002
541902604.75651 -6.873791e-001 1.601795e+002 -5.632750e+001 -1.530904e+002 -5.666101e+001 -1.537429e+002 -1.755324e-001 1.357164e+002
542280105.70026 -6.953119e-001 1.599121e+002 -5.647599e+001 -1.532640e+002 -5.670396e+001 -1.564264e+002 -1.800943e-001 1.356653e+002
542657606.64402 -6.999220e-001 1.597510e+002 -5.647456e+001 -1.554579e+002 -5.712415e+001 -1.550226e+002 -1.822214e-001 1.356792e+002
543035107.58777 -7.048819e-001 1.594801e+002 -5.681920e+001 -1.584566e+002 -5.703622e+001 -1.574902e+002 -1.846056e-001 1.356633e+002
543412608.53152 -7.119213e-001 1.592838e+002 -5.663589e+001 -1.577461e+002 -5.663379e+001 -1.572108e+002 -1.868201e-001 1.356468e+002
543790109.47527 -7.189983e-001 1.589636e+002 -5.658509e+001 -1.615317e+002 -5.723798e+001 -1.586981e+002 -1.856472e-001 1.356344e+002
544167610.41903 -7.194915e-001 1.587214e+002 -5.679240e+001 -1.593430e+002 -5.683731e+001 -1.612131e+002 -1.901067e-001 1.356255e+002
544545111.36278 -7.279414e-001 1.584626e+002 -5.656763e+001 -1.621280e+002 -5.683508e+001 -1.578378e+002 -1.945419e-001 1.355514e+002
544922612.30653 -7.336407e-001 1.582466e+002 -5.667519e+001 -1.618499e+002 -5.697897e+001 -1.598669e+002 -1.963174e-001 1.355143e+002
545300113.25028 -7.393818e-001 1.579807e+002 -5.638794e+001 -1.631636e+002 -5.707674e+001 -1.626480e+002 -1.999949e-001 1.354947e+002
545677614.19404 -7.462603e-001 1.576789e+002 -5.627961e+001 -1.640281e+002 -5.661059e+001 -1.638485e+002 -1.972724e-001 1.354685e+002
546055115.13779 -7.527959e-001 1.574229e+002 -5.687558e+001 -1.635931e+002 -5.678568e+001 -1.621828e+002 -1.998142e-001 1.354063e+002
546432616.08154 -7.630390e-001 1.571388e+002 -5.655285e+001 -1.648589e+002 -5.670219e+001 -1.649285e+002 -2.026997e-001 1.353665e+002
546810117.02529 -7.702173e-001 1.569162e+002 -5.636923e+001 -1.649837e+002 -5.666738e+001 -1.645343e+002 -2.030456e-001 1.353026e+002
547187617.96904 -7.838243e-001 1.565943e+002 -5.606009e+001 -1.655782e+002 -5.678765e+001 -1.653957e+002 -2.073061e-001 1.352558e+002
547565118.9128 -7.913560e-001 1.562857e+002 -5.650391e+001 -1.664712e+002 -5.649448e+001 -1.666342e+002 -2.080242e-001 1.352107e+002
547942619.85655 -8.046628e-001 1.560932e+002 -5.609634e+001 -1.664233e+002 -5.667635e+001 -1.674050e+002 -2.099251e-001 1.351566e+002
548320120.8003 -8.191358e-001 1.558128e+002 -5.613417e+001 -1.681194e+002 -5.681268e+001 -1.655298e+002 -2.143690e-001 1.351000e+002
548697621.74405 -8.348362e-001 1.555516e+002 -5.614943e+001 -1.682931e+002 -5.628461e+001 -1.666703e+002 -2.199505e-001 1.350514e+002
549075122.68781 -8.489406e-001 1.553745e+002 -5.569996e+001 -1.681812e+002 -5.625863e+001 -1.683477e+002 -2.202544e-001 1.349845e+002
549452623.63156 -8.637039e-001 1.551004e+002 -5.603333e+001 -1.710956e+002 -5.633707e+001 -1.684269e+002 -2.219833e-001 1.349268e+002
549830124.57531 -8.830447e-001 1.549000e+002 -5.583021e+001 -1.703310e+002 -5.557907e+001 -1.706035e+002 -2.238232e-001 1.348618e+002
550207625.51906 -8.940788e-001 1.547129e+002 -5.547931e+001 -1.734395e+002 -5.577859e+001 -1.719573e+002 -2.302020e-001 1.348122e+002
550585126.46282 -9.066100e-001 1.545076e+002 -5.578816e+001 -1.724223e+002 -5.550246e+001 -1.732593e+002 -2.276647e-001 1.347195e+002
550962627.40657 -9.213604e-001 1.543226e+002 -5.553840e+001 -1.743537e+002 -5.519793e+001 -1.721674e+002 -2.356252e-001 1.346447e+002
551340128.35032 -9.286260e-001 1.541236e+002 -5.558540e+001 -1.793680e+002 -5.530281e+001 -1.756069e+002 -2.348961e-001 1.345979e+002
551717629.29407 -9.392148e-001 1.539190e+002 -5.485167e+001 1.777269e+002 -5.527383e+001 -1.786336e+002 -2.394034e-001 1.345046e+002
552095130.23783 -9.516767e-001 1.537261e+002 -5.540131e+001 -1.781529e+002 -5.490564e+001 -1.784766e+002 -2.428859e-001 1.344890e+002
552472631.18158 -9.608718e-001 1.535845e+002 -5.518616e+001 -1.787362e+002 -5.532527e+001 -1.788434e+002 -2.438136e-001 1.344070e+002
552850132.12533 -9.721969e-001 1.534065e+002 -5.511977e+001 1.772427e+002 -5.537135e+001 1.786982e+002 -2.414814e-001 1.343360e+002
553227633.06908 -9.795456e-001 1.531838e+002 -5.543268e+001 1.769476e+002 -5.531200e+001 1.790758e+002 -2.491846e-001 1.342899e+002
553605134.01284 -9.843448e-001 1.529647e+002 -5.516958e+001 1.747504e+002 -5.534994e+001 1.793250e+002 -2.512296e-001 1.342227e+002
553982634.95659 -9.959288e-001 1.527666e+002 -5.495499e+001 1.727385e+002 -5.529822e+001 1.759332e+002 -2.509597e-001 1.341323e+002
554360135.90034 -1.008537e+000 1.525737e+002 -5.452080e+001 1.714979e+002 -5.507742e+001 1.763965e+002 -2.537003e-001 1.340542e+002
554737636.84409 -1.014537e+000 1.524231e+002 -5.488310e+001 1.715685e+002 -5.492005e+001 1.737168e+002 -2.566898e-001 1.340069e+002
555115137.78784 -1.020730e+000 1.522305e+002 -5.526410e+001 1.714727e+002 -5.475348e+001 1.722482e+002 -2.534629e-001 1.339494e+002
