!Agilent Technologies,E8364B,US42250235,A.06.04.32
!Agilent E8364B: A.06.04.32
!Date: Thursday, October 01, 2020 10:57:31
!Correction: S11(Full 2 Port(1,2)) S21(Full 2 Port(1,2)) S12(Full 2 Port(1,2)) S22(Full 2 Port(1,2)) 
!S2P File: Measurements: S11, S21, S12, S22:
# Hz S  dB   R 50
500000000 -1.202718e-001 -1.751122e+002 -5.644907e+001 1.175106e+002 -5.625816e+001 1.189096e+002 -1.660654e-001 1.380708e+002
500377500.94375 -1.234020e-001 -1.753236e+002 -5.627845e+001 1.178932e+002 -5.622565e+001 1.181522e+002 -1.642618e-001 1.380229e+002
500755001.8875 -1.235767e-001 -1.755067e+002 -5.647858e+001 1.151659e+002 -5.650540e+001 1.159347e+002 -1.697345e-001 1.379830e+002
501132502.83126 -1.277121e-001 -1.757386e+002 -5.594400e+001 1.204092e+002 -5.661853e+001 1.168138e+002 -1.661453e-001 1.379441e+002
501510003.77501 -1.298864e-001 -1.759321e+002 -5.576342e+001 1.194059e+002 -5.592471e+001 1.152408e+002 -1.678584e-001 1.379116e+002
501887504.71876 -1.358890e-001 -1.761321e+002 -5.612175e+001 1.146262e+002 -5.583882e+001 1.170244e+002 -1.723393e-001 1.378334e+002
502265005.66251 -1.347974e-001 -1.763668e+002 -5.595364e+001 1.163815e+002 -5.598629e+001 1.158053e+002 -1.719695e-001 1.377754e+002
502642506.60627 -1.383640e-001 -1.765456e+002 -5.573655e+001 1.173531e+002 -5.617042e+001 1.180631e+002 -1.742535e-001 1.376802e+002
503020007.55002 -1.363436e-001 -1.767877e+002 -5.592169e+001 1.155735e+002 -5.565577e+001 1.159322e+002 -1.769067e-001 1.376846e+002
503397508.49377 -1.396189e-001 -1.770078e+002 -5.554096e+001 1.183999e+002 -5.532309e+001 1.164589e+002 -1.726880e-001 1.375976e+002
503775009.43752 -1.393581e-001 -1.771908e+002 -5.571703e+001 1.154673e+002 -5.567539e+001 1.163319e+002 -1.737402e-001 1.375611e+002
504152510.38128 -1.410125e-001 -1.774406e+002 -5.543089e+001 1.162498e+002 -5.586317e+001 1.147749e+002 -1.726576e-001 1.375218e+002
504530011.32503 -1.446857e-001 -1.776566e+002 -5.511602e+001 1.130209e+002 -5.564343e+001 1.159559e+002 -1.743060e-001 1.374449e+002
504907512.26878 -1.474718e-001 -1.778588e+002 -5.541619e+001 1.121645e+002 -5.568764e+001 1.136011e+002 -1.745368e-001 1.374076e+002
505285013.21253 -1.459834e-001 -1.780632e+002 -5.523953e+001 1.150602e+002 -5.542946e+001 1.133755e+002 -1.765931e-001 1.373535e+002
505662514.15629 -1.480080e-001 -1.782617e+002 -5.526949e+001 1.145226e+002 -5.519008e+001 1.141284e+002 -1.698867e-001 1.372874e+002
506040015.10004 -1.489684e-001 -1.785290e+002 -5.488667e+001 1.157504e+002 -5.515692e+001 1.156134e+002 -1.726562e-001 1.372483e+002
506417516.04379 -1.509316e-001 -1.787342e+002 -5.495966e+001 1.122721e+002 -5.509300e+001 1.139861e+002 -1.661095e-001 1.372090e+002
506795016.98754 -1.513811e-001 -1.789620e+002 -5.513803e+001 1.120400e+002 -5.503579e+001 1.148605e+002 -1.665274e-001 1.371802e+002
507172517.93129 -1.567678e-001 -1.791302e+002 -5.505170e+001 1.114243e+002 -5.498468e+001 1.128156e+002 -1.636147e-001 1.371282e+002
507550018.87505 -1.569642e-001 -1.794061e+002 -5.509273e+001 1.104413e+002 -5.500337e+001 1.103040e+002 -1.630925e-001 1.370883e+002
507927519.8188 -1.586314e-001 -1.795462e+002 -5.474325e+001 1.090643e+002 -5.478831e+001 1.117634e+002 -1.599570e-001 1.370749e+002
508305020.76255 -1.586659e-001 -1.797496e+002 -5.455597e+001 1.119306e+002 -5.468296e+001 1.157251e+002 -1.579982e-001 1.370531e+002
508682521.7063 -1.577597e-001 -1.799946e+002 -5.473813e+001 1.101377e+002 -5.445213e+001 1.105014e+002 -1.562957e-001 1.370392e+002
509060022.65006 -1.595412e-001 1.797838e+002 -5.498426e+001 1.114239e+002 -5.457104e+001 1.090946e+002 -1.552984e-001 1.370146e+002
509437523.59381 -1.620968e-001 1.796266e+002 -5.490728e+001 1.113792e+002 -5.475089e+001 1.096423e+002 -1.532918e-001 1.370053e+002
509815024.53756 -1.617397e-001 1.793602e+002 -5.471436e+001 1.108192e+002 -5.465449e+001 1.080151e+002 -1.492034e-001 1.369985e+002
510192525.48131 -1.589194e-001 1.791552e+002 -5.441893e+001 1.075493e+002 -5.448163e+001 1.111755e+002 -1.497062e-001 1.369846e+002
510570026.42507 -1.611690e-001 1.789276e+002 -5.429731e+001 1.097401e+002 -5.426461e+001 1.092104e+002 -1.522658e-001 1.370216e+002
510947527.36882 -1.642549e-001 1.787160e+002 -5.455868e+001 1.086522e+002 -5.426295e+001 1.069496e+002 -1.440604e-001 1.370088e+002
511325028.31257 -1.611514e-001 1.784922e+002 -5.460132e+001 1.085417e+002 -5.398397e+001 1.071353e+002 -1.449003e-001 1.370431e+002
511702529.25632 -1.646840e-001 1.783535e+002 -5.446911e+001 1.079775e+002 -5.403445e+001 1.073569e+002 -1.466039e-001 1.370597e+002
512080030.20008 -1.638873e-001 1.780904e+002 -5.453500e+001 1.101586e+002 -5.415186e+001 1.081835e+002 -1.450580e-001 1.370767e+002
512457531.14383 -1.666411e-001 1.778802e+002 -5.401957e+001 1.081065e+002 -5.395141e+001 1.070050e+002 -1.430917e-001 1.370850e+002
512835032.08758 -1.694896e-001 1.776752e+002 -5.459016e+001 1.083315e+002 -5.388237e+001 1.043849e+002 -1.425618e-001 1.371026e+002
513212533.03133 -1.752241e-001 1.774850e+002 -5.397229e+001 1.091823e+002 -5.403147e+001 1.063273e+002 -1.449076e-001 1.371163e+002
513590033.97508 -1.720532e-001 1.772675e+002 -5.427698e+001 1.081558e+002 -5.383698e+001 1.059712e+002 -1.476897e-001 1.371341e+002
513967534.91884 -1.766222e-001 1.770282e+002 -5.380725e+001 1.084956e+002 -5.361692e+001 1.054973e+002 -1.441748e-001 1.371601e+002
514345035.86259 -1.769797e-001 1.767907e+002 -5.387527e+001 1.062914e+002 -5.374462e+001 1.039820e+002 -1.495028e-001 1.371766e+002
514722536.80634 -1.810358e-001 1.766314e+002 -5.366676e+001 1.055317e+002 -5.385727e+001 1.045854e+002 -1.484685e-001 1.372050e+002
515100037.75009 -1.822104e-001 1.763395e+002 -5.369684e+001 1.059505e+002 -5.372467e+001 1.034352e+002 -1.494341e-001 1.372107e+002
515477538.69385 -1.856268e-001 1.761810e+002 -5.364222e+001 1.069801e+002 -5.369532e+001 1.017688e+002 -1.492442e-001 1.372149e+002
515855039.6376 -1.845187e-001 1.759207e+002 -5.372158e+001 1.022870e+002 -5.355986e+001 1.047058e+002 -1.520225e-001 1.372401e+002
516232540.58135 -1.852493e-001 1.756860e+002 -5.382230e+001 1.072470e+002 -5.355610e+001 1.037590e+002 -1.496681e-001 1.372138e+002
516610041.5251 -1.881600e-001 1.754635e+002 -5.340459e+001 1.050231e+002 -5.360287e+001 1.020180e+002 -1.551594e-001 1.372152e+002
516987542.46886 -1.927670e-001 1.752469e+002 -5.346949e+001 1.035827e+002 -5.343577e+001 1.036314e+002 -1.599727e-001 1.371994e+002
517365043.41261 -1.939891e-001 1.750137e+002 -5.346571e+001 1.052838e+002 -5.369337e+001 1.045708e+002 -1.617714e-001 1.371873e+002
517742544.35636 -1.947012e-001 1.747898e+002 -5.322865e+001 1.038253e+002 -5.358696e+001 1.031742e+002 -1.647268e-001 1.371557e+002
518120045.30011 -1.999596e-001 1.745258e+002 -5.297105e+001 1.042728e+002 -5.361327e+001 1.018429e+002 -1.648182e-001 1.371188e+002
518497546.24387 -2.057170e-001 1.743302e+002 -5.281904e+001 1.036495e+002 -5.336696e+001 1.022886e+002 -1.644642e-001 1.371023e+002
518875047.18762 -2.088844e-001 1.740751e+002 -5.265033e+001 1.014277e+002 -5.354705e+001 1.014894e+002 -1.685302e-001 1.370527e+002
519252548.13137 -2.087892e-001 1.738512e+002 -5.282867e+001 1.040566e+002 -5.300360e+001 1.006345e+002 -1.670487e-001 1.370429e+002
519630049.07512 -2.100283e-001 1.736580e+002 -5.282883e+001 1.023150e+002 -5.322892e+001 9.983333e+001 -1.723590e-001 1.369641e+002
520007550.01888 -2.124093e-001 1.733636e+002 -5.249560e+001 1.020395e+002 -5.293390e+001 1.021287e+002 -1.720709e-001 1.369217e+002
520385050.96263 -2.168851e-001 1.731608e+002 -5.253851e+001 1.020997e+002 -5.297942e+001 1.008531e+002 -1.723084e-001 1.368678e+002
520762551.90638 -2.193823e-001 1.728748e+002 -5.281376e+001 9.972404e+001 -5.270652e+001 1.001777e+002 -1.720936e-001 1.368062e+002
521140052.85013 -2.195747e-001 1.726434e+002 -5.250404e+001 1.003802e+002 -5.280962e+001 9.997503e+001 -1.729844e-001 1.367632e+002
521517553.79388 -2.273895e-001 1.723993e+002 -5.244917e+001 9.910710e+001 -5.291268e+001 1.010061e+002 -1.714802e-001 1.366957e+002
521895054.73764 -2.267040e-001 1.721700e+002 -5.200534e+001 9.932111e+001 -5.267710e+001 9.945915e+001 -1.722190e-001 1.366338e+002
522272555.68139 -2.271855e-001 1.719639e+002 -5.244554e+001 9.853725e+001 -5.253166e+001 9.789915e+001 -1.724803e-001 1.366069e+002
522650056.62514 -2.293390e-001 1.716997e+002 -5.224081e+001 9.708422e+001 -5.255909e+001 9.995229e+001 -1.671077e-001 1.365723e+002
523027557.56889 -2.325049e-001 1.714473e+002 -5.224128e+001 9.700964e+001 -5.252710e+001 9.864353e+001 -1.693253e-001 1.365033e+002
523405058.51265 -2.376517e-001 1.712647e+002 -5.210594e+001 9.623328e+001 -5.262534e+001 9.685101e+001 -1.722756e-001 1.364518e+002
523782559.4564 -2.418426e-001 1.709508e+002 -5.224501e+001 9.681313e+001 -5.231100e+001 9.776306e+001 -1.652307e-001 1.364245e+002
524160060.40015 -2.396846e-001 1.707548e+002 -5.190980e+001 9.637550e+001 -5.216456e+001 9.698798e+001 -1.646264e-001 1.364036e+002
524537561.3439 -2.448965e-001 1.704838e+002 -5.206440e+001 9.500507e+001 -5.220473e+001 9.695769e+001 -1.628792e-001 1.364269e+002
524915062.28766 -2.474520e-001 1.702702e+002 -5.202391e+001 9.645535e+001 -5.202738e+001 9.417371e+001 -1.620258e-001 1.363546e+002
525292563.23141 -2.438907e-001 1.699724e+002 -5.201735e+001 9.358521e+001 -5.229214e+001 9.630963e+001 -1.586076e-001 1.363397e+002
525670064.17516 -2.474153e-001 1.697681e+002 -5.179889e+001 9.503119e+001 -5.216493e+001 9.445100e+001 -1.557714e-001 1.363218e+002
526047565.11891 -2.483301e-001 1.695424e+002 -5.192241e+001 9.501281e+001 -5.200911e+001 9.626063e+001 -1.548426e-001 1.363237e+002
526425066.06267 -2.542389e-001 1.692704e+002 -5.190002e+001 9.236516e+001 -5.184308e+001 9.634253e+001 -1.516958e-001 1.363401e+002
526802567.00642 -2.543859e-001 1.689757e+002 -5.192822e+001 9.322295e+001 -5.191251e+001 9.599525e+001 -1.495779e-001 1.363604e+002
527180067.95017 -2.577254e-001 1.687209e+002 -5.172205e+001 9.288496e+001 -5.177535e+001 9.372939e+001 -1.438715e-001 1.363636e+002
527557568.89392 -2.637832e-001 1.685156e+002 -5.161262e+001 9.303222e+001 -5.181005e+001 9.518216e+001 -1.385386e-001 1.363137e+002
527935069.83767 -2.659545e-001 1.682142e+002 -5.152825e+001 9.370621e+001 -5.142490e+001 9.311571e+001 -1.395447e-001 1.363861e+002
528312570.78143 -2.667278e-001 1.679306e+002 -5.159655e+001 9.175907e+001 -5.162647e+001 9.469804e+001 -1.384185e-001 1.364784e+002
528690071.72518 -2.750740e-001 1.677607e+002 -5.148736e+001 9.308549e+001 -5.133328e+001 9.340866e+001 -1.363437e-001 1.364404e+002
529067572.66893 -2.746475e-001 1.674693e+002 -5.192509e+001 9.355170e+001 -5.134227e+001 9.317361e+001 -1.329495e-001 1.364816e+002
529445073.61268 -2.767541e-001 1.672270e+002 -5.132692e+001 9.152362e+001 -5.109976e+001 9.041640e+001 -1.357717e-001 1.364934e+002
529822574.55644 -2.802747e-001 1.669850e+002 -5.129509e+001 9.265497e+001 -5.112724e+001 9.136635e+001 -1.372027e-001 1.365176e+002
530200075.50019 -2.852701e-001 1.666619e+002 -5.130326e+001 9.138916e+001 -5.108670e+001 9.282330e+001 -1.332129e-001 1.365500e+002
530577576.44394 -2.888933e-001 1.664354e+002 -5.118132e+001 9.221919e+001 -5.099085e+001 9.265753e+001 -1.332845e-001 1.365468e+002
530955077.38769 -2.897879e-001 1.661984e+002 -5.096169e+001 9.011606e+001 -5.116340e+001 9.375152e+001 -1.319623e-001 1.364887e+002
531332578.33145 -2.976811e-001 1.659309e+002 -5.116135e+001 9.104602e+001 -5.085685e+001 9.113167e+001 -1.377199e-001 1.365693e+002
531710079.2752 -2.988579e-001 1.656768e+002 -5.073975e+001 9.089170e+001 -5.078596e+001 9.119823e+001 -1.373473e-001 1.365545e+002
532087580.21895 -3.035656e-001 1.654121e+002 -5.105715e+001 9.088599e+001 -5.087107e+001 9.037088e+001 -1.361694e-001 1.365860e+002
532465081.1627 -3.041160e-001 1.652110e+002 -5.090816e+001 8.976978e+001 -5.060915e+001 9.074462e+001 -1.416823e-001 1.365598e+002
532842582.10646 -3.082589e-001 1.649285e+002 -5.074904e+001 9.207895e+001 -5.066846e+001 8.974284e+001 -1.402594e-001 1.364963e+002
533220083.05021 -3.166576e-001 1.646433e+002 -5.050507e+001 9.017910e+001 -5.058622e+001 9.017809e+001 -1.379784e-001 1.364907e+002
533597583.99396 -3.200281e-001 1.644292e+002 -5.035740e+001 9.055483e+001 -5.039103e+001 8.978257e+001 -1.452301e-001 1.363896e+002
533975084.93771 -3.254797e-001 1.641172e+002 -5.021013e+001 8.967046e+001 -5.022810e+001 8.878193e+001 -1.467571e-001 1.363998e+002
534352585.88146 -3.307839e-001 1.638629e+002 -5.009654e+001 8.940758e+001 -5.033707e+001 8.883830e+001 -1.439496e-001 1.363212e+002
534730086.82522 -3.350899e-001 1.636193e+002 -5.025967e+001 8.929687e+001 -5.006867e+001 8.931266e+001 -1.520490e-001 1.362414e+002
535107587.76897 -3.363352e-001 1.633711e+002 -4.991006e+001 8.903571e+001 -5.001335e+001 8.855006e+001 -1.467205e-001 1.362097e+002
535485088.71272 -3.463238e-001 1.631059e+002 -4.999674e+001 8.949697e+001 -4.989513e+001 8.825272e+001 -1.555344e-001 1.360603e+002
535862589.65647 -3.494802e-001 1.628314e+002 -4.993281e+001 8.901805e+001 -4.956781e+001 8.617302e+001 -1.561833e-001 1.359748e+002
536240090.60023 -3.512274e-001 1.625887e+002 -4.962093e+001 8.842811e+001 -4.961327e+001 8.630729e+001 -1.572527e-001 1.358867e+002
536617591.54398 -3.578410e-001 1.623196e+002 -4.950382e+001 8.674052e+001 -4.948167e+001 8.674736e+001 -1.616195e-001 1.357722e+002
536995092.48773 -3.639738e-001 1.620559e+002 -4.949454e+001 8.762106e+001 -4.943735e+001 8.574522e+001 -1.623123e-001 1.356993e+002
537372593.43148 -3.697824e-001 1.617753e+002 -4.957190e+001 8.733556e+001 -4.929035e+001 8.493307e+001 -1.626502e-001 1.355453e+002
537750094.37524 -3.753470e-001 1.615383e+002 -4.938533e+001 8.632179e+001 -4.927464e+001 8.409898e+001 -1.681456e-001 1.354197e+002
538127595.31899 -3.806760e-001 1.612300e+002 -4.937425e+001 8.608159e+001 -4.909389e+001 8.401961e+001 -1.657151e-001 1.353094e+002
538505096.26274 -3.835706e-001 1.610084e+002 -4.917714e+001 8.543089e+001 -4.899928e+001 8.368893e+001 -1.676691e-001 1.352322e+002
538882597.20649 -3.917682e-001 1.607143e+002 -4.915126e+001 8.530886e+001 -4.897365e+001 8.267833e+001 -1.637439e-001 1.350663e+002
539260098.15025 -3.954186e-001 1.604512e+002 -4.901543e+001 8.423672e+001 -4.898611e+001 8.256274e+001 -1.636484e-001 1.349450e+002
539637599.094 -4.002344e-001 1.601809e+002 -4.896317e+001 8.402470e+001 -4.878430e+001 8.269140e+001 -1.641673e-001 1.347937e+002
540015100.03775 -4.103056e-001 1.599052e+002 -4.893532e+001 8.374592e+001 -4.870178e+001 8.152243e+001 -1.669097e-001 1.347211e+002
540392600.9815 -4.190548e-001 1.596632e+002 -4.864169e+001 8.365423e+001 -4.884917e+001 8.092853e+001 -1.623484e-001 1.346247e+002
540770101.92525 -4.250944e-001 1.593763e+002 -4.872210e+001 8.367799e+001 -4.846601e+001 8.116317e+001 -1.603328e-001 1.345101e+002
541147602.86901 -4.334289e-001 1.590428e+002 -4.861997e+001 8.211982e+001 -4.863529e+001 8.131965e+001 -1.586388e-001 1.344406e+002
541525103.81276 -4.387599e-001 1.587946e+002 -4.832232e+001 8.342608e+001 -4.841554e+001 7.993514e+001 -1.554975e-001 1.343563e+002
541902604.75651 -4.506607e-001 1.585157e+002 -4.825418e+001 8.280907e+001 -4.825679e+001 7.982247e+001 -1.500290e-001 1.343147e+002
542280105.70026 -4.579394e-001 1.582318e+002 -4.816118e+001 8.170161e+001 -4.824205e+001 8.000076e+001 -1.481332e-001 1.342073e+002
542657606.64402 -4.615474e-001 1.579612e+002 -4.804405e+001 8.148622e+001 -4.810931e+001 7.906716e+001 -1.439928e-001 1.341754e+002
543035107.58777 -4.714177e-001 1.577177e+002 -4.784030e+001 8.116965e+001 -4.815418e+001 7.812845e+001 -1.397670e-001 1.341176e+002
543412608.53152 -4.811828e-001 1.574133e+002 -4.783343e+001 8.067530e+001 -4.796451e+001 7.826354e+001 -1.384537e-001 1.340896e+002
543790109.47527 -4.900134e-001 1.571197e+002 -4.770510e+001 8.041064e+001 -4.802925e+001 7.743287e+001 -1.353141e-001 1.340597e+002
544167610.41903 -4.984558e-001 1.568752e+002 -4.754505e+001 7.958401e+001 -4.788147e+001 7.735321e+001 -1.297696e-001 1.340636e+002
544545111.36278 -5.077451e-001 1.565375e+002 -4.745311e+001 7.936114e+001 -4.769984e+001 7.689162e+001 -1.301070e-001 1.340236e+002
544922612.30653 -5.135736e-001 1.562783e+002 -4.739808e+001 7.824203e+001 -4.749044e+001 7.650790e+001 -1.266972e-001 1.339952e+002
545300113.25028 -5.211232e-001 1.559943e+002 -4.727604e+001 7.754904e+001 -4.740801e+001 7.659288e+001 -1.230088e-001 1.340191e+002
545677614.19404 -5.295393e-001 1.557130e+002 -4.714547e+001 7.697919e+001 -4.744290e+001 7.586158e+001 -1.212118e-001 1.340355e+002
546055115.13779 -5.332217e-001 1.554314e+002 -4.710685e+001 7.671098e+001 -4.731501e+001 7.524177e+001 -1.188491e-001 1.340282e+002
546432616.08154 -5.455382e-001 1.551504e+002 -4.707429e+001 7.597320e+001 -4.720373e+001 7.508706e+001 -1.156314e-001 1.340589e+002
546810117.02529 -5.533049e-001 1.548565e+002 -4.689898e+001 7.555044e+001 -4.723267e+001 7.353625e+001 -1.149869e-001 1.340694e+002
547187617.96904 -5.645432e-001 1.545664e+002 -4.676683e+001 7.441151e+001 -4.711530e+001 7.206996e+001 -1.162951e-001 1.340871e+002
547565118.9128 -5.689257e-001 1.542593e+002 -4.676535e+001 7.351701e+001 -4.698586e+001 7.302132e+001 -1.144169e-001 1.341123e+002
547942619.85655 -5.783001e-001 1.539939e+002 -4.657638e+001 7.397605e+001 -4.692435e+001 7.208232e+001 -1.152287e-001 1.341531e+002
548320120.8003 -5.899543e-001 1.536545e+002 -4.660897e+001 7.231849e+001 -4.678407e+001 7.201832e+001 -1.145597e-001 1.341886e+002
548697621.74405 -5.991503e-001 1.534135e+002 -4.646497e+001 7.133974e+001 -4.679099e+001 7.178778e+001 -1.212296e-001 1.342140e+002
549075122.68781 -6.075995e-001 1.530900e+002 -4.628891e+001 7.138564e+001 -4.664963e+001 7.164281e+001 -1.230474e-001 1.342345e+002
549452623.63156 -6.202863e-001 1.527812e+002 -4.637272e+001 7.035266e+001 -4.646100e+001 7.032845e+001 -1.249820e-001 1.342610e+002
549830124.57531 -6.305060e-001 1.525312e+002 -4.615619e+001 7.046870e+001 -4.640008e+001 7.014555e+001 -1.250775e-001 1.342514e+002
550207625.51906 -6.412826e-001 1.522321e+002 -4.596721e+001 7.004152e+001 -4.636698e+001 6.951369e+001 -1.310998e-001 1.343233e+002
550585126.46282 -6.531171e-001 1.518921e+002 -4.600728e+001 6.847726e+001 -4.621632e+001 6.967458e+001 -1.313910e-001 1.343169e+002
550962627.40657 -6.649908e-001 1.516335e+002 -4.589804e+001 6.916865e+001 -4.614746e+001 6.839645e+001 -1.405649e-001 1.343262e+002
551340128.35032 -6.753415e-001 1.513722e+002 -4.583600e+001 6.746170e+001 -4.600000e+001 6.711903e+001 -1.402488e-001 1.342881e+002
551717629.29407 -6.880715e-001 1.510008e+002 -4.590131e+001 6.607561e+001 -4.592797e+001 6.752376e+001 -1.470901e-001 1.343701e+002
552095130.23783 -7.017146e-001 1.507439e+002 -4.569306e+001 6.595246e+001 -4.584319e+001 6.626092e+001 -1.484794e-001 1.343670e+002
552472631.18158 -7.132977e-001 1.504483e+002 -4.577329e+001 6.565136e+001 -4.578275e+001 6.557489e+001 -1.530625e-001 1.343882e+002
552850132.12533 -7.277452e-001 1.501579e+002 -4.567822e+001 6.467915e+001 -4.569171e+001 6.544440e+001 -1.545241e-001 1.343766e+002
553227633.06908 -7.437745e-001 1.498468e+002 -4.544989e+001 6.435217e+001 -4.571409e+001 6.435145e+001 -1.626597e-001 1.343801e+002
553605134.01284 -7.561003e-001 1.495817e+002 -4.559086e+001 6.337032e+001 -4.545781e+001 6.416248e+001 -1.681646e-001 1.343552e+002
553982634.95659 -7.738509e-001 1.492505e+002 -4.541978e+001 6.289293e+001 -4.543563e+001 6.328853e+001 -1.705213e-001 1.343241e+002
554360135.90034 -7.927524e-001 1.490034e+002 -4.533271e+001 6.250525e+001 -4.535188e+001 6.233390e+001 -1.736065e-001 1.342999e+002
554737636.84409 -8.057628e-001 1.486469e+002 -4.514006e+001 6.195766e+001 -4.521357e+001 6.243037e+001 -1.801151e-001 1.342942e+002
555115137.78784 -8.239792e-001 1.483975e+002 -4.518341e+001 6.227690e+001 -4.509046e+001 6.221968e+001 -1.797758e-001 1.342637e+002
555492638.7316 -8.416060e-001 1.480177e+002 -4.497328e+001 6.035187e+001 -4.499477e+001 6.084129e+001 -1.850973e-001 1.342290e+002
555870139.67535 -8.586739e-001 1.477794e+002 -4.493932e+001 6.072025e+001 -4.492555e+001 6.017939e+001 -1.870915e-001 1.341927e+002
