!Agilent Technologies,E8364B,US42250235,A.06.04.32
!Agilent E8364B: A.06.04.32
!Date: Thursday, October 01, 2020 11:01:22
!Correction: S11(Full 2 Port(1,2)) S21(Full 2 Port(1,2)) S12(Full 2 Port(1,2)) S22(Full 2 Port(1,2)) 
!S2P File: Measurements: S11, S21, S12, S22:
# Hz S  dB   R 50
500000000 -2.639278e-001 -1.755578e+002 -5.376120e+001 2.819846e+001 -5.427217e+001 2.211933e+001 -2.051163e-001 1.378600e+002
500377500.94375 -2.678641e-001 -1.756895e+002 -5.363395e+001 2.647495e+001 -5.362012e+001 2.214684e+001 -2.077961e-001 1.378253e+002
500755001.8875 -2.680013e-001 -1.759458e+002 -5.369563e+001 2.411713e+001 -5.346174e+001 2.243124e+001 -2.088680e-001 1.377995e+002
501132502.83126 -2.761677e-001 -1.761061e+002 -5.332694e+001 2.341707e+001 -5.368405e+001 2.031060e+001 -2.096788e-001 1.377553e+002
501510003.77501 -2.824300e-001 -1.762692e+002 -5.325621e+001 2.449817e+001 -5.375534e+001 2.043846e+001 -2.103646e-001 1.377359e+002
501887504.71876 -2.907237e-001 -1.765158e+002 -5.357580e+001 2.308938e+001 -5.367600e+001 2.134170e+001 -2.119106e-001 1.376545e+002
502265005.66251 -2.935008e-001 -1.767031e+002 -5.310108e+001 2.192985e+001 -5.350338e+001 1.759429e+001 -2.142965e-001 1.376259e+002
502642506.60627 -2.997610e-001 -1.769208e+002 -5.339909e+001 2.207342e+001 -5.322090e+001 1.730498e+001 -2.150794e-001 1.376052e+002
503020007.55002 -3.028423e-001 -1.771087e+002 -5.329521e+001 1.985079e+001 -5.312504e+001 1.752340e+001 -2.142656e-001 1.375376e+002
503397508.49377 -3.066812e-001 -1.773087e+002 -5.294023e+001 2.139116e+001 -5.332931e+001 1.569433e+001 -2.133275e-001 1.374921e+002
503775009.43752 -3.126711e-001 -1.774665e+002 -5.340410e+001 1.973169e+001 -5.334756e+001 1.345549e+001 -2.134292e-001 1.374617e+002
504152510.38128 -3.166972e-001 -1.777196e+002 -5.294218e+001 1.816429e+001 -5.336398e+001 1.302969e+001 -2.129671e-001 1.374013e+002
504530011.32503 -3.253095e-001 -1.778661e+002 -5.310284e+001 1.663311e+001 -5.311586e+001 1.421785e+001 -2.127320e-001 1.373482e+002
504907512.26878 -3.279452e-001 -1.780943e+002 -5.294947e+001 1.455789e+001 -5.322929e+001 1.283642e+001 -2.113389e-001 1.373038e+002
505285013.21253 -3.300607e-001 -1.783216e+002 -5.272532e+001 1.693444e+001 -5.303963e+001 1.305660e+001 -2.132003e-001 1.372736e+002
505662514.15629 -3.334407e-001 -1.784857e+002 -5.282946e+001 1.383729e+001 -5.347006e+001 9.575243e+000 -2.086913e-001 1.372143e+002
506040015.10004 -3.384618e-001 -1.786801e+002 -5.252122e+001 1.341199e+001 -5.299754e+001 1.217000e+001 -2.092249e-001 1.371977e+002
506417516.04379 -3.403492e-001 -1.788367e+002 -5.288477e+001 1.333222e+001 -5.297982e+001 9.561000e+000 -2.039366e-001 1.371554e+002
506795016.98754 -3.443828e-001 -1.790919e+002 -5.273310e+001 1.045152e+001 -5.284803e+001 9.530945e+000 -2.047563e-001 1.371333e+002
507172517.93129 -3.448436e-001 -1.792616e+002 -5.275458e+001 1.128397e+001 -5.302826e+001 7.456123e+000 -2.025146e-001 1.371078e+002
507550018.87505 -3.483019e-001 -1.794949e+002 -5.250573e+001 1.104970e+001 -5.249765e+001 8.033300e+000 -1.979255e-001 1.370701e+002
507927519.8188 -3.513412e-001 -1.796693e+002 -5.249850e+001 1.083128e+001 -5.266412e+001 8.307496e+000 -1.956279e-001 1.370551e+002
508305020.76255 -3.555065e-001 -1.797963e+002 -5.257565e+001 1.078398e+001 -5.251824e+001 5.439548e+000 -1.919441e-001 1.370600e+002
508682521.7063 -3.537032e-001 1.799340e+002 -5.263298e+001 9.306878e+000 -5.269042e+001 3.970202e+000 -1.911045e-001 1.370537e+002
509060022.65006 -3.578005e-001 1.797619e+002 -5.252874e+001 7.295068e+000 -5.234595e+001 3.203858e+000 -1.920778e-001 1.370506e+002
509437523.59381 -3.629755e-001 1.795922e+002 -5.232023e+001 5.452337e+000 -5.236728e+001 1.735512e+000 -1.868117e-001 1.370391e+002
509815024.53756 -3.660499e-001 1.793938e+002 -5.240379e+001 5.244592e+000 -5.239186e+001 1.697166e+000 -1.864625e-001 1.370551e+002
510192525.48131 -3.635384e-001 1.792104e+002 -5.246529e+001 5.688877e+000 -5.219146e+001 2.279404e+000 -1.815904e-001 1.370547e+002
510570026.42507 -3.670855e-001 1.790372e+002 -5.255451e+001 4.534762e+000 -5.231704e+001 -4.052115e-001 -1.802028e-001 1.370845e+002
510947527.36882 -3.720123e-001 1.788454e+002 -5.210168e+001 5.319469e+000 -5.234200e+001 1.202055e+000 -1.764735e-001 1.370957e+002
511325028.31257 -3.690130e-001 1.786339e+002 -5.230399e+001 3.825493e-001 -5.236081e+001 4.277685e-001 -1.735602e-001 1.371268e+002
511702529.25632 -3.785671e-001 1.784555e+002 -5.215278e+001 2.675609e+000 -5.197957e+001 -1.781275e+000 -1.769832e-001 1.371561e+002
512080030.20008 -3.756690e-001 1.783094e+002 -5.230911e+001 1.477134e+000 -5.201159e+001 -2.146442e+000 -1.710351e-001 1.371956e+002
512457531.14383 -3.795971e-001 1.780313e+002 -5.202545e+001 5.128501e-001 -5.199848e+001 -3.654412e+000 -1.711817e-001 1.372115e+002
512835032.08758 -3.837877e-001 1.778860e+002 -5.185540e+001 4.328341e-001 -5.205462e+001 -3.034336e+000 -1.732984e-001 1.372207e+002
513212533.03133 -3.877892e-001 1.776832e+002 -5.218005e+001 -6.589015e-001 -5.201450e+001 -5.906308e+000 -1.740458e-001 1.372623e+002
513590033.97508 -3.886842e-001 1.775129e+002 -5.193031e+001 -1.857446e+000 -5.185967e+001 -3.210497e+000 -1.761627e-001 1.373003e+002
513967534.91884 -3.938484e-001 1.773112e+002 -5.184133e+001 -3.570158e-003 -5.168254e+001 -6.058439e+000 -1.716147e-001 1.373070e+002
514345035.86259 -3.926785e-001 1.770678e+002 -5.159444e+001 -1.710115e+000 -5.180548e+001 -6.426535e+000 -1.770678e-001 1.373438e+002
514722536.80634 -4.028568e-001 1.769229e+002 -5.170473e+001 -2.018196e+000 -5.181401e+001 -7.265200e+000 -1.768249e-001 1.373873e+002
515100037.75009 -4.035709e-001 1.767287e+002 -5.148353e+001 -2.762884e+000 -5.156102e+001 -8.316689e+000 -1.775638e-001 1.373991e+002
515477538.69385 -4.098461e-001 1.765053e+002 -5.148527e+001 -4.582512e+000 -5.179655e+001 -8.116024e+000 -1.797521e-001 1.374247e+002
515855039.6376 -4.130872e-001 1.763187e+002 -5.115982e+001 -3.302596e+000 -5.172603e+001 -7.154621e+000 -1.813024e-001 1.374402e+002
516232540.58135 -4.167079e-001 1.761226e+002 -5.134410e+001 -4.685253e+000 -5.151280e+001 -1.035270e+001 -1.796474e-001 1.374552e+002
516610041.5251 -4.214157e-001 1.759276e+002 -5.128026e+001 -5.642256e+000 -5.169158e+001 -1.041408e+001 -1.842836e-001 1.374458e+002
516987542.46886 -4.236459e-001 1.757309e+002 -5.120042e+001 -8.483191e+000 -5.138348e+001 -1.164467e+001 -1.871843e-001 1.374362e+002
517365043.41261 -4.302467e-001 1.755222e+002 -5.100018e+001 -8.363813e+000 -5.159897e+001 -1.271055e+001 -1.875312e-001 1.374454e+002
517742544.35636 -4.328165e-001 1.753807e+002 -5.087209e+001 -8.329285e+000 -5.137215e+001 -1.397388e+001 -1.912681e-001 1.374171e+002
518120045.30011 -4.350851e-001 1.751055e+002 -5.066584e+001 -1.017911e+001 -5.137468e+001 -1.247607e+001 -1.929723e-001 1.373952e+002
518497546.24387 -4.429791e-001 1.749566e+002 -5.089001e+001 -1.216702e+001 -5.145337e+001 -1.567901e+001 -1.905324e-001 1.373665e+002
518875047.18762 -4.461403e-001 1.746957e+002 -5.061189e+001 -1.190577e+001 -5.123751e+001 -1.555503e+001 -1.954909e-001 1.373473e+002
519252548.13137 -4.484760e-001 1.745713e+002 -5.075736e+001 -1.398353e+001 -5.097418e+001 -1.647579e+001 -1.918458e-001 1.373379e+002
519630049.07512 -4.509650e-001 1.743158e+002 -5.058377e+001 -1.404774e+001 -5.126818e+001 -1.750328e+001 -2.013379e-001 1.372896e+002
520007550.01888 -4.551724e-001 1.740752e+002 -5.068917e+001 -1.457135e+001 -5.121209e+001 -1.751696e+001 -2.008203e-001 1.372394e+002
520385050.96263 -4.565929e-001 1.739032e+002 -5.052869e+001 -1.639065e+001 -5.124080e+001 -1.962023e+001 -1.996272e-001 1.372024e+002
520762551.90638 -4.622664e-001 1.736850e+002 -5.079293e+001 -1.828831e+001 -5.103651e+001 -2.052505e+001 -2.017941e-001 1.371463e+002
521140052.85013 -4.615591e-001 1.735208e+002 -5.055159e+001 -1.867989e+001 -5.126885e+001 -1.982112e+001 -2.036347e-001 1.370853e+002
521517553.79388 -4.646951e-001 1.733096e+002 -5.048518e+001 -1.877387e+001 -5.092814e+001 -2.145675e+001 -2.041446e-001 1.370520e+002
521895054.73764 -4.648709e-001 1.730651e+002 -5.024864e+001 -1.943357e+001 -5.099243e+001 -2.157393e+001 -2.011473e-001 1.370019e+002
522272555.68139 -4.634762e-001 1.728369e+002 -5.073230e+001 -2.106169e+001 -5.103006e+001 -2.318943e+001 -2.004592e-001 1.369653e+002
522650056.62514 -4.673890e-001 1.726221e+002 -5.050109e+001 -2.313296e+001 -5.093610e+001 -2.316269e+001 -1.962864e-001 1.368899e+002
523027557.56889 -4.680118e-001 1.724374e+002 -5.042799e+001 -2.163683e+001 -5.080398e+001 -2.340739e+001 -2.045736e-001 1.368898e+002
523405058.51265 -4.720076e-001 1.721774e+002 -5.064712e+001 -2.400859e+001 -5.113871e+001 -2.299178e+001 -1.964768e-001 1.368500e+002
523782559.4564 -4.716180e-001 1.719389e+002 -5.039952e+001 -2.349873e+001 -5.069868e+001 -2.500978e+001 -1.960830e-001 1.368057e+002
524160060.40015 -4.744764e-001 1.717316e+002 -5.034619e+001 -2.512547e+001 -5.081350e+001 -2.477285e+001 -1.929882e-001 1.367863e+002
524537561.3439 -4.778605e-001 1.715234e+002 -5.049509e+001 -2.600952e+001 -5.064492e+001 -2.530441e+001 -1.920625e-001 1.368021e+002
524915062.28766 -4.847959e-001 1.713197e+002 -5.048985e+001 -2.440402e+001 -5.058747e+001 -2.654732e+001 -1.930333e-001 1.367469e+002
525292563.23141 -4.837086e-001 1.710091e+002 -5.040073e+001 -2.756200e+001 -5.070129e+001 -2.651902e+001 -1.842990e-001 1.367404e+002
525670064.17516 -4.870470e-001 1.708341e+002 -5.038487e+001 -2.657113e+001 -5.051799e+001 -2.814694e+001 -1.807967e-001 1.367357e+002
526047565.11891 -4.913713e-001 1.706332e+002 -5.031188e+001 -2.734836e+001 -5.047025e+001 -3.076185e+001 -1.801490e-001 1.367395e+002
526425066.06267 -4.964421e-001 1.703968e+002 -5.054774e+001 -2.715160e+001 -5.041654e+001 -2.986752e+001 -1.785760e-001 1.367523e+002
526802567.00642 -4.989192e-001 1.702368e+002 -5.035527e+001 -2.944608e+001 -5.036518e+001 -2.993865e+001 -1.770358e-001 1.367853e+002
527180067.95017 -5.036339e-001 1.699655e+002 -5.027230e+001 -3.004023e+001 -5.057159e+001 -3.163005e+001 -1.731320e-001 1.368032e+002
527557568.89392 -5.074656e-001 1.697638e+002 -5.012406e+001 -3.191768e+001 -5.022557e+001 -3.272769e+001 -1.709763e-001 1.367947e+002
527935069.83767 -5.079237e-001 1.695488e+002 -5.017860e+001 -3.199125e+001 -5.047532e+001 -3.319053e+001 -1.743053e-001 1.368175e+002
528312570.78143 -5.175213e-001 1.693366e+002 -5.027655e+001 -3.231702e+001 -5.031329e+001 -3.306182e+001 -1.678421e-001 1.369087e+002
528690071.72518 -5.150093e-001 1.691086e+002 -5.050534e+001 -3.312860e+001 -5.039766e+001 -3.344016e+001 -1.700057e-001 1.368800e+002
529067572.66893 -5.214856e-001 1.689039e+002 -4.997187e+001 -3.306309e+001 -5.026038e+001 -3.289146e+001 -1.662183e-001 1.369279e+002
529445073.61268 -5.204099e-001 1.686581e+002 -5.018972e+001 -3.569144e+001 -5.005119e+001 -3.628635e+001 -1.673881e-001 1.369583e+002
529822574.55644 -5.274212e-001 1.684530e+002 -5.015408e+001 -3.604509e+001 -5.022421e+001 -3.644495e+001 -1.688134e-001 1.369816e+002
530200075.50019 -5.300553e-001 1.682326e+002 -5.034119e+001 -3.608794e+001 -5.026147e+001 -3.729930e+001 -1.639792e-001 1.370001e+002
530577576.44394 -5.384982e-001 1.680926e+002 -4.989966e+001 -3.484372e+001 -5.004500e+001 -3.936879e+001 -1.668290e-001 1.370162e+002
530955077.38769 -5.411873e-001 1.678461e+002 -5.021532e+001 -3.800025e+001 -4.992933e+001 -3.799639e+001 -1.660541e-001 1.370249e+002
531332578.33145 -5.439964e-001 1.676465e+002 -5.008180e+001 -3.839717e+001 -4.998108e+001 -3.973976e+001 -1.703306e-001 1.370565e+002
531710079.2752 -5.505083e-001 1.674053e+002 -4.995450e+001 -3.706067e+001 -4.990474e+001 -4.026041e+001 -1.704416e-001 1.370415e+002
532087580.21895 -5.499051e-001 1.672111e+002 -4.981515e+001 -3.924930e+001 -4.985432e+001 -4.024649e+001 -1.705189e-001 1.370350e+002
532465081.1627 -5.518390e-001 1.670715e+002 -5.005606e+001 -3.992030e+001 -4.994377e+001 -4.206402e+001 -1.743103e-001 1.370466e+002
532842582.10646 -5.513467e-001 1.668401e+002 -4.979358e+001 -3.977909e+001 -4.970898e+001 -4.142409e+001 -1.740027e-001 1.369945e+002
533220083.05021 -5.557747e-001 1.666626e+002 -4.989543e+001 -3.917650e+001 -4.990339e+001 -4.177047e+001 -1.759395e-001 1.369772e+002
533597583.99396 -5.589100e-001 1.664366e+002 -4.989656e+001 -4.048782e+001 -4.991035e+001 -4.346420e+001 -1.804747e-001 1.369410e+002
533975084.93771 -5.575503e-001 1.662232e+002 -4.975200e+001 -4.056921e+001 -4.984727e+001 -4.474803e+001 -1.787764e-001 1.368987e+002
534352585.88146 -5.643774e-001 1.660366e+002 -4.984875e+001 -4.212430e+001 -4.983245e+001 -4.515868e+001 -1.814441e-001 1.368207e+002
534730086.82522 -5.623872e-001 1.657699e+002 -4.983200e+001 -4.288528e+001 -4.983743e+001 -4.601982e+001 -1.888266e-001 1.367260e+002
535107587.76897 -5.673513e-001 1.656369e+002 -4.959821e+001 -4.281686e+001 -4.978726e+001 -4.517458e+001 -1.849431e-001 1.366390e+002
535485088.71272 -5.696123e-001 1.654180e+002 -4.969498e+001 -4.376995e+001 -4.959241e+001 -4.584638e+001 -1.951557e-001 1.365875e+002
535862589.65647 -5.675138e-001 1.651598e+002 -4.942681e+001 -4.468435e+001 -4.948507e+001 -4.712332e+001 -1.954758e-001 1.365199e+002
536240090.60023 -5.711012e-001 1.649923e+002 -4.936969e+001 -4.488422e+001 -4.942960e+001 -4.774229e+001 -1.907737e-001 1.363630e+002
536617591.54398 -5.725954e-001 1.647868e+002 -4.914137e+001 -4.647797e+001 -4.948509e+001 -4.929682e+001 -1.999591e-001 1.363064e+002
536995092.48773 -5.746225e-001 1.645569e+002 -4.946718e+001 -4.660674e+001 -4.950698e+001 -4.946733e+001 -2.019622e-001 1.362516e+002
537372593.43148 -5.775114e-001 1.643172e+002 -4.953798e+001 -4.688787e+001 -4.940587e+001 -4.965052e+001 -2.015306e-001 1.360863e+002
537750094.37524 -5.811334e-001 1.641227e+002 -4.932705e+001 -4.797334e+001 -4.927401e+001 -5.133519e+001 -2.110510e-001 1.359722e+002
538127595.31899 -5.796404e-001 1.638824e+002 -4.936576e+001 -4.882427e+001 -4.935123e+001 -5.104840e+001 -2.074999e-001 1.358495e+002
538505096.26274 -5.807248e-001 1.636254e+002 -4.939885e+001 -4.901987e+001 -4.929996e+001 -5.199436e+001 -2.111801e-001 1.357587e+002
538882597.20649 -5.826588e-001 1.634874e+002 -4.915324e+001 -5.133904e+001 -4.931077e+001 -5.227857e+001 -2.095757e-001 1.355645e+002
539260098.15025 -5.839339e-001 1.632674e+002 -4.921431e+001 -5.050263e+001 -4.921852e+001 -5.347836e+001 -2.072311e-001 1.354988e+002
539637599.094 -5.855290e-001 1.629963e+002 -4.910587e+001 -5.064777e+001 -4.939238e+001 -5.458755e+001 -2.088099e-001 1.353866e+002
540015100.03775 -5.886782e-001 1.627783e+002 -4.920115e+001 -5.278366e+001 -4.924221e+001 -5.621675e+001 -2.122946e-001 1.352637e+002
540392600.9815 -5.837777e-001 1.625608e+002 -4.915432e+001 -5.402795e+001 -4.941277e+001 -5.693452e+001 -2.071449e-001 1.351779e+002
540770101.92525 -5.842575e-001 1.623380e+002 -4.920774e+001 -5.281315e+001 -4.930244e+001 -5.719835e+001 -2.057238e-001 1.350681e+002
541147602.86901 -5.857214e-001 1.620324e+002 -4.931902e+001 -5.390182e+001 -4.926436e+001 -5.742351e+001 -2.038940e-001 1.349892e+002
541525103.81276 -5.895660e-001 1.618426e+002 -4.918640e+001 -5.399971e+001 -4.920095e+001 -5.869613e+001 -2.001179e-001 1.348963e+002
541902604.75651 -5.873736e-001 1.616503e+002 -4.887812e+001 -5.509593e+001 -4.922066e+001 -5.939294e+001 -1.943357e-001 1.348651e+002
542280105.70026 -5.909737e-001 1.613389e+002 -4.908808e+001 -5.631617e+001 -4.916954e+001 -5.878527e+001 -1.932349e-001 1.347616e+002
542657606.64402 -5.886154e-001 1.610890e+002 -4.909861e+001 -5.621701e+001 -4.906282e+001 -5.961530e+001 -1.894968e-001 1.347138e+002
543035107.58777 -5.907992e-001 1.608877e+002 -4.879140e+001 -5.737831e+001 -4.907490e+001 -5.994046e+001 -1.873806e-001 1.346644e+002
543412608.53152 -5.945048e-001 1.606293e+002 -4.889334e+001 -5.876778e+001 -4.910604e+001 -6.080687e+001 -1.848367e-001 1.346267e+002
543790109.47527 -5.989525e-001 1.603739e+002 -4.876810e+001 -5.805465e+001 -4.932302e+001 -6.024089e+001 -1.784207e-001 1.346120e+002
544167610.41903 -5.946875e-001 1.601488e+002 -4.886687e+001 -5.874868e+001 -4.919502e+001 -6.182357e+001 -1.785684e-001 1.346186e+002
544545111.36278 -5.971490e-001 1.598362e+002 -4.866375e+001 -5.902604e+001 -4.910320e+001 -6.231564e+001 -1.751610e-001 1.345776e+002
544922612.30653 -5.999284e-001 1.596793e+002 -4.882476e+001 -5.927882e+001 -4.900860e+001 -6.215515e+001 -1.728014e-001 1.345418e+002
545300113.25028 -5.973628e-001 1.593849e+002 -4.853876e+001 -5.974662e+001 -4.912873e+001 -6.230158e+001 -1.709374e-001 1.345704e+002
545677614.19404 -6.020681e-001 1.591679e+002 -4.841829e+001 -6.197066e+001 -4.908940e+001 -6.334902e+001 -1.674744e-001 1.345695e+002
546055115.13779 -6.026331e-001 1.588990e+002 -4.856978e+001 -6.112914e+001 -4.896469e+001 -6.388493e+001 -1.659656e-001 1.345732e+002
546432616.08154 -6.061633e-001 1.586867e+002 -4.845817e+001 -6.294810e+001 -4.898558e+001 -6.412301e+001 -1.605870e-001 1.345630e+002
546810117.02529 -6.068161e-001 1.583996e+002 -4.857255e+001 -6.356581e+001 -4.886966e+001 -6.466904e+001 -1.597482e-001 1.346190e+002
547187617.96904 -6.103676e-001 1.581828e+002 -4.825283e+001 -6.423339e+001 -4.883931e+001 -6.634266e+001 -1.646643e-001 1.346411e+002
547565118.9128 -6.099092e-001 1.578412e+002 -4.832359e+001 -6.471528e+001 -4.892180e+001 -6.442387e+001 -1.614355e-001 1.346743e+002
547942619.85655 -6.140895e-001 1.576271e+002 -4.835283e+001 -6.544992e+001 -4.874281e+001 -6.662141e+001 -1.638516e-001 1.346964e+002
548320120.8003 -6.187811e-001 1.573863e+002 -4.837160e+001 -6.604916e+001 -4.880582e+001 -6.643218e+001 -1.636869e-001 1.347542e+002
548697621.74405 -6.213227e-001 1.571179e+002 -4.829071e+001 -6.661314e+001 -4.869705e+001 -6.713979e+001 -1.653106e-001 1.347646e+002
549075122.68781 -6.233366e-001 1.568815e+002 -4.831816e+001 -6.754153e+001 -4.851924e+001 -6.797066e+001 -1.711890e-001 1.347836e+002
549452623.63156 -6.266032e-001 1.566422e+002 -4.820872e+001 -6.756188e+001 -4.865799e+001 -6.853899e+001 -1.712818e-001 1.348150e+002
549830124.57531 -6.288134e-001 1.563737e+002 -4.824326e+001 -6.909418e+001 -4.869719e+001 -6.915144e+001 -1.712043e-001 1.348434e+002
550207625.51906 -6.314507e-001 1.561679e+002 -4.817280e+001 -7.055931e+001 -4.841216e+001 -6.911472e+001 -1.789329e-001 1.348682e+002
550585126.46282 -6.357940e-001 1.558621e+002 -4.816642e+001 -7.027315e+001 -4.834412e+001 -6.919519e+001 -1.799350e-001 1.348857e+002
550962627.40657 -6.407155e-001 1.556613e+002 -4.804786e+001 -7.204066e+001 -4.854953e+001 -7.070865e+001 -1.867616e-001 1.348925e+002
551340128.35032 -6.402451e-001 1.554165e+002 -4.824368e+001 -7.134184e+001 -4.831091e+001 -7.228626e+001 -1.860173e-001 1.349423e+002
551717629.29407 -6.453093e-001 1.551229e+002 -4.809378e+001 -7.243301e+001 -4.842747e+001 -7.162492e+001 -1.899427e-001 1.349378e+002
552095130.23783 -6.476955e-001 1.549408e+002 -4.806487e+001 -7.380264e+001 -4.838226e+001 -7.240289e+001 -1.968061e-001 1.349544e+002
552472631.18158 -6.505657e-001 1.546540e+002 -4.826915e+001 -7.374692e+001 -4.835050e+001 -7.423184e+001 -1.974362e-001 1.349565e+002
552850132.12533 -6.550019e-001 1.544119e+002 -4.803572e+001 -7.380640e+001 -4.821320e+001 -7.196159e+001 -2.019678e-001 1.349432e+002
553227633.06908 -6.586869e-001 1.541633e+002 -4.814204e+001 -7.402581e+001 -4.817640e+001 -7.510043e+001 -2.089232e-001 1.349304e+002
553605134.01284 -6.618120e-001 1.538631e+002 -4.806617e+001 -7.439771e+001 -4.821660e+001 -7.488055e+001 -2.153682e-001 1.349217e+002
553982634.95659 -6.694769e-001 1.536639e+002 -4.788781e+001 -7.625748e+001 -4.804510e+001 -7.495000e+001 -2.159208e-001 1.348948e+002
554360135.90034 -6.727346e-001 1.533670e+002 -4.791112e+001 -7.465446e+001 -4.815716e+001 -7.539752e+001 -2.199910e-001 1.348606e+002
554737636.84409 -6.775937e-001 1.530905e+002 -4.782958e+001 -7.522446e+001 -4.799371e+001 -7.546657e+001 -2.267465e-001 1.348528e+002
555115137.78784 -6.814736e-001 1.528434e+002 -4.776203e+001 -7.583540e+001 -4.814275e+001 -7.604948e+001 -2.278395e-001 1.348249e+002
