!Agilent Technologies,E8364B,US42250235,A.06.04.32
!Agilent E8364B: A.06.04.32
!Date: Thursday, October 01, 2020 11:07:12
!Correction: S11(Full 2 Port(1,2)) S21(Full 2 Port(1,2)) S12(Full 2 Port(1,2)) S22(Full 2 Port(1,2)) 
!S2P File: Measurements: S11, S21, S12, S22:
# Hz S  dB   R 50
500000000 -1.671823e-001 -1.751691e+002 -5.901907e+001 -6.956225e+001 -5.844979e+001 -6.620280e+001 -2.381794e-001 1.365021e+002
500377500.94375 -1.680230e-001 -1.752995e+002 -5.802301e+001 -6.925869e+001 -5.856292e+001 -6.670492e+001 -2.379818e-001 1.364218e+002
500755001.8875 -1.671795e-001 -1.755769e+002 -5.857655e+001 -6.801404e+001 -5.895972e+001 -6.705699e+001 -2.398485e-001 1.363617e+002
501132502.83126 -1.735389e-001 -1.757419e+002 -5.858672e+001 -6.785110e+001 -5.793863e+001 -6.662330e+001 -2.365689e-001 1.362812e+002
501510003.77501 -1.776041e-001 -1.759272e+002 -5.813221e+001 -6.899668e+001 -5.834677e+001 -6.755068e+001 -2.333876e-001 1.361924e+002
501887504.71876 -1.793983e-001 -1.761748e+002 -5.795372e+001 -7.184982e+001 -5.797770e+001 -6.917007e+001 -2.378954e-001 1.361569e+002
502265005.66251 -1.828144e-001 -1.763483e+002 -5.780587e+001 -7.114915e+001 -5.838753e+001 -6.873730e+001 -2.353599e-001 1.361187e+002
502642506.60627 -1.879851e-001 -1.766233e+002 -5.854076e+001 -7.599445e+001 -5.826832e+001 -7.000347e+001 -2.334159e-001 1.360755e+002
503020007.55002 -1.881967e-001 -1.768467e+002 -5.832595e+001 -7.086302e+001 -5.848098e+001 -7.149303e+001 -2.291644e-001 1.360510e+002
503397508.49377 -1.925066e-001 -1.770041e+002 -5.834819e+001 -7.010442e+001 -5.864559e+001 -7.334582e+001 -2.243644e-001 1.360175e+002
503775009.43752 -1.962602e-001 -1.772755e+002 -5.806310e+001 -6.996709e+001 -5.829459e+001 -6.781899e+001 -2.213306e-001 1.360107e+002
504152510.38128 -1.983723e-001 -1.775134e+002 -5.813956e+001 -7.240440e+001 -5.847072e+001 -6.950436e+001 -2.189465e-001 1.359988e+002
504530011.32503 -2.023978e-001 -1.776773e+002 -5.781141e+001 -7.572019e+001 -5.795998e+001 -7.168167e+001 -2.159635e-001 1.359955e+002
504907512.26878 -2.081713e-001 -1.778964e+002 -5.776509e+001 -7.607311e+001 -5.809117e+001 -7.224136e+001 -2.095948e-001 1.360209e+002
505285013.21253 -2.044429e-001 -1.781696e+002 -5.783622e+001 -7.626112e+001 -5.785055e+001 -7.425928e+001 -2.114770e-001 1.360478e+002
505662514.15629 -2.085620e-001 -1.783426e+002 -5.792698e+001 -7.525993e+001 -5.793746e+001 -7.685599e+001 -2.073623e-001 1.360854e+002
506040015.10004 -2.116476e-001 -1.785606e+002 -5.773002e+001 -7.763943e+001 -5.822066e+001 -7.513994e+001 -2.000418e-001 1.361185e+002
506417516.04379 -2.120471e-001 -1.787755e+002 -5.846820e+001 -7.594717e+001 -5.767019e+001 -7.371812e+001 -1.958802e-001 1.361738e+002
506795016.98754 -2.105397e-001 -1.789824e+002 -5.761552e+001 -8.227911e+001 -5.794507e+001 -7.322978e+001 -1.900820e-001 1.362523e+002
507172517.93129 -2.115480e-001 -1.791796e+002 -5.767284e+001 -7.768137e+001 -5.774191e+001 -7.257418e+001 -1.850314e-001 1.363417e+002
507550018.87505 -2.163166e-001 -1.794058e+002 -5.724508e+001 -8.016901e+001 -5.791844e+001 -7.694909e+001 -1.792408e-001 1.364130e+002
507927519.8188 -2.144447e-001 -1.796158e+002 -5.735278e+001 -7.966111e+001 -5.775746e+001 -7.294628e+001 -1.761871e-001 1.365307e+002
508305020.76255 -2.164277e-001 -1.798167e+002 -5.761995e+001 -8.123315e+001 -5.770903e+001 -7.627226e+001 -1.742310e-001 1.366476e+002
508682521.7063 -2.129713e-001 1.799313e+002 -5.773101e+001 -7.704551e+001 -5.695115e+001 -7.389301e+001 -1.707453e-001 1.367645e+002
509060022.65006 -2.143985e-001 1.797466e+002 -5.800690e+001 -7.976853e+001 -5.707658e+001 -7.918444e+001 -1.662387e-001 1.368826e+002
509437523.59381 -2.178211e-001 1.795626e+002 -5.706942e+001 -8.243369e+001 -5.754191e+001 -7.828897e+001 -1.587635e-001 1.370286e+002
509815024.53756 -2.155496e-001 1.793485e+002 -5.756303e+001 -8.112692e+001 -5.734439e+001 -7.679636e+001 -1.575014e-001 1.371808e+002
510192525.48131 -2.155637e-001 1.791381e+002 -5.741063e+001 -8.196562e+001 -5.715960e+001 -8.124516e+001 -1.585098e-001 1.373015e+002
510570026.42507 -2.189447e-001 1.789757e+002 -5.705524e+001 -7.949758e+001 -5.670857e+001 -7.796309e+001 -1.577678e-001 1.374834e+002
510947527.36882 -2.212961e-001 1.786927e+002 -5.709604e+001 -8.118185e+001 -5.711953e+001 -7.825105e+001 -1.542010e-001 1.376216e+002
511325028.31257 -2.213134e-001 1.785488e+002 -5.737033e+001 -8.169163e+001 -5.676686e+001 -7.963128e+001 -1.509078e-001 1.377837e+002
511702529.25632 -2.238691e-001 1.782976e+002 -5.717373e+001 -8.051453e+001 -5.690686e+001 -7.902472e+001 -1.548099e-001 1.379484e+002
512080030.20008 -2.253135e-001 1.781466e+002 -5.688815e+001 -8.181489e+001 -5.676867e+001 -7.994260e+001 -1.531984e-001 1.381062e+002
512457531.14383 -2.264285e-001 1.778472e+002 -5.736717e+001 -8.139580e+001 -5.731023e+001 -8.298792e+001 -1.548530e-001 1.382544e+002
512835032.08758 -2.294733e-001 1.776755e+002 -5.742590e+001 -8.536973e+001 -5.674693e+001 -8.022307e+001 -1.567097e-001 1.383795e+002
513212533.03133 -2.323694e-001 1.774584e+002 -5.671006e+001 -8.029535e+001 -5.673918e+001 -8.241561e+001 -1.613527e-001 1.385182e+002
513590033.97508 -2.300806e-001 1.772638e+002 -5.680888e+001 -8.217081e+001 -5.680380e+001 -7.894749e+001 -1.647230e-001 1.386522e+002
513967534.91884 -2.350677e-001 1.770553e+002 -5.676448e+001 -8.313435e+001 -5.645457e+001 -8.189940e+001 -1.677372e-001 1.387774e+002
514345035.86259 -2.335059e-001 1.767952e+002 -5.650208e+001 -8.523145e+001 -5.685136e+001 -8.211732e+001 -1.726191e-001 1.388890e+002
514722536.80634 -2.442423e-001 1.766276e+002 -5.651120e+001 -8.261292e+001 -5.606004e+001 -8.389375e+001 -1.791945e-001 1.389963e+002
515100037.75009 -2.463337e-001 1.764136e+002 -5.644670e+001 -8.474660e+001 -5.628349e+001 -8.259041e+001 -1.819719e-001 1.390638e+002
515477538.69385 -2.488379e-001 1.761767e+002 -5.613170e+001 -8.417456e+001 -5.650648e+001 -8.257539e+001 -1.866441e-001 1.391454e+002
515855039.6376 -2.513978e-001 1.759551e+002 -5.635056e+001 -8.685838e+001 -5.620691e+001 -8.491279e+001 -1.964495e-001 1.391845e+002
516232540.58135 -2.547821e-001 1.757251e+002 -5.611294e+001 -8.675238e+001 -5.604626e+001 -8.399883e+001 -2.017851e-001 1.392150e+002
516610041.5251 -2.567537e-001 1.755087e+002 -5.588826e+001 -8.748136e+001 -5.617967e+001 -8.521169e+001 -2.102862e-001 1.392293e+002
516987542.46886 -2.596363e-001 1.752794e+002 -5.548025e+001 -8.767183e+001 -5.606289e+001 -8.730332e+001 -2.186646e-001 1.391926e+002
517365043.41261 -2.635622e-001 1.750830e+002 -5.580157e+001 -8.736920e+001 -5.610594e+001 -8.723976e+001 -2.255397e-001 1.391787e+002
517742544.35636 -2.674983e-001 1.748720e+002 -5.550420e+001 -8.724487e+001 -5.566811e+001 -8.908458e+001 -2.317538e-001 1.391317e+002
518120045.30011 -2.698162e-001 1.745670e+002 -5.544059e+001 -8.758627e+001 -5.528306e+001 -8.478846e+001 -2.385580e-001 1.390568e+002
518497546.24387 -2.779854e-001 1.743979e+002 -5.555766e+001 -8.885596e+001 -5.548909e+001 -8.540450e+001 -2.455919e-001 1.389475e+002
518875047.18762 -2.789142e-001 1.740858e+002 -5.489830e+001 -9.009716e+001 -5.573174e+001 -8.879704e+001 -2.540077e-001 1.388611e+002
519252548.13137 -2.841348e-001 1.739148e+002 -5.556908e+001 -9.368929e+001 -5.538380e+001 -8.794899e+001 -2.559704e-001 1.387568e+002
519630049.07512 -2.862959e-001 1.736280e+002 -5.527920e+001 -9.176802e+001 -5.528991e+001 -8.882688e+001 -2.644407e-001 1.385992e+002
520007550.01888 -2.912771e-001 1.733511e+002 -5.482653e+001 -9.413906e+001 -5.567032e+001 -9.023924e+001 -2.733822e-001 1.384273e+002
520385050.96263 -2.942267e-001 1.731342e+002 -5.472850e+001 -9.363980e+001 -5.504994e+001 -8.874113e+001 -2.789081e-001 1.382531e+002
520762551.90638 -2.996957e-001 1.729273e+002 -5.482969e+001 -9.322337e+001 -5.474210e+001 -8.909611e+001 -2.831488e-001 1.380705e+002
521140052.85013 -3.020805e-001 1.726990e+002 -5.420802e+001 -9.382627e+001 -5.493970e+001 -9.321545e+001 -2.878442e-001 1.378578e+002
521517553.79388 -3.059184e-001 1.724201e+002 -5.453430e+001 -9.917929e+001 -5.478682e+001 -9.252190e+001 -2.903154e-001 1.376617e+002
521895054.73764 -3.108655e-001 1.721982e+002 -5.480120e+001 -9.778594e+001 -5.486984e+001 -9.371127e+001 -2.897058e-001 1.374473e+002
522272555.68139 -3.101805e-001 1.719200e+002 -5.441815e+001 -9.816240e+001 -5.474240e+001 -9.594731e+001 -2.922148e-001 1.372449e+002
522650056.62514 -3.172495e-001 1.717158e+002 -5.459177e+001 -1.007679e+002 -5.472326e+001 -9.566189e+001 -2.889970e-001 1.369906e+002
523027557.56889 -3.189138e-001 1.714563e+002 -5.427731e+001 -1.009827e+002 -5.446012e+001 -9.488513e+001 -2.911305e-001 1.367985e+002
523405058.51265 -3.267742e-001 1.711656e+002 -5.413837e+001 -9.989641e+001 -5.492482e+001 -9.813591e+001 -2.892880e-001 1.365914e+002
523782559.4564 -3.264932e-001 1.709530e+002 -5.446826e+001 -1.027123e+002 -5.468157e+001 -9.541078e+001 -2.888829e-001 1.363789e+002
524160060.40015 -3.340751e-001 1.706731e+002 -5.429930e+001 -1.027604e+002 -5.415146e+001 -9.718579e+001 -2.874249e-001 1.361722e+002
524537561.3439 -3.359991e-001 1.704868e+002 -5.432464e+001 -1.026750e+002 -5.428640e+001 -9.767629e+001 -2.825297e-001 1.360125e+002
524915062.28766 -3.425635e-001 1.702025e+002 -5.421457e+001 -1.046095e+002 -5.405986e+001 -9.776768e+001 -2.799954e-001 1.357686e+002
525292563.23141 -3.452345e-001 1.698931e+002 -5.398963e+001 -1.037520e+002 -5.403465e+001 -9.894499e+001 -2.740990e-001 1.355985e+002
525670064.17516 -3.495405e-001 1.696908e+002 -5.397094e+001 -1.038601e+002 -5.416832e+001 -9.860419e+001 -2.672712e-001 1.354408e+002
526047565.11891 -3.544734e-001 1.694635e+002 -5.386946e+001 -1.025680e+002 -5.406404e+001 -9.883913e+001 -2.624960e-001 1.352944e+002
526425066.06267 -3.588676e-001 1.692093e+002 -5.389028e+001 -1.058717e+002 -5.397854e+001 -1.011409e+002 -2.580633e-001 1.351754e+002
526802567.00642 -3.628154e-001 1.689763e+002 -5.403271e+001 -1.045568e+002 -5.368649e+001 -1.020333e+002 -2.498352e-001 1.350545e+002
527180067.95017 -3.701728e-001 1.687332e+002 -5.379488e+001 -1.078877e+002 -5.361401e+001 -1.016845e+002 -2.418844e-001 1.349494e+002
527557568.89392 -3.765823e-001 1.684820e+002 -5.385258e+001 -1.077492e+002 -5.384223e+001 -1.004919e+002 -2.317141e-001 1.348346e+002
527935069.83767 -3.803034e-001 1.682555e+002 -5.373841e+001 -1.071494e+002 -5.337633e+001 -1.023661e+002 -2.312925e-001 1.347631e+002
528312570.78143 -3.891526e-001 1.679756e+002 -5.360799e+001 -1.102328e+002 -5.386074e+001 -1.048303e+002 -2.192586e-001 1.347797e+002
528690071.72518 -3.929004e-001 1.677430e+002 -5.372483e+001 -1.111670e+002 -5.333688e+001 -1.053770e+002 -2.131488e-001 1.346750e+002
529067572.66893 -4.029424e-001 1.675294e+002 -5.352067e+001 -1.084726e+002 -5.328770e+001 -1.066250e+002 -2.047613e-001 1.346632e+002
529445073.61268 -4.037418e-001 1.672430e+002 -5.318245e+001 -1.112943e+002 -5.296131e+001 -1.061468e+002 -2.009920e-001 1.346431e+002
529822574.55644 -4.108581e-001 1.669819e+002 -5.330555e+001 -1.097814e+002 -5.345455e+001 -1.066236e+002 -1.971481e-001 1.346499e+002
530200075.50019 -4.152588e-001 1.667170e+002 -5.314193e+001 -1.106949e+002 -5.324800e+001 -1.075526e+002 -1.855804e-001 1.346497e+002
530577576.44394 -4.270589e-001 1.665312e+002 -5.312206e+001 -1.109422e+002 -5.318753e+001 -1.073042e+002 -1.852202e-001 1.346565e+002
530955077.38769 -4.320363e-001 1.662616e+002 -5.308430e+001 -1.146887e+002 -5.310358e+001 -1.091971e+002 -1.769333e-001 1.346803e+002
531332578.33145 -4.389592e-001 1.660311e+002 -5.297082e+001 -1.123472e+002 -5.326756e+001 -1.076604e+002 -1.748314e-001 1.347422e+002
531710079.2752 -4.449359e-001 1.657335e+002 -5.318868e+001 -1.113518e+002 -5.283754e+001 -1.103606e+002 -1.686809e-001 1.347683e+002
532087580.21895 -4.519058e-001 1.655470e+002 -5.273334e+001 -1.120779e+002 -5.294593e+001 -1.098306e+002 -1.629327e-001 1.348143e+002
532465081.1627 -4.611870e-001 1.652984e+002 -5.266403e+001 -1.149907e+002 -5.274444e+001 -1.113828e+002 -1.629415e-001 1.348839e+002
532842582.10646 -4.662946e-001 1.650429e+002 -5.289228e+001 -1.149355e+002 -5.281006e+001 -1.111732e+002 -1.573278e-001 1.349125e+002
533220083.05021 -4.753692e-001 1.648752e+002 -5.273268e+001 -1.154230e+002 -5.280148e+001 -1.111282e+002 -1.548044e-001 1.349808e+002
533597583.99396 -4.810545e-001 1.645988e+002 -5.264848e+001 -1.168267e+002 -5.252692e+001 -1.123974e+002 -1.584099e-001 1.350256e+002
533975084.93771 -4.855692e-001 1.643514e+002 -5.246563e+001 -1.186468e+002 -5.268951e+001 -1.126778e+002 -1.505971e-001 1.350930e+002
534352585.88146 -4.933575e-001 1.641438e+002 -5.254055e+001 -1.157837e+002 -5.264256e+001 -1.150764e+002 -1.477201e-001 1.351382e+002
534730086.82522 -4.992271e-001 1.638441e+002 -5.241311e+001 -1.169626e+002 -5.243036e+001 -1.139386e+002 -1.541647e-001 1.351678e+002
535107587.76897 -5.052608e-001 1.636666e+002 -5.222214e+001 -1.172703e+002 -5.221028e+001 -1.145726e+002 -1.456875e-001 1.352143e+002
535485088.71272 -5.151370e-001 1.634013e+002 -5.234088e+001 -1.171762e+002 -5.209478e+001 -1.133132e+002 -1.532046e-001 1.352923e+002
535862589.65647 -5.209142e-001 1.631505e+002 -5.230517e+001 -1.180833e+002 -5.237099e+001 -1.165709e+002 -1.504142e-001 1.353421e+002
536240090.60023 -5.262027e-001 1.629627e+002 -5.194871e+001 -1.196223e+002 -5.218718e+001 -1.150869e+002 -1.475810e-001 1.353411e+002
536617591.54398 -5.349523e-001 1.626801e+002 -5.188142e+001 -1.181294e+002 -5.203358e+001 -1.156837e+002 -1.566719e-001 1.354311e+002
536995092.48773 -5.405654e-001 1.624534e+002 -5.160175e+001 -1.191110e+002 -5.187351e+001 -1.164499e+002 -1.557027e-001 1.355197e+002
537372593.43148 -5.514558e-001 1.621736e+002 -5.165758e+001 -1.207910e+002 -5.168606e+001 -1.176059e+002 -1.580065e-001 1.355018e+002
537750094.37524 -5.588049e-001 1.619788e+002 -5.162039e+001 -1.207372e+002 -5.161096e+001 -1.166721e+002 -1.657709e-001 1.355341e+002
538127595.31899 -5.667762e-001 1.616829e+002 -5.141734e+001 -1.229372e+002 -5.152116e+001 -1.199996e+002 -1.629074e-001 1.355675e+002
538505096.26274 -5.757563e-001 1.613961e+002 -5.129193e+001 -1.232122e+002 -5.128859e+001 -1.206104e+002 -1.651067e-001 1.356163e+002
538882597.20649 -5.838926e-001 1.612126e+002 -5.125054e+001 -1.235436e+002 -5.134715e+001 -1.192533e+002 -1.647687e-001 1.355675e+002
539260098.15025 -5.929528e-001 1.609317e+002 -5.104244e+001 -1.238506e+002 -5.107887e+001 -1.222211e+002 -1.690877e-001 1.356036e+002
539637599.094 -6.033877e-001 1.606781e+002 -5.119603e+001 -1.250413e+002 -5.104470e+001 -1.229212e+002 -1.729267e-001 1.356453e+002
540015100.03775 -6.172329e-001 1.604445e+002 -5.089512e+001 -1.272254e+002 -5.119475e+001 -1.253175e+002 -1.801777e-001 1.356476e+002
540392600.9815 -6.246715e-001 1.602061e+002 -5.093531e+001 -1.268862e+002 -5.088462e+001 -1.259298e+002 -1.764570e-001 1.356673e+002
540770101.92525 -6.369792e-001 1.600028e+002 -5.070224e+001 -1.274791e+002 -5.091521e+001 -1.251009e+002 -1.803816e-001 1.356770e+002
541147602.86901 -6.451962e-001 1.596826e+002 -5.070854e+001 -1.291891e+002 -5.101660e+001 -1.254931e+002 -1.806707e-001 1.357013e+002
541525103.81276 -6.593015e-001 1.594669e+002 -5.068155e+001 -1.285545e+002 -5.097893e+001 -1.260608e+002 -1.807160e-001 1.356992e+002
541902604.75651 -6.661633e-001 1.592814e+002 -5.057433e+001 -1.298174e+002 -5.071450e+001 -1.269640e+002 -1.817339e-001 1.357519e+002
542280105.70026 -6.795225e-001 1.589488e+002 -5.070890e+001 -1.292106e+002 -5.088050e+001 -1.269660e+002 -1.856961e-001 1.357176e+002
542657606.64402 -6.837951e-001 1.587358e+002 -5.044378e+001 -1.311880e+002 -5.057788e+001 -1.272581e+002 -1.854101e-001 1.357368e+002
543035107.58777 -6.942155e-001 1.585187e+002 -5.011137e+001 -1.323626e+002 -5.068330e+001 -1.280716e+002 -1.873370e-001 1.357585e+002
543412608.53152 -7.025608e-001 1.582485e+002 -5.015305e+001 -1.323979e+002 -5.056200e+001 -1.289508e+002 -1.865186e-001 1.357612e+002
543790109.47527 -7.140512e-001 1.579848e+002 -5.007649e+001 -1.338904e+002 -5.044977e+001 -1.303300e+002 -1.870180e-001 1.357623e+002
544167610.41903 -7.196596e-001 1.577830e+002 -5.012365e+001 -1.337276e+002 -5.029745e+001 -1.294862e+002 -1.878650e-001 1.357507e+002
544545111.36278 -7.294518e-001 1.574316e+002 -4.985888e+001 -1.351221e+002 -5.010365e+001 -1.307196e+002 -1.922369e-001 1.357729e+002
544922612.30653 -7.375959e-001 1.572149e+002 -4.985065e+001 -1.356458e+002 -5.013654e+001 -1.308492e+002 -1.954050e-001 1.357399e+002
545300113.25028 -7.469632e-001 1.569286e+002 -4.970452e+001 -1.349090e+002 -4.995130e+001 -1.317995e+002 -1.960254e-001 1.357743e+002
545677614.19404 -7.581491e-001 1.567080e+002 -4.955298e+001 -1.374786e+002 -5.008750e+001 -1.334549e+002 -1.948821e-001 1.357632e+002
546055115.13779 -7.642813e-001 1.564693e+002 -4.954453e+001 -1.364790e+002 -4.978891e+001 -1.335852e+002 -2.003793e-001 1.357458e+002
546432616.08154 -7.781985e-001 1.561844e+002 -4.927947e+001 -1.398166e+002 -4.984324e+001 -1.333855e+002 -2.001874e-001 1.357321e+002
546810117.02529 -7.881296e-001 1.558925e+002 -4.935462e+001 -1.388283e+002 -4.973981e+001 -1.345162e+002 -2.018392e-001 1.357082e+002
547187617.96904 -8.017726e-001 1.556543e+002 -4.913118e+001 -1.405784e+002 -4.961321e+001 -1.348708e+002 -2.082849e-001 1.356940e+002
547565118.9128 -8.085883e-001 1.553032e+002 -4.918506e+001 -1.414207e+002 -4.936637e+001 -1.371766e+002 -2.095055e-001 1.356712e+002
547942619.85655 -8.218865e-001 1.550683e+002 -4.894668e+001 -1.420159e+002 -4.936351e+001 -1.368102e+002 -2.152238e-001 1.356430e+002
548320120.8003 -8.375872e-001 1.547961e+002 -4.874439e+001 -1.431512e+002 -4.924837e+001 -1.377278e+002 -2.163775e-001 1.356210e+002
548697621.74405 -8.516322e-001 1.545659e+002 -4.897153e+001 -1.439772e+002 -4.935727e+001 -1.379627e+002 -2.219781e-001 1.355846e+002
549075122.68781 -8.639041e-001 1.542836e+002 -4.859973e+001 -1.445374e+002 -4.918966e+001 -1.392585e+002 -2.264152e-001 1.355159e+002
549452623.63156 -8.786855e-001 1.540659e+002 -4.848796e+001 -1.461322e+002 -4.899126e+001 -1.393384e+002 -2.300050e-001 1.354546e+002
549830124.57531 -8.897691e-001 1.538213e+002 -4.853685e+001 -1.463971e+002 -4.897468e+001 -1.400831e+002 -2.335070e-001 1.353990e+002
550207625.51906 -9.013566e-001 1.535732e+002 -4.850977e+001 -1.483318e+002 -4.889997e+001 -1.410553e+002 -2.372365e-001 1.353397e+002
550585126.46282 -9.168085e-001 1.532848e+002 -4.835305e+001 -1.487689e+002 -4.862452e+001 -1.430882e+002 -2.391524e-001 1.352437e+002
550962627.40657 -9.324186e-001 1.530685e+002 -4.847985e+001 -1.490446e+002 -4.859396e+001 -1.425288e+002 -2.510267e-001 1.351803e+002
551340128.35032 -9.430075e-001 1.528307e+002 -4.810741e+001 -1.513586e+002 -4.865551e+001 -1.443838e+002 -2.535794e-001 1.351155e+002
551717629.29407 -9.593227e-001 1.525467e+002 -4.831853e+001 -1.513902e+002 -4.858112e+001 -1.451840e+002 -2.575447e-001 1.350311e+002
552095130.23783 -9.694803e-001 1.523440e+002 -4.813313e+001 -1.522572e+002 -4.845123e+001 -1.456956e+002 -2.604470e-001 1.349490e+002
552472631.18158 -9.868410e-001 1.520973e+002 -4.814265e+001 -1.532924e+002 -4.835118e+001 -1.463496e+002 -2.621009e-001 1.348413e+002
552850132.12533 -1.001770e+000 1.518647e+002 -4.800044e+001 -1.530655e+002 -4.819999e+001 -1.464669e+002 -2.664518e-001 1.347436e+002
553227633.06908 -1.017763e+000 1.516020e+002 -4.786230e+001 -1.545319e+002 -4.823542e+001 -1.475523e+002 -2.705876e-001 1.346276e+002
553605134.01284 -1.031740e+000 1.514130e+002 -4.789863e+001 -1.560537e+002 -4.811908e+001 -1.481088e+002 -2.770597e-001 1.345095e+002
553982634.95659 -1.050830e+000 1.511323e+002 -4.771368e+001 -1.551976e+002 -4.794959e+001 -1.494099e+002 -2.802472e-001 1.343976e+002
554360135.90034 -1.072885e+000 1.509341e+002 -4.764829e+001 -1.570434e+002 -4.778551e+001 -1.505536e+002 -2.792040e-001 1.342796e+002
554737636.84409 -1.090149e+000 1.506409e+002 -4.761836e+001 -1.576414e+002 -4.767151e+001 -1.519181e+002 -2.855116e-001 1.341682e+002
555115137.78784 -1.108014e+000 1.504233e+002 -4.746281e+001 -1.572463e+002 -4.762288e+001 -1.516209e+002 -2.826766e-001 1.340538e+002
