!Agilent Technologies,E8364B,US42250235,A.06.04.32
!Agilent E8364B: A.06.04.32
!Date: Thursday, October 01, 2020 11:15:14
!Correction: S11(Full 2 Port(1,2)) S21(Full 2 Port(1,2)) S12(Full 2 Port(1,2)) S22(Full 2 Port(1,2)) 
!S2P File: Measurements: S11, S21, S12, S22:
# Hz S  dB   R 50
500000000 -1.930127e-001 -1.754138e+002 -6.194788e+001 7.715907e+001 -6.155299e+001 7.604907e+001 -2.602947e-001 1.365799e+002
500377500.94375 -1.995809e-001 -1.755618e+002 -6.148143e+001 7.874665e+001 -6.090326e+001 7.680747e+001 -2.628817e-001 1.364888e+002
500755001.8875 -1.997967e-001 -1.758401e+002 -6.047850e+001 7.132059e+001 -6.149799e+001 7.002776e+001 -2.693425e-001 1.363839e+002
501132502.83126 -2.054827e-001 -1.760121e+002 -6.086013e+001 7.296994e+001 -6.085085e+001 7.375406e+001 -2.647972e-001 1.362979e+002
501510003.77501 -2.102938e-001 -1.762386e+002 -6.075585e+001 7.192458e+001 -6.179548e+001 7.056939e+001 -2.634368e-001 1.362438e+002
501887504.71876 -2.190623e-001 -1.764482e+002 -6.064439e+001 7.182499e+001 -6.098833e+001 7.056478e+001 -2.701836e-001 1.361125e+002
502265005.66251 -2.219514e-001 -1.766581e+002 -6.032264e+001 6.645989e+001 -6.129157e+001 6.666319e+001 -2.677111e-001 1.360295e+002
502642506.60627 -2.304146e-001 -1.768906e+002 -6.119343e+001 6.949352e+001 -6.224615e+001 6.828349e+001 -2.691078e-001 1.359713e+002
503020007.55002 -2.331902e-001 -1.770952e+002 -6.077796e+001 6.740840e+001 -6.089489e+001 6.926862e+001 -2.656093e-001 1.358788e+002
503397508.49377 -2.392718e-001 -1.773195e+002 -6.095298e+001 6.809575e+001 -6.155798e+001 6.248824e+001 -2.616453e-001 1.357935e+002
503775009.43752 -2.434581e-001 -1.774903e+002 -6.007486e+001 7.072228e+001 -6.053267e+001 6.740475e+001 -2.619746e-001 1.357717e+002
504152510.38128 -2.483328e-001 -1.777431e+002 -6.049952e+001 6.161334e+001 -6.054435e+001 6.562801e+001 -2.568794e-001 1.357188e+002
504530011.32503 -2.555441e-001 -1.779121e+002 -6.005684e+001 6.546748e+001 -6.031807e+001 6.357029e+001 -2.519382e-001 1.356633e+002
504907512.26878 -2.593099e-001 -1.781358e+002 -6.002711e+001 6.495724e+001 -5.990922e+001 6.234039e+001 -2.490640e-001 1.356382e+002
505285013.21253 -2.568359e-001 -1.783878e+002 -6.086005e+001 6.508189e+001 -5.992304e+001 6.851578e+001 -2.445076e-001 1.356172e+002
505662514.15629 -2.629427e-001 -1.785144e+002 -6.021030e+001 6.608582e+001 -6.036485e+001 6.032684e+001 -2.410202e-001 1.355759e+002
506040015.10004 -2.688904e-001 -1.787863e+002 -5.977859e+001 5.830960e+001 -6.031787e+001 6.468944e+001 -2.383654e-001 1.356158e+002
506417516.04379 -2.677274e-001 -1.789172e+002 -5.976512e+001 5.803797e+001 -5.915583e+001 5.671022e+001 -2.247588e-001 1.356289e+002
506795016.98754 -2.676037e-001 -1.791970e+002 -5.938572e+001 5.947983e+001 -5.964331e+001 6.260758e+001 -2.218590e-001 1.356708e+002
507172517.93129 -2.753889e-001 -1.793651e+002 -6.002112e+001 5.773424e+001 -5.975562e+001 5.644480e+001 -2.184164e-001 1.357201e+002
507550018.87505 -2.752163e-001 -1.796438e+002 -5.965868e+001 5.654983e+001 -5.960871e+001 5.651055e+001 -2.094491e-001 1.357572e+002
507927519.8188 -2.775802e-001 -1.797901e+002 -5.971256e+001 5.102644e+001 -5.906142e+001 5.276433e+001 -2.080656e-001 1.358551e+002
508305020.76255 -2.824412e-001 -1.799568e+002 -5.954144e+001 5.298631e+001 -5.917782e+001 5.653445e+001 -1.982272e-001 1.359338e+002
508682521.7063 -2.813227e-001 1.797779e+002 -5.984824e+001 4.910760e+001 -5.932851e+001 5.458102e+001 -1.938297e-001 1.360413e+002
509060022.65006 -2.851992e-001 1.795924e+002 -5.976244e+001 4.888972e+001 -5.970234e+001 5.166434e+001 -1.894918e-001 1.361358e+002
509437523.59381 -2.851400e-001 1.794418e+002 -5.939922e+001 4.581063e+001 -5.923748e+001 4.878446e+001 -1.871798e-001 1.362554e+002
509815024.53756 -2.903995e-001 1.792006e+002 -5.992571e+001 4.715619e+001 -5.944958e+001 4.762386e+001 -1.796772e-001 1.363973e+002
510192525.48131 -2.874796e-001 1.789942e+002 -5.937743e+001 4.599808e+001 -5.954528e+001 4.948023e+001 -1.764605e-001 1.365295e+002
510570026.42507 -2.899166e-001 1.788000e+002 -5.908813e+001 4.600871e+001 -5.962823e+001 4.860191e+001 -1.752987e-001 1.367204e+002
510947527.36882 -2.970648e-001 1.785722e+002 -5.974738e+001 4.752677e+001 -5.930829e+001 4.795930e+001 -1.696251e-001 1.368581e+002
511325028.31257 -2.929363e-001 1.783862e+002 -6.014846e+001 4.665364e+001 -5.941131e+001 4.702060e+001 -1.670656e-001 1.370517e+002
511702529.25632 -3.003691e-001 1.782110e+002 -5.958397e+001 4.310984e+001 -5.923335e+001 4.999660e+001 -1.676349e-001 1.372195e+002
512080030.20008 -2.994682e-001 1.780344e+002 -5.948029e+001 5.160014e+001 -5.933649e+001 4.600240e+001 -1.668394e-001 1.373983e+002
512457531.14383 -3.042734e-001 1.777603e+002 -5.975060e+001 4.863530e+001 -5.944545e+001 4.949496e+001 -1.679359e-001 1.375555e+002
512835032.08758 -3.092389e-001 1.776092e+002 -5.944757e+001 4.770705e+001 -5.904914e+001 4.234938e+001 -1.681502e-001 1.377109e+002
513212533.03133 -3.131886e-001 1.774271e+002 -5.936576e+001 4.901555e+001 -5.951731e+001 4.238047e+001 -1.725998e-001 1.378732e+002
513590033.97508 -3.142532e-001 1.771996e+002 -5.847819e+001 4.081432e+001 -5.891567e+001 4.334717e+001 -1.756808e-001 1.380325e+002
513967534.91884 -3.200946e-001 1.769879e+002 -5.911145e+001 4.632801e+001 -5.870667e+001 4.681717e+001 -1.779152e-001 1.381987e+002
514345035.86259 -3.221461e-001 1.767787e+002 -5.872717e+001 4.585044e+001 -5.918814e+001 4.524074e+001 -1.847679e-001 1.383305e+002
514722536.80634 -3.263211e-001 1.765768e+002 -5.906648e+001 4.324230e+001 -5.843709e+001 3.960374e+001 -1.869898e-001 1.384812e+002
515100037.75009 -3.317159e-001 1.763591e+002 -5.863773e+001 4.282590e+001 -5.903426e+001 4.271583e+001 -1.941179e-001 1.385828e+002
515477538.69385 -3.382589e-001 1.761351e+002 -5.856532e+001 4.306997e+001 -5.851027e+001 3.971093e+001 -2.009384e-001 1.386906e+002
515855039.6376 -3.465273e-001 1.759184e+002 -5.876545e+001 3.992569e+001 -5.846857e+001 4.349889e+001 -2.076008e-001 1.387649e+002
516232540.58135 -3.498745e-001 1.757129e+002 -5.834563e+001 3.916532e+001 -5.780795e+001 4.131394e+001 -2.126500e-001 1.388200e+002
516610041.5251 -3.559899e-001 1.754937e+002 -5.808192e+001 3.706473e+001 -5.823699e+001 3.963250e+001 -2.243275e-001 1.388569e+002
516987542.46886 -3.645521e-001 1.752844e+002 -5.774224e+001 4.046188e+001 -5.768135e+001 3.803934e+001 -2.310877e-001 1.388928e+002
517365043.41261 -3.696257e-001 1.750487e+002 -5.751651e+001 4.051871e+001 -5.765248e+001 3.389383e+001 -2.423935e-001 1.388892e+002
517742544.35636 -3.744578e-001 1.748997e+002 -5.714224e+001 3.856860e+001 -5.741833e+001 3.473107e+001 -2.499950e-001 1.388617e+002
518120045.30011 -3.820941e-001 1.746235e+002 -5.774804e+001 3.385462e+001 -5.752719e+001 3.247829e+001 -2.596784e-001 1.388149e+002
518497546.24387 -3.909780e-001 1.744202e+002 -5.733658e+001 3.192915e+001 -5.729403e+001 3.405751e+001 -2.672057e-001 1.387495e+002
518875047.18762 -3.964120e-001 1.742455e+002 -5.720730e+001 3.218894e+001 -5.772417e+001 3.243659e+001 -2.808793e-001 1.386556e+002
519252548.13137 -4.024319e-001 1.740005e+002 -5.682112e+001 2.772884e+001 -5.708299e+001 2.936978e+001 -2.848520e-001 1.385716e+002
519630049.07512 -4.094279e-001 1.737813e+002 -5.649426e+001 3.031301e+001 -5.706762e+001 2.891426e+001 -2.946059e-001 1.383974e+002
520007550.01888 -4.138483e-001 1.735760e+002 -5.651425e+001 2.700571e+001 -5.692802e+001 2.743890e+001 -3.017145e-001 1.382600e+002
520385050.96263 -4.206946e-001 1.733455e+002 -5.701269e+001 2.552750e+001 -5.684971e+001 2.802666e+001 -3.108874e-001 1.380869e+002
520762551.90638 -4.303215e-001 1.731176e+002 -5.629829e+001 2.228076e+001 -5.675488e+001 2.176255e+001 -3.169000e-001 1.378960e+002
521140052.85013 -4.308302e-001 1.729314e+002 -5.671369e+001 2.305487e+001 -5.689447e+001 2.466250e+001 -3.219552e-001 1.376803e+002
521517553.79388 -4.367932e-001 1.727530e+002 -5.688928e+001 2.322528e+001 -5.678732e+001 2.133014e+001 -3.281057e-001 1.374706e+002
521895054.73764 -4.373398e-001 1.724924e+002 -5.644771e+001 1.879883e+001 -5.681291e+001 1.963084e+001 -3.311125e-001 1.372389e+002
522272555.68139 -4.419144e-001 1.722735e+002 -5.710256e+001 2.108665e+001 -5.717661e+001 2.151966e+001 -3.321328e-001 1.370263e+002
522650056.62514 -4.477910e-001 1.720854e+002 -5.664397e+001 1.467411e+001 -5.681685e+001 1.903829e+001 -3.341539e-001 1.367895e+002
523027557.56889 -4.505269e-001 1.718478e+002 -5.663878e+001 1.237299e+001 -5.692808e+001 1.701696e+001 -3.379039e-001 1.365144e+002
523405058.51265 -4.558614e-001 1.716497e+002 -5.708410e+001 1.369340e+001 -5.683754e+001 1.498683e+001 -3.381284e-001 1.362708e+002
523782559.4564 -4.565638e-001 1.714069e+002 -5.672486e+001 1.459240e+001 -5.668900e+001 1.761388e+001 -3.358794e-001 1.360319e+002
524160060.40015 -4.594094e-001 1.712024e+002 -5.654295e+001 1.471193e+001 -5.709269e+001 1.301932e+001 -3.351826e-001 1.358045e+002
524537561.3439 -4.638658e-001 1.709823e+002 -5.648844e+001 1.351864e+001 -5.662055e+001 1.590952e+001 -3.279628e-001 1.356148e+002
524915062.28766 -4.672278e-001 1.707503e+002 -5.646889e+001 1.025577e+001 -5.655299e+001 1.240333e+001 -3.327488e-001 1.353278e+002
525292563.23141 -4.678115e-001 1.705261e+002 -5.632733e+001 8.167704e+000 -5.630812e+001 1.159756e+001 -3.249147e-001 1.351339e+002
525670064.17516 -4.728941e-001 1.702922e+002 -5.647958e+001 9.737581e+000 -5.680006e+001 1.134080e+001 -3.193032e-001 1.349119e+002
526047565.11891 -4.769326e-001 1.701010e+002 -5.677558e+001 8.695533e+000 -5.635841e+001 1.045975e+001 -3.150395e-001 1.347469e+002
526425066.06267 -4.817922e-001 1.698430e+002 -5.653839e+001 6.138159e+000 -5.642654e+001 9.840150e+000 -3.034768e-001 1.345811e+002
526802567.00642 -4.847698e-001 1.696626e+002 -5.663464e+001 7.500531e+000 -5.663331e+001 7.500896e+000 -2.946749e-001 1.344378e+002
527180067.95017 -4.912294e-001 1.693961e+002 -5.646766e+001 5.132682e+000 -5.623912e+001 7.613883e+000 -2.871783e-001 1.342776e+002
527557568.89392 -4.949451e-001 1.691848e+002 -5.590575e+001 6.119447e+000 -5.661165e+001 7.495677e+000 -2.746496e-001 1.341434e+002
527935069.83767 -4.944015e-001 1.689417e+002 -5.624670e+001 5.192874e+000 -5.658082e+001 6.384646e+000 -2.708845e-001 1.340638e+002
528312570.78143 -5.062184e-001 1.687029e+002 -5.618395e+001 2.748909e+000 -5.625776e+001 3.224645e+000 -2.630563e-001 1.340191e+002
528690071.72518 -5.090935e-001 1.684710e+002 -5.620621e+001 3.580793e+000 -5.579085e+001 4.090198e+000 -2.502914e-001 1.339247e+002
529067572.66893 -5.180762e-001 1.682877e+002 -5.644458e+001 2.614024e+000 -5.674453e+001 6.359575e-001 -2.435800e-001 1.338726e+002
529445073.61268 -5.196199e-001 1.680311e+002 -5.620178e+001 2.192511e+000 -5.618312e+001 1.266654e+000 -2.387948e-001 1.338484e+002
529822574.55644 -5.275763e-001 1.678165e+002 -5.608573e+001 2.230741e+000 -5.620554e+001 5.692287e+000 -2.287800e-001 1.338334e+002
530200075.50019 -5.315149e-001 1.676194e+002 -5.608540e+001 1.103569e+000 -5.599173e+001 9.679474e-001 -2.188266e-001 1.338537e+002
530577576.44394 -5.407761e-001 1.674296e+002 -5.587302e+001 7.650440e-001 -5.569535e+001 6.270294e-001 -2.136472e-001 1.338522e+002
530955077.38769 -5.478485e-001 1.672304e+002 -5.600717e+001 3.844855e-001 -5.570872e+001 2.377794e+000 -2.052832e-001 1.338505e+002
531332578.33145 -5.531483e-001 1.669820e+002 -5.567931e+001 -1.136117e+000 -5.555746e+001 -3.330891e+000 -1.987274e-001 1.339194e+002
531710079.2752 -5.576648e-001 1.667789e+002 -5.589175e+001 -1.362152e-001 -5.551537e+001 -2.404247e-001 -1.941193e-001 1.339663e+002
532087580.21895 -5.608696e-001 1.665281e+002 -5.530724e+001 -8.583381e-001 -5.563450e+001 -3.852580e+000 -1.854303e-001 1.340391e+002
532465081.1627 -5.702745e-001 1.663738e+002 -5.585283e+001 -6.534029e+000 -5.556593e+001 -5.889017e+000 -1.827683e-001 1.341094e+002
532842582.10646 -5.710481e-001 1.661524e+002 -5.575696e+001 -3.541375e+000 -5.565220e+001 -6.372744e+000 -1.763529e-001 1.341698e+002
533220083.05021 -5.785992e-001 1.659417e+002 -5.549198e+001 -5.812610e+000 -5.541592e+001 -6.144550e+000 -1.705058e-001 1.342611e+002
533597583.99396 -5.831869e-001 1.657513e+002 -5.566574e+001 -9.706430e+000 -5.532354e+001 -9.301971e+000 -1.701300e-001 1.343288e+002
533975084.93771 -5.877813e-001 1.655781e+002 -5.492577e+001 -7.310352e+000 -5.519281e+001 -8.809545e+000 -1.663636e-001 1.344235e+002
534352585.88146 -5.940067e-001 1.653590e+002 -5.556616e+001 -8.832648e+000 -5.527604e+001 -9.001924e+000 -1.634673e-001 1.345047e+002
534730086.82522 -5.951213e-001 1.650903e+002 -5.513171e+001 -1.231611e+001 -5.525403e+001 -1.007950e+001 -1.642337e-001 1.345971e+002
535107587.76897 -5.992457e-001 1.649128e+002 -5.527735e+001 -1.009981e+001 -5.526955e+001 -1.049798e+001 -1.580035e-001 1.347124e+002
535485088.71272 -6.065121e-001 1.647335e+002 -5.504641e+001 -1.101916e+001 -5.517205e+001 -1.376852e+001 -1.639021e-001 1.347517e+002
535862589.65647 -6.125008e-001 1.645313e+002 -5.535973e+001 -1.202567e+001 -5.481874e+001 -1.131863e+001 -1.628154e-001 1.348400e+002
536240090.60023 -6.176236e-001 1.643466e+002 -5.504119e+001 -1.165364e+001 -5.489371e+001 -1.304751e+001 -1.637220e-001 1.349140e+002
536617591.54398 -6.202778e-001 1.641288e+002 -5.488578e+001 -1.401286e+001 -5.469209e+001 -1.519660e+001 -1.678871e-001 1.349823e+002
536995092.48773 -6.256347e-001 1.638804e+002 -5.514926e+001 -1.365952e+001 -5.445227e+001 -1.436215e+001 -1.690908e-001 1.351066e+002
537372593.43148 -6.317399e-001 1.636722e+002 -5.489778e+001 -1.627961e+001 -5.435162e+001 -1.705087e+001 -1.713003e-001 1.351196e+002
537750094.37524 -6.360334e-001 1.635003e+002 -5.460162e+001 -1.725887e+001 -5.438810e+001 -1.641368e+001 -1.782816e-001 1.351853e+002
538127595.31899 -6.387606e-001 1.632345e+002 -5.434312e+001 -1.988613e+001 -5.408314e+001 -1.759443e+001 -1.785899e-001 1.352361e+002
538505096.26274 -6.407820e-001 1.630293e+002 -5.413998e+001 -1.921591e+001 -5.435270e+001 -2.053886e+001 -1.817514e-001 1.353102e+002
538882597.20649 -6.427029e-001 1.628621e+002 -5.424454e+001 -2.078912e+001 -5.415518e+001 -2.152036e+001 -1.841459e-001 1.353273e+002
539260098.15025 -6.473603e-001 1.626940e+002 -5.448580e+001 -2.374038e+001 -5.439066e+001 -2.493660e+001 -1.889485e-001 1.353567e+002
539637599.094 -6.487247e-001 1.624915e+002 -5.415639e+001 -2.254274e+001 -5.416273e+001 -2.540725e+001 -1.933911e-001 1.354025e+002
540015100.03775 -6.535975e-001 1.622733e+002 -5.445370e+001 -2.602644e+001 -5.386990e+001 -2.579891e+001 -2.001147e-001 1.354117e+002
540392600.9815 -6.529696e-001 1.620326e+002 -5.405862e+001 -2.622849e+001 -5.395703e+001 -2.905958e+001 -1.981019e-001 1.354224e+002
540770101.92525 -6.490880e-001 1.618271e+002 -5.420812e+001 -2.676316e+001 -5.415023e+001 -2.949710e+001 -2.045368e-001 1.354438e+002
541147602.86901 -6.508176e-001 1.615582e+002 -5.439468e+001 -2.964057e+001 -5.415186e+001 -3.163349e+001 -2.064745e-001 1.354610e+002
541525103.81276 -6.542136e-001 1.614122e+002 -5.412286e+001 -2.771037e+001 -5.412743e+001 -3.159038e+001 -2.090374e-001 1.354604e+002
541902604.75651 -6.516767e-001 1.611313e+002 -5.438515e+001 -3.239304e+001 -5.416513e+001 -3.325154e+001 -2.101662e-001 1.354899e+002
542280105.70026 -6.518235e-001 1.608776e+002 -5.396106e+001 -3.191703e+001 -5.434123e+001 -3.588748e+001 -2.125865e-001 1.354553e+002
542657606.64402 -6.531748e-001 1.606535e+002 -5.407024e+001 -3.307759e+001 -5.402633e+001 -3.354541e+001 -2.169332e-001 1.354491e+002
543035107.58777 -6.511688e-001 1.604242e+002 -5.405693e+001 -3.386189e+001 -5.434679e+001 -3.551403e+001 -2.209702e-001 1.354187e+002
543412608.53152 -6.579087e-001 1.602095e+002 -5.403212e+001 -3.558265e+001 -5.402711e+001 -3.666887e+001 -2.235981e-001 1.354070e+002
543790109.47527 -6.604028e-001 1.599015e+002 -5.415784e+001 -3.541383e+001 -5.413175e+001 -3.753786e+001 -2.234897e-001 1.353858e+002
544167610.41903 -6.552759e-001 1.596587e+002 -5.417589e+001 -3.573335e+001 -5.457988e+001 -3.647288e+001 -2.262354e-001 1.353951e+002
544545111.36278 -6.626672e-001 1.593443e+002 -5.397884e+001 -3.699044e+001 -5.434695e+001 -3.569929e+001 -2.289735e-001 1.353196e+002
544922612.30653 -6.613164e-001 1.591825e+002 -5.392840e+001 -3.743505e+001 -5.422217e+001 -3.714352e+001 -2.320882e-001 1.352645e+002
545300113.25028 -6.612166e-001 1.589156e+002 -5.410720e+001 -3.949826e+001 -5.434586e+001 -3.995039e+001 -2.369540e-001 1.352413e+002
545677614.19404 -6.657147e-001 1.586076e+002 -5.383223e+001 -3.588017e+001 -5.440385e+001 -4.085496e+001 -2.353963e-001 1.351943e+002
546055115.13779 -6.649515e-001 1.583606e+002 -5.393624e+001 -4.139071e+001 -5.407184e+001 -4.317312e+001 -2.390724e-001 1.351428e+002
546432616.08154 -6.698047e-001 1.580916e+002 -5.390809e+001 -4.206746e+001 -5.431490e+001 -4.233990e+001 -2.381424e-001 1.350969e+002
546810117.02529 -6.698917e-001 1.578565e+002 -5.395755e+001 -4.036893e+001 -5.412228e+001 -4.224536e+001 -2.407366e-001 1.350198e+002
547187617.96904 -6.777329e-001 1.575175e+002 -5.392880e+001 -4.332227e+001 -5.423139e+001 -4.296411e+001 -2.443926e-001 1.349603e+002
547565118.9128 -6.801468e-001 1.571864e+002 -5.389394e+001 -4.238987e+001 -5.385854e+001 -4.422948e+001 -2.430340e-001 1.349029e+002
547942619.85655 -6.854510e-001 1.569620e+002 -5.371492e+001 -4.635338e+001 -5.391913e+001 -4.259002e+001 -2.492458e-001 1.348501e+002
548320120.8003 -6.964239e-001 1.567022e+002 -5.360842e+001 -4.311612e+001 -5.369164e+001 -4.348137e+001 -2.517544e-001 1.347766e+002
548697621.74405 -7.037672e-001 1.564469e+002 -5.355910e+001 -4.641827e+001 -5.381854e+001 -4.551045e+001 -2.549172e-001 1.347268e+002
549075122.68781 -7.105435e-001 1.561890e+002 -5.325329e+001 -4.797687e+001 -5.366761e+001 -4.820188e+001 -2.574458e-001 1.346473e+002
549452623.63156 -7.183167e-001 1.559412e+002 -5.340707e+001 -4.806025e+001 -5.338730e+001 -4.837247e+001 -2.594519e-001 1.345642e+002
549830124.57531 -7.238341e-001 1.556771e+002 -5.353404e+001 -4.770646e+001 -5.373250e+001 -4.965660e+001 -2.620639e-001 1.345105e+002
550207625.51906 -7.269022e-001 1.554571e+002 -5.315826e+001 -4.985065e+001 -5.363062e+001 -5.083071e+001 -2.639006e-001 1.344341e+002
550585126.46282 -7.375155e-001 1.551725e+002 -5.342279e+001 -4.891257e+001 -5.332960e+001 -5.315811e+001 -2.668599e-001 1.343347e+002
550962627.40657 -7.452288e-001 1.549688e+002 -5.313349e+001 -5.405911e+001 -5.340325e+001 -5.374286e+001 -2.708154e-001 1.342669e+002
551340128.35032 -7.504892e-001 1.547424e+002 -5.311885e+001 -5.460112e+001 -5.359777e+001 -5.310756e+001 -2.686687e-001 1.342028e+002
551717629.29407 -7.587408e-001 1.544478e+002 -5.351196e+001 -5.642036e+001 -5.357114e+001 -5.417030e+001 -2.723177e-001 1.340916e+002
552095130.23783 -7.630450e-001 1.542660e+002 -5.336911e+001 -5.476038e+001 -5.360962e+001 -5.415219e+001 -2.756779e-001 1.340545e+002
552472631.18158 -7.694808e-001 1.539884e+002 -5.347818e+001 -5.663852e+001 -5.330570e+001 -5.621155e+001 -2.790829e-001 1.339873e+002
552850132.12533 -7.786386e-001 1.537603e+002 -5.318068e+001 -5.601717e+001 -5.352594e+001 -5.712384e+001 -2.780699e-001 1.339135e+002
553227633.06908 -7.831683e-001 1.535287e+002 -5.363035e+001 -5.696999e+001 -5.352978e+001 -5.820568e+001 -2.833577e-001 1.338325e+002
553605134.01284 -7.897887e-001 1.532435e+002 -5.313054e+001 -6.029826e+001 -5.321459e+001 -5.881020e+001 -2.864893e-001 1.337502e+002
553982634.95659 -7.997961e-001 1.530331e+002 -5.335530e+001 -6.015908e+001 -5.341857e+001 -5.962279e+001 -2.893574e-001 1.336649e+002
554360135.90034 -8.070812e-001 1.527995e+002 -5.330147e+001 -5.825343e+001 -5.304475e+001 -6.141684e+001 -2.874216e-001 1.335728e+002
554737636.84409 -8.158970e-001 1.525420e+002 -5.324778e+001 -6.200452e+001 -5.329621e+001 -6.140775e+001 -2.899099e-001 1.335218e+002
555115137.78784 -8.246812e-001 1.523486e+002 -5.335952e+001 -6.134565e+001 -5.328381e+001 -6.106544e+001 -2.876710e-001 1.334559e+002
555492638.7316 -8.309746e-001 1.520472e+002 -5.333627e+001 -6.120612e+001 -5.288673e+001 -6.193638e+001 -2.897982e-001 1.333763e+002
