!Agilent Technologies,E8364B,US42250235,A.06.04.32
!Agilent E8364B: A.06.04.32
!Date: Thursday, October 01, 2020 10:57:52
!Correction: S11(Full 2 Port(1,2)) S21(Full 2 Port(1,2)) S12(Full 2 Port(1,2)) S22(Full 2 Port(1,2)) 
!S2P File: Measurements: S11, S21, S12, S22:
# Hz S  dB   R 50
500000000 -1.286394e-001 -1.748253e+002 -5.196369e+001 1.250659e+002 -5.215456e+001 1.241642e+002 -1.307162e-001 1.384439e+002
500377500.94375 -1.266910e-001 -1.749690e+002 -5.210938e+001 1.227739e+002 -5.173439e+001 1.230034e+002 -1.327877e-001 1.384066e+002
500755001.8875 -1.256825e-001 -1.752345e+002 -5.178830e+001 1.265318e+002 -5.199449e+001 1.226894e+002 -1.338642e-001 1.383523e+002
501132502.83126 -1.304871e-001 -1.753879e+002 -5.203524e+001 1.253081e+002 -5.203902e+001 1.228916e+002 -1.332642e-001 1.383041e+002
501510003.77501 -1.339521e-001 -1.755493e+002 -5.183599e+001 1.236436e+002 -5.166079e+001 1.231868e+002 -1.327979e-001 1.382889e+002
501887504.71876 -1.360488e-001 -1.758096e+002 -5.217450e+001 1.237642e+002 -5.162458e+001 1.223529e+002 -1.368543e-001 1.381969e+002
502265005.66251 -1.339805e-001 -1.760025e+002 -5.194561e+001 1.233026e+002 -5.160203e+001 1.226400e+002 -1.368939e-001 1.381580e+002
502642506.60627 -1.370630e-001 -1.762195e+002 -5.184483e+001 1.205873e+002 -5.175538e+001 1.205090e+002 -1.403220e-001 1.380705e+002
503020007.55002 -1.367474e-001 -1.764162e+002 -5.160275e+001 1.212888e+002 -5.152814e+001 1.202232e+002 -1.384322e-001 1.380656e+002
503397508.49377 -1.372528e-001 -1.766322e+002 -5.130972e+001 1.220266e+002 -5.143070e+001 1.208151e+002 -1.354056e-001 1.379793e+002
503775009.43752 -1.388029e-001 -1.768396e+002 -5.126046e+001 1.207598e+002 -5.170475e+001 1.220777e+002 -1.424186e-001 1.379379e+002
504152510.38128 -1.393019e-001 -1.770660e+002 -5.140918e+001 1.209357e+002 -5.148673e+001 1.219118e+002 -1.370856e-001 1.378922e+002
504530011.32503 -1.426723e-001 -1.772218e+002 -5.118415e+001 1.203603e+002 -5.164355e+001 1.204375e+002 -1.394080e-001 1.378302e+002
504907512.26878 -1.465280e-001 -1.774781e+002 -5.136236e+001 1.191769e+002 -5.167378e+001 1.205453e+002 -1.363343e-001 1.377936e+002
505285013.21253 -1.439738e-001 -1.777229e+002 -5.088477e+001 1.191943e+002 -5.169950e+001 1.202881e+002 -1.348440e-001 1.377262e+002
505662514.15629 -1.415334e-001 -1.778986e+002 -5.116988e+001 1.195727e+002 -5.148508e+001 1.195369e+002 -1.357552e-001 1.376642e+002
506040015.10004 -1.474079e-001 -1.781123e+002 -5.131071e+001 1.196698e+002 -5.135979e+001 1.197030e+002 -1.355287e-001 1.376190e+002
506417516.04379 -1.472626e-001 -1.782922e+002 -5.134628e+001 1.188753e+002 -5.137578e+001 1.189168e+002 -1.292084e-001 1.375901e+002
506795016.98754 -1.486362e-001 -1.785701e+002 -5.113458e+001 1.172380e+002 -5.145629e+001 1.192728e+002 -1.287587e-001 1.375467e+002
507172517.93129 -1.471419e-001 -1.787433e+002 -5.134976e+001 1.186296e+002 -5.119625e+001 1.185259e+002 -1.285336e-001 1.375071e+002
507550018.87505 -1.478280e-001 -1.790207e+002 -5.100856e+001 1.159744e+002 -5.105672e+001 1.189142e+002 -1.227524e-001 1.374792e+002
507927519.8188 -1.499804e-001 -1.791779e+002 -5.111675e+001 1.171766e+002 -5.115415e+001 1.191876e+002 -1.230662e-001 1.374569e+002
508305020.76255 -1.507327e-001 -1.793451e+002 -5.110162e+001 1.186585e+002 -5.119448e+001 1.181472e+002 -1.250526e-001 1.374372e+002
508682521.7063 -1.483141e-001 -1.796331e+002 -5.113818e+001 1.162747e+002 -5.085245e+001 1.175832e+002 -1.204773e-001 1.373732e+002
509060022.65006 -1.511910e-001 -1.798305e+002 -5.082711e+001 1.149052e+002 -5.081054e+001 1.176673e+002 -1.169787e-001 1.373894e+002
509437523.59381 -1.516779e-001 -1.799997e+002 -5.082637e+001 1.158646e+002 -5.088549e+001 1.180270e+002 -1.150740e-001 1.373804e+002
509815024.53756 -1.510043e-001 1.797773e+002 -5.083185e+001 1.147419e+002 -5.075067e+001 1.186583e+002 -1.125138e-001 1.373942e+002
510192525.48131 -1.504034e-001 1.795737e+002 -5.078345e+001 1.145210e+002 -5.073909e+001 1.162049e+002 -1.124530e-001 1.373658e+002
510570026.42507 -1.516041e-001 1.793743e+002 -5.067432e+001 1.152903e+002 -5.060926e+001 1.158184e+002 -1.127665e-001 1.374096e+002
510947527.36882 -1.543929e-001 1.791666e+002 -5.080263e+001 1.166133e+002 -5.052307e+001 1.149526e+002 -1.069805e-001 1.373986e+002
511325028.31257 -1.490371e-001 1.789521e+002 -5.074464e+001 1.165159e+002 -5.043053e+001 1.162013e+002 -1.051345e-001 1.374100e+002
511702529.25632 -1.563055e-001 1.787308e+002 -5.080028e+001 1.144670e+002 -5.033445e+001 1.156727e+002 -1.071927e-001 1.374304e+002
512080030.20008 -1.511630e-001 1.785690e+002 -5.085735e+001 1.161943e+002 -5.035418e+001 1.144058e+002 -1.049895e-001 1.374473e+002
512457531.14383 -1.513918e-001 1.782807e+002 -5.035323e+001 1.136364e+002 -5.024358e+001 1.140450e+002 -1.053514e-001 1.374642e+002
512835032.08758 -1.585928e-001 1.781081e+002 -5.046078e+001 1.139609e+002 -5.021494e+001 1.130315e+002 -1.038328e-001 1.374818e+002
513212533.03133 -1.598417e-001 1.778855e+002 -5.041437e+001 1.143867e+002 -5.015628e+001 1.123722e+002 -1.062146e-001 1.375027e+002
513590033.97508 -1.576475e-001 1.776888e+002 -5.028726e+001 1.130014e+002 -5.002393e+001 1.134757e+002 -1.075759e-001 1.375267e+002
513967534.91884 -1.623609e-001 1.774696e+002 -5.025094e+001 1.139735e+002 -5.015355e+001 1.129273e+002 -1.070056e-001 1.375446e+002
514345035.86259 -1.584195e-001 1.772054e+002 -5.020099e+001 1.139972e+002 -5.004041e+001 1.116592e+002 -1.091577e-001 1.375560e+002
514722536.80634 -1.663871e-001 1.770383e+002 -5.027951e+001 1.146113e+002 -4.989338e+001 1.137513e+002 -1.096401e-001 1.375807e+002
515100037.75009 -1.638550e-001 1.768111e+002 -5.010534e+001 1.141983e+002 -5.009251e+001 1.115138e+002 -1.085344e-001 1.375788e+002
515477538.69385 -1.683246e-001 1.765926e+002 -5.001245e+001 1.130303e+002 -4.997838e+001 1.115172e+002 -1.120320e-001 1.376234e+002
515855039.6376 -1.703001e-001 1.763767e+002 -4.990570e+001 1.131235e+002 -5.013741e+001 1.120547e+002 -1.148736e-001 1.376129e+002
516232540.58135 -1.708164e-001 1.761574e+002 -4.962763e+001 1.135070e+002 -4.993032e+001 1.118144e+002 -1.120963e-001 1.376142e+002
516610041.5251 -1.723155e-001 1.759418e+002 -4.959585e+001 1.116158e+002 -4.984153e+001 1.104509e+002 -1.181789e-001 1.375968e+002
516987542.46886 -1.744319e-001 1.757179e+002 -4.958463e+001 1.131559e+002 -4.978247e+001 1.107780e+002 -1.211066e-001 1.375839e+002
517365043.41261 -1.759065e-001 1.755068e+002 -4.958441e+001 1.115337e+002 -4.970662e+001 1.101918e+002 -1.244722e-001 1.375621e+002
517742544.35636 -1.777925e-001 1.753352e+002 -4.945955e+001 1.122296e+002 -4.967343e+001 1.109975e+002 -1.267892e-001 1.375415e+002
518120045.30011 -1.788325e-001 1.750415e+002 -4.951131e+001 1.107613e+002 -4.961085e+001 1.099229e+002 -1.246150e-001 1.375152e+002
518497546.24387 -1.830626e-001 1.748824e+002 -4.931811e+001 1.102226e+002 -4.981355e+001 1.097877e+002 -1.259469e-001 1.374577e+002
518875047.18762 -1.823916e-001 1.745770e+002 -4.907383e+001 1.085355e+002 -4.957893e+001 1.102733e+002 -1.282328e-001 1.374386e+002
519252548.13137 -1.854230e-001 1.744266e+002 -4.900396e+001 1.106875e+002 -4.949543e+001 1.094927e+002 -1.259062e-001 1.374374e+002
519630049.07512 -1.833074e-001 1.741446e+002 -4.903630e+001 1.083114e+002 -4.953304e+001 1.088157e+002 -1.321034e-001 1.373743e+002
520007550.01888 -1.834649e-001 1.738763e+002 -4.903799e+001 1.093081e+002 -4.944865e+001 1.098106e+002 -1.341410e-001 1.373091e+002
520385050.96263 -1.876275e-001 1.736782e+002 -4.878608e+001 1.091355e+002 -4.933152e+001 1.095988e+002 -1.350691e-001 1.372680e+002
520762551.90638 -1.912943e-001 1.734435e+002 -4.893077e+001 1.071093e+002 -4.919789e+001 1.088563e+002 -1.353859e-001 1.372072e+002
521140052.85013 -1.922536e-001 1.732372e+002 -4.874577e+001 1.075849e+002 -4.934884e+001 1.086718e+002 -1.356919e-001 1.371379e+002
521517553.79388 -1.938294e-001 1.729966e+002 -4.869170e+001 1.074847e+002 -4.916903e+001 1.086229e+002 -1.341702e-001 1.370966e+002
521895054.73764 -1.942533e-001 1.727325e+002 -4.871698e+001 1.071003e+002 -4.898620e+001 1.091365e+002 -1.342036e-001 1.370489e+002
522272555.68139 -1.930686e-001 1.724782e+002 -4.871539e+001 1.060922e+002 -4.887313e+001 1.082867e+002 -1.355127e-001 1.370101e+002
522650056.62514 -1.991052e-001 1.722464e+002 -4.867669e+001 1.048038e+002 -4.890609e+001 1.075553e+002 -1.285757e-001 1.369674e+002
523027557.56889 -1.988114e-001 1.720566e+002 -4.869486e+001 1.053595e+002 -4.902034e+001 1.070936e+002 -1.341159e-001 1.368960e+002
523405058.51265 -2.029837e-001 1.717771e+002 -4.865751e+001 1.037862e+002 -4.876856e+001 1.070121e+002 -1.308340e-001 1.368713e+002
523782559.4564 -2.008896e-001 1.715226e+002 -4.846260e+001 1.046173e+002 -4.871180e+001 1.062997e+002 -1.296658e-001 1.368332e+002
524160060.40015 -2.006510e-001 1.713018e+002 -4.845148e+001 1.037655e+002 -4.865276e+001 1.059540e+002 -1.274883e-001 1.367955e+002
524537561.3439 -2.034031e-001 1.710598e+002 -4.841975e+001 1.040144e+002 -4.856728e+001 1.068974e+002 -1.241647e-001 1.368271e+002
524915062.28766 -2.050570e-001 1.708188e+002 -4.836040e+001 1.027184e+002 -4.841843e+001 1.053090e+002 -1.230008e-001 1.367375e+002
525292563.23141 -2.075246e-001 1.705382e+002 -4.830707e+001 1.026641e+002 -4.847271e+001 1.058401e+002 -1.180218e-001 1.367372e+002
525670064.17516 -2.096971e-001 1.703231e+002 -4.839468e+001 1.011778e+002 -4.817144e+001 1.041840e+002 -1.174688e-001 1.367231e+002
526047565.11891 -2.102997e-001 1.701078e+002 -4.830038e+001 1.020204e+002 -4.818095e+001 1.046446e+002 -1.170209e-001 1.367206e+002
526425066.06267 -2.117001e-001 1.698763e+002 -4.837084e+001 1.014492e+002 -4.817863e+001 1.052109e+002 -1.158817e-001 1.367341e+002
526802567.00642 -2.115208e-001 1.696363e+002 -4.811737e+001 1.020442e+002 -4.813588e+001 1.046796e+002 -1.103342e-001 1.367484e+002
527180067.95017 -2.165724e-001 1.693484e+002 -4.834128e+001 1.012411e+002 -4.811654e+001 1.036524e+002 -1.078999e-001 1.367718e+002
527557568.89392 -2.184709e-001 1.691579e+002 -4.826538e+001 1.011257e+002 -4.823684e+001 1.029879e+002 -1.034054e-001 1.367632e+002
527935069.83767 -2.169739e-001 1.688575e+002 -4.811612e+001 1.011278e+002 -4.785570e+001 1.037242e+002 -1.062855e-001 1.367825e+002
528312570.78143 -2.241467e-001 1.686103e+002 -4.800976e+001 1.012997e+002 -4.793297e+001 1.033015e+002 -9.994477e-002 1.368715e+002
528690071.72518 -2.236562e-001 1.683648e+002 -4.801209e+001 1.006656e+002 -4.786609e+001 1.022299e+002 -9.998140e-002 1.368571e+002
529067572.66893 -2.283430e-001 1.681473e+002 -4.806030e+001 1.004842e+002 -4.777439e+001 1.034260e+002 -9.887626e-002 1.368794e+002
529445073.61268 -2.298375e-001 1.678767e+002 -4.789275e+001 1.002758e+002 -4.774649e+001 1.030000e+002 -1.012257e-001 1.369084e+002
529822574.55644 -2.341792e-001 1.676329e+002 -4.774757e+001 1.008863e+002 -4.769684e+001 1.009654e+002 -1.009983e-001 1.369353e+002
530200075.50019 -2.308801e-001 1.674039e+002 -4.787627e+001 9.957861e+001 -4.758597e+001 1.013404e+002 -9.848863e-002 1.369565e+002
530577576.44394 -2.361472e-001 1.671600e+002 -4.777908e+001 1.000376e+002 -4.751868e+001 1.014468e+002 -9.795392e-002 1.369558e+002
530955077.38769 -2.382736e-001 1.669457e+002 -4.770745e+001 9.991867e+001 -4.761800e+001 1.015786e+002 -9.826766e-002 1.369609e+002
531332578.33145 -2.392537e-001 1.666726e+002 -4.768938e+001 9.928647e+001 -4.739391e+001 9.940322e+001 -1.012854e-001 1.369930e+002
531710079.2752 -2.426838e-001 1.663918e+002 -4.752982e+001 9.920078e+001 -4.720455e+001 9.987328e+001 -1.022066e-001 1.369851e+002
532087580.21895 -2.404100e-001 1.661316e+002 -4.731493e+001 9.935799e+001 -4.725169e+001 1.003826e+002 -9.830069e-002 1.369838e+002
532465081.1627 -2.456923e-001 1.659496e+002 -4.715342e+001 9.873676e+001 -4.709698e+001 9.938174e+001 -1.035485e-001 1.369835e+002
532842582.10646 -2.444283e-001 1.656906e+002 -4.730828e+001 9.906297e+001 -4.713472e+001 9.935252e+001 -1.022023e-001 1.369326e+002
533220083.05021 -2.488407e-001 1.654435e+002 -4.721617e+001 9.957896e+001 -4.710840e+001 9.936571e+001 -1.046779e-001 1.369238e+002
533597583.99396 -2.510864e-001 1.652094e+002 -4.716035e+001 9.937143e+001 -4.689573e+001 9.857657e+001 -1.075997e-001 1.368407e+002
533975084.93771 -2.516269e-001 1.649958e+002 -4.701346e+001 9.943259e+001 -4.691421e+001 9.862486e+001 -1.071585e-001 1.368191e+002
534352585.88146 -2.549109e-001 1.647049e+002 -4.687820e+001 9.727015e+001 -4.684583e+001 9.809704e+001 -1.067792e-001 1.367551e+002
534730086.82522 -2.554750e-001 1.644228e+002 -4.666862e+001 9.804492e+001 -4.667361e+001 9.760016e+001 -1.122548e-001 1.366770e+002
535107587.76897 -2.548994e-001 1.642140e+002 -4.668755e+001 9.697506e+001 -4.657980e+001 9.800535e+001 -1.087423e-001 1.366422e+002
535485088.71272 -2.594020e-001 1.639586e+002 -4.665399e+001 9.701785e+001 -4.657541e+001 9.650486e+001 -1.184030e-001 1.365046e+002
535862589.65647 -2.619536e-001 1.637362e+002 -4.655466e+001 9.742194e+001 -4.639111e+001 9.766155e+001 -1.195241e-001 1.364321e+002
536240090.60023 -2.611629e-001 1.634566e+002 -4.646128e+001 9.622182e+001 -4.635391e+001 9.670850e+001 -1.202191e-001 1.363172e+002
536617591.54398 -2.639507e-001 1.632324e+002 -4.635248e+001 9.628555e+001 -4.638295e+001 9.657568e+001 -1.256657e-001 1.362333e+002
536995092.48773 -2.642027e-001 1.629310e+002 -4.622412e+001 9.557150e+001 -4.625495e+001 9.507541e+001 -1.267417e-001 1.361686e+002
537372593.43148 -2.711871e-001 1.626621e+002 -4.619970e+001 9.573570e+001 -4.610047e+001 9.551652e+001 -1.256367e-001 1.360114e+002
537750094.37524 -2.720131e-001 1.624909e+002 -4.619212e+001 9.540976e+001 -4.605667e+001 9.474155e+001 -1.304569e-001 1.358833e+002
538127595.31899 -2.748932e-001 1.621272e+002 -4.590699e+001 9.516017e+001 -4.607590e+001 9.356356e+001 -1.283804e-001 1.357699e+002
538505096.26274 -2.777072e-001 1.618833e+002 -4.592686e+001 9.448477e+001 -4.593922e+001 9.406412e+001 -1.289753e-001 1.356958e+002
538882597.20649 -2.812819e-001 1.616506e+002 -4.592490e+001 9.432072e+001 -4.591707e+001 9.374161e+001 -1.255541e-001 1.355372e+002
539260098.15025 -2.830016e-001 1.613609e+002 -4.571325e+001 9.478261e+001 -4.574044e+001 9.329071e+001 -1.281933e-001 1.354174e+002
539637599.094 -2.870579e-001 1.611524e+002 -4.578070e+001 9.377022e+001 -4.587993e+001 9.264529e+001 -1.258245e-001 1.353274e+002
540015100.03775 -2.918110e-001 1.608677e+002 -4.557159e+001 9.388529e+001 -4.568660e+001 9.272176e+001 -1.270965e-001 1.351620e+002
540392600.9815 -2.955959e-001 1.605594e+002 -4.557465e+001 9.363311e+001 -4.560532e+001 9.201228e+001 -1.243449e-001 1.351072e+002
540770101.92525 -2.929793e-001 1.603361e+002 -4.554977e+001 9.307417e+001 -4.562416e+001 9.087049e+001 -1.223200e-001 1.350048e+002
541147602.86901 -3.015950e-001 1.599947e+002 -4.542935e+001 9.227251e+001 -4.546129e+001 9.132882e+001 -1.188650e-001 1.349354e+002
541525103.81276 -3.060849e-001 1.598185e+002 -4.523815e+001 9.261801e+001 -4.539653e+001 9.217938e+001 -1.145725e-001 1.348611e+002
541902604.75651 -3.058435e-001 1.595079e+002 -4.525946e+001 9.158513e+001 -4.537455e+001 9.119260e+001 -1.084798e-001 1.348316e+002
542280105.70026 -3.105865e-001 1.591770e+002 -4.502796e+001 9.139426e+001 -4.529438e+001 9.073035e+001 -1.085839e-001 1.347113e+002
542657606.64402 -3.142199e-001 1.589916e+002 -4.490730e+001 9.116171e+001 -4.511172e+001 9.067215e+001 -1.037244e-001 1.346921e+002
543035107.58777 -3.177604e-001 1.586871e+002 -4.501856e+001 9.113374e+001 -4.513247e+001 9.021922e+001 -1.036951e-001 1.346443e+002
543412608.53152 -3.255088e-001 1.584547e+002 -4.477625e+001 9.119190e+001 -4.503890e+001 9.008847e+001 -9.742614e-002 1.346063e+002
543790109.47527 -3.303490e-001 1.581377e+002 -4.472238e+001 9.060825e+001 -4.494615e+001 8.951785e+001 -9.252763e-002 1.345875e+002
544167610.41903 -3.291643e-001 1.578568e+002 -4.463315e+001 9.054777e+001 -4.481371e+001 8.911277e+001 -8.969128e-002 1.345961e+002
544545111.36278 -3.386352e-001 1.575297e+002 -4.453496e+001 9.013868e+001 -4.476973e+001 8.908109e+001 -8.839032e-002 1.345657e+002
544922612.30653 -3.390656e-001 1.573499e+002 -4.435330e+001 8.996522e+001 -4.475354e+001 8.855292e+001 -8.613602e-002 1.345313e+002
545300113.25028 -3.425778e-001 1.570656e+002 -4.417899e+001 8.906558e+001 -4.458539e+001 8.807338e+001 -8.327460e-002 1.345145e+002
545677614.19404 -3.465293e-001 1.567242e+002 -4.419249e+001 8.794772e+001 -4.453379e+001 8.772855e+001 -8.069873e-002 1.345671e+002
546055115.13779 -3.498939e-001 1.565094e+002 -4.406810e+001 8.769631e+001 -4.448439e+001 8.711577e+001 -7.825764e-002 1.345739e+002
546432616.08154 -3.542259e-001 1.561973e+002 -4.408118e+001 8.692101e+001 -4.438287e+001 8.773725e+001 -7.424430e-002 1.346021e+002
546810117.02529 -3.565511e-001 1.559596e+002 -4.392709e+001 8.670878e+001 -4.421811e+001 8.667949e+001 -7.295505e-002 1.346186e+002
547187617.96904 -3.633574e-001 1.556169e+002 -4.388611e+001 8.650644e+001 -4.408680e+001 8.635517e+001 -7.606989e-002 1.346311e+002
547565118.9128 -3.631035e-001 1.553035e+002 -4.378234e+001 8.549191e+001 -4.406508e+001 8.638303e+001 -7.232214e-002 1.346805e+002
547942619.85655 -3.679397e-001 1.550515e+002 -4.365069e+001 8.507609e+001 -4.398272e+001 8.633503e+001 -7.274207e-002 1.347081e+002
548320120.8003 -3.701021e-001 1.547695e+002 -4.358625e+001 8.459614e+001 -4.379859e+001 8.551897e+001 -7.690946e-002 1.347476e+002
548697621.74405 -3.757378e-001 1.544815e+002 -4.347262e+001 8.378342e+001 -4.386566e+001 8.563251e+001 -7.869124e-002 1.347825e+002
549075122.68781 -3.802437e-001 1.541864e+002 -4.343856e+001 8.335900e+001 -4.368710e+001 8.452881e+001 -7.880744e-002 1.347585e+002
549452623.63156 -3.825970e-001 1.539360e+002 -4.337714e+001 8.314560e+001 -4.370122e+001 8.459781e+001 -8.055121e-002 1.348449e+002
549830124.57531 -3.858404e-001 1.535936e+002 -4.316499e+001 8.251675e+001 -4.358221e+001 8.398056e+001 -8.018966e-002 1.348699e+002
550207625.51906 -3.886832e-001 1.533388e+002 -4.313884e+001 8.211842e+001 -4.339621e+001 8.414587e+001 -8.493306e-002 1.349069e+002
550585126.46282 -3.965250e-001 1.530491e+002 -4.316205e+001 8.145975e+001 -4.337176e+001 8.328015e+001 -8.621445e-002 1.349146e+002
550962627.40657 -4.012214e-001 1.527624e+002 -4.300732e+001 8.141204e+001 -4.323104e+001 8.238902e+001 -9.646182e-002 1.349253e+002
551340128.35032 -4.058807e-001 1.524566e+002 -4.294210e+001 8.039184e+001 -4.310407e+001 8.235419e+001 -9.743252e-002 1.349599e+002
551717629.29407 -4.104772e-001 1.521465e+002 -4.300061e+001 8.001306e+001 -4.309723e+001 8.166225e+001 -1.018908e-001 1.349812e+002
552095130.23783 -4.133050e-001 1.518862e+002 -4.276236e+001 7.910359e+001 -4.298539e+001 8.100735e+001 -1.052018e-001 1.349959e+002
552472631.18158 -4.189734e-001 1.515950e+002 -4.269653e+001 7.916529e+001 -4.287761e+001 8.111703e+001 -1.079368e-001 1.350088e+002
552850132.12533 -4.275752e-001 1.512723e+002 -4.272818e+001 7.875571e+001 -4.292430e+001 8.129960e+001 -1.109182e-001 1.349961e+002
553227633.06908 -4.342959e-001 1.509783e+002 -4.255985e+001 7.767439e+001 -4.277208e+001 8.033945e+001 -1.181705e-001 1.350045e+002
553605134.01284 -4.363218e-001 1.506351e+002 -4.251416e+001 7.787889e+001 -4.274023e+001 7.978439e+001 -1.220520e-001 1.349949e+002
553982634.95659 -4.458617e-001 1.503511e+002 -4.248890e+001 7.750457e+001 -4.260449e+001 7.883778e+001 -1.268695e-001 1.349572e+002
554360135.90034 -4.516457e-001 1.500445e+002 -4.242347e+001 7.688114e+001 -4.255135e+001 7.822815e+001 -1.277843e-001 1.349585e+002
554737636.84409 -4.593397e-001 1.497119e+002 -4.225878e+001 7.650128e+001 -4.242499e+001 7.829477e+001 -1.328216e-001 1.349350e+002
555115137.78784 -4.633702e-001 1.494105e+002 -4.227563e+001 7.669311e+001 -4.238418e+001 7.801888e+001 -1.352989e-001 1.349137e+002
555492638.7316 -4.731228e-001 1.490751e+002 -4.212630e+001 7.601119e+001 -4.232044e+001 7.791428e+001 -1.351719e-001 1.348628e+002
555870139.67535 -4.801350e-001 1.487890e+002 -4.208104e+001 7.557365e+001 -4.214565e+001 7.743960e+001 -1.413333e-001 1.348388e+002
