!Agilent Technologies,E8364B,US42250235,A.06.04.32
!Agilent E8364B: A.06.04.32
!Date: Thursday, October 01, 2020 11:02:34
!Correction: S11(Full 2 Port(1,2)) S21(Full 2 Port(1,2)) S12(Full 2 Port(1,2)) S22(Full 2 Port(1,2)) 
!S2P File: Measurements: S11, S21, S12, S22:
# Hz S  dB   R 50
500000000 -2.558697e-001 -1.756115e+002 -5.287535e+001 4.268683e+001 -5.224816e+001 4.098184e+001 -1.752430e-001 1.375567e+002
500377500.94375 -2.598701e-001 -1.757528e+002 -5.289209e+001 4.397201e+001 -5.224689e+001 4.110165e+001 -1.777774e-001 1.375309e+002
500755001.8875 -2.663796e-001 -1.760262e+002 -5.278429e+001 4.215493e+001 -5.205704e+001 4.005378e+001 -1.808002e-001 1.374794e+002
501132502.83126 -2.704481e-001 -1.761909e+002 -5.267561e+001 3.993371e+001 -5.200791e+001 4.028941e+001 -1.799649e-001 1.374350e+002
501510003.77501 -2.777518e-001 -1.764019e+002 -5.263074e+001 3.916206e+001 -5.211046e+001 3.724699e+001 -1.803371e-001 1.374270e+002
501887504.71876 -2.862548e-001 -1.765932e+002 -5.254078e+001 3.954798e+001 -5.205541e+001 3.650518e+001 -1.851153e-001 1.373475e+002
502265005.66251 -2.894419e-001 -1.767873e+002 -5.195675e+001 3.799423e+001 -5.167377e+001 3.650418e+001 -1.846501e-001 1.372872e+002
502642506.60627 -2.971977e-001 -1.770254e+002 -5.202794e+001 3.682401e+001 -5.178531e+001 3.633583e+001 -1.886559e-001 1.372120e+002
503020007.55002 -3.009280e-001 -1.772227e+002 -5.200121e+001 3.615393e+001 -5.190405e+001 3.562745e+001 -1.868187e-001 1.372044e+002
503397508.49377 -3.083785e-001 -1.774288e+002 -5.208469e+001 3.556521e+001 -5.172449e+001 3.228396e+001 -1.844755e-001 1.371330e+002
503775009.43752 -3.149648e-001 -1.776038e+002 -5.183727e+001 3.378758e+001 -5.196981e+001 3.384138e+001 -1.876318e-001 1.371040e+002
504152510.38128 -3.196919e-001 -1.778568e+002 -5.188072e+001 3.382801e+001 -5.161633e+001 3.129957e+001 -1.862929e-001 1.370510e+002
504530011.32503 -3.270289e-001 -1.780139e+002 -5.148152e+001 3.251558e+001 -5.170322e+001 3.177763e+001 -1.879541e-001 1.370000e+002
504907512.26878 -3.327048e-001 -1.782512e+002 -5.137585e+001 3.239519e+001 -5.134427e+001 3.055900e+001 -1.854232e-001 1.369753e+002
505285013.21253 -3.339351e-001 -1.784705e+002 -5.145105e+001 3.078910e+001 -5.142624e+001 3.102580e+001 -1.874157e-001 1.369294e+002
505662514.15629 -3.404669e-001 -1.786122e+002 -5.131204e+001 2.962445e+001 -5.133097e+001 2.977807e+001 -1.794609e-001 1.368533e+002
506040015.10004 -3.449991e-001 -1.788629e+002 -5.124559e+001 2.927838e+001 -5.115342e+001 2.847869e+001 -1.830136e-001 1.368249e+002
506417516.04379 -3.499179e-001 -1.790052e+002 -5.142598e+001 2.806913e+001 -5.096436e+001 2.672517e+001 -1.729808e-001 1.368118e+002
506795016.98754 -3.517069e-001 -1.792769e+002 -5.110505e+001 2.731719e+001 -5.114175e+001 2.663212e+001 -1.745827e-001 1.367712e+002
507172517.93129 -3.566595e-001 -1.794210e+002 -5.124604e+001 2.555872e+001 -5.077399e+001 2.597754e+001 -1.703095e-001 1.367551e+002
507550018.87505 -3.601611e-001 -1.796577e+002 -5.100607e+001 2.462844e+001 -5.072888e+001 2.380896e+001 -1.667804e-001 1.367155e+002
507927519.8188 -3.640951e-001 -1.798065e+002 -5.099933e+001 2.389570e+001 -5.079237e+001 2.386876e+001 -1.668195e-001 1.367260e+002
508305020.76255 -3.708509e-001 -1.799548e+002 -5.100808e+001 2.248155e+001 -5.051502e+001 2.398887e+001 -1.627045e-001 1.366961e+002
508682521.7063 -3.682072e-001 1.798194e+002 -5.097543e+001 2.198678e+001 -5.048730e+001 2.158883e+001 -1.595785e-001 1.366986e+002
509060022.65006 -3.734539e-001 1.796149e+002 -5.080785e+001 2.028937e+001 -5.050463e+001 2.133328e+001 -1.557649e-001 1.366824e+002
509437523.59381 -3.784591e-001 1.794787e+002 -5.089123e+001 1.980072e+001 -5.034579e+001 2.045905e+001 -1.521524e-001 1.366813e+002
509815024.53756 -3.800388e-001 1.792590e+002 -5.099260e+001 2.020478e+001 -5.028370e+001 1.880100e+001 -1.474694e-001 1.366839e+002
510192525.48131 -3.780314e-001 1.790731e+002 -5.099677e+001 1.896516e+001 -5.034191e+001 1.734275e+001 -1.492315e-001 1.366937e+002
510570026.42507 -3.814276e-001 1.789036e+002 -5.099058e+001 1.956194e+001 -5.021174e+001 1.750440e+001 -1.525317e-001 1.367444e+002
510947527.36882 -3.897870e-001 1.786829e+002 -5.092168e+001 1.812418e+001 -5.038075e+001 1.592796e+001 -1.422937e-001 1.367431e+002
511325028.31257 -3.845001e-001 1.785039e+002 -5.098965e+001 1.636986e+001 -5.033244e+001 1.694021e+001 -1.409041e-001 1.367764e+002
511702529.25632 -3.940835e-001 1.783455e+002 -5.083866e+001 1.638381e+001 -5.027473e+001 1.455514e+001 -1.436752e-001 1.367975e+002
512080030.20008 -3.933914e-001 1.781830e+002 -5.096324e+001 1.675376e+001 -5.006583e+001 1.470926e+001 -1.414635e-001 1.368284e+002
512457531.14383 -3.954619e-001 1.779151e+002 -5.067351e+001 1.399945e+001 -5.003404e+001 1.357867e+001 -1.398163e-001 1.368455e+002
512835032.08758 -4.018782e-001 1.777871e+002 -5.062096e+001 1.523028e+001 -4.989320e+001 1.261626e+001 -1.364832e-001 1.368736e+002
513212533.03133 -4.071123e-001 1.776140e+002 -5.069003e+001 1.470771e+001 -4.992787e+001 1.292383e+001 -1.389586e-001 1.368963e+002
513590033.97508 -4.073848e-001 1.774029e+002 -5.051619e+001 1.304273e+001 -4.974347e+001 1.144986e+001 -1.398412e-001 1.369355e+002
513967534.91884 -4.135050e-001 1.772196e+002 -5.033306e+001 1.361260e+001 -4.992869e+001 1.099714e+001 -1.409463e-001 1.369666e+002
514345035.86259 -4.152247e-001 1.770096e+002 -5.028139e+001 1.249821e+001 -4.969953e+001 1.038123e+001 -1.453222e-001 1.369871e+002
514722536.80634 -4.252563e-001 1.768274e+002 -5.021098e+001 1.194719e+001 -4.971922e+001 9.429215e+000 -1.432973e-001 1.370159e+002
515100037.75009 -4.256469e-001 1.766127e+002 -5.014047e+001 1.218117e+001 -4.969604e+001 7.208313e+000 -1.447276e-001 1.370355e+002
515477538.69385 -4.326872e-001 1.764278e+002 -4.990522e+001 1.128199e+001 -4.962564e+001 8.010664e+000 -1.456708e-001 1.370666e+002
515855039.6376 -4.379698e-001 1.762330e+002 -5.002685e+001 9.495215e+000 -4.959432e+001 7.843433e+000 -1.491611e-001 1.370833e+002
516232540.58135 -4.401752e-001 1.760502e+002 -4.982653e+001 9.276224e+000 -4.939484e+001 4.716360e+000 -1.474508e-001 1.370796e+002
516610041.5251 -4.458318e-001 1.758407e+002 -4.984286e+001 7.599568e+000 -4.948071e+001 4.668857e+000 -1.526854e-001 1.370845e+002
516987542.46886 -4.540586e-001 1.756521e+002 -4.958264e+001 7.543870e+000 -4.935342e+001 3.928011e+000 -1.563761e-001 1.370741e+002
517365043.41261 -4.606525e-001 1.754323e+002 -4.944418e+001 5.799315e+000 -4.923255e+001 2.769337e+000 -1.576299e-001 1.370497e+002
517742544.35636 -4.604078e-001 1.752977e+002 -4.936239e+001 5.296973e+000 -4.929372e+001 1.737606e+000 -1.589025e-001 1.370327e+002
518120045.30011 -4.686649e-001 1.750257e+002 -4.944326e+001 3.288218e+000 -4.937622e+001 1.360124e+000 -1.636747e-001 1.370097e+002
518497546.24387 -4.767496e-001 1.748538e+002 -4.933618e+001 3.299244e+000 -4.925103e+001 -6.677381e-001 -1.632776e-001 1.369957e+002
518875047.18762 -4.789279e-001 1.746703e+002 -4.925316e+001 2.674106e+000 -4.908031e+001 -9.752422e-001 -1.659604e-001 1.369753e+002
519252548.13137 -4.821344e-001 1.744397e+002 -4.929568e+001 7.544190e-001 -4.911519e+001 -1.022024e+000 -1.655253e-001 1.369585e+002
519630049.07512 -4.826700e-001 1.742304e+002 -4.909689e+001 1.074989e+000 -4.922330e+001 -1.996821e+000 -1.685922e-001 1.368818e+002
520007550.01888 -4.892721e-001 1.740218e+002 -4.915321e+001 -1.980796e+000 -4.902291e+001 -3.510175e+000 -1.724137e-001 1.368586e+002
520385050.96263 -4.947420e-001 1.738305e+002 -4.915861e+001 -2.407891e+000 -4.899829e+001 -3.584416e+000 -1.706599e-001 1.368060e+002
520762551.90638 -4.999507e-001 1.736160e+002 -4.909166e+001 -3.645639e+000 -4.906739e+001 -5.539441e+000 -1.721621e-001 1.367534e+002
521140052.85013 -4.990828e-001 1.734244e+002 -4.918528e+001 -4.373734e+000 -4.898581e+001 -5.902600e+000 -1.727052e-001 1.366949e+002
521517553.79388 -5.037383e-001 1.732507e+002 -4.894704e+001 -5.868796e+000 -4.899018e+001 -4.601190e+000 -1.705427e-001 1.366430e+002
521895054.73764 -5.058758e-001 1.730138e+002 -4.914705e+001 -7.323597e+000 -4.908693e+001 -6.492321e+000 -1.704624e-001 1.366074e+002
522272555.68139 -5.039578e-001 1.728084e+002 -4.937270e+001 -6.772471e+000 -4.891187e+001 -8.850432e+000 -1.713504e-001 1.365731e+002
522650056.62514 -5.110469e-001 1.726120e+002 -4.923543e+001 -8.778198e+000 -4.889397e+001 -9.280993e+000 -1.696416e-001 1.365455e+002
523027557.56889 -5.070478e-001 1.723879e+002 -4.916909e+001 -1.029518e+001 -4.895621e+001 -1.040823e+001 -1.687258e-001 1.364724e+002
523405058.51265 -5.125180e-001 1.721804e+002 -4.905698e+001 -9.918154e+000 -4.902668e+001 -1.067111e+001 -1.711055e-001 1.364361e+002
523782559.4564 -5.104477e-001 1.719411e+002 -4.892995e+001 -1.062237e+001 -4.887873e+001 -1.008357e+001 -1.684919e-001 1.364187e+002
524160060.40015 -5.084364e-001 1.717704e+002 -4.930896e+001 -1.046218e+001 -4.902848e+001 -1.177315e+001 -1.657957e-001 1.363867e+002
524537561.3439 -5.141132e-001 1.715146e+002 -4.919907e+001 -1.169262e+001 -4.887365e+001 -1.264686e+001 -1.595615e-001 1.364108e+002
524915062.28766 -5.172588e-001 1.713393e+002 -4.933506e+001 -1.333160e+001 -4.891206e+001 -1.278563e+001 -1.611896e-001 1.363374e+002
525292563.23141 -5.145890e-001 1.710662e+002 -4.907145e+001 -1.325101e+001 -4.885475e+001 -1.348420e+001 -1.570990e-001 1.363140e+002
525670064.17516 -5.214270e-001 1.708315e+002 -4.928659e+001 -1.365097e+001 -4.880018e+001 -1.480760e+001 -1.533654e-001 1.363240e+002
526047565.11891 -5.230584e-001 1.706380e+002 -4.930072e+001 -1.408421e+001 -4.867600e+001 -1.450650e+001 -1.559228e-001 1.363180e+002
526425066.06267 -5.268294e-001 1.704048e+002 -4.923703e+001 -1.523619e+001 -4.859134e+001 -1.481922e+001 -1.533889e-001 1.363436e+002
526802567.00642 -5.276316e-001 1.702321e+002 -4.898572e+001 -1.640862e+001 -4.870229e+001 -1.559341e+001 -1.497960e-001 1.363708e+002
527180067.95017 -5.344744e-001 1.699700e+002 -4.914758e+001 -1.710681e+001 -4.859675e+001 -1.684021e+001 -1.450735e-001 1.363641e+002
527557568.89392 -5.397168e-001 1.697907e+002 -4.919669e+001 -1.717243e+001 -4.859276e+001 -1.657381e+001 -1.446601e-001 1.363707e+002
527935069.83767 -5.420870e-001 1.695616e+002 -4.908644e+001 -1.637192e+001 -4.861190e+001 -1.870503e+001 -1.431605e-001 1.363318e+002
528312570.78143 -5.479937e-001 1.693460e+002 -4.904638e+001 -1.715778e+001 -4.840131e+001 -1.857577e+001 -1.388378e-001 1.364634e+002
528690071.72518 -5.507637e-001 1.691277e+002 -4.904652e+001 -1.958100e+001 -4.848608e+001 -1.834157e+001 -1.411871e-001 1.364477e+002
529067572.66893 -5.559807e-001 1.689415e+002 -4.897078e+001 -1.880291e+001 -4.842029e+001 -2.033628e+001 -1.378978e-001 1.364722e+002
529445073.61268 -5.576830e-001 1.686958e+002 -4.898784e+001 -2.055721e+001 -4.853915e+001 -2.067562e+001 -1.389181e-001 1.365006e+002
529822574.55644 -5.634198e-001 1.684803e+002 -4.896508e+001 -1.973528e+001 -4.828430e+001 -2.012569e+001 -1.416330e-001 1.365123e+002
530200075.50019 -5.665355e-001 1.682598e+002 -4.875052e+001 -2.093864e+001 -4.847309e+001 -2.154081e+001 -1.363387e-001 1.365456e+002
530577576.44394 -5.738296e-001 1.681238e+002 -4.870109e+001 -2.176024e+001 -4.837196e+001 -2.267526e+001 -1.406156e-001 1.365447e+002
530955077.38769 -5.780330e-001 1.679315e+002 -4.885427e+001 -2.038691e+001 -4.829924e+001 -2.273968e+001 -1.372348e-001 1.365470e+002
531332578.33145 -5.819765e-001 1.676940e+002 -4.867082e+001 -2.273064e+001 -4.833697e+001 -2.456989e+001 -1.433778e-001 1.365732e+002
531710079.2752 -5.862134e-001 1.674797e+002 -4.882652e+001 -2.176699e+001 -4.831357e+001 -2.367520e+001 -1.448385e-001 1.365517e+002
532087580.21895 -5.868729e-001 1.672298e+002 -4.851569e+001 -2.382452e+001 -4.812825e+001 -2.553789e+001 -1.453066e-001 1.365574e+002
532465081.1627 -5.929983e-001 1.670833e+002 -4.866515e+001 -2.457858e+001 -4.813593e+001 -2.609756e+001 -1.493948e-001 1.365430e+002
532842582.10646 -5.913340e-001 1.668729e+002 -4.854551e+001 -2.480160e+001 -4.811517e+001 -2.607540e+001 -1.500536e-001 1.365075e+002
533220083.05021 -5.981546e-001 1.666475e+002 -4.860486e+001 -2.370822e+001 -4.819394e+001 -2.776201e+001 -1.520533e-001 1.364706e+002
533597583.99396 -5.985194e-001 1.664637e+002 -4.860838e+001 -2.562327e+001 -4.805853e+001 -2.842543e+001 -1.563160e-001 1.363667e+002
533975084.93771 -6.060137e-001 1.662482e+002 -4.856380e+001 -2.607308e+001 -4.800896e+001 -2.914220e+001 -1.587925e-001 1.363550e+002
534352585.88146 -6.079957e-001 1.660644e+002 -4.827695e+001 -2.567735e+001 -4.793734e+001 -2.995045e+001 -1.592021e-001 1.362996e+002
534730086.82522 -6.126860e-001 1.658055e+002 -4.822684e+001 -2.603843e+001 -4.797175e+001 -3.047308e+001 -1.656151e-001 1.362140e+002
535107587.76897 -6.138520e-001 1.656532e+002 -4.829476e+001 -2.756738e+001 -4.786591e+001 -3.153906e+001 -1.620427e-001 1.361945e+002
535485088.71272 -6.207004e-001 1.654487e+002 -4.812854e+001 -2.752353e+001 -4.791551e+001 -3.205979e+001 -1.712271e-001 1.360375e+002
535862589.65647 -6.214174e-001 1.652138e+002 -4.807076e+001 -2.869762e+001 -4.779888e+001 -3.156706e+001 -1.725345e-001 1.359417e+002
536240090.60023 -6.226071e-001 1.650483e+002 -4.809843e+001 -2.966216e+001 -4.789761e+001 -3.442011e+001 -1.734630e-001 1.358367e+002
536617591.54398 -6.238086e-001 1.648376e+002 -4.810025e+001 -3.017277e+001 -4.758562e+001 -3.391732e+001 -1.775706e-001 1.357316e+002
536995092.48773 -6.259084e-001 1.646021e+002 -4.803231e+001 -3.065250e+001 -4.762210e+001 -3.473845e+001 -1.803355e-001 1.356743e+002
537372593.43148 -6.300554e-001 1.643772e+002 -4.796537e+001 -3.084567e+001 -4.758652e+001 -3.631215e+001 -1.823877e-001 1.355111e+002
537750094.37524 -6.315651e-001 1.641727e+002 -4.799939e+001 -3.223423e+001 -4.772018e+001 -3.632087e+001 -1.859428e-001 1.353801e+002
538127595.31899 -6.328104e-001 1.639299e+002 -4.803922e+001 -3.329280e+001 -4.774752e+001 -3.717025e+001 -1.866107e-001 1.352703e+002
538505096.26274 -6.350001e-001 1.636874e+002 -4.790854e+001 -3.367215e+001 -4.750248e+001 -3.749654e+001 -1.861797e-001 1.351907e+002
538882597.20649 -6.376192e-001 1.634935e+002 -4.780231e+001 -3.398938e+001 -4.762631e+001 -3.779298e+001 -1.846729e-001 1.350325e+002
539260098.15025 -6.398392e-001 1.633315e+002 -4.787395e+001 -3.525858e+001 -4.751096e+001 -3.836475e+001 -1.840648e-001 1.349128e+002
539637599.094 -6.419149e-001 1.630890e+002 -4.769609e+001 -3.510460e+001 -4.760243e+001 -3.987080e+001 -1.829737e-001 1.347788e+002
540015100.03775 -6.486184e-001 1.628726e+002 -4.766279e+001 -3.638285e+001 -4.758143e+001 -3.983743e+001 -1.867506e-001 1.346962e+002
540392600.9815 -6.467935e-001 1.626188e+002 -4.762900e+001 -3.677423e+001 -4.736925e+001 -4.123643e+001 -1.802790e-001 1.345953e+002
540770101.92525 -6.447722e-001 1.624449e+002 -4.757088e+001 -3.823444e+001 -4.747770e+001 -4.191455e+001 -1.793418e-001 1.344868e+002
541147602.86901 -6.485184e-001 1.621737e+002 -4.765723e+001 -3.923681e+001 -4.742756e+001 -4.231558e+001 -1.748644e-001 1.344135e+002
541525103.81276 -6.501878e-001 1.620362e+002 -4.749646e+001 -3.876961e+001 -4.754419e+001 -4.391759e+001 -1.704524e-001 1.343277e+002
541902604.75651 -6.490768e-001 1.618269e+002 -4.745314e+001 -3.968645e+001 -4.759173e+001 -4.454503e+001 -1.658489e-001 1.342931e+002
542280105.70026 -6.520500e-001 1.615298e+002 -4.734816e+001 -4.093625e+001 -4.752593e+001 -4.556455e+001 -1.633857e-001 1.341945e+002
542657606.64402 -6.506426e-001 1.613123e+002 -4.752119e+001 -4.108335e+001 -4.745158e+001 -4.573112e+001 -1.608373e-001 1.341532e+002
543035107.58777 -6.501358e-001 1.611070e+002 -4.752596e+001 -4.311256e+001 -4.751036e+001 -4.566662e+001 -1.580545e-001 1.341078e+002
543412608.53152 -6.538905e-001 1.608726e+002 -4.744876e+001 -4.323546e+001 -4.758460e+001 -4.695963e+001 -1.542283e-001 1.340775e+002
543790109.47527 -6.561334e-001 1.606198e+002 -4.742854e+001 -4.362809e+001 -4.755685e+001 -4.756575e+001 -1.486573e-001 1.340528e+002
544167610.41903 -6.514697e-001 1.604060e+002 -4.743873e+001 -4.422811e+001 -4.756260e+001 -4.737006e+001 -1.435843e-001 1.340215e+002
544545111.36278 -6.590303e-001 1.601146e+002 -4.747618e+001 -4.520621e+001 -4.750978e+001 -4.793035e+001 -1.446454e-001 1.340101e+002
544922612.30653 -6.553743e-001 1.599648e+002 -4.730083e+001 -4.530471e+001 -4.762251e+001 -4.703522e+001 -1.409668e-001 1.339745e+002
545300113.25028 -6.561679e-001 1.596681e+002 -4.744998e+001 -4.605263e+001 -4.762310e+001 -4.917409e+001 -1.404551e-001 1.340017e+002
545677614.19404 -6.620505e-001 1.594595e+002 -4.727565e+001 -4.678592e+001 -4.753243e+001 -4.908201e+001 -1.363901e-001 1.340140e+002
546055115.13779 -6.569511e-001 1.591918e+002 -4.720753e+001 -4.737310e+001 -4.750454e+001 -4.949838e+001 -1.349764e-001 1.340046e+002
546432616.08154 -6.643704e-001 1.589905e+002 -4.732431e+001 -4.777355e+001 -4.738377e+001 -5.022983e+001 -1.315445e-001 1.340245e+002
546810117.02529 -6.648810e-001 1.587248e+002 -4.716729e+001 -4.859112e+001 -4.755321e+001 -5.025291e+001 -1.301269e-001 1.340432e+002
547187617.96904 -6.717069e-001 1.584548e+002 -4.720641e+001 -4.863260e+001 -4.742521e+001 -5.141687e+001 -1.326462e-001 1.340500e+002
547565118.9128 -6.710612e-001 1.581862e+002 -4.719017e+001 -4.894111e+001 -4.747182e+001 -5.140230e+001 -1.307253e-001 1.340713e+002
547942619.85655 -6.727826e-001 1.579761e+002 -4.717883e+001 -4.974981e+001 -4.755109e+001 -5.245996e+001 -1.314543e-001 1.340979e+002
548320120.8003 -6.747682e-001 1.577432e+002 -4.723832e+001 -5.059490e+001 -4.747801e+001 -5.220266e+001 -1.336360e-001 1.341467e+002
548697621.74405 -6.781461e-001 1.574927e+002 -4.706008e+001 -5.112003e+001 -4.728389e+001 -5.239718e+001 -1.358363e-001 1.341853e+002
549075122.68781 -6.773796e-001 1.572478e+002 -4.713145e+001 -5.163583e+001 -4.729717e+001 -5.205845e+001 -1.390162e-001 1.341793e+002
549452623.63156 -6.829252e-001 1.569983e+002 -4.694032e+001 -5.242171e+001 -4.729655e+001 -5.358529e+001 -1.370165e-001 1.342023e+002
549830124.57531 -6.851592e-001 1.567559e+002 -4.703892e+001 -5.267304e+001 -4.720162e+001 -5.403802e+001 -1.395516e-001 1.342190e+002
550207625.51906 -6.873190e-001 1.565437e+002 -4.704747e+001 -5.375726e+001 -4.716420e+001 -5.535128e+001 -1.427823e-001 1.342415e+002
550585126.46282 -6.923229e-001 1.562510e+002 -4.716174e+001 -5.426866e+001 -4.710460e+001 -5.487336e+001 -1.472734e-001 1.342373e+002
550962627.40657 -6.983252e-001 1.560571e+002 -4.688161e+001 -5.536889e+001 -4.717110e+001 -5.551086e+001 -1.535225e-001 1.342319e+002
551340128.35032 -7.018442e-001 1.558068e+002 -4.701249e+001 -5.487177e+001 -4.698794e+001 -5.616029e+001 -1.556768e-001 1.342834e+002
551717629.29407 -7.023671e-001 1.555267e+002 -4.688055e+001 -5.590457e+001 -4.707164e+001 -5.603400e+001 -1.576838e-001 1.342984e+002
552095130.23783 -7.066996e-001 1.553567e+002 -4.688345e+001 -5.646360e+001 -4.701485e+001 -5.795793e+001 -1.616924e-001 1.342869e+002
552472631.18158 -7.097349e-001 1.550767e+002 -4.697797e+001 -5.683247e+001 -4.689481e+001 -5.787030e+001 -1.652023e-001 1.342917e+002
552850132.12533 -7.137305e-001 1.548417e+002 -4.703815e+001 -5.789001e+001 -4.692951e+001 -5.834389e+001 -1.662041e-001 1.342711e+002
553227633.06908 -7.152817e-001 1.546069e+002 -4.689312e+001 -5.830213e+001 -4.700978e+001 -5.906980e+001 -1.715135e-001 1.342687e+002
553605134.01284 -7.169644e-001 1.543342e+002 -4.691620e+001 -5.791841e+001 -4.682118e+001 -5.842979e+001 -1.772329e-001 1.342313e+002
553982634.95659 -7.232118e-001 1.541068e+002 -4.692935e+001 -5.815603e+001 -4.695404e+001 -5.953937e+001 -1.777016e-001 1.342011e+002
554360135.90034 -7.291442e-001 1.538668e+002 -4.692649e+001 -5.922454e+001 -4.693213e+001 -5.933699e+001 -1.807656e-001 1.341936e+002
554737636.84409 -7.308877e-001 1.536038e+002 -4.670226e+001 -5.941112e+001 -4.677365e+001 -5.976509e+001 -1.851672e-001 1.341656e+002
555115137.78784 -7.337022e-001 1.533491e+002 -4.679841e+001 -6.021566e+001 -4.669335e+001 -5.940750e+001 -1.850825e-001 1.341428e+002
