!Agilent Technologies,E8364B,US42250235,A.06.04.32
!Agilent E8364B: A.06.04.32
!Date: Thursday, October 01, 2020 11:07:33
!Correction: S11(Full 2 Port(1,2)) S21(Full 2 Port(1,2)) S12(Full 2 Port(1,2)) S22(Full 2 Port(1,2)) 
!S2P File: Measurements: S11, S21, S12, S22:
# Hz S  dB   R 50
500000000 -1.600781e-001 -1.751788e+002 -5.760102e+001 -4.761054e+001 -5.725301e+001 -4.807280e+001 -2.400893e-001 1.361131e+002
500377500.94375 -1.646068e-001 -1.753136e+002 -5.767588e+001 -5.002246e+001 -5.762013e+001 -4.647546e+001 -2.385226e-001 1.360378e+002
500755001.8875 -1.610869e-001 -1.755822e+002 -5.708733e+001 -4.855219e+001 -5.741330e+001 -4.716860e+001 -2.419866e-001 1.359544e+002
501132502.83126 -1.694427e-001 -1.757483e+002 -5.769662e+001 -4.837863e+001 -5.713952e+001 -4.814873e+001 -2.346404e-001 1.358948e+002
501510003.77501 -1.725776e-001 -1.759313e+002 -5.708887e+001 -4.962436e+001 -5.708770e+001 -4.801540e+001 -2.373212e-001 1.358679e+002
501887504.71876 -1.746503e-001 -1.761799e+002 -5.720145e+001 -5.158158e+001 -5.713591e+001 -4.770406e+001 -2.389678e-001 1.357789e+002
502265005.66251 -1.776637e-001 -1.763528e+002 -5.698107e+001 -5.078242e+001 -5.756522e+001 -5.143402e+001 -2.341863e-001 1.357258e+002
502642506.60627 -1.806701e-001 -1.766191e+002 -5.693947e+001 -5.158185e+001 -5.719571e+001 -4.697874e+001 -2.358254e-001 1.356520e+002
503020007.55002 -1.822187e-001 -1.767894e+002 -5.694193e+001 -4.968509e+001 -5.686231e+001 -5.285269e+001 -2.305878e-001 1.356688e+002
503397508.49377 -1.838396e-001 -1.770170e+002 -5.687809e+001 -5.234458e+001 -5.726639e+001 -4.942555e+001 -2.285054e-001 1.356073e+002
503775009.43752 -1.848165e-001 -1.772894e+002 -5.675394e+001 -5.181116e+001 -5.688383e+001 -4.958981e+001 -2.283663e-001 1.356195e+002
504152510.38128 -1.890218e-001 -1.774615e+002 -5.702271e+001 -5.170987e+001 -5.641047e+001 -5.522464e+001 -2.242723e-001 1.356193e+002
504530011.32503 -1.927239e-001 -1.777142e+002 -5.654290e+001 -5.299063e+001 -5.682311e+001 -5.180466e+001 -2.237466e-001 1.356015e+002
504907512.26878 -1.961198e-001 -1.778876e+002 -5.633524e+001 -5.219928e+001 -5.670918e+001 -5.535030e+001 -2.187897e-001 1.356269e+002
505285013.21253 -1.948462e-001 -1.781785e+002 -5.650526e+001 -5.524980e+001 -5.684163e+001 -5.285149e+001 -2.152809e-001 1.356599e+002
505662514.15629 -1.958085e-001 -1.783647e+002 -5.674063e+001 -5.391441e+001 -5.681055e+001 -5.338924e+001 -2.087362e-001 1.356776e+002
506040015.10004 -1.985262e-001 -1.785767e+002 -5.635275e+001 -5.638603e+001 -5.596193e+001 -5.552335e+001 -2.100217e-001 1.357161e+002
506417516.04379 -1.994559e-001 -1.787952e+002 -5.645653e+001 -5.624352e+001 -5.619502e+001 -5.510650e+001 -1.988520e-001 1.357986e+002
506795016.98754 -1.991001e-001 -1.790114e+002 -5.632719e+001 -5.738553e+001 -5.663268e+001 -5.439673e+001 -2.012636e-001 1.358565e+002
507172517.93129 -2.007037e-001 -1.792180e+002 -5.636845e+001 -5.309237e+001 -5.611778e+001 -5.609810e+001 -1.954577e-001 1.359273e+002
507550018.87505 -2.024129e-001 -1.794545e+002 -5.630323e+001 -5.658217e+001 -5.651972e+001 -5.612148e+001 -1.890062e-001 1.360155e+002
507927519.8188 -2.037360e-001 -1.796678e+002 -5.582633e+001 -5.731701e+001 -5.612824e+001 -5.457166e+001 -1.877388e-001 1.361159e+002
508305020.76255 -2.075281e-001 -1.798653e+002 -5.609896e+001 -6.091528e+001 -5.624339e+001 -5.701883e+001 -1.831767e-001 1.362134e+002
508682521.7063 -2.026833e-001 1.798837e+002 -5.623050e+001 -6.224739e+001 -5.589660e+001 -5.630994e+001 -1.801749e-001 1.363299e+002
509060022.65006 -2.055185e-001 1.796837e+002 -5.595910e+001 -5.915017e+001 -5.594578e+001 -5.512970e+001 -1.743051e-001 1.364515e+002
509437523.59381 -2.101573e-001 1.794874e+002 -5.584224e+001 -5.925124e+001 -5.569198e+001 -5.725091e+001 -1.725611e-001 1.365631e+002
509815024.53756 -2.128734e-001 1.792759e+002 -5.563282e+001 -6.169148e+001 -5.539639e+001 -5.748470e+001 -1.698379e-001 1.367074e+002
510192525.48131 -2.132909e-001 1.790610e+002 -5.638613e+001 -5.986285e+001 -5.548006e+001 -5.977816e+001 -1.696430e-001 1.368367e+002
510570026.42507 -2.135721e-001 1.788953e+002 -5.581252e+001 -6.169592e+001 -5.558871e+001 -5.890012e+001 -1.695084e-001 1.369973e+002
510947527.36882 -2.155386e-001 1.786187e+002 -5.569903e+001 -6.050927e+001 -5.540015e+001 -5.863842e+001 -1.647394e-001 1.371544e+002
511325028.31257 -2.156533e-001 1.784786e+002 -5.600126e+001 -5.936531e+001 -5.553524e+001 -5.872692e+001 -1.659627e-001 1.373234e+002
511702529.25632 -2.201386e-001 1.782369e+002 -5.590584e+001 -6.184113e+001 -5.515937e+001 -5.867665e+001 -1.685306e-001 1.374587e+002
512080030.20008 -2.205003e-001 1.780237e+002 -5.545098e+001 -6.045238e+001 -5.542680e+001 -6.213897e+001 -1.677965e-001 1.376054e+002
512457531.14383 -2.242564e-001 1.777816e+002 -5.560335e+001 -6.170084e+001 -5.527540e+001 -6.088330e+001 -1.657404e-001 1.377395e+002
512835032.08758 -2.276197e-001 1.776051e+002 -5.509928e+001 -6.456725e+001 -5.498766e+001 -6.218846e+001 -1.710113e-001 1.378875e+002
513212533.03133 -2.309796e-001 1.773965e+002 -5.545527e+001 -6.353279e+001 -5.489718e+001 -6.192997e+001 -1.772459e-001 1.380015e+002
513590033.97508 -2.303435e-001 1.771901e+002 -5.488627e+001 -6.591019e+001 -5.462217e+001 -6.345427e+001 -1.793657e-001 1.381337e+002
513967534.91884 -2.352396e-001 1.769925e+002 -5.490741e+001 -6.260404e+001 -5.470314e+001 -6.202623e+001 -1.842210e-001 1.382474e+002
514345035.86259 -2.358644e-001 1.767487e+002 -5.454039e+001 -6.407436e+001 -5.449912e+001 -6.540056e+001 -1.912708e-001 1.383466e+002
514722536.80634 -2.448568e-001 1.765488e+002 -5.486660e+001 -6.505528e+001 -5.491439e+001 -6.594908e+001 -1.925624e-001 1.384434e+002
515100037.75009 -2.464062e-001 1.763534e+002 -5.460691e+001 -6.466162e+001 -5.426798e+001 -6.674988e+001 -1.995354e-001 1.385003e+002
515477538.69385 -2.492090e-001 1.761212e+002 -5.434362e+001 -6.552020e+001 -5.458814e+001 -6.544918e+001 -2.041035e-001 1.385774e+002
515855039.6376 -2.506580e-001 1.758819e+002 -5.414146e+001 -6.512712e+001 -5.473010e+001 -6.485914e+001 -2.127242e-001 1.386235e+002
516232540.58135 -2.549434e-001 1.757046e+002 -5.457086e+001 -6.942452e+001 -5.453374e+001 -6.860999e+001 -2.160555e-001 1.386242e+002
516610041.5251 -2.596724e-001 1.754599e+002 -5.427703e+001 -6.635127e+001 -5.410824e+001 -6.820664e+001 -2.252564e-001 1.386311e+002
516987542.46886 -2.612152e-001 1.752134e+002 -5.406801e+001 -6.796619e+001 -5.405634e+001 -6.584255e+001 -2.342370e-001 1.386273e+002
517365043.41261 -2.647694e-001 1.750356e+002 -5.423354e+001 -6.814098e+001 -5.429744e+001 -6.997245e+001 -2.406184e-001 1.385852e+002
517742544.35636 -2.682311e-001 1.747845e+002 -5.379023e+001 -6.871642e+001 -5.430246e+001 -6.941113e+001 -2.506714e-001 1.385090e+002
518120045.30011 -2.741908e-001 1.745570e+002 -5.379806e+001 -6.693616e+001 -5.373937e+001 -6.955420e+001 -2.564206e-001 1.384423e+002
518497546.24387 -2.789941e-001 1.743448e+002 -5.341043e+001 -6.912061e+001 -5.363117e+001 -7.139919e+001 -2.618430e-001 1.383540e+002
518875047.18762 -2.836115e-001 1.740469e+002 -5.362400e+001 -6.888342e+001 -5.390565e+001 -7.057001e+001 -2.720989e-001 1.382444e+002
519252548.13137 -2.865134e-001 1.738795e+002 -5.348830e+001 -7.159438e+001 -5.368285e+001 -6.964812e+001 -2.757817e-001 1.381344e+002
519630049.07512 -2.871595e-001 1.736081e+002 -5.310970e+001 -7.167397e+001 -5.354951e+001 -7.165990e+001 -2.839661e-001 1.379643e+002
520007550.01888 -2.919554e-001 1.732977e+002 -5.305872e+001 -7.429180e+001 -5.330503e+001 -7.213984e+001 -2.912125e-001 1.378069e+002
520385050.96263 -2.971917e-001 1.731041e+002 -5.347179e+001 -7.363592e+001 -5.356112e+001 -7.310975e+001 -2.940987e-001 1.376327e+002
520762551.90638 -3.015375e-001 1.728768e+002 -5.297631e+001 -7.383460e+001 -5.324915e+001 -7.360151e+001 -2.969105e-001 1.374409e+002
521140052.85013 -3.031822e-001 1.726133e+002 -5.301787e+001 -7.661286e+001 -5.314528e+001 -7.452448e+001 -3.011763e-001 1.372458e+002
521517553.79388 -3.086785e-001 1.723733e+002 -5.277800e+001 -7.567207e+001 -5.293440e+001 -7.502653e+001 -3.031155e-001 1.370350e+002
521895054.73764 -3.138841e-001 1.721650e+002 -5.276980e+001 -7.669575e+001 -5.294597e+001 -7.189833e+001 -3.070768e-001 1.368193e+002
522272555.68139 -3.119320e-001 1.718822e+002 -5.253273e+001 -7.758285e+001 -5.277988e+001 -7.571834e+001 -3.086494e-001 1.366195e+002
522650056.62514 -3.179056e-001 1.716679e+002 -5.275129e+001 -8.067728e+001 -5.314587e+001 -7.700100e+001 -3.041705e-001 1.364197e+002
523027557.56889 -3.195125e-001 1.714171e+002 -5.265823e+001 -8.035793e+001 -5.280859e+001 -7.655357e+001 -3.074833e-001 1.361793e+002
523405058.51265 -3.249608e-001 1.711766e+002 -5.241569e+001 -8.134731e+001 -5.292437e+001 -7.639614e+001 -3.099919e-001 1.359383e+002
523782559.4564 -3.278388e-001 1.709091e+002 -5.236314e+001 -8.356642e+001 -5.220347e+001 -7.670311e+001 -3.044587e-001 1.357455e+002
524160060.40015 -3.315225e-001 1.706347e+002 -5.245795e+001 -8.321266e+001 -5.273471e+001 -7.808014e+001 -3.040759e-001 1.355519e+002
524537561.3439 -3.337567e-001 1.704389e+002 -5.228164e+001 -8.394688e+001 -5.238437e+001 -8.008929e+001 -2.966627e-001 1.354017e+002
524915062.28766 -3.414738e-001 1.701493e+002 -5.229328e+001 -8.248469e+001 -5.206263e+001 -7.938147e+001 -2.942424e-001 1.351759e+002
525292563.23141 -3.408584e-001 1.698329e+002 -5.228290e+001 -8.365819e+001 -5.231490e+001 -8.145502e+001 -2.877456e-001 1.349822e+002
525670064.17516 -3.480362e-001 1.696374e+002 -5.204523e+001 -8.446796e+001 -5.197331e+001 -7.902387e+001 -2.808746e-001 1.348329e+002
526047565.11891 -3.523742e-001 1.693779e+002 -5.203344e+001 -8.586414e+001 -5.205743e+001 -8.116422e+001 -2.787539e-001 1.346819e+002
526425066.06267 -3.585741e-001 1.691182e+002 -5.210057e+001 -8.549825e+001 -5.195384e+001 -8.352537e+001 -2.711456e-001 1.345836e+002
526802567.00642 -3.644508e-001 1.688842e+002 -5.206451e+001 -8.511124e+001 -5.181122e+001 -8.451941e+001 -2.629469e-001 1.344697e+002
527180067.95017 -3.730407e-001 1.686443e+002 -5.217203e+001 -8.779150e+001 -5.152407e+001 -8.267221e+001 -2.520785e-001 1.343580e+002
527557568.89392 -3.782958e-001 1.683882e+002 -5.192330e+001 -8.572728e+001 -5.165040e+001 -8.362510e+001 -2.421691e-001 1.342666e+002
527935069.83767 -3.839741e-001 1.681715e+002 -5.159290e+001 -8.908767e+001 -5.163691e+001 -8.727644e+001 -2.396674e-001 1.342001e+002
528312570.78143 -3.948235e-001 1.678719e+002 -5.165825e+001 -8.858936e+001 -5.144728e+001 -8.498798e+001 -2.311030e-001 1.342088e+002
528690071.72518 -4.000463e-001 1.676752e+002 -5.144065e+001 -8.774680e+001 -5.140937e+001 -8.672123e+001 -2.236677e-001 1.341348e+002
529067572.66893 -4.080618e-001 1.674286e+002 -5.155751e+001 -8.807787e+001 -5.148260e+001 -8.675031e+001 -2.185723e-001 1.340782e+002
529445073.61268 -4.071898e-001 1.671502e+002 -5.150521e+001 -8.965220e+001 -5.103041e+001 -8.696226e+001 -2.109385e-001 1.340821e+002
529822574.55644 -4.182245e-001 1.668857e+002 -5.143840e+001 -9.017173e+001 -5.132928e+001 -8.770087e+001 -2.045598e-001 1.340839e+002
530200075.50019 -4.256431e-001 1.666198e+002 -5.119201e+001 -9.192507e+001 -5.102840e+001 -8.959066e+001 -1.954948e-001 1.340839e+002
530577576.44394 -4.363670e-001 1.664078e+002 -5.108757e+001 -9.235167e+001 -5.101134e+001 -8.980953e+001 -1.917807e-001 1.341066e+002
530955077.38769 -4.405432e-001 1.661792e+002 -5.095903e+001 -9.134663e+001 -5.077206e+001 -9.020823e+001 -1.860715e-001 1.341107e+002
531332578.33145 -4.487100e-001 1.659340e+002 -5.129579e+001 -9.245381e+001 -5.063095e+001 -9.196410e+001 -1.815082e-001 1.341797e+002
531710079.2752 -4.562328e-001 1.656446e+002 -5.080003e+001 -9.451067e+001 -5.048639e+001 -9.145826e+001 -1.769002e-001 1.342033e+002
532087580.21895 -4.657505e-001 1.654474e+002 -5.086258e+001 -9.362415e+001 -5.049931e+001 -9.130875e+001 -1.700099e-001 1.342550e+002
532465081.1627 -4.719513e-001 1.652100e+002 -5.078206e+001 -9.510646e+001 -5.040042e+001 -9.228248e+001 -1.699072e-001 1.343141e+002
532842582.10646 -4.772096e-001 1.649819e+002 -5.058123e+001 -9.503065e+001 -5.038274e+001 -9.300203e+001 -1.640941e-001 1.343503e+002
533220083.05021 -4.883007e-001 1.647788e+002 -5.063055e+001 -9.584150e+001 -5.049736e+001 -9.580004e+001 -1.600505e-001 1.344099e+002
533597583.99396 -4.958277e-001 1.645562e+002 -5.061644e+001 -9.716885e+001 -5.049320e+001 -9.527512e+001 -1.640899e-001 1.344079e+002
533975084.93771 -5.008411e-001 1.642708e+002 -5.041415e+001 -9.836076e+001 -5.032030e+001 -9.492889e+001 -1.589667e-001 1.345178e+002
534352585.88146 -5.082268e-001 1.640439e+002 -5.049299e+001 -9.747939e+001 -5.020110e+001 -9.627214e+001 -1.550729e-001 1.345688e+002
534730086.82522 -5.151752e-001 1.637574e+002 -5.024098e+001 -9.765503e+001 -5.015778e+001 -9.665107e+001 -1.577760e-001 1.346122e+002
535107587.76897 -5.245718e-001 1.636025e+002 -5.024920e+001 -9.837103e+001 -5.004141e+001 -9.794362e+001 -1.519639e-001 1.347009e+002
535485088.71272 -5.301917e-001 1.633409e+002 -4.983997e+001 -9.859171e+001 -4.995183e+001 -9.739912e+001 -1.608773e-001 1.347135e+002
535862589.65647 -5.395240e-001 1.630961e+002 -4.999310e+001 -9.960529e+001 -4.964262e+001 -9.864461e+001 -1.590710e-001 1.347526e+002
536240090.60023 -5.439669e-001 1.628543e+002 -4.992397e+001 -1.008942e+002 -4.967252e+001 -9.926307e+001 -1.602179e-001 1.347947e+002
536617591.54398 -5.538119e-001 1.626117e+002 -4.964004e+001 -1.018309e+002 -4.942802e+001 -1.000662e+002 -1.627718e-001 1.348325e+002
536995092.48773 -5.602508e-001 1.624021e+002 -4.969146e+001 -1.016661e+002 -4.940195e+001 -1.013258e+002 -1.621660e-001 1.349183e+002
537372593.43148 -5.714197e-001 1.620871e+002 -4.969126e+001 -1.030145e+002 -4.930164e+001 -1.007443e+002 -1.636730e-001 1.349012e+002
537750094.37524 -5.812739e-001 1.619477e+002 -4.923486e+001 -1.038537e+002 -4.927271e+001 -1.026434e+002 -1.695472e-001 1.349074e+002
538127595.31899 -5.867757e-001 1.616406e+002 -4.936652e+001 -1.048966e+002 -4.925827e+001 -1.040337e+002 -1.724984e-001 1.349523e+002
538505096.26274 -5.962068e-001 1.613926e+002 -4.928606e+001 -1.048118e+002 -4.916153e+001 -1.043747e+002 -1.735400e-001 1.350021e+002
538882597.20649 -6.054590e-001 1.611867e+002 -4.919182e+001 -1.061197e+002 -4.908512e+001 -1.045337e+002 -1.741187e-001 1.349886e+002
539260098.15025 -6.142279e-001 1.608909e+002 -4.902220e+001 -1.068774e+002 -4.886161e+001 -1.060489e+002 -1.762484e-001 1.349991e+002
539637599.094 -6.236601e-001 1.606504e+002 -4.908448e+001 -1.077274e+002 -4.888573e+001 -1.066073e+002 -1.764648e-001 1.350225e+002
540015100.03775 -6.366330e-001 1.604090e+002 -4.890890e+001 -1.076213e+002 -4.873512e+001 -1.076960e+002 -1.832751e-001 1.350230e+002
540392600.9815 -6.495598e-001 1.601885e+002 -4.894476e+001 -1.082590e+002 -4.872938e+001 -1.083250e+002 -1.814585e-001 1.350347e+002
540770101.92525 -6.591045e-001 1.599487e+002 -4.873076e+001 -1.086950e+002 -4.862323e+001 -1.096733e+002 -1.836898e-001 1.350440e+002
541147602.86901 -6.657393e-001 1.596430e+002 -4.857280e+001 -1.093535e+002 -4.854413e+001 -1.100480e+002 -1.866059e-001 1.350735e+002
541525103.81276 -6.795046e-001 1.594290e+002 -4.852953e+001 -1.104692e+002 -4.853517e+001 -1.098349e+002 -1.841224e-001 1.350691e+002
541902604.75651 -6.909843e-001 1.592236e+002 -4.836147e+001 -1.115023e+002 -4.836178e+001 -1.109008e+002 -1.847185e-001 1.351125e+002
542280105.70026 -7.061259e-001 1.588995e+002 -4.823363e+001 -1.119385e+002 -4.829032e+001 -1.110944e+002 -1.855341e-001 1.350749e+002
542657606.64402 -7.099609e-001 1.586881e+002 -4.825991e+001 -1.142037e+002 -4.817201e+001 -1.121526e+002 -1.864544e-001 1.351055e+002
543035107.58777 -7.258242e-001 1.584579e+002 -4.819560e+001 -1.137880e+002 -4.817824e+001 -1.134001e+002 -1.912777e-001 1.351026e+002
543412608.53152 -7.368580e-001 1.582134e+002 -4.802497e+001 -1.135711e+002 -4.816175e+001 -1.124714e+002 -1.914568e-001 1.351289e+002
543790109.47527 -7.500477e-001 1.579655e+002 -4.800882e+001 -1.148818e+002 -4.802526e+001 -1.144314e+002 -1.905972e-001 1.351266e+002
544167610.41903 -7.576805e-001 1.577612e+002 -4.789200e+001 -1.165479e+002 -4.799671e+001 -1.145369e+002 -1.921131e-001 1.351523e+002
544545111.36278 -7.694533e-001 1.574584e+002 -4.764434e+001 -1.158506e+002 -4.772146e+001 -1.145832e+002 -1.947042e-001 1.351214e+002
544922612.30653 -7.785835e-001 1.572335e+002 -4.763949e+001 -1.181784e+002 -4.779979e+001 -1.160946e+002 -1.980588e-001 1.351067e+002
545300113.25028 -7.877036e-001 1.569814e+002 -4.755215e+001 -1.187051e+002 -4.774826e+001 -1.166336e+002 -2.007362e-001 1.351150e+002
545677614.19404 -8.004684e-001 1.567366e+002 -4.740207e+001 -1.197976e+002 -4.757190e+001 -1.184177e+002 -2.016286e-001 1.351300e+002
546055115.13779 -8.104793e-001 1.565422e+002 -4.723518e+001 -1.197842e+002 -4.737006e+001 -1.187479e+002 -2.027361e-001 1.350922e+002
546432616.08154 -8.223642e-001 1.562951e+002 -4.716371e+001 -1.205805e+002 -4.739077e+001 -1.192459e+002 -2.037583e-001 1.351045e+002
546810117.02529 -8.291458e-001 1.560125e+002 -4.692450e+001 -1.223545e+002 -4.733193e+001 -1.197510e+002 -2.063921e-001 1.350688e+002
547187617.96904 -8.441426e-001 1.557941e+002 -4.688612e+001 -1.227686e+002 -4.709327e+001 -1.208690e+002 -2.105830e-001 1.350386e+002
547565118.9128 -8.521024e-001 1.554650e+002 -4.692685e+001 -1.236544e+002 -4.712657e+001 -1.205385e+002 -2.116097e-001 1.350340e+002
547942619.85655 -8.614275e-001 1.552386e+002 -4.669713e+001 -1.247944e+002 -4.687885e+001 -1.218729e+002 -2.171369e-001 1.349993e+002
548320120.8003 -8.731941e-001 1.549755e+002 -4.663113e+001 -1.258644e+002 -4.696845e+001 -1.226701e+002 -2.229894e-001 1.349661e+002
548697621.74405 -8.860929e-001 1.547810e+002 -4.658935e+001 -1.263446e+002 -4.676579e+001 -1.238963e+002 -2.288208e-001 1.349269e+002
549075122.68781 -8.935212e-001 1.544948e+002 -4.651568e+001 -1.272967e+002 -4.650667e+001 -1.242566e+002 -2.296076e-001 1.348766e+002
549452623.63156 -9.073896e-001 1.542761e+002 -4.644224e+001 -1.283762e+002 -4.657872e+001 -1.248286e+002 -2.347454e-001 1.348105e+002
549830124.57531 -9.185557e-001 1.540330e+002 -4.628828e+001 -1.296174e+002 -4.649518e+001 -1.267585e+002 -2.369429e-001 1.347192e+002
550207625.51906 -9.298627e-001 1.537870e+002 -4.628478e+001 -1.296832e+002 -4.635750e+001 -1.269611e+002 -2.477288e-001 1.346981e+002
550585126.46282 -9.430678e-001 1.535002e+002 -4.602235e+001 -1.312629e+002 -4.627531e+001 -1.280654e+002 -2.466353e-001 1.346071e+002
550962627.40657 -9.592088e-001 1.532818e+002 -4.604906e+001 -1.328110e+002 -4.619875e+001 -1.288491e+002 -2.555718e-001 1.345214e+002
551340128.35032 -9.721372e-001 1.530376e+002 -4.599421e+001 -1.340910e+002 -4.608447e+001 -1.301176e+002 -2.583129e-001 1.344502e+002
551717629.29407 -9.861656e-001 1.527652e+002 -4.587605e+001 -1.347381e+002 -4.594641e+001 -1.303629e+002 -2.627014e-001 1.343888e+002
552095130.23783 -1.001142e+000 1.525733e+002 -4.590882e+001 -1.361111e+002 -4.585028e+001 -1.318219e+002 -2.676841e-001 1.342752e+002
552472631.18158 -1.013653e+000 1.523295e+002 -4.576123e+001 -1.367851e+002 -4.586224e+001 -1.328503e+002 -2.729495e-001 1.341932e+002
552850132.12533 -1.031430e+000 1.521270e+002 -4.568681e+001 -1.377043e+002 -4.573185e+001 -1.337757e+002 -2.748905e-001 1.340712e+002
553227633.06908 -1.045238e+000 1.518846e+002 -4.561627e+001 -1.380033e+002 -4.565223e+001 -1.344494e+002 -2.828328e-001 1.339848e+002
553605134.01284 -1.056655e+000 1.516943e+002 -4.551390e+001 -1.400001e+002 -4.566992e+001 -1.358540e+002 -2.839541e-001 1.338529e+002
553982634.95659 -1.077924e+000 1.514462e+002 -4.550053e+001 -1.403969e+002 -4.548050e+001 -1.371010e+002 -2.893496e-001 1.337353e+002
554360135.90034 -1.096567e+000 1.512566e+002 -4.547230e+001 -1.416954e+002 -4.534571e+001 -1.381561e+002 -2.891713e-001 1.336144e+002
554737636.84409 -1.109003e+000 1.509867e+002 -4.542962e+001 -1.417426e+002 -4.532413e+001 -1.390890e+002 -2.930593e-001 1.335108e+002
555115137.78784 -1.124623e+000 1.507667e+002 -4.531196e+001 -1.423452e+002 -4.517194e+001 -1.399693e+002 -2.947002e-001 1.333924e+002
