!Agilent Technologies,E8364B,US42250235,A.06.04.32
!Agilent E8364B: A.06.04.32
!Date: Thursday, October 01, 2020 11:11:46
!Correction: S11(Full 2 Port(1,2)) S21(Full 2 Port(1,2)) S12(Full 2 Port(1,2)) S22(Full 2 Port(1,2)) 
!S2P File: Measurements: S11, S21, S12, S22:
# Hz S  dB   R 50
500000000 -2.273406e-001 -1.752049e+002 -5.795873e+001 -1.727858e+002 -5.763623e+001 -1.620393e+002 -2.453374e-001 1.362706e+002
500377500.94375 -2.310049e-001 -1.753292e+002 -5.908552e+001 -1.743301e+002 -5.767027e+001 -1.661398e+002 -2.488022e-001 1.361710e+002
500755001.8875 -2.279398e-001 -1.755908e+002 -5.884299e+001 -1.763888e+002 -5.818742e+001 -1.663730e+002 -2.498788e-001 1.360922e+002
501132502.83126 -2.361440e-001 -1.757507e+002 -5.878415e+001 -1.797623e+002 -5.824740e+001 -1.681933e+002 -2.464622e-001 1.359953e+002
501510003.77501 -2.416048e-001 -1.759211e+002 -5.836001e+001 1.780707e+002 -5.783139e+001 -1.659222e+002 -2.473006e-001 1.359242e+002
501887504.71876 -2.474384e-001 -1.761745e+002 -5.848186e+001 -1.767540e+002 -5.821418e+001 -1.684666e+002 -2.513568e-001 1.358143e+002
502265005.66251 -2.513611e-001 -1.763220e+002 -5.860773e+001 1.799587e+002 -5.754839e+001 -1.691392e+002 -2.465932e-001 1.357194e+002
502642506.60627 -2.544429e-001 -1.765749e+002 -5.830515e+001 -1.797704e+002 -5.797484e+001 -1.702632e+002 -2.497350e-001 1.356668e+002
503020007.55002 -2.566246e-001 -1.767864e+002 -5.813873e+001 1.752110e+002 -5.774356e+001 -1.694367e+002 -2.493977e-001 1.355767e+002
503397508.49377 -2.617415e-001 -1.769388e+002 -5.852619e+001 -1.799246e+002 -5.732910e+001 -1.705338e+002 -2.422830e-001 1.355125e+002
503775009.43752 -2.647281e-001 -1.772067e+002 -5.853954e+001 1.777186e+002 -5.766684e+001 -1.720035e+002 -2.402374e-001 1.354510e+002
504152510.38128 -2.683943e-001 -1.773702e+002 -5.775805e+001 -1.796985e+002 -5.799570e+001 -1.716613e+002 -2.380003e-001 1.354064e+002
504530011.32503 -2.735850e-001 -1.776059e+002 -5.778199e+001 1.767536e+002 -5.780960e+001 -1.707801e+002 -2.367255e-001 1.353538e+002
504907512.26878 -2.790957e-001 -1.777752e+002 -5.763817e+001 1.777545e+002 -5.748256e+001 -1.760529e+002 -2.320879e-001 1.353430e+002
505285013.21253 -2.778755e-001 -1.780426e+002 -5.784936e+001 1.725853e+002 -5.759846e+001 -1.744922e+002 -2.309043e-001 1.353186e+002
505662514.15629 -2.795953e-001 -1.782093e+002 -5.761359e+001 1.714911e+002 -5.668067e+001 -1.758996e+002 -2.260621e-001 1.353070e+002
506040015.10004 -2.841260e-001 -1.784217e+002 -5.776950e+001 1.741606e+002 -5.732306e+001 -1.749849e+002 -2.190032e-001 1.353121e+002
506417516.04379 -2.829598e-001 -1.786171e+002 -5.763171e+001 1.715952e+002 -5.729306e+001 -1.770317e+002 -2.125417e-001 1.353486e+002
506795016.98754 -2.855006e-001 -1.788175e+002 -5.763626e+001 1.697963e+002 -5.734178e+001 -1.763222e+002 -2.050254e-001 1.353752e+002
507172517.93129 -2.891083e-001 -1.790130e+002 -5.774459e+001 1.687094e+002 -5.733883e+001 -1.765257e+002 -2.002615e-001 1.354145e+002
507550018.87505 -2.876210e-001 -1.792310e+002 -5.740435e+001 1.675628e+002 -5.735211e+001 -1.795609e+002 -1.934254e-001 1.354632e+002
507927519.8188 -2.887934e-001 -1.794251e+002 -5.786107e+001 1.666879e+002 -5.691206e+001 1.787637e+002 -1.898020e-001 1.355668e+002
508305020.76255 -2.915421e-001 -1.796099e+002 -5.744325e+001 1.648460e+002 -5.710281e+001 1.779016e+002 -1.848969e-001 1.356457e+002
508682521.7063 -2.901725e-001 -1.798385e+002 -5.753346e+001 1.679138e+002 -5.670045e+001 1.764279e+002 -1.798972e-001 1.357484e+002
509060022.65006 -2.889155e-001 1.799726e+002 -5.745715e+001 1.653693e+002 -5.652705e+001 1.744769e+002 -1.754901e-001 1.358532e+002
509437523.59381 -2.917442e-001 1.798042e+002 -5.697103e+001 1.615514e+002 -5.684476e+001 1.753637e+002 -1.665469e-001 1.359798e+002
509815024.53756 -2.932462e-001 1.795978e+002 -5.749225e+001 1.628789e+002 -5.654723e+001 1.732459e+002 -1.682845e-001 1.361336e+002
510192525.48131 -2.925402e-001 1.794079e+002 -5.758487e+001 1.607550e+002 -5.676563e+001 1.729728e+002 -1.649177e-001 1.362569e+002
510570026.42507 -2.925771e-001 1.792440e+002 -5.779870e+001 1.608577e+002 -5.696455e+001 1.735467e+002 -1.617398e-001 1.364514e+002
510947527.36882 -2.921236e-001 1.789903e+002 -5.769027e+001 1.595094e+002 -5.675486e+001 1.754351e+002 -1.557537e-001 1.365896e+002
511325028.31257 -2.911125e-001 1.788553e+002 -5.756452e+001 1.608248e+002 -5.678847e+001 1.707646e+002 -1.534031e-001 1.367630e+002
511702529.25632 -2.945136e-001 1.786235e+002 -5.742337e+001 1.616658e+002 -5.679515e+001 1.700444e+002 -1.543127e-001 1.369453e+002
512080030.20008 -2.907336e-001 1.784258e+002 -5.791291e+001 1.606120e+002 -5.678895e+001 1.698765e+002 -1.545354e-001 1.371107e+002
512457531.14383 -2.946337e-001 1.781876e+002 -5.773018e+001 1.621616e+002 -5.657924e+001 1.674383e+002 -1.533170e-001 1.372726e+002
512835032.08758 -2.964501e-001 1.780305e+002 -5.711974e+001 1.589673e+002 -5.680743e+001 1.716704e+002 -1.539681e-001 1.374292e+002
513212533.03133 -2.995111e-001 1.778212e+002 -5.733954e+001 1.599870e+002 -5.673100e+001 1.683448e+002 -1.587138e-001 1.375974e+002
513590033.97508 -2.972942e-001 1.776138e+002 -5.766063e+001 1.558249e+002 -5.666528e+001 1.666138e+002 -1.624077e-001 1.377689e+002
513967534.91884 -2.995503e-001 1.774108e+002 -5.682753e+001 1.598344e+002 -5.627040e+001 1.673151e+002 -1.655659e-001 1.379138e+002
514345035.86259 -2.972290e-001 1.771740e+002 -5.694600e+001 1.584135e+002 -5.671006e+001 1.677346e+002 -1.705550e-001 1.380594e+002
514722536.80634 -3.067665e-001 1.770019e+002 -5.726788e+001 1.581350e+002 -5.641049e+001 1.639295e+002 -1.773297e-001 1.381918e+002
515100037.75009 -3.071469e-001 1.767949e+002 -5.709826e+001 1.569447e+002 -5.639154e+001 1.658388e+002 -1.817919e-001 1.382906e+002
515477538.69385 -3.141231e-001 1.765598e+002 -5.671969e+001 1.594278e+002 -5.644643e+001 1.669245e+002 -1.891410e-001 1.384061e+002
515855039.6376 -3.150257e-001 1.763523e+002 -5.654011e+001 1.552231e+002 -5.613148e+001 1.628193e+002 -1.962267e-001 1.384791e+002
516232540.58135 -3.178163e-001 1.761977e+002 -5.665739e+001 1.567691e+002 -5.561745e+001 1.626469e+002 -2.003900e-001 1.385354e+002
516610041.5251 -3.195160e-001 1.759374e+002 -5.615907e+001 1.547212e+002 -5.597051e+001 1.616379e+002 -2.112747e-001 1.385761e+002
516987542.46886 -3.219349e-001 1.757248e+002 -5.641007e+001 1.533069e+002 -5.578164e+001 1.619074e+002 -2.209705e-001 1.385802e+002
517365043.41261 -3.287005e-001 1.755551e+002 -5.604957e+001 1.519132e+002 -5.581026e+001 1.609849e+002 -2.279302e-001 1.385727e+002
517742544.35636 -3.305647e-001 1.753167e+002 -5.580967e+001 1.545961e+002 -5.572287e+001 1.613659e+002 -2.383005e-001 1.385327e+002
518120045.30011 -3.376001e-001 1.751057e+002 -5.595420e+001 1.521668e+002 -5.569764e+001 1.575729e+002 -2.439619e-001 1.384720e+002
518497546.24387 -3.407416e-001 1.749044e+002 -5.612511e+001 1.502442e+002 -5.577555e+001 1.590706e+002 -2.546451e-001 1.384063e+002
518875047.18762 -3.418904e-001 1.746175e+002 -5.581376e+001 1.490399e+002 -5.557634e+001 1.586106e+002 -2.642057e-001 1.383128e+002
519252548.13137 -3.466706e-001 1.744744e+002 -5.616816e+001 1.470160e+002 -5.553518e+001 1.569918e+002 -2.682108e-001 1.382363e+002
519630049.07512 -3.444557e-001 1.742216e+002 -5.573806e+001 1.484695e+002 -5.544834e+001 1.553778e+002 -2.789060e-001 1.380520e+002
520007550.01888 -3.473495e-001 1.739415e+002 -5.565531e+001 1.448820e+002 -5.538535e+001 1.569496e+002 -2.915103e-001 1.378799e+002
520385050.96263 -3.506746e-001 1.737563e+002 -5.573352e+001 1.445840e+002 -5.533183e+001 1.531144e+002 -2.972519e-001 1.377059e+002
520762551.90638 -3.582977e-001 1.735456e+002 -5.596481e+001 1.438847e+002 -5.500956e+001 1.549745e+002 -3.021702e-001 1.374922e+002
521140052.85013 -3.582954e-001 1.733306e+002 -5.590485e+001 1.437290e+002 -5.519025e+001 1.523938e+002 -3.085817e-001 1.372867e+002
521517553.79388 -3.610079e-001 1.730682e+002 -5.533937e+001 1.431310e+002 -5.537440e+001 1.527180e+002 -3.154259e-001 1.370557e+002
521895054.73764 -3.653373e-001 1.728829e+002 -5.531162e+001 1.417406e+002 -5.510940e+001 1.507104e+002 -3.146766e-001 1.368168e+002
522272555.68139 -3.637055e-001 1.726006e+002 -5.574603e+001 1.427078e+002 -5.466779e+001 1.512309e+002 -3.207354e-001 1.365780e+002
522650056.62514 -3.660128e-001 1.724165e+002 -5.550833e+001 1.375021e+002 -5.499268e+001 1.505349e+002 -3.174249e-001 1.362816e+002
523027557.56889 -3.666784e-001 1.721774e+002 -5.565408e+001 1.371174e+002 -5.470945e+001 1.471924e+002 -3.199730e-001 1.360307e+002
523405058.51265 -3.703823e-001 1.719450e+002 -5.571858e+001 1.365392e+002 -5.502248e+001 1.448132e+002 -3.233562e-001 1.357927e+002
523782559.4564 -3.733227e-001 1.716935e+002 -5.536139e+001 1.352223e+002 -5.513884e+001 1.448478e+002 -3.180674e-001 1.355586e+002
524160060.40015 -3.740382e-001 1.714198e+002 -5.564873e+001 1.330982e+002 -5.496383e+001 1.456847e+002 -3.186255e-001 1.353309e+002
524537561.3439 -3.771928e-001 1.712429e+002 -5.542491e+001 1.360386e+002 -5.508026e+001 1.421721e+002 -3.147881e-001 1.351318e+002
524915062.28766 -3.788048e-001 1.709561e+002 -5.561984e+001 1.308151e+002 -5.486667e+001 1.450468e+002 -3.102487e-001 1.348645e+002
525292563.23141 -3.777531e-001 1.706545e+002 -5.526126e+001 1.320204e+002 -5.478225e+001 1.404658e+002 -3.045128e-001 1.346398e+002
525670064.17516 -3.818701e-001 1.704608e+002 -5.565564e+001 1.335693e+002 -5.507584e+001 1.408575e+002 -2.969633e-001 1.344349e+002
526047565.11891 -3.852700e-001 1.702212e+002 -5.531793e+001 1.334129e+002 -5.500278e+001 1.401618e+002 -2.909665e-001 1.342496e+002
526425066.06267 -3.911174e-001 1.699699e+002 -5.538086e+001 1.300214e+002 -5.477692e+001 1.426254e+002 -2.853004e-001 1.340891e+002
526802567.00642 -3.924314e-001 1.697513e+002 -5.598869e+001 1.302866e+002 -5.476163e+001 1.397432e+002 -2.751858e-001 1.339392e+002
527180067.95017 -3.977232e-001 1.695323e+002 -5.547460e+001 1.326034e+002 -5.470787e+001 1.391055e+002 -2.647585e-001 1.337955e+002
527557568.89392 -4.025870e-001 1.692800e+002 -5.574630e+001 1.282486e+002 -5.477339e+001 1.395886e+002 -2.555394e-001 1.336633e+002
527935069.83767 -4.052754e-001 1.690718e+002 -5.605935e+001 1.280272e+002 -5.483430e+001 1.386680e+002 -2.465130e-001 1.335124e+002
528312570.78143 -4.138107e-001 1.688127e+002 -5.511706e+001 1.263237e+002 -5.488512e+001 1.386367e+002 -2.378432e-001 1.335577e+002
528690071.72518 -4.160716e-001 1.686196e+002 -5.519965e+001 1.266982e+002 -5.467147e+001 1.367227e+002 -2.292975e-001 1.334473e+002
529067572.66893 -4.195040e-001 1.684024e+002 -5.571405e+001 1.293501e+002 -5.490450e+001 1.362054e+002 -2.208045e-001 1.334039e+002
529445073.61268 -4.201677e-001 1.681247e+002 -5.549804e+001 1.288480e+002 -5.453240e+001 1.363055e+002 -2.142041e-001 1.333834e+002
529822574.55644 -4.246727e-001 1.678807e+002 -5.490821e+001 1.265663e+002 -5.417841e+001 1.363276e+002 -2.052939e-001 1.333932e+002
530200075.50019 -4.291608e-001 1.676265e+002 -5.501349e+001 1.259297e+002 -5.454787e+001 1.350940e+002 -1.950732e-001 1.334000e+002
530577576.44394 -4.374982e-001 1.674259e+002 -5.502700e+001 1.279987e+002 -5.427122e+001 1.352261e+002 -1.855161e-001 1.334189e+002
530955077.38769 -4.409117e-001 1.672180e+002 -5.490099e+001 1.258030e+002 -5.419188e+001 1.342365e+002 -1.797412e-001 1.334414e+002
531332578.33145 -4.446027e-001 1.669965e+002 -5.479715e+001 1.245013e+002 -5.428365e+001 1.345322e+002 -1.762203e-001 1.335046e+002
531710079.2752 -4.475698e-001 1.667072e+002 -5.490629e+001 1.251061e+002 -5.388376e+001 1.332956e+002 -1.678982e-001 1.335594e+002
532087580.21895 -4.532822e-001 1.665328e+002 -5.453587e+001 1.230695e+002 -5.420222e+001 1.339408e+002 -1.613059e-001 1.336310e+002
532465081.1627 -4.545555e-001 1.663095e+002 -5.447718e+001 1.242635e+002 -5.417925e+001 1.318517e+002 -1.585501e-001 1.337132e+002
532842582.10646 -4.581144e-001 1.660849e+002 -5.417156e+001 1.243677e+002 -5.405238e+001 1.298825e+002 -1.495628e-001 1.337794e+002
533220083.05021 -4.623028e-001 1.658633e+002 -5.436962e+001 1.221529e+002 -5.379817e+001 1.290886e+002 -1.445716e-001 1.338704e+002
533597583.99396 -4.690518e-001 1.656836e+002 -5.441004e+001 1.227139e+002 -5.375053e+001 1.283211e+002 -1.460908e-001 1.339541e+002
533975084.93771 -4.719270e-001 1.654050e+002 -5.427716e+001 1.208927e+002 -5.361503e+001 1.271145e+002 -1.421536e-001 1.340592e+002
534352585.88146 -4.748785e-001 1.651800e+002 -5.450876e+001 1.199487e+002 -5.379980e+001 1.275157e+002 -1.364405e-001 1.341322e+002
534730086.82522 -4.773332e-001 1.649350e+002 -5.413335e+001 1.177135e+002 -5.381732e+001 1.265143e+002 -1.388816e-001 1.342413e+002
535107587.76897 -4.811754e-001 1.647696e+002 -5.392666e+001 1.193234e+002 -5.363396e+001 1.269889e+002 -1.355758e-001 1.343094e+002
535485088.71272 -4.847135e-001 1.645305e+002 -5.430389e+001 1.182557e+002 -5.364927e+001 1.236601e+002 -1.387050e-001 1.344086e+002
535862589.65647 -4.869675e-001 1.642849e+002 -5.379931e+001 1.182647e+002 -5.365331e+001 1.240591e+002 -1.371982e-001 1.345083e+002
536240090.60023 -4.894769e-001 1.640760e+002 -5.406070e+001 1.149609e+002 -5.375534e+001 1.225798e+002 -1.362420e-001 1.345137e+002
536617591.54398 -4.932607e-001 1.638313e+002 -5.380026e+001 1.156756e+002 -5.366156e+001 1.215266e+002 -1.415816e-001 1.346714e+002
536995092.48773 -4.956541e-001 1.636353e+002 -5.407687e+001 1.147222e+002 -5.346420e+001 1.234506e+002 -1.435791e-001 1.347772e+002
537372593.43148 -4.989720e-001 1.633262e+002 -5.398412e+001 1.136207e+002 -5.325946e+001 1.200569e+002 -1.469824e-001 1.347478e+002
537750094.37524 -5.067937e-001 1.631765e+002 -5.377634e+001 1.125938e+002 -5.325373e+001 1.215298e+002 -1.522722e-001 1.348537e+002
538127595.31899 -5.085348e-001 1.628504e+002 -5.367998e+001 1.141248e+002 -5.328395e+001 1.198453e+002 -1.537322e-001 1.348970e+002
538505096.26274 -5.098028e-001 1.626473e+002 -5.375053e+001 1.145686e+002 -5.324001e+001 1.194956e+002 -1.566604e-001 1.349796e+002
538882597.20649 -5.165413e-001 1.624409e+002 -5.363047e+001 1.130280e+002 -5.321356e+001 1.168031e+002 -1.605512e-001 1.349405e+002
539260098.15025 -5.185049e-001 1.621440e+002 -5.351815e+001 1.107936e+002 -5.335560e+001 1.156288e+002 -1.634488e-001 1.350153e+002
539637599.094 -5.217161e-001 1.619120e+002 -5.358136e+001 1.109919e+002 -5.314257e+001 1.175347e+002 -1.667127e-001 1.350467e+002
540015100.03775 -5.274153e-001 1.616478e+002 -5.302308e+001 1.105657e+002 -5.304009e+001 1.145766e+002 -1.768762e-001 1.350577e+002
540392600.9815 -5.345332e-001 1.614416e+002 -5.339847e+001 1.091147e+002 -5.313030e+001 1.149674e+002 -1.739337e-001 1.350279e+002
540770101.92525 -5.382456e-001 1.611464e+002 -5.314354e+001 1.079441e+002 -5.304943e+001 1.137791e+002 -1.773141e-001 1.350781e+002
541147602.86901 -5.402408e-001 1.609009e+002 -5.323196e+001 1.078644e+002 -5.278051e+001 1.133876e+002 -1.803938e-001 1.350972e+002
541525103.81276 -5.457835e-001 1.606256e+002 -5.301665e+001 1.069971e+002 -5.284994e+001 1.130631e+002 -1.823993e-001 1.350831e+002
541902604.75651 -5.529428e-001 1.603961e+002 -5.302175e+001 1.057754e+002 -5.300069e+001 1.134222e+002 -1.844153e-001 1.351097e+002
542280105.70026 -5.598221e-001 1.601252e+002 -5.296459e+001 1.045675e+002 -5.315947e+001 1.120596e+002 -1.890128e-001 1.350509e+002
542657606.64402 -5.587150e-001 1.598849e+002 -5.290625e+001 1.035751e+002 -5.299274e+001 1.094253e+002 -1.902187e-001 1.350378e+002
543035107.58777 -5.703775e-001 1.596659e+002 -5.276920e+001 1.030733e+002 -5.278890e+001 1.109921e+002 -1.957058e-001 1.350279e+002
543412608.53152 -5.746608e-001 1.593741e+002 -5.280786e+001 1.017846e+002 -5.285390e+001 1.085134e+002 -1.963456e-001 1.349985e+002
543790109.47527 -5.835743e-001 1.591158e+002 -5.255474e+001 1.007470e+002 -5.264567e+001 1.090148e+002 -1.974735e-001 1.349657e+002
544167610.41903 -5.843085e-001 1.589035e+002 -5.244068e+001 1.007392e+002 -5.293060e+001 1.079832e+002 -1.988062e-001 1.349631e+002
544545111.36278 -5.892484e-001 1.585915e+002 -5.272065e+001 1.002924e+002 -5.292273e+001 1.078280e+002 -2.010676e-001 1.348962e+002
544922612.30653 -5.899700e-001 1.583538e+002 -5.237355e+001 9.980463e+001 -5.269748e+001 1.070206e+002 -2.057236e-001 1.348368e+002
545300113.25028 -5.931278e-001 1.580843e+002 -5.244620e+001 9.871259e+001 -5.263026e+001 1.075461e+002 -2.070083e-001 1.347890e+002
545677614.19404 -5.988024e-001 1.578048e+002 -5.242979e+001 9.740502e+001 -5.265044e+001 1.035564e+002 -2.082145e-001 1.347514e+002
546055115.13779 -6.013217e-001 1.575930e+002 -5.205660e+001 9.698086e+001 -5.286726e+001 1.054578e+002 -2.129158e-001 1.346920e+002
546432616.08154 -6.087579e-001 1.572830e+002 -5.246470e+001 9.673367e+001 -5.257045e+001 1.051176e+002 -2.107831e-001 1.345903e+002
546810117.02529 -6.088324e-001 1.570058e+002 -5.212746e+001 9.645798e+001 -5.244648e+001 1.033046e+002 -2.132272e-001 1.345695e+002
547187617.96904 -6.191595e-001 1.567303e+002 -5.221058e+001 9.531743e+001 -5.239447e+001 1.042964e+002 -2.171224e-001 1.345228e+002
547565118.9128 -6.218728e-001 1.563956e+002 -5.205146e+001 9.372436e+001 -5.248470e+001 1.031985e+002 -2.157200e-001 1.344424e+002
547942619.85655 -6.294527e-001 1.561788e+002 -5.197011e+001 9.335326e+001 -5.250222e+001 1.011778e+002 -2.199600e-001 1.343987e+002
548320120.8003 -6.387426e-001 1.558825e+002 -5.198909e+001 9.290203e+001 -5.225308e+001 1.008410e+002 -2.199669e-001 1.343247e+002
548697621.74405 -6.448460e-001 1.556551e+002 -5.209096e+001 9.433354e+001 -5.237646e+001 1.005608e+002 -2.252248e-001 1.342731e+002
549075122.68781 -6.504462e-001 1.553634e+002 -5.183665e+001 9.306277e+001 -5.244860e+001 1.012043e+002 -2.320195e-001 1.342007e+002
549452623.63156 -6.610569e-001 1.551308e+002 -5.204659e+001 9.165488e+001 -5.206509e+001 9.980991e+001 -2.300951e-001 1.341181e+002
549830124.57531 -6.661708e-001 1.548369e+002 -5.173009e+001 8.982803e+001 -5.204285e+001 1.016370e+002 -2.328293e-001 1.340425e+002
550207625.51906 -6.721787e-001 1.545985e+002 -5.174241e+001 8.959788e+001 -5.185630e+001 9.955396e+001 -2.362875e-001 1.339694e+002
550585126.46282 -6.808928e-001 1.542894e+002 -5.169396e+001 8.783272e+001 -5.170312e+001 9.819013e+001 -2.383115e-001 1.338917e+002
550962627.40657 -6.881958e-001 1.540498e+002 -5.130800e+001 8.824483e+001 -5.176344e+001 9.714374e+001 -2.449099e-001 1.338137e+002
551340128.35032 -6.942174e-001 1.537827e+002 -5.175642e+001 8.752172e+001 -5.188637e+001 9.606859e+001 -2.457835e-001 1.337747e+002
551717629.29407 -7.053407e-001 1.534933e+002 -5.147647e+001 8.658851e+001 -5.158544e+001 9.702335e+001 -2.478079e-001 1.336926e+002
552095130.23783 -7.119910e-001 1.532786e+002 -5.131493e+001 8.460140e+001 -5.145802e+001 9.560671e+001 -2.478123e-001 1.336097e+002
552472631.18158 -7.194412e-001 1.530085e+002 -5.147625e+001 8.331943e+001 -5.155203e+001 9.333084e+001 -2.504706e-001 1.335574e+002
552850132.12533 -7.318949e-001 1.527734e+002 -5.152252e+001 8.457283e+001 -5.151054e+001 9.451865e+001 -2.513698e-001 1.334544e+002
553227633.06908 -7.384832e-001 1.524785e+002 -5.146541e+001 8.336022e+001 -5.140233e+001 9.473457e+001 -2.570066e-001 1.334068e+002
553605134.01284 -7.453911e-001 1.522191e+002 -5.125416e+001 8.267456e+001 -5.143692e+001 9.224966e+001 -2.628049e-001 1.333089e+002
553982634.95659 -7.588868e-001 1.519662e+002 -5.115469e+001 8.195911e+001 -5.119979e+001 9.220101e+001 -2.628043e-001 1.332345e+002
554360135.90034 -7.685573e-001 1.517445e+002 -5.113917e+001 8.165210e+001 -5.159266e+001 9.056288e+001 -2.644117e-001 1.331483e+002
554737636.84409 -7.785633e-001 1.514407e+002 -5.108911e+001 8.055339e+001 -5.136419e+001 9.114238e+001 -2.675741e-001 1.330907e+002
555115137.78784 -7.881768e-001 1.511830e+002 -5.117688e+001 8.138654e+001 -5.126633e+001 8.948129e+001 -2.663710e-001 1.330154e+002
555492638.7316 -7.962592e-001 1.508807e+002 -5.113213e+001 8.069745e+001 -5.106136e+001 8.919668e+001 -2.669780e-001 1.329423e+002
555870139.67535 -8.098074e-001 1.506633e+002 -5.092936e+001 7.823203e+001 -5.132882e+001 8.773643e+001 -2.695585e-001 1.328852e+002
