!Agilent Technologies,E8364B,US42250235,A.06.04.32
!Agilent E8364B: A.06.04.32
!Date: Thursday, October 01, 2020 11:15:57
!Correction: S11(Full 2 Port(1,2)) S21(Full 2 Port(1,2)) S12(Full 2 Port(1,2)) S22(Full 2 Port(1,2)) 
!S2P File: Measurements: S11, S21, S12, S22:
# Hz S  dB   R 50
500000000 -1.987749e-001 -1.754895e+002 -5.986960e+001 7.194321e+001 -6.028603e+001 6.957607e+001 -2.549277e-001 1.364484e+002
500377500.94375 -2.017340e-001 -1.756501e+002 -5.963226e+001 6.979994e+001 -6.020135e+001 7.039695e+001 -2.568034e-001 1.363429e+002
500755001.8875 -2.073991e-001 -1.759307e+002 -6.012668e+001 6.933255e+001 -5.959223e+001 6.530888e+001 -2.617480e-001 1.362529e+002
501132502.83126 -2.122127e-001 -1.760623e+002 -5.928761e+001 6.754986e+001 -5.926632e+001 6.706798e+001 -2.612578e-001 1.361416e+002
501510003.77501 -2.161398e-001 -1.763209e+002 -5.989888e+001 6.972889e+001 -5.949671e+001 6.592633e+001 -2.603513e-001 1.360428e+002
501887504.71876 -2.253578e-001 -1.765341e+002 -5.946199e+001 6.369777e+001 -5.956546e+001 6.330304e+001 -2.626628e-001 1.359595e+002
502265005.66251 -2.283195e-001 -1.767608e+002 -5.926657e+001 6.591071e+001 -5.978500e+001 6.603104e+001 -2.603985e-001 1.358818e+002
502642506.60627 -2.353665e-001 -1.769868e+002 -5.970463e+001 5.973281e+001 -5.957934e+001 6.616361e+001 -2.610245e-001 1.358169e+002
503020007.55002 -2.385885e-001 -1.771980e+002 -5.976894e+001 6.342646e+001 -5.947298e+001 6.365080e+001 -2.587073e-001 1.357493e+002
503397508.49377 -2.456799e-001 -1.774259e+002 -5.970545e+001 6.184773e+001 -5.967941e+001 6.027523e+001 -2.550579e-001 1.356609e+002
503775009.43752 -2.495009e-001 -1.775940e+002 -5.905024e+001 6.172604e+001 -5.891608e+001 5.802085e+001 -2.540912e-001 1.356241e+002
504152510.38128 -2.542333e-001 -1.778669e+002 -5.919482e+001 6.458367e+001 -5.974796e+001 5.904916e+001 -2.503859e-001 1.355730e+002
504530011.32503 -2.610486e-001 -1.780460e+002 -5.905387e+001 6.037032e+001 -5.911197e+001 5.819131e+001 -2.453647e-001 1.355306e+002
504907512.26878 -2.650606e-001 -1.782924e+002 -5.869275e+001 5.613532e+001 -5.897004e+001 5.827704e+001 -2.388033e-001 1.355159e+002
505285013.21253 -2.682884e-001 -1.785350e+002 -5.842025e+001 5.695799e+001 -5.884138e+001 5.350154e+001 -2.363697e-001 1.354971e+002
505662514.15629 -2.701165e-001 -1.787183e+002 -5.865840e+001 5.196146e+001 -5.841622e+001 5.244685e+001 -2.309020e-001 1.354577e+002
506040015.10004 -2.759970e-001 -1.789245e+002 -5.940951e+001 5.533848e+001 -5.862182e+001 5.302013e+001 -2.269805e-001 1.354996e+002
506417516.04379 -2.770956e-001 -1.790911e+002 -5.875707e+001 5.564824e+001 -5.873400e+001 5.574199e+001 -2.155862e-001 1.355465e+002
506795016.98754 -2.802979e-001 -1.793676e+002 -5.832663e+001 5.167518e+001 -5.823430e+001 5.358089e+001 -2.117486e-001 1.355735e+002
507172517.93129 -2.855771e-001 -1.795390e+002 -5.833886e+001 5.177473e+001 -5.847607e+001 5.168185e+001 -2.047623e-001 1.356152e+002
507550018.87505 -2.863541e-001 -1.797898e+002 -5.822887e+001 5.012839e+001 -5.813660e+001 5.127622e+001 -1.954857e-001 1.356810e+002
507927519.8188 -2.909440e-001 -1.799582e+002 -5.875893e+001 5.106025e+001 -5.869464e+001 5.186146e+001 -1.933697e-001 1.357877e+002
508305020.76255 -2.933301e-001 1.798939e+002 -5.855635e+001 4.791203e+001 -5.812264e+001 4.836788e+001 -1.865416e-001 1.358815e+002
508682521.7063 -2.911969e-001 1.796215e+002 -5.800891e+001 4.852443e+001 -5.821956e+001 4.891243e+001 -1.800093e-001 1.359839e+002
509060022.65006 -2.955162e-001 1.794545e+002 -5.780433e+001 4.516442e+001 -5.770950e+001 4.410983e+001 -1.748545e-001 1.360770e+002
509437523.59381 -2.970621e-001 1.793241e+002 -5.805357e+001 4.840058e+001 -5.858892e+001 4.326820e+001 -1.693488e-001 1.362256e+002
509815024.53756 -2.992900e-001 1.790832e+002 -5.816282e+001 4.082129e+001 -5.770347e+001 4.632246e+001 -1.632691e-001 1.363752e+002
510192525.48131 -3.010543e-001 1.788895e+002 -5.756108e+001 4.160094e+001 -5.815087e+001 4.145308e+001 -1.616807e-001 1.365086e+002
510570026.42507 -3.017561e-001 1.787195e+002 -5.849451e+001 4.157479e+001 -5.823228e+001 3.934315e+001 -1.615655e-001 1.366994e+002
510947527.36882 -3.051491e-001 1.784958e+002 -5.754031e+001 3.796709e+001 -5.823396e+001 4.028807e+001 -1.515199e-001 1.368357e+002
511325028.31257 -3.033925e-001 1.783189e+002 -5.786763e+001 3.701600e+001 -5.777707e+001 3.848180e+001 -1.510792e-001 1.370276e+002
511702529.25632 -3.090802e-001 1.781420e+002 -5.784016e+001 3.886223e+001 -5.764426e+001 3.724910e+001 -1.541606e-001 1.371802e+002
512080030.20008 -3.070860e-001 1.779866e+002 -5.772094e+001 3.657142e+001 -5.806752e+001 3.556858e+001 -1.520582e-001 1.373659e+002
512457531.14383 -3.117254e-001 1.777176e+002 -5.811835e+001 3.857334e+001 -5.810738e+001 3.656305e+001 -1.533805e-001 1.375206e+002
512835032.08758 -3.176024e-001 1.775746e+002 -5.838790e+001 3.756773e+001 -5.774691e+001 3.164642e+001 -1.504241e-001 1.376746e+002
513212533.03133 -3.203200e-001 1.774059e+002 -5.787611e+001 3.721959e+001 -5.769209e+001 3.342659e+001 -1.584147e-001 1.378485e+002
513590033.97508 -3.218516e-001 1.771812e+002 -5.782516e+001 3.664067e+001 -5.774847e+001 3.151381e+001 -1.610307e-001 1.380106e+002
513967534.91884 -3.278278e-001 1.769648e+002 -5.858183e+001 3.649701e+001 -5.791422e+001 3.263103e+001 -1.639641e-001 1.381612e+002
514345035.86259 -3.283522e-001 1.767629e+002 -5.793904e+001 3.753523e+001 -5.763213e+001 3.310608e+001 -1.713654e-001 1.382922e+002
514722536.80634 -3.360124e-001 1.765438e+002 -5.805965e+001 3.566576e+001 -5.746167e+001 2.943982e+001 -1.748531e-001 1.384287e+002
515100037.75009 -3.392795e-001 1.763286e+002 -5.765028e+001 3.374262e+001 -5.770628e+001 3.052861e+001 -1.806626e-001 1.385403e+002
515477538.69385 -3.456242e-001 1.761048e+002 -5.741990e+001 3.402605e+001 -5.800541e+001 2.991214e+001 -1.866641e-001 1.386260e+002
515855039.6376 -3.518710e-001 1.758813e+002 -5.724035e+001 3.760215e+001 -5.748524e+001 3.158478e+001 -1.944506e-001 1.387112e+002
516232540.58135 -3.585031e-001 1.756844e+002 -5.722489e+001 3.395600e+001 -5.715535e+001 2.948674e+001 -2.017893e-001 1.387482e+002
516610041.5251 -3.640749e-001 1.754569e+002 -5.666935e+001 2.962846e+001 -5.718191e+001 3.034737e+001 -2.107076e-001 1.387866e+002
516987542.46886 -3.701189e-001 1.752372e+002 -5.689932e+001 3.287319e+001 -5.722335e+001 2.737304e+001 -2.218054e-001 1.388067e+002
517365043.41261 -3.772510e-001 1.750250e+002 -5.697012e+001 2.906353e+001 -5.722845e+001 2.594987e+001 -2.309026e-001 1.387912e+002
517742544.35636 -3.827498e-001 1.748677e+002 -5.628809e+001 2.820650e+001 -5.685137e+001 2.560987e+001 -2.382511e-001 1.387562e+002
518120045.30011 -3.923421e-001 1.745698e+002 -5.632408e+001 2.619374e+001 -5.702463e+001 2.379443e+001 -2.484956e-001 1.387192e+002
518497546.24387 -4.001333e-001 1.743961e+002 -5.651139e+001 2.582888e+001 -5.640375e+001 2.462213e+001 -2.551009e-001 1.386438e+002
518875047.18762 -4.024592e-001 1.741631e+002 -5.643397e+001 2.434788e+001 -5.654713e+001 2.301479e+001 -2.692803e-001 1.385428e+002
519252548.13137 -4.063896e-001 1.739175e+002 -5.603294e+001 2.162498e+001 -5.643992e+001 2.035074e+001 -2.726384e-001 1.384557e+002
519630049.07512 -4.105192e-001 1.736980e+002 -5.583585e+001 2.228153e+001 -5.675229e+001 1.907652e+001 -2.844942e-001 1.382921e+002
520007550.01888 -4.197591e-001 1.734297e+002 -5.639679e+001 2.010987e+001 -5.609502e+001 1.753985e+001 -2.900114e-001 1.381362e+002
520385050.96263 -4.252847e-001 1.732346e+002 -5.566405e+001 1.887511e+001 -5.658209e+001 1.846468e+001 -2.965541e-001 1.379591e+002
520762551.90638 -4.319237e-001 1.730070e+002 -5.565231e+001 2.015410e+001 -5.630725e+001 1.902650e+001 -3.036622e-001 1.377750e+002
521140052.85013 -4.364702e-001 1.728384e+002 -5.569815e+001 1.612564e+001 -5.618102e+001 1.438352e+001 -3.102802e-001 1.375642e+002
521517553.79388 -4.409363e-001 1.726155e+002 -5.600518e+001 1.195672e+001 -5.616984e+001 1.460734e+001 -3.131684e-001 1.373514e+002
521895054.73764 -4.443474e-001 1.723654e+002 -5.576375e+001 1.184895e+001 -5.598241e+001 1.109791e+001 -3.182770e-001 1.371305e+002
522272555.68139 -4.474825e-001 1.721627e+002 -5.549701e+001 1.026638e+001 -5.575534e+001 1.020720e+001 -3.190700e-001 1.369186e+002
522650056.62514 -4.509509e-001 1.719482e+002 -5.556930e+001 1.019597e+001 -5.569117e+001 7.224666e+000 -3.188499e-001 1.366792e+002
523027557.56889 -4.533985e-001 1.717661e+002 -5.533954e+001 1.003489e+001 -5.556315e+001 6.353074e+000 -3.240882e-001 1.364117e+002
523405058.51265 -4.596121e-001 1.715183e+002 -5.556960e+001 7.044703e+000 -5.588359e+001 6.302837e+000 -3.252887e-001 1.361772e+002
523782559.4564 -4.611276e-001 1.712755e+002 -5.602757e+001 5.583053e+000 -5.582460e+001 5.340865e+000 -3.200094e-001 1.359493e+002
524160060.40015 -4.621787e-001 1.710795e+002 -5.602486e+001 7.163704e+000 -5.605454e+001 4.534184e+000 -3.199123e-001 1.357154e+002
524537561.3439 -4.665698e-001 1.708666e+002 -5.581643e+001 1.286105e+000 -5.584216e+001 5.706510e+000 -3.164705e-001 1.355267e+002
524915062.28766 -4.707805e-001 1.706747e+002 -5.616047e+001 2.010855e+000 -5.591236e+001 3.322526e+000 -3.155271e-001 1.352656e+002
525292563.23141 -4.717877e-001 1.703636e+002 -5.575312e+001 1.815633e+000 -5.557605e+001 1.663051e+000 -3.058416e-001 1.350423e+002
525670064.17516 -4.759628e-001 1.701822e+002 -5.558019e+001 3.047208e+000 -5.625752e+001 8.171182e-002 -3.005068e-001 1.348505e+002
526047565.11891 -4.794584e-001 1.699904e+002 -5.588747e+001 9.309724e-001 -5.581462e+001 -1.359396e-001 -2.956131e-001 1.346984e+002
526425066.06267 -4.854802e-001 1.697545e+002 -5.554034e+001 -2.494067e+000 -5.619353e+001 -3.619243e+000 -2.874288e-001 1.345239e+002
526802567.00642 -4.882434e-001 1.695707e+002 -5.590479e+001 -2.119341e-001 -5.556213e+001 -2.094572e+000 -2.813583e-001 1.343838e+002
527180067.95017 -4.968309e-001 1.693128e+002 -5.593462e+001 -1.940512e+000 -5.568121e+001 -1.809552e+000 -2.708282e-001 1.342311e+002
527557568.89392 -5.041456e-001 1.691290e+002 -5.599601e+001 -5.108800e+000 -5.572134e+001 -4.173584e+000 -2.605792e-001 1.341102e+002
527935069.83767 -5.088063e-001 1.689176e+002 -5.584389e+001 -4.263410e+000 -5.594714e+001 -1.439826e+000 -2.525096e-001 1.340200e+002
528312570.78143 -5.173592e-001 1.687000e+002 -5.569165e+001 -4.099336e+000 -5.551229e+001 -4.032987e+000 -2.475966e-001 1.339835e+002
528690071.72518 -5.179948e-001 1.684796e+002 -5.615944e+001 -6.854264e+000 -5.598184e+001 -3.862527e+000 -2.360726e-001 1.338794e+002
529067572.66893 -5.268357e-001 1.682841e+002 -5.603306e+001 -6.266197e+000 -5.598841e+001 -3.667640e+000 -2.297949e-001 1.338306e+002
529445073.61268 -5.287730e-001 1.680436e+002 -5.577830e+001 -6.259385e+000 -5.530537e+001 -7.524969e+000 -2.212693e-001 1.337943e+002
529822574.55644 -5.374668e-001 1.678323e+002 -5.590059e+001 -1.008091e+001 -5.553175e+001 -7.463908e+000 -2.141443e-001 1.337602e+002
530200075.50019 -5.410971e-001 1.676031e+002 -5.588664e+001 -8.621499e+000 -5.587319e+001 -7.665809e+000 -2.026003e-001 1.337712e+002
530577576.44394 -5.500900e-001 1.674675e+002 -5.566372e+001 -9.948291e+000 -5.566528e+001 -6.819344e+000 -1.997115e-001 1.337899e+002
530955077.38769 -5.543366e-001 1.672257e+002 -5.583307e+001 -8.675224e+000 -5.598048e+001 -9.974556e+000 -1.916095e-001 1.337617e+002
531332578.33145 -5.599456e-001 1.670236e+002 -5.559371e+001 -9.842383e+000 -5.587650e+001 -1.095740e+001 -1.870225e-001 1.338460e+002
531710079.2752 -5.636510e-001 1.667614e+002 -5.551836e+001 -1.044511e+001 -5.551417e+001 -1.232034e+001 -1.780140e-001 1.338680e+002
532087580.21895 -5.678618e-001 1.665553e+002 -5.582129e+001 -1.093772e+001 -5.570153e+001 -1.380086e+001 -1.749953e-001 1.339254e+002
532465081.1627 -5.696229e-001 1.663960e+002 -5.574065e+001 -1.098952e+001 -5.586187e+001 -1.413808e+001 -1.720591e-001 1.340003e+002
532842582.10646 -5.743111e-001 1.661754e+002 -5.578592e+001 -1.358681e+001 -5.561402e+001 -1.266935e+001 -1.646484e-001 1.340395e+002
533220083.05021 -5.818594e-001 1.659912e+002 -5.569511e+001 -1.351423e+001 -5.511455e+001 -1.492479e+001 -1.613165e-001 1.341252e+002
533597583.99396 -5.832422e-001 1.657463e+002 -5.498286e+001 -1.362479e+001 -5.558249e+001 -1.581094e+001 -1.613595e-001 1.341821e+002
533975084.93771 -5.856128e-001 1.655293e+002 -5.541697e+001 -1.107145e+001 -5.504651e+001 -1.549690e+001 -1.576663e-001 1.342750e+002
534352585.88146 -5.931591e-001 1.653413e+002 -5.556888e+001 -1.436279e+001 -5.534374e+001 -1.519847e+001 -1.537652e-001 1.343489e+002
534730086.82522 -5.951260e-001 1.650504e+002 -5.557914e+001 -1.497556e+001 -5.526475e+001 -1.771650e+001 -1.554213e-001 1.344247e+002
535107587.76897 -5.984015e-001 1.649029e+002 -5.524627e+001 -1.626571e+001 -5.514705e+001 -1.710120e+001 -1.495716e-001 1.345519e+002
535485088.71272 -6.030363e-001 1.646812e+002 -5.532852e+001 -1.578576e+001 -5.508186e+001 -1.645615e+001 -1.539714e-001 1.345690e+002
535862589.65647 -6.065114e-001 1.644192e+002 -5.493860e+001 -1.486904e+001 -5.480330e+001 -1.627640e+001 -1.545048e-001 1.346588e+002
536240090.60023 -6.084393e-001 1.642511e+002 -5.517046e+001 -1.607059e+001 -5.500795e+001 -1.911865e+001 -1.495673e-001 1.347240e+002
536617591.54398 -6.132374e-001 1.640258e+002 -5.461380e+001 -1.526227e+001 -5.483234e+001 -1.894336e+001 -1.565408e-001 1.348025e+002
536995092.48773 -6.148518e-001 1.637970e+002 -5.462527e+001 -1.923089e+001 -5.477758e+001 -1.678857e+001 -1.544400e-001 1.349229e+002
537372593.43148 -6.201311e-001 1.635559e+002 -5.445430e+001 -1.800862e+001 -5.418968e+001 -2.303430e+001 -1.566371e-001 1.349370e+002
537750094.37524 -6.263500e-001 1.633719e+002 -5.434486e+001 -2.049931e+001 -5.408914e+001 -2.338807e+001 -1.609460e-001 1.349967e+002
538127595.31899 -6.290760e-001 1.631085e+002 -5.441285e+001 -2.070937e+001 -5.407925e+001 -2.329082e+001 -1.619511e-001 1.350379e+002
538505096.26274 -6.323399e-001 1.628461e+002 -5.430178e+001 -2.233623e+001 -5.397155e+001 -2.404822e+001 -1.680281e-001 1.351293e+002
538882597.20649 -6.352953e-001 1.627345e+002 -5.424113e+001 -2.471358e+001 -5.401397e+001 -2.570648e+001 -1.662190e-001 1.351373e+002
539260098.15025 -6.389208e-001 1.625139e+002 -5.407784e+001 -2.472311e+001 -5.373061e+001 -2.931717e+001 -1.719086e-001 1.351759e+002
539637599.094 -6.438075e-001 1.622634e+002 -5.399141e+001 -2.575357e+001 -5.363855e+001 -2.820732e+001 -1.757420e-001 1.352246e+002
540015100.03775 -6.491429e-001 1.620573e+002 -5.387563e+001 -2.622337e+001 -5.374414e+001 -2.903261e+001 -1.806807e-001 1.352464e+002
540392600.9815 -6.518902e-001 1.618296e+002 -5.361076e+001 -2.873592e+001 -5.384420e+001 -3.196287e+001 -1.794124e-001 1.352681e+002
540770101.92525 -6.530205e-001 1.616487e+002 -5.360184e+001 -2.927029e+001 -5.365026e+001 -3.162165e+001 -1.812824e-001 1.352928e+002
541147602.86901 -6.535816e-001 1.613817e+002 -5.374587e+001 -3.157438e+001 -5.377631e+001 -3.526237e+001 -1.840987e-001 1.353088e+002
541525103.81276 -6.599959e-001 1.612308e+002 -5.374094e+001 -3.252223e+001 -5.388374e+001 -3.641240e+001 -1.875057e-001 1.353099e+002
541902604.75651 -6.580492e-001 1.610479e+002 -5.373763e+001 -3.329571e+001 -5.382766e+001 -3.364550e+001 -1.893208e-001 1.353630e+002
542280105.70026 -6.621650e-001 1.607540e+002 -5.360075e+001 -3.484813e+001 -5.377612e+001 -3.850708e+001 -1.921627e-001 1.353154e+002
542657606.64402 -6.619478e-001 1.605480e+002 -5.402042e+001 -3.583484e+001 -5.388092e+001 -3.811230e+001 -1.950263e-001 1.353203e+002
543035107.58777 -6.641845e-001 1.603593e+002 -5.364295e+001 -3.649627e+001 -5.370559e+001 -4.078785e+001 -1.982072e-001 1.353206e+002
543412608.53152 -6.672346e-001 1.601124e+002 -5.352607e+001 -3.822542e+001 -5.390697e+001 -4.146468e+001 -2.005071e-001 1.353026e+002
543790109.47527 -6.716353e-001 1.598574e+002 -5.373523e+001 -3.816965e+001 -5.386837e+001 -4.094486e+001 -1.995417e-001 1.352832e+002
544167610.41903 -6.676753e-001 1.596396e+002 -5.377860e+001 -4.008722e+001 -5.395952e+001 -4.184597e+001 -2.028914e-001 1.352834e+002
544545111.36278 -6.722628e-001 1.593330e+002 -5.364878e+001 -4.122031e+001 -5.386552e+001 -4.275652e+001 -2.053823e-001 1.352268e+002
544922612.30653 -6.715101e-001 1.591688e+002 -5.342889e+001 -3.813264e+001 -5.390680e+001 -4.282299e+001 -2.101258e-001 1.351670e+002
545300113.25028 -6.737757e-001 1.588934e+002 -5.326922e+001 -4.137409e+001 -5.366357e+001 -4.382323e+001 -2.146129e-001 1.351403e+002
545677614.19404 -6.751240e-001 1.586627e+002 -5.333648e+001 -4.259132e+001 -5.357285e+001 -4.366280e+001 -2.151749e-001 1.351073e+002
546055115.13779 -6.726276e-001 1.583749e+002 -5.337294e+001 -4.310129e+001 -5.357503e+001 -4.472395e+001 -2.168580e-001 1.350449e+002
546432616.08154 -6.812804e-001 1.581490e+002 -5.340011e+001 -4.282788e+001 -5.378819e+001 -4.810884e+001 -2.183575e-001 1.350066e+002
546810117.02529 -6.798227e-001 1.578868e+002 -5.314675e+001 -4.678038e+001 -5.350883e+001 -4.710970e+001 -2.227672e-001 1.349196e+002
547187617.96904 -6.844396e-001 1.575723e+002 -5.331010e+001 -4.737065e+001 -5.330008e+001 -4.609912e+001 -2.284118e-001 1.348715e+002
547565118.9128 -6.845623e-001 1.572597e+002 -5.306542e+001 -4.498388e+001 -5.363668e+001 -4.728744e+001 -2.304664e-001 1.348093e+002
547942619.85655 -6.922143e-001 1.570222e+002 -5.304905e+001 -4.873346e+001 -5.328791e+001 -4.964286e+001 -2.323321e-001 1.347429e+002
548320120.8003 -6.982589e-001 1.567668e+002 -5.325281e+001 -4.812236e+001 -5.312902e+001 -4.936244e+001 -2.359857e-001 1.346732e+002
548697621.74405 -7.035714e-001 1.565045e+002 -5.300975e+001 -4.885577e+001 -5.320594e+001 -4.887827e+001 -2.409499e-001 1.346060e+002
549075122.68781 -7.077160e-001 1.562501e+002 -5.262277e+001 -4.959357e+001 -5.340840e+001 -5.138376e+001 -2.457673e-001 1.344992e+002
549452623.63156 -7.124888e-001 1.560037e+002 -5.286503e+001 -5.159163e+001 -5.320552e+001 -5.250419e+001 -2.473110e-001 1.344218e+002
549830124.57531 -7.183509e-001 1.557327e+002 -5.301562e+001 -5.179982e+001 -5.339554e+001 -5.325488e+001 -2.493363e-001 1.343423e+002
550207625.51906 -7.195405e-001 1.555100e+002 -5.274063e+001 -5.464220e+001 -5.300953e+001 -5.322175e+001 -2.531967e-001 1.342629e+002
550585126.46282 -7.247851e-001 1.552229e+002 -5.263400e+001 -5.368536e+001 -5.280332e+001 -5.498823e+001 -2.529815e-001 1.341517e+002
550962627.40657 -7.307207e-001 1.550078e+002 -5.267569e+001 -5.462655e+001 -5.286689e+001 -5.469729e+001 -2.599510e-001 1.340804e+002
551340128.35032 -7.322633e-001 1.547537e+002 -5.255925e+001 -5.516199e+001 -5.292694e+001 -5.622396e+001 -2.583430e-001 1.340120e+002
551717629.29407 -7.376919e-001 1.544591e+002 -5.268975e+001 -5.829275e+001 -5.282621e+001 -5.740695e+001 -2.638120e-001 1.339383e+002
552095130.23783 -7.399374e-001 1.542680e+002 -5.268837e+001 -5.844883e+001 -5.267229e+001 -5.870792e+001 -2.655306e-001 1.338351e+002
552472631.18158 -7.425537e-001 1.539633e+002 -5.269727e+001 -5.961654e+001 -5.257992e+001 -6.168211e+001 -2.691031e-001 1.337458e+002
552850132.12533 -7.485515e-001 1.537271e+002 -5.274854e+001 -5.973075e+001 -5.280993e+001 -6.149451e+001 -2.671231e-001 1.336644e+002
553227633.06908 -7.556636e-001 1.534664e+002 -5.286316e+001 -6.199242e+001 -5.296906e+001 -6.104157e+001 -2.732940e-001 1.335822e+002
553605134.01284 -7.582984e-001 1.531642e+002 -5.280903e+001 -6.212952e+001 -5.252454e+001 -6.392435e+001 -2.745232e-001 1.334913e+002
553982634.95659 -7.670308e-001 1.529400e+002 -5.276415e+001 -6.372586e+001 -5.287518e+001 -6.401668e+001 -2.739616e-001 1.334079e+002
554360135.90034 -7.766294e-001 1.526824e+002 -5.267612e+001 -6.425901e+001 -5.291025e+001 -6.376487e+001 -2.724019e-001 1.333301e+002
554737636.84409 -7.799399e-001 1.524170e+002 -5.278325e+001 -6.437797e+001 -5.261832e+001 -6.711158e+001 -2.753373e-001 1.332689e+002
555115137.78784 -7.874684e-001 1.521730e+002 -5.277654e+001 -6.321554e+001 -5.241730e+001 -6.587193e+001 -2.722645e-001 1.331894e+002
555492638.7316 -7.976825e-001 1.518918e+002 -5.276300e+001 -6.498756e+001 -5.257633e+001 -6.705717e+001 -2.724895e-001 1.331048e+002
