!Agilent Technologies,E8364B,US42250235,A.06.04.32
!Agilent E8364B: A.06.04.32
!Date: Thursday, October 01, 2020 11:18:45
!Correction: S11(Full 2 Port(1,2)) S21(Full 2 Port(1,2)) S12(Full 2 Port(1,2)) S22(Full 2 Port(1,2)) 
!S2P File: Measurements: S11, S21, S12, S22:
# Hz S  dB   R 50
500000000 -2.077120e-001 -1.750888e+002 -6.203732e+001 -3.974083e+000 -6.316278e+001 -7.806171e+000 -2.360173e-001 1.362811e+002
500377500.94375 -2.067380e-001 -1.752807e+002 -6.224168e+001 -1.044450e+000 -6.305180e+001 -2.105375e+000 -2.326390e-001 1.361793e+002
500755001.8875 -2.104146e-001 -1.755031e+002 -6.321575e+001 -7.595671e-001 -6.229620e+001 -7.930758e+000 -2.372193e-001 1.360677e+002
501132502.83126 -2.151326e-001 -1.757001e+002 -6.277471e+001 -6.277622e-001 -6.263156e+001 -8.616918e+000 -2.369031e-001 1.359801e+002
501510003.77501 -2.198418e-001 -1.758872e+002 -6.268676e+001 -1.520714e-001 -6.234234e+001 -1.557644e+001 -2.351843e-001 1.359014e+002
501887504.71876 -2.276531e-001 -1.761042e+002 -6.291981e+001 -1.122029e+000 -6.362691e+001 -7.884183e+000 -2.409235e-001 1.357828e+002
502265005.66251 -2.261529e-001 -1.763118e+002 -6.290732e+001 -6.221131e+000 -6.214080e+001 -1.255126e+001 -2.330771e-001 1.356833e+002
502642506.60627 -2.303492e-001 -1.765380e+002 -6.231318e+001 -1.157357e+000 -6.282716e+001 -1.188065e+001 -2.332933e-001 1.355648e+002
503020007.55002 -2.326380e-001 -1.767452e+002 -6.202450e+001 -9.682515e+000 -6.307034e+001 -4.681238e+000 -2.330727e-001 1.355512e+002
503397508.49377 -2.359638e-001 -1.769612e+002 -6.201845e+001 -5.891738e+000 -6.299717e+001 -1.346532e+001 -2.257598e-001 1.354671e+002
503775009.43752 -2.388042e-001 -1.771306e+002 -6.335843e+001 -2.057942e+000 -6.333399e+001 -1.160700e+001 -2.244054e-001 1.354132e+002
504152510.38128 -2.414720e-001 -1.773902e+002 -6.234489e+001 -9.800229e+000 -6.267168e+001 -1.342604e+001 -2.207451e-001 1.353797e+002
504530011.32503 -2.444789e-001 -1.776029e+002 -6.226056e+001 -1.298548e+001 -6.310308e+001 -1.091572e+001 -2.167266e-001 1.353336e+002
504907512.26878 -2.489772e-001 -1.778082e+002 -6.209367e+001 -8.835013e+000 -6.287677e+001 -1.313954e+001 -2.119349e-001 1.353064e+002
505285013.21253 -2.488988e-001 -1.780596e+002 -6.220031e+001 -1.611720e+001 -6.219472e+001 -1.102853e+001 -2.066149e-001 1.352976e+002
505662514.15629 -2.504733e-001 -1.781727e+002 -6.248434e+001 -5.161838e+000 -6.187049e+001 -1.599972e+001 -2.011862e-001 1.352549e+002
506040015.10004 -2.524203e-001 -1.784742e+002 -6.273042e+001 -8.786717e+000 -6.181790e+001 -2.061754e+001 -1.979316e-001 1.352784e+002
506417516.04379 -2.535856e-001 -1.786009e+002 -6.127721e+001 -1.365642e+001 -6.227517e+001 -1.470066e+001 -1.852669e-001 1.353151e+002
506795016.98754 -2.518307e-001 -1.788840e+002 -6.181611e+001 -1.483127e+001 -6.230505e+001 -1.613162e+001 -1.804229e-001 1.353685e+002
507172517.93129 -2.550426e-001 -1.790488e+002 -6.125475e+001 -1.420799e+001 -6.181447e+001 -1.449399e+001 -1.762641e-001 1.354182e+002
507550018.87505 -2.539904e-001 -1.792935e+002 -6.114977e+001 -1.709671e+001 -6.201988e+001 -1.599200e+001 -1.671467e-001 1.354821e+002
507927519.8188 -2.542254e-001 -1.794562e+002 -6.201657e+001 -1.934768e+001 -6.160133e+001 -1.941408e+001 -1.643688e-001 1.355797e+002
508305020.76255 -2.591777e-001 -1.796128e+002 -6.169623e+001 -1.895500e+001 -6.211683e+001 -1.867981e+001 -1.587130e-001 1.356608e+002
508682521.7063 -2.542745e-001 -1.798447e+002 -6.182092e+001 -1.975586e+001 -6.128967e+001 -1.870514e+001 -1.524647e-001 1.357593e+002
509060022.65006 -2.551776e-001 1.799281e+002 -6.110125e+001 -1.515681e+001 -6.155365e+001 -2.173490e+001 -1.461844e-001 1.358745e+002
509437523.59381 -2.553150e-001 1.797892e+002 -6.146242e+001 -2.103352e+001 -6.145457e+001 -2.001204e+001 -1.418287e-001 1.359995e+002
509815024.53756 -2.581748e-001 1.795442e+002 -6.076317e+001 -1.970286e+001 -6.208747e+001 -2.145258e+001 -1.376270e-001 1.361379e+002
510192525.48131 -2.536759e-001 1.793429e+002 -6.093104e+001 -1.958249e+001 -6.083842e+001 -2.024402e+001 -1.377584e-001 1.362747e+002
510570026.42507 -2.517920e-001 1.791294e+002 -6.178625e+001 -2.383536e+001 -6.135183e+001 -2.816764e+001 -1.353657e-001 1.364595e+002
510947527.36882 -2.590378e-001 1.789186e+002 -6.099611e+001 -2.062280e+001 -6.099546e+001 -2.555516e+001 -1.301336e-001 1.366035e+002
511325028.31257 -2.555401e-001 1.787137e+002 -6.091543e+001 -2.531231e+001 -6.170486e+001 -2.661109e+001 -1.269035e-001 1.367747e+002
511702529.25632 -2.632899e-001 1.785799e+002 -6.188378e+001 -2.574471e+001 -6.105951e+001 -2.831326e+001 -1.270920e-001 1.369576e+002
512080030.20008 -2.576994e-001 1.783786e+002 -6.099411e+001 -2.630023e+001 -6.109127e+001 -2.848077e+001 -1.280573e-001 1.371252e+002
512457531.14383 -2.618704e-001 1.780853e+002 -6.204082e+001 -2.596524e+001 -6.108170e+001 -3.009188e+001 -1.284524e-001 1.372894e+002
512835032.08758 -2.668541e-001 1.779493e+002 -6.172433e+001 -2.188534e+001 -6.096671e+001 -3.189758e+001 -1.270613e-001 1.374422e+002
513212533.03133 -2.707628e-001 1.777624e+002 -6.112672e+001 -2.223897e+001 -6.067725e+001 -3.102934e+001 -1.336950e-001 1.375915e+002
513590033.97508 -2.683304e-001 1.775692e+002 -6.064693e+001 -2.688698e+001 -6.063595e+001 -3.169452e+001 -1.362391e-001 1.377426e+002
513967534.91884 -2.736467e-001 1.773342e+002 -6.064369e+001 -2.833255e+001 -6.048703e+001 -3.098562e+001 -1.405107e-001 1.378913e+002
514345035.86259 -2.745304e-001 1.771070e+002 -6.006441e+001 -2.991595e+001 -6.024175e+001 -3.100399e+001 -1.478669e-001 1.380206e+002
514722536.80634 -2.785547e-001 1.768984e+002 -6.047817e+001 -2.670619e+001 -5.957998e+001 -3.275038e+001 -1.504614e-001 1.381559e+002
515100037.75009 -2.821836e-001 1.766750e+002 -6.028232e+001 -3.062945e+001 -5.985342e+001 -2.873669e+001 -1.564566e-001 1.382586e+002
515477538.69385 -2.844138e-001 1.765033e+002 -6.032890e+001 -2.490569e+001 -6.072091e+001 -3.234533e+001 -1.599500e-001 1.383487e+002
515855039.6376 -2.904018e-001 1.762330e+002 -5.967393e+001 -2.686581e+001 -5.956935e+001 -3.703378e+001 -1.708934e-001 1.384195e+002
516232540.58135 -2.913371e-001 1.760211e+002 -5.951965e+001 -2.817305e+001 -5.982453e+001 -3.557103e+001 -1.740998e-001 1.384626e+002
516610041.5251 -2.923509e-001 1.757990e+002 -5.972498e+001 -3.163678e+001 -5.928434e+001 -3.817318e+001 -1.841265e-001 1.385033e+002
516987542.46886 -2.981526e-001 1.755759e+002 -6.002723e+001 -3.465326e+001 -6.023987e+001 -3.460355e+001 -1.938375e-001 1.385193e+002
517365043.41261 -3.032062e-001 1.753624e+002 -5.910888e+001 -3.270396e+001 -5.950104e+001 -3.819615e+001 -2.037994e-001 1.385128e+002
517742544.35636 -3.021683e-001 1.751663e+002 -5.914514e+001 -3.432734e+001 -5.935378e+001 -3.825604e+001 -2.115942e-001 1.384699e+002
518120045.30011 -3.098624e-001 1.748733e+002 -5.902642e+001 -3.622947e+001 -5.916033e+001 -3.904987e+001 -2.193056e-001 1.384152e+002
518497546.24387 -3.137486e-001 1.746549e+002 -5.882912e+001 -3.676564e+001 -5.986264e+001 -4.440950e+001 -2.271843e-001 1.383411e+002
518875047.18762 -3.180277e-001 1.744398e+002 -5.914922e+001 -3.793535e+001 -5.970061e+001 -4.219099e+001 -2.377125e-001 1.382465e+002
519252548.13137 -3.200748e-001 1.741760e+002 -5.888745e+001 -4.398339e+001 -5.930991e+001 -4.790438e+001 -2.423523e-001 1.381122e+002
519630049.07512 -3.214331e-001 1.739361e+002 -5.869047e+001 -4.232167e+001 -5.935178e+001 -4.322461e+001 -2.505668e-001 1.379974e+002
520007550.01888 -3.269305e-001 1.737012e+002 -5.913971e+001 -4.202150e+001 -5.958978e+001 -5.315843e+001 -2.571399e-001 1.378517e+002
520385050.96263 -3.302259e-001 1.734559e+002 -5.860443e+001 -4.644718e+001 -5.899837e+001 -4.651423e+001 -2.637382e-001 1.376678e+002
520762551.90638 -3.328860e-001 1.732191e+002 -5.861142e+001 -4.620163e+001 -5.862509e+001 -4.741156e+001 -2.687617e-001 1.374912e+002
521140052.85013 -3.350609e-001 1.729736e+002 -5.880964e+001 -4.518101e+001 -5.859314e+001 -5.311601e+001 -2.756938e-001 1.372747e+002
521517553.79388 -3.388415e-001 1.727361e+002 -5.846751e+001 -4.770704e+001 -5.859200e+001 -5.036244e+001 -2.788447e-001 1.370569e+002
521895054.73764 -3.400360e-001 1.725160e+002 -5.899505e+001 -5.269561e+001 -5.824052e+001 -4.957312e+001 -2.795688e-001 1.368143e+002
522272555.68139 -3.385048e-001 1.722726e+002 -5.887419e+001 -4.566102e+001 -5.902309e+001 -5.424107e+001 -2.831385e-001 1.366247e+002
522650056.62514 -3.414204e-001 1.720587e+002 -5.774248e+001 -5.462336e+001 -5.893663e+001 -5.490580e+001 -2.824540e-001 1.363792e+002
523027557.56889 -3.449801e-001 1.717915e+002 -5.826278e+001 -5.699758e+001 -5.787766e+001 -5.373461e+001 -2.817952e-001 1.360802e+002
523405058.51265 -3.482328e-001 1.715766e+002 -5.825238e+001 -5.408722e+001 -5.863654e+001 -5.366808e+001 -2.839622e-001 1.358845e+002
523782559.4564 -3.496284e-001 1.713001e+002 -5.826096e+001 -5.658412e+001 -5.878297e+001 -5.946323e+001 -2.816583e-001 1.356482e+002
524160060.40015 -3.476814e-001 1.710928e+002 -5.828796e+001 -5.815945e+001 -5.862518e+001 -5.621342e+001 -2.825980e-001 1.354265e+002
524537561.3439 -3.534590e-001 1.708516e+002 -5.793564e+001 -6.215454e+001 -5.865165e+001 -6.007423e+001 -2.770072e-001 1.352575e+002
524915062.28766 -3.574787e-001 1.706039e+002 -5.861339e+001 -6.303368e+001 -5.887815e+001 -6.414404e+001 -2.773196e-001 1.349782e+002
525292563.23141 -3.572852e-001 1.703713e+002 -5.835788e+001 -6.076511e+001 -5.804070e+001 -6.270539e+001 -2.691305e-001 1.347585e+002
525670064.17516 -3.614763e-001 1.701336e+002 -5.850932e+001 -5.820707e+001 -5.826584e+001 -6.164126e+001 -2.618371e-001 1.345817e+002
526047565.11891 -3.660406e-001 1.699284e+002 -5.873625e+001 -6.086471e+001 -5.843487e+001 -6.502417e+001 -2.577056e-001 1.343968e+002
526425066.06267 -3.710274e-001 1.696845e+002 -5.834595e+001 -6.160102e+001 -5.821632e+001 -6.263232e+001 -2.506179e-001 1.342543e+002
526802567.00642 -3.749113e-001 1.694629e+002 -5.838069e+001 -6.114447e+001 -5.853042e+001 -6.340596e+001 -2.439696e-001 1.341076e+002
527180067.95017 -3.800602e-001 1.691843e+002 -5.887490e+001 -6.329512e+001 -5.865530e+001 -6.591853e+001 -2.359432e-001 1.339674e+002
527557568.89392 -3.849548e-001 1.689979e+002 -5.897469e+001 -6.685165e+001 -5.901424e+001 -6.463425e+001 -2.246645e-001 1.338295e+002
527935069.83767 -3.900042e-001 1.686999e+002 -5.895118e+001 -6.988771e+001 -5.879921e+001 -6.951206e+001 -2.222338e-001 1.337582e+002
528312570.78143 -3.956067e-001 1.684467e+002 -5.843592e+001 -6.391139e+001 -5.823648e+001 -7.154668e+001 -2.101119e-001 1.337292e+002
528690071.72518 -4.050277e-001 1.682104e+002 -5.908250e+001 -6.700622e+001 -5.853723e+001 -7.311314e+001 -2.068745e-001 1.336460e+002
529067572.66893 -4.101104e-001 1.679968e+002 -5.890105e+001 -6.698462e+001 -5.838551e+001 -6.972527e+001 -1.981835e-001 1.335820e+002
529445073.61268 -4.178442e-001 1.677397e+002 -5.924195e+001 -6.488916e+001 -5.836546e+001 -6.841729e+001 -1.922867e-001 1.335616e+002
529822574.55644 -4.241949e-001 1.674947e+002 -5.878029e+001 -6.997272e+001 -5.848035e+001 -6.759450e+001 -1.832141e-001 1.335523e+002
530200075.50019 -4.254873e-001 1.672662e+002 -5.888523e+001 -6.689222e+001 -5.865891e+001 -7.073995e+001 -1.752010e-001 1.335745e+002
530577576.44394 -4.352465e-001 1.670108e+002 -5.825288e+001 -6.907919e+001 -5.867153e+001 -7.160989e+001 -1.706739e-001 1.335837e+002
530955077.38769 -4.442202e-001 1.668169e+002 -5.846125e+001 -6.904500e+001 -5.871489e+001 -7.244605e+001 -1.627869e-001 1.335911e+002
531332578.33145 -4.506600e-001 1.665376e+002 -5.811402e+001 -6.742595e+001 -5.779616e+001 -7.152673e+001 -1.593522e-001 1.336613e+002
531710079.2752 -4.561444e-001 1.662951e+002 -5.815271e+001 -6.780126e+001 -5.799796e+001 -7.405830e+001 -1.545978e-001 1.337149e+002
532087580.21895 -4.585389e-001 1.660125e+002 -5.804501e+001 -7.212281e+001 -5.793835e+001 -7.244691e+001 -1.460434e-001 1.337626e+002
532465081.1627 -4.668582e-001 1.658149e+002 -5.839100e+001 -6.791622e+001 -5.789072e+001 -7.337900e+001 -1.458922e-001 1.338495e+002
532842582.10646 -4.721817e-001 1.655933e+002 -5.823835e+001 -7.425091e+001 -5.812515e+001 -7.752641e+001 -1.396882e-001 1.339091e+002
533220083.05021 -4.797076e-001 1.653038e+002 -5.869647e+001 -7.074522e+001 -5.771635e+001 -7.207787e+001 -1.355699e-001 1.339870e+002
533597583.99396 -4.874384e-001 1.650818e+002 -5.755914e+001 -7.120401e+001 -5.753125e+001 -7.631380e+001 -1.388104e-001 1.340669e+002
533975084.93771 -4.942403e-001 1.648571e+002 -5.765746e+001 -6.934653e+001 -5.739389e+001 -7.846448e+001 -1.318825e-001 1.341611e+002
534352585.88146 -5.018983e-001 1.645766e+002 -5.761511e+001 -7.071554e+001 -5.753462e+001 -7.552750e+001 -1.291778e-001 1.342232e+002
534730086.82522 -5.046986e-001 1.643164e+002 -5.719010e+001 -7.381948e+001 -5.743021e+001 -8.017027e+001 -1.336855e-001 1.343166e+002
535107587.76897 -5.133553e-001 1.640915e+002 -5.759136e+001 -7.327790e+001 -5.742604e+001 -8.017155e+001 -1.259616e-001 1.344343e+002
535485088.71272 -5.174090e-001 1.638746e+002 -5.740585e+001 -7.446259e+001 -5.727102e+001 -7.739214e+001 -1.329038e-001 1.344739e+002
535862589.65647 -5.243083e-001 1.636671e+002 -5.701625e+001 -7.163513e+001 -5.746652e+001 -8.054498e+001 -1.329237e-001 1.345564e+002
536240090.60023 -5.263292e-001 1.633890e+002 -5.729220e+001 -7.398177e+001 -5.689811e+001 -8.076163e+001 -1.316585e-001 1.346196e+002
536617591.54398 -5.313033e-001 1.631987e+002 -5.713454e+001 -7.702053e+001 -5.705358e+001 -7.943631e+001 -1.349663e-001 1.347209e+002
536995092.48773 -5.356585e-001 1.629040e+002 -5.680383e+001 -7.584614e+001 -5.717221e+001 -8.015034e+001 -1.347245e-001 1.348353e+002
537372593.43148 -5.432163e-001 1.626416e+002 -5.680557e+001 -7.669875e+001 -5.682064e+001 -7.989603e+001 -1.390478e-001 1.348371e+002
537750094.37524 -5.508358e-001 1.624431e+002 -5.652597e+001 -7.918432e+001 -5.635167e+001 -8.087936e+001 -1.456374e-001 1.349025e+002
538127595.31899 -5.582853e-001 1.621525e+002 -5.685754e+001 -7.761147e+001 -5.596547e+001 -8.397171e+001 -1.442233e-001 1.349570e+002
538505096.26274 -5.631274e-001 1.619193e+002 -5.614510e+001 -7.892816e+001 -5.595876e+001 -8.466207e+001 -1.504375e-001 1.350255e+002
538882597.20649 -5.714805e-001 1.617093e+002 -5.625869e+001 -7.756449e+001 -5.579486e+001 -8.636853e+001 -1.485152e-001 1.350359e+002
539260098.15025 -5.800222e-001 1.614797e+002 -5.631384e+001 -8.205495e+001 -5.589181e+001 -8.591477e+001 -1.545497e-001 1.350527e+002
539637599.094 -5.894604e-001 1.612799e+002 -5.578869e+001 -8.264708e+001 -5.580388e+001 -9.043694e+001 -1.551095e-001 1.351057e+002
540015100.03775 -5.967292e-001 1.610802e+002 -5.598881e+001 -8.422356e+001 -5.581796e+001 -8.840081e+001 -1.647001e-001 1.351274e+002
540392600.9815 -6.062160e-001 1.607755e+002 -5.545769e+001 -8.647913e+001 -5.563585e+001 -8.927240e+001 -1.626350e-001 1.351316e+002
540770101.92525 -6.125716e-001 1.605819e+002 -5.535566e+001 -8.766980e+001 -5.531366e+001 -9.036763e+001 -1.689205e-001 1.351505e+002
541147602.86901 -6.250377e-001 1.603018e+002 -5.539800e+001 -8.513543e+001 -5.542219e+001 -9.412735e+001 -1.700687e-001 1.351717e+002
541525103.81276 -6.327911e-001 1.601513e+002 -5.558361e+001 -8.724213e+001 -5.527151e+001 -9.036172e+001 -1.707259e-001 1.351622e+002
541902604.75651 -6.378019e-001 1.598795e+002 -5.533034e+001 -8.903033e+001 -5.505648e+001 -9.463391e+001 -1.731588e-001 1.351986e+002
542280105.70026 -6.471108e-001 1.596156e+002 -5.527386e+001 -9.102602e+001 -5.521569e+001 -9.703065e+001 -1.756637e-001 1.351430e+002
542657606.64402 -6.565254e-001 1.594740e+002 -5.539551e+001 -8.901952e+001 -5.540142e+001 -9.631538e+001 -1.750056e-001 1.351523e+002
543035107.58777 -6.637485e-001 1.592017e+002 -5.500798e+001 -9.180795e+001 -5.525642e+001 -9.785629e+001 -1.800094e-001 1.351388e+002
543412608.53152 -6.757278e-001 1.590223e+002 -5.508542e+001 -9.246770e+001 -5.539143e+001 -9.827753e+001 -1.803355e-001 1.351194e+002
543790109.47527 -6.847030e-001 1.587401e+002 -5.476090e+001 -9.386912e+001 -5.510820e+001 -9.893757e+001 -1.809805e-001 1.350919e+002
544167610.41903 -6.852908e-001 1.584972e+002 -5.490149e+001 -9.521046e+001 -5.472736e+001 -9.772945e+001 -1.830039e-001 1.351056e+002
544545111.36278 -6.965307e-001 1.582145e+002 -5.462032e+001 -9.547724e+001 -5.516889e+001 -1.004268e+002 -1.850704e-001 1.350370e+002
544922612.30653 -6.989426e-001 1.580376e+002 -5.458242e+001 -9.621894e+001 -5.464470e+001 -1.028382e+002 -1.865688e-001 1.349737e+002
545300113.25028 -7.031191e-001 1.577743e+002 -5.432113e+001 -9.560231e+001 -5.502862e+001 -1.026693e+002 -1.891196e-001 1.349729e+002
545677614.19404 -7.126219e-001 1.574617e+002 -5.468599e+001 -9.876026e+001 -5.475354e+001 -1.050590e+002 -1.887205e-001 1.349319e+002
546055115.13779 -7.151119e-001 1.572039e+002 -5.425538e+001 -9.836764e+001 -5.455157e+001 -1.043239e+002 -1.914106e-001 1.348775e+002
546432616.08154 -7.257183e-001 1.569295e+002 -5.422512e+001 -9.961469e+001 -5.448535e+001 -1.036006e+002 -1.914006e-001 1.348389e+002
546810117.02529 -7.328034e-001 1.566946e+002 -5.399173e+001 -1.008605e+002 -5.421212e+001 -1.052542e+002 -1.925739e-001 1.347815e+002
547187617.96904 -7.448097e-001 1.563717e+002 -5.413710e+001 -1.002564e+002 -5.456778e+001 -1.081924e+002 -1.956861e-001 1.347243e+002
547565118.9128 -7.509753e-001 1.560415e+002 -5.407848e+001 -1.042468e+002 -5.432389e+001 -1.071311e+002 -1.945689e-001 1.346647e+002
547942619.85655 -7.637634e-001 1.558459e+002 -5.390838e+001 -1.031331e+002 -5.414111e+001 -1.095264e+002 -1.985590e-001 1.346276e+002
548320120.8003 -7.717584e-001 1.555327e+002 -5.386805e+001 -1.038887e+002 -5.398011e+001 -1.099371e+002 -2.000246e-001 1.345716e+002
548697621.74405 -7.848253e-001 1.552766e+002 -5.354505e+001 -1.068488e+002 -5.396693e+001 -1.104859e+002 -2.016022e-001 1.345264e+002
549075122.68781 -7.955358e-001 1.550045e+002 -5.362131e+001 -1.072674e+002 -5.357360e+001 -1.115849e+002 -2.065343e-001 1.344503e+002
549452623.63156 -8.070809e-001 1.547525e+002 -5.348043e+001 -1.089201e+002 -5.374057e+001 -1.119353e+002 -2.066640e-001 1.343795e+002
549830124.57531 -8.173198e-001 1.544937e+002 -5.339070e+001 -1.074509e+002 -5.345745e+001 -1.132067e+002 -2.101766e-001 1.343207e+002
550207625.51906 -8.238701e-001 1.542657e+002 -5.355778e+001 -1.108092e+002 -5.352645e+001 -1.153712e+002 -2.119590e-001 1.342662e+002
550585126.46282 -8.332835e-001 1.540261e+002 -5.317022e+001 -1.094088e+002 -5.327737e+001 -1.132410e+002 -2.151057e-001 1.341875e+002
550962627.40657 -8.440472e-001 1.537931e+002 -5.296769e+001 -1.106662e+002 -5.318424e+001 -1.168501e+002 -2.188942e-001 1.341218e+002
551340128.35032 -8.518216e-001 1.535459e+002 -5.307341e+001 -1.128502e+002 -5.301678e+001 -1.170272e+002 -2.184939e-001 1.340701e+002
551717629.29407 -8.618615e-001 1.532783e+002 -5.299221e+001 -1.129623e+002 -5.277510e+001 -1.171066e+002 -2.216965e-001 1.340120e+002
552095130.23783 -8.702976e-001 1.530710e+002 -5.266045e+001 -1.161497e+002 -5.283780e+001 -1.195793e+002 -2.215034e-001 1.339362e+002
552472631.18158 -8.826025e-001 1.528215e+002 -5.269071e+001 -1.155191e+002 -5.272818e+001 -1.203397e+002 -2.248315e-001 1.338818e+002
552850132.12533 -8.937940e-001 1.525421e+002 -5.232656e+001 -1.178764e+002 -5.259659e+001 -1.216909e+002 -2.264565e-001 1.338133e+002
553227633.06908 -9.077516e-001 1.522944e+002 -5.254996e+001 -1.186649e+002 -5.239499e+001 -1.226485e+002 -2.284155e-001 1.337511e+002
553605134.01284 -9.159830e-001 1.520393e+002 -5.235133e+001 -1.192572e+002 -5.239646e+001 -1.222225e+002 -2.321331e-001 1.336649e+002
553982634.95659 -9.326859e-001 1.517972e+002 -5.242429e+001 -1.207718e+002 -5.220122e+001 -1.256452e+002 -2.326151e-001 1.335976e+002
554360135.90034 -9.479941e-001 1.515671e+002 -5.215391e+001 -1.217855e+002 -5.198155e+001 -1.255758e+002 -2.309991e-001 1.335428e+002
554737636.84409 -9.602633e-001 1.513215e+002 -5.199809e+001 -1.233173e+002 -5.201923e+001 -1.259566e+002 -2.325994e-001 1.334710e+002
555115137.78784 -9.777260e-001 1.511223e+002 -5.189518e+001 -1.252317e+002 -5.191057e+001 -1.275096e+002 -2.316741e-001 1.334078e+002
