!Agilent Technologies,E8364B,US42250235,A.06.04.32
!Agilent E8364B: A.06.04.32
!Date: Thursday, October 01, 2020 10:58:27
!Correction: S11(Full 2 Port(1,2)) S21(Full 2 Port(1,2)) S12(Full 2 Port(1,2)) S22(Full 2 Port(1,2)) 
!S2P File: Measurements: S11, S21, S12, S22:
# Hz S  dB   R 50
500000000 -1.218783e-001 -1.751984e+002 -5.679230e+001 1.165700e+002 -5.609957e+001 1.148752e+002 -3.101907e-002 1.383452e+002
500377500.94375 -1.225583e-001 -1.753717e+002 -5.615595e+001 1.176235e+002 -5.650278e+001 1.174107e+002 -3.200636e-002 1.383012e+002
500755001.8875 -1.203901e-001 -1.755899e+002 -5.651157e+001 1.161324e+002 -5.645951e+001 1.147631e+002 -3.163147e-002 1.382517e+002
501132502.83126 -1.251321e-001 -1.757540e+002 -5.661844e+001 1.147394e+002 -5.599409e+001 1.163102e+002 -3.095749e-002 1.382082e+002
501510003.77501 -1.282519e-001 -1.759423e+002 -5.659238e+001 1.147767e+002 -5.609958e+001 1.146651e+002 -3.155085e-002 1.381987e+002
501887504.71876 -1.290072e-001 -1.761795e+002 -5.631673e+001 1.165486e+002 -5.601574e+001 1.133297e+002 -3.584886e-002 1.381066e+002
502265005.66251 -1.313770e-001 -1.763475e+002 -5.609196e+001 1.119756e+002 -5.630089e+001 1.149067e+002 -3.520552e-002 1.380702e+002
502642506.60627 -1.323844e-001 -1.766284e+002 -5.654979e+001 1.123466e+002 -5.619159e+001 1.154413e+002 -3.997665e-002 1.380347e+002
503020007.55002 -1.341295e-001 -1.768172e+002 -5.614862e+001 1.143871e+002 -5.638710e+001 1.134669e+002 -3.974210e-002 1.379788e+002
503397508.49377 -1.367182e-001 -1.769919e+002 -5.575577e+001 1.162577e+002 -5.551727e+001 1.145574e+002 -3.597284e-002 1.379171e+002
503775009.43752 -1.369969e-001 -1.772713e+002 -5.605581e+001 1.145668e+002 -5.602548e+001 1.121262e+002 -3.980691e-002 1.378726e+002
504152510.38128 -1.401577e-001 -1.774774e+002 -5.560677e+001 1.134885e+002 -5.568455e+001 1.126107e+002 -3.850865e-002 1.378505e+002
504530011.32503 -1.429293e-001 -1.777017e+002 -5.544310e+001 1.148023e+002 -5.598209e+001 1.127486e+002 -3.938838e-002 1.377810e+002
504907512.26878 -1.443923e-001 -1.778721e+002 -5.591222e+001 1.143269e+002 -5.597724e+001 1.126535e+002 -3.827782e-002 1.377256e+002
505285013.21253 -1.434749e-001 -1.781625e+002 -5.571757e+001 1.111850e+002 -5.567279e+001 1.129520e+002 -4.116194e-002 1.377176e+002
505662514.15629 -1.428423e-001 -1.783428e+002 -5.578762e+001 1.113221e+002 -5.566842e+001 1.122815e+002 -3.455326e-002 1.376330e+002
506040015.10004 -1.458637e-001 -1.785613e+002 -5.578228e+001 1.130250e+002 -5.565879e+001 1.128965e+002 -3.747972e-002 1.375974e+002
506417516.04379 -1.451351e-001 -1.787829e+002 -5.535468e+001 1.120798e+002 -5.567393e+001 1.110566e+002 -2.913077e-002 1.375668e+002
506795016.98754 -1.477125e-001 -1.789859e+002 -5.560851e+001 1.086270e+002 -5.547881e+001 1.122376e+002 -3.086244e-002 1.375305e+002
507172517.93129 -1.473113e-001 -1.792086e+002 -5.496426e+001 1.102983e+002 -5.520828e+001 1.118405e+002 -2.586348e-002 1.375066e+002
507550018.87505 -1.501029e-001 -1.794417e+002 -5.535974e+001 1.098105e+002 -5.540092e+001 1.095028e+002 -2.349349e-002 1.374676e+002
507927519.8188 -1.514167e-001 -1.796533e+002 -5.517543e+001 1.092040e+002 -5.529264e+001 1.096815e+002 -2.615055e-002 1.374728e+002
508305020.76255 -1.545470e-001 -1.798587e+002 -5.557859e+001 1.093347e+002 -5.541823e+001 1.091519e+002 -2.265950e-002 1.374377e+002
508682521.7063 -1.519534e-001 1.799061e+002 -5.508443e+001 1.094468e+002 -5.512382e+001 1.120236e+002 -2.150048e-002 1.373846e+002
509060022.65006 -1.520348e-001 1.796918e+002 -5.564878e+001 1.056659e+002 -5.517458e+001 1.099145e+002 -1.798914e-002 1.374051e+002
509437523.59381 -1.573297e-001 1.795124e+002 -5.486162e+001 1.052837e+002 -5.491802e+001 1.100236e+002 -1.387943e-002 1.373930e+002
509815024.53756 -1.584136e-001 1.792906e+002 -5.488422e+001 1.082813e+002 -5.479855e+001 1.095194e+002 -1.335859e-002 1.374059e+002
510192525.48131 -1.572854e-001 1.790809e+002 -5.533854e+001 1.074053e+002 -5.483385e+001 1.101600e+002 -1.442050e-002 1.373919e+002
510570026.42507 -1.586156e-001 1.789185e+002 -5.497436e+001 1.098774e+002 -5.471141e+001 1.057871e+002 -1.407656e-002 1.374217e+002
510947527.36882 -1.604509e-001 1.786716e+002 -5.463501e+001 1.062636e+002 -5.453602e+001 1.080899e+002 -9.950563e-003 1.374339e+002
511325028.31257 -1.566749e-001 1.784508e+002 -5.517396e+001 1.070846e+002 -5.482115e+001 1.090932e+002 -8.184393e-003 1.374601e+002
511702529.25632 -1.619886e-001 1.782449e+002 -5.477560e+001 1.056805e+002 -5.474287e+001 1.094740e+002 -1.079095e-002 1.374802e+002
512080030.20008 -1.581367e-001 1.780706e+002 -5.479032e+001 1.072830e+002 -5.456879e+001 1.082304e+002 -6.837210e-003 1.375009e+002
512457531.14383 -1.635721e-001 1.777828e+002 -5.470346e+001 1.058789e+002 -5.460796e+001 1.078167e+002 -6.695372e-003 1.375193e+002
512835032.08758 -1.649127e-001 1.775914e+002 -5.462232e+001 1.064830e+002 -5.444765e+001 1.082609e+002 -3.571276e-003 1.375475e+002
513212533.03133 -1.705685e-001 1.773820e+002 -5.439991e+001 1.068834e+002 -5.420875e+001 1.073671e+002 -8.965857e-003 1.375655e+002
513590033.97508 -1.665726e-001 1.771745e+002 -5.450043e+001 1.081824e+002 -5.423134e+001 1.060017e+002 -7.847326e-003 1.375968e+002
513967534.91884 -1.694153e-001 1.769529e+002 -5.446301e+001 1.075153e+002 -5.447025e+001 1.062127e+002 -8.378330e-003 1.376237e+002
514345035.86259 -1.712136e-001 1.766949e+002 -5.457024e+001 1.056999e+002 -5.397438e+001 1.069170e+002 -8.305858e-003 1.376282e+002
514722536.80634 -1.769448e-001 1.765172e+002 -5.447957e+001 1.065044e+002 -5.428476e+001 1.054997e+002 -8.758793e-003 1.376746e+002
515100037.75009 -1.766985e-001 1.763110e+002 -5.424510e+001 1.050903e+002 -5.417202e+001 1.056884e+002 -9.309027e-003 1.376888e+002
515477538.69385 -1.829840e-001 1.760569e+002 -5.394963e+001 1.060911e+002 -5.394131e+001 1.034793e+002 -7.664870e-003 1.377049e+002
515855039.6376 -1.825157e-001 1.758491e+002 -5.406279e+001 1.053502e+002 -5.398298e+001 1.042575e+002 -1.258788e-002 1.377207e+002
516232540.58135 -1.856286e-001 1.756261e+002 -5.378407e+001 1.035666e+002 -5.397945e+001 1.024945e+002 -1.061301e-002 1.377176e+002
516610041.5251 -1.876155e-001 1.754422e+002 -5.380218e+001 1.048382e+002 -5.387493e+001 1.017568e+002 -1.197320e-002 1.377297e+002
516987542.46886 -1.895989e-001 1.751796e+002 -5.362973e+001 1.051724e+002 -5.389528e+001 1.041459e+002 -1.692785e-002 1.377301e+002
517365043.41261 -1.939849e-001 1.749539e+002 -5.334008e+001 1.045649e+002 -5.369634e+001 1.034884e+002 -1.769417e-002 1.377087e+002
517742544.35636 -1.922465e-001 1.747786e+002 -5.385669e+001 1.030160e+002 -5.349241e+001 1.002429e+002 -1.855191e-002 1.376799e+002
518120045.30011 -1.960389e-001 1.744944e+002 -5.354680e+001 1.026924e+002 -5.367038e+001 1.032707e+002 -2.016244e-002 1.376588e+002
518497546.24387 -1.973534e-001 1.743083e+002 -5.310711e+001 1.033457e+002 -5.354024e+001 1.031807e+002 -2.301782e-002 1.376410e+002
518875047.18762 -2.003910e-001 1.740071e+002 -5.338443e+001 1.010592e+002 -5.365471e+001 1.019802e+002 -2.540548e-002 1.375958e+002
519252548.13137 -2.036730e-001 1.738432e+002 -5.337174e+001 1.012369e+002 -5.370120e+001 1.002198e+002 -2.274197e-002 1.375967e+002
519630049.07512 -2.036162e-001 1.735556e+002 -5.298429e+001 1.018577e+002 -5.341471e+001 1.006195e+002 -2.502236e-002 1.375283e+002
520007550.01888 -2.078989e-001 1.732747e+002 -5.292084e+001 1.009652e+002 -5.341132e+001 1.012697e+002 -2.594109e-002 1.375033e+002
520385050.96263 -2.080740e-001 1.730645e+002 -5.314201e+001 1.004172e+002 -5.350758e+001 1.006093e+002 -2.255831e-002 1.374634e+002
520762551.90638 -2.138363e-001 1.728268e+002 -5.281861e+001 1.008598e+002 -5.299173e+001 1.019843e+002 -2.633396e-002 1.374041e+002
521140052.85013 -2.142140e-001 1.726207e+002 -5.309335e+001 1.004385e+002 -5.304341e+001 1.009212e+002 -2.669982e-002 1.373521e+002
521517553.79388 -2.168074e-001 1.723714e+002 -5.275338e+001 9.699014e+001 -5.302989e+001 9.984903e+001 -2.635163e-002 1.373078e+002
521895054.73764 -2.172408e-001 1.720901e+002 -5.261575e+001 9.767219e+001 -5.293616e+001 9.893214e+001 -2.766623e-002 1.372530e+002
522272555.68139 -2.157785e-001 1.718493e+002 -5.239241e+001 9.763645e+001 -5.290715e+001 1.002610e+002 -2.778549e-002 1.372238e+002
522650056.62514 -2.213453e-001 1.716053e+002 -5.253229e+001 9.742538e+001 -5.273103e+001 9.836857e+001 -2.313925e-002 1.371848e+002
523027557.56889 -2.241665e-001 1.713984e+002 -5.230606e+001 9.718039e+001 -5.254468e+001 9.864658e+001 -2.295824e-002 1.370706e+002
523405058.51265 -2.280066e-001 1.711034e+002 -5.251843e+001 9.729128e+001 -5.289336e+001 9.849524e+001 -2.505610e-002 1.370813e+002
523782559.4564 -2.318688e-001 1.708792e+002 -5.234063e+001 9.633281e+001 -5.270852e+001 9.786776e+001 -1.970381e-002 1.370470e+002
524160060.40015 -2.329792e-001 1.706016e+002 -5.244967e+001 9.587054e+001 -5.258818e+001 9.857425e+001 -2.007682e-002 1.370255e+002
524537561.3439 -2.335168e-001 1.703941e+002 -5.246978e+001 9.406161e+001 -5.243976e+001 9.912724e+001 -1.674471e-002 1.370697e+002
524915062.28766 -2.386924e-001 1.700994e+002 -5.247786e+001 9.600145e+001 -5.233184e+001 9.821075e+001 -1.719041e-002 1.369856e+002
525292563.23141 -2.376416e-001 1.697865e+002 -5.220532e+001 9.460835e+001 -5.242268e+001 9.730669e+001 -1.366925e-002 1.369758e+002
525670064.17516 -2.428240e-001 1.696301e+002 -5.226775e+001 9.396030e+001 -5.218242e+001 9.642905e+001 -9.212441e-003 1.369739e+002
526047565.11891 -2.434868e-001 1.693451e+002 -5.192368e+001 9.299782e+001 -5.232533e+001 9.732046e+001 -7.205596e-003 1.369699e+002
526425066.06267 -2.465792e-001 1.690764e+002 -5.211954e+001 9.361522e+001 -5.194477e+001 9.673770e+001 -9.125604e-003 1.369900e+002
526802567.00642 -2.471691e-001 1.688304e+002 -5.228411e+001 9.376956e+001 -5.213837e+001 9.534575e+001 -4.841958e-003 1.370138e+002
527180067.95017 -2.527932e-001 1.686067e+002 -5.203397e+001 9.374989e+001 -5.196230e+001 9.481440e+001 1.099814e-003 1.370201e+002
527557568.89392 -2.591414e-001 1.683362e+002 -5.199672e+001 9.360268e+001 -5.192290e+001 9.550690e+001 1.452129e-003 1.370155e+002
527935069.83767 -2.610716e-001 1.681165e+002 -5.191420e+001 9.341704e+001 -5.171945e+001 9.502771e+001 -1.636878e-004 1.369772e+002
528312570.78143 -2.674053e-001 1.678273e+002 -5.186010e+001 9.454580e+001 -5.187274e+001 9.539773e+001 8.772143e-004 1.371028e+002
528690071.72518 -2.669443e-001 1.675811e+002 -5.198932e+001 9.324931e+001 -5.173132e+001 9.513116e+001 5.535644e-003 1.370994e+002
529067572.66893 -2.724421e-001 1.673741e+002 -5.173243e+001 9.443965e+001 -5.177114e+001 9.476952e+001 6.565195e-003 1.371144e+002
529445073.61268 -2.722556e-001 1.670846e+002 -5.165982e+001 9.357198e+001 -5.158357e+001 9.443048e+001 6.116319e-003 1.371449e+002
529822574.55644 -2.792130e-001 1.668040e+002 -5.164143e+001 9.190578e+001 -5.155733e+001 9.376955e+001 4.012297e-003 1.371559e+002
530200075.50019 -2.801269e-001 1.665375e+002 -5.168843e+001 9.158648e+001 -5.163133e+001 9.344466e+001 1.035114e-002 1.371919e+002
530577576.44394 -2.885249e-001 1.663472e+002 -5.133127e+001 9.204058e+001 -5.133926e+001 9.276100e+001 5.395018e-003 1.372131e+002
530955077.38769 -2.896399e-001 1.660674e+002 -5.122803e+001 9.083010e+001 -5.134028e+001 9.291482e+001 7.724492e-003 1.371992e+002
531332578.33145 -2.934614e-001 1.658111e+002 -5.106509e+001 9.044022e+001 -5.116740e+001 9.240733e+001 1.892134e-003 1.372258e+002
531710079.2752 -2.980942e-001 1.654966e+002 -5.128831e+001 9.186803e+001 -5.098618e+001 9.167874e+001 1.837243e-003 1.372150e+002
532087580.21895 -3.022734e-001 1.653171e+002 -5.105498e+001 9.222675e+001 -5.105833e+001 9.385034e+001 3.265988e-003 1.372207e+002
532465081.1627 -3.044401e-001 1.650585e+002 -5.112161e+001 9.106379e+001 -5.094767e+001 9.144031e+001 -2.341861e-003 1.371950e+002
532842582.10646 -3.070632e-001 1.647960e+002 -5.086626e+001 9.161629e+001 -5.103188e+001 9.222461e+001 2.840485e-003 1.371486e+002
533220083.05021 -3.135505e-001 1.645861e+002 -5.078455e+001 9.155387e+001 -5.076320e+001 9.061503e+001 -1.644425e-003 1.371243e+002
533597583.99396 -3.138090e-001 1.643078e+002 -5.074427e+001 8.946741e+001 -5.068947e+001 9.318980e+001 -4.384170e-003 1.370239e+002
533975084.93771 -3.198793e-001 1.640503e+002 -5.060070e+001 8.982959e+001 -5.058726e+001 9.080397e+001 -6.803625e-003 1.370336e+002
534352585.88146 -3.252044e-001 1.638096e+002 -5.079607e+001 8.923566e+001 -5.039373e+001 9.072710e+001 -4.784924e-003 1.369573e+002
534730086.82522 -3.266810e-001 1.634862e+002 -5.038042e+001 8.954023e+001 -5.035840e+001 9.031210e+001 -1.132682e-002 1.368947e+002
535107587.76897 -3.330083e-001 1.632946e+002 -5.024598e+001 8.965769e+001 -5.029313e+001 9.051857e+001 -9.527904e-003 1.368637e+002
535485088.71272 -3.393223e-001 1.629966e+002 -5.018690e+001 8.793853e+001 -5.037688e+001 8.983277e+001 -1.681399e-002 1.367102e+002
535862589.65647 -3.438766e-001 1.627245e+002 -5.022308e+001 8.979983e+001 -5.003126e+001 8.896169e+001 -1.816498e-002 1.366255e+002
536240090.60023 -3.486246e-001 1.625099e+002 -5.032051e+001 8.819748e+001 -5.012394e+001 8.855414e+001 -2.089275e-002 1.364493e+002
536617591.54398 -3.548081e-001 1.622040e+002 -4.988560e+001 8.800238e+001 -4.994168e+001 8.763119e+001 -2.352702e-002 1.364197e+002
536995092.48773 -3.587745e-001 1.619707e+002 -4.985667e+001 8.702901e+001 -4.989303e+001 8.787222e+001 -2.430626e-002 1.363519e+002
537372593.43148 -3.652754e-001 1.616583e+002 -4.972729e+001 8.718013e+001 -4.972982e+001 8.716186e+001 -2.768089e-002 1.361958e+002
537750094.37524 -3.742835e-001 1.614389e+002 -4.955269e+001 8.650846e+001 -4.962994e+001 8.563163e+001 -3.078528e-002 1.360619e+002
538127595.31899 -3.782423e-001 1.611224e+002 -4.942576e+001 8.646195e+001 -4.975852e+001 8.623978e+001 -2.998853e-002 1.359512e+002
538505096.26274 -3.818055e-001 1.608019e+002 -4.938773e+001 8.599670e+001 -4.964456e+001 8.612160e+001 -3.293006e-002 1.358601e+002
538882597.20649 -3.884276e-001 1.606067e+002 -4.928334e+001 8.598416e+001 -4.961691e+001 8.612947e+001 -3.037180e-002 1.357019e+002
539260098.15025 -3.947718e-001 1.602813e+002 -4.926760e+001 8.654358e+001 -4.946544e+001 8.420821e+001 -2.944405e-002 1.355869e+002
539637599.094 -4.012937e-001 1.600087e+002 -4.927411e+001 8.471847e+001 -4.914278e+001 8.559355e+001 -3.041963e-002 1.354399e+002
540015100.03775 -4.132182e-001 1.597348e+002 -4.902710e+001 8.478887e+001 -4.919466e+001 8.423338e+001 -3.293679e-002 1.353640e+002
540392600.9815 -4.186215e-001 1.594553e+002 -4.895980e+001 8.394905e+001 -4.937633e+001 8.324398e+001 -2.702013e-002 1.352381e+002
540770101.92525 -4.228486e-001 1.592103e+002 -4.871722e+001 8.342131e+001 -4.911074e+001 8.380901e+001 -2.427674e-002 1.351581e+002
541147602.86901 -4.288989e-001 1.588496e+002 -4.860507e+001 8.379839e+001 -4.907018e+001 8.453262e+001 -2.252243e-002 1.350770e+002
541525103.81276 -4.430834e-001 1.585978e+002 -4.867161e+001 8.274086e+001 -4.887444e+001 8.251792e+001 -1.828380e-002 1.349880e+002
541902604.75651 -4.467321e-001 1.583615e+002 -4.862773e+001 8.282925e+001 -4.875555e+001 8.288451e+001 -1.371810e-002 1.349616e+002
542280105.70026 -4.585339e-001 1.580014e+002 -4.828481e+001 8.217439e+001 -4.864339e+001 8.120486e+001 -1.031419e-002 1.348424e+002
542657606.64402 -4.609202e-001 1.577421e+002 -4.839330e+001 8.226212e+001 -4.872461e+001 8.199455e+001 -1.026536e-002 1.348096e+002
543035107.58777 -4.731626e-001 1.574709e+002 -4.832290e+001 8.149163e+001 -4.869962e+001 7.988513e+001 -3.946274e-003 1.347487e+002
543412608.53152 -4.836942e-001 1.571722e+002 -4.813279e+001 8.137261e+001 -4.854006e+001 7.947572e+001 -2.588926e-003 1.347284e+002
543790109.47527 -4.942139e-001 1.568751e+002 -4.797498e+001 8.008815e+001 -4.838725e+001 8.003662e+001 4.529124e-003 1.346972e+002
544167610.41903 -4.992090e-001 1.566487e+002 -4.784603e+001 8.007565e+001 -4.840656e+001 8.037018e+001 6.127876e-003 1.346973e+002
544545111.36278 -5.115891e-001 1.562915e+002 -4.790911e+001 7.932520e+001 -4.823737e+001 7.965080e+001 7.447450e-003 1.346638e+002
544922612.30653 -5.168858e-001 1.560423e+002 -4.778653e+001 7.844196e+001 -4.814717e+001 7.906747e+001 9.118946e-003 1.346369e+002
545300113.25028 -5.266399e-001 1.557540e+002 -4.774656e+001 7.773122e+001 -4.817251e+001 7.966502e+001 1.135254e-002 1.346547e+002
545677614.19404 -5.376585e-001 1.555083e+002 -4.749530e+001 7.856501e+001 -4.806746e+001 7.885082e+001 1.515884e-002 1.346706e+002
546055115.13779 -5.427811e-001 1.552463e+002 -4.733767e+001 7.860535e+001 -4.790707e+001 7.761167e+001 1.763050e-002 1.346676e+002
546432616.08154 -5.546781e-001 1.549562e+002 -4.713894e+001 7.705703e+001 -4.782213e+001 7.832112e+001 1.918885e-002 1.346843e+002
546810117.02529 -5.619822e-001 1.546402e+002 -4.723958e+001 7.689451e+001 -4.775695e+001 7.790506e+001 2.369329e-002 1.347076e+002
547187617.96904 -5.760061e-001 1.544078e+002 -4.714217e+001 7.631970e+001 -4.753937e+001 7.685649e+001 2.253816e-002 1.347285e+002
547565118.9128 -5.816838e-001 1.540264e+002 -4.686630e+001 7.477164e+001 -4.749985e+001 7.719149e+001 2.548906e-002 1.347552e+002
547942619.85655 -5.905081e-001 1.537872e+002 -4.688749e+001 7.417780e+001 -4.753862e+001 7.660671e+001 2.430615e-002 1.347908e+002
548320120.8003 -6.002042e-001 1.534900e+002 -4.666261e+001 7.403969e+001 -4.735146e+001 7.669255e+001 2.293552e-002 1.348279e+002
548697621.74405 -6.104329e-001 1.532417e+002 -4.667712e+001 7.355679e+001 -4.745066e+001 7.595777e+001 1.969674e-002 1.348655e+002
549075122.68781 -6.165340e-001 1.529272e+002 -4.643868e+001 7.263783e+001 -4.720840e+001 7.556005e+001 1.894717e-002 1.348698e+002
549452623.63156 -6.307204e-001 1.526296e+002 -4.637529e+001 7.181861e+001 -4.716057e+001 7.469022e+001 2.076169e-002 1.348775e+002
549830124.57531 -6.399465e-001 1.523688e+002 -4.633630e+001 7.222495e+001 -4.691545e+001 7.399519e+001 1.969417e-002 1.349462e+002
550207625.51906 -6.472523e-001 1.520792e+002 -4.634859e+001 7.100512e+001 -4.667813e+001 7.405661e+001 1.414864e-002 1.349788e+002
550585126.46282 -6.598509e-001 1.517307e+002 -4.631965e+001 7.081924e+001 -4.657920e+001 7.383195e+001 1.617517e-002 1.349667e+002
550962627.40657 -6.749011e-001 1.514663e+002 -4.614059e+001 6.919191e+001 -4.665181e+001 7.239747e+001 7.821594e-003 1.349785e+002
551340128.35032 -6.859228e-001 1.511698e+002 -4.609473e+001 6.985358e+001 -4.648459e+001 7.209153e+001 5.947374e-003 1.350330e+002
551717629.29407 -6.992687e-001 1.508436e+002 -4.610421e+001 6.780640e+001 -4.643193e+001 7.224215e+001 1.774699e-003 1.350616e+002
552095130.23783 -7.115884e-001 1.505835e+002 -4.594135e+001 6.785839e+001 -4.635489e+001 7.150540e+001 1.082363e-003 1.350581e+002
552472631.18158 -7.259262e-001 1.502731e+002 -4.591000e+001 6.774633e+001 -4.630630e+001 7.042332e+001 1.988687e-004 1.350842e+002
552850132.12533 -7.385691e-001 1.499929e+002 -4.575571e+001 6.660175e+001 -4.604142e+001 7.008744e+001 -2.031935e-003 1.350566e+002
553227633.06908 -7.550043e-001 1.496828e+002 -4.576951e+001 6.598112e+001 -4.614745e+001 7.014717e+001 -8.360907e-003 1.350717e+002
553605134.01284 -7.675621e-001 1.494222e+002 -4.558039e+001 6.578854e+001 -4.594791e+001 6.888306e+001 -1.088508e-002 1.350294e+002
553982634.95659 -7.850085e-001 1.490840e+002 -4.560227e+001 6.432771e+001 -4.590207e+001 6.800709e+001 -1.508204e-002 1.350143e+002
554360135.90034 -8.028597e-001 1.488362e+002 -4.560531e+001 6.510114e+001 -4.583681e+001 6.866948e+001 -1.539473e-002 1.350046e+002
554737636.84409 -8.190607e-001 1.484701e+002 -4.531406e+001 6.501266e+001 -4.562548e+001 6.778439e+001 -2.023816e-002 1.349856e+002
555115137.78784 -8.354770e-001 1.481886e+002 -4.524427e+001 6.380816e+001 -4.562121e+001 6.747902e+001 -2.288750e-002 1.349538e+002
555492638.7316 -8.542711e-001 1.478759e+002 -4.518341e+001 6.340246e+001 -4.548822e+001 6.606635e+001 -2.183968e-002 1.349064e+002
555870139.67535 -8.706494e-001 1.475666e+002 -4.507144e+001 6.278521e+001 -4.541062e+001 6.591764e+001 -2.891737e-002 1.348817e+002
