!Agilent Technologies,E8364B,US42250235,A.06.04.32
!Agilent E8364B: A.06.04.32
!Date: Thursday, October 01, 2020 11:03:43
!Correction: S11(Full 2 Port(1,2)) S21(Full 2 Port(1,2)) S12(Full 2 Port(1,2)) S22(Full 2 Port(1,2)) 
!S2P File: Measurements: S11, S21, S12, S22:
# Hz S  dB   R 50
500000000 -2.718464e-001 -1.754100e+002 -5.306363e+001 2.666971e+001 -5.337259e+001 1.624217e+001 -1.399106e-001 1.377324e+002
500377500.94375 -2.737868e-001 -1.756240e+002 -5.318077e+001 2.545847e+001 -5.359392e+001 1.736353e+001 -1.390754e-001 1.376796e+002
500755001.8875 -2.789667e-001 -1.758015e+002 -5.285177e+001 2.385266e+001 -5.308825e+001 1.687911e+001 -1.440909e-001 1.376300e+002
501132502.83126 -2.863844e-001 -1.760234e+002 -5.269398e+001 2.266543e+001 -5.344415e+001 1.429797e+001 -1.429713e-001 1.375926e+002
501510003.77501 -2.922675e-001 -1.762173e+002 -5.280693e+001 2.155582e+001 -5.326117e+001 1.371256e+001 -1.445280e-001 1.375779e+002
501887504.71876 -2.990048e-001 -1.764043e+002 -5.243203e+001 2.161939e+001 -5.322557e+001 1.307107e+001 -1.457190e-001 1.374850e+002
502265005.66251 -3.035804e-001 -1.765989e+002 -5.245513e+001 2.234055e+001 -5.307321e+001 1.357045e+001 -1.445701e-001 1.374410e+002
502642506.60627 -3.093189e-001 -1.767885e+002 -5.266685e+001 1.931222e+001 -5.327045e+001 1.018008e+001 -1.490414e-001 1.373943e+002
503020007.55002 -3.093366e-001 -1.770168e+002 -5.248162e+001 1.783878e+001 -5.324440e+001 1.260930e+001 -1.513741e-001 1.373435e+002
503397508.49377 -3.190584e-001 -1.772378e+002 -5.253878e+001 1.756579e+001 -5.312066e+001 1.213111e+001 -1.462103e-001 1.372803e+002
503775009.43752 -3.209493e-001 -1.773914e+002 -5.234050e+001 1.796664e+001 -5.321338e+001 1.003600e+001 -1.492969e-001 1.372234e+002
504152510.38128 -3.250666e-001 -1.776702e+002 -5.229558e+001 1.649118e+001 -5.296996e+001 9.555853e+000 -1.459447e-001 1.371966e+002
504530011.32503 -3.308522e-001 -1.778530e+002 -5.220456e+001 1.733273e+001 -5.296858e+001 1.137447e+001 -1.482354e-001 1.371305e+002
504907512.26878 -3.376035e-001 -1.780368e+002 -5.219036e+001 1.532018e+001 -5.281465e+001 7.849667e+000 -1.452684e-001 1.370793e+002
505285013.21253 -3.389136e-001 -1.782754e+002 -5.200034e+001 1.490878e+001 -5.270228e+001 1.095764e+001 -1.461655e-001 1.370591e+002
505662514.15629 -3.448012e-001 -1.783944e+002 -5.172029e+001 1.461636e+001 -5.256098e+001 6.904676e+000 -1.430607e-001 1.369953e+002
506040015.10004 -3.490123e-001 -1.786594e+002 -5.166814e+001 1.386649e+001 -5.244354e+001 6.301005e+000 -1.429388e-001 1.369462e+002
506417516.04379 -3.510852e-001 -1.788305e+002 -5.160754e+001 1.157294e+001 -5.219008e+001 5.518906e+000 -1.363742e-001 1.369301e+002
506795016.98754 -3.547783e-001 -1.790421e+002 -5.181895e+001 1.084276e+001 -5.216150e+001 3.421833e+000 -1.388351e-001 1.369037e+002
507172517.93129 -3.607407e-001 -1.791901e+002 -5.154298e+001 1.057967e+001 -5.208978e+001 3.153383e+000 -1.330326e-001 1.368751e+002
507550018.87505 -3.643253e-001 -1.794210e+002 -5.152843e+001 1.019454e+001 -5.182496e+001 2.475356e+000 -1.312835e-001 1.368507e+002
507927519.8188 -3.687408e-001 -1.795657e+002 -5.151131e+001 8.198009e+000 -5.178363e+001 1.641685e+000 -1.258702e-001 1.368470e+002
508305020.76255 -3.724589e-001 -1.796927e+002 -5.146304e+001 5.415504e+000 -5.210308e+001 -3.110189e-001 -1.258467e-001 1.368201e+002
508682521.7063 -3.729837e-001 -1.799027e+002 -5.113388e+001 4.213194e+000 -5.174279e+001 -2.109401e+000 -1.223697e-001 1.367664e+002
509060022.65006 -3.760782e-001 1.799026e+002 -5.097607e+001 3.270826e+000 -5.186268e+001 -2.269279e+000 -1.191798e-001 1.368307e+002
509437523.59381 -3.765993e-001 1.797745e+002 -5.122389e+001 4.800522e+000 -5.174641e+001 -4.235342e+000 -1.150270e-001 1.368175e+002
509815024.53756 -3.824952e-001 1.795658e+002 -5.112905e+001 2.770588e+000 -5.168542e+001 -4.857923e+000 -1.142321e-001 1.368384e+002
510192525.48131 -3.786333e-001 1.793704e+002 -5.159412e+001 8.408022e-001 -5.154074e+001 -5.898590e+000 -1.124281e-001 1.368295e+002
510570026.42507 -3.795757e-001 1.791917e+002 -5.136765e+001 1.934087e-001 -5.180839e+001 -7.208153e+000 -1.119356e-001 1.368732e+002
510947527.36882 -3.835995e-001 1.790107e+002 -5.130624e+001 -1.949165e+000 -5.171657e+001 -8.844296e+000 -1.053577e-001 1.368913e+002
511325028.31257 -3.817500e-001 1.788082e+002 -5.115825e+001 -1.413927e+000 -5.156405e+001 -8.839767e+000 -1.037842e-001 1.369148e+002
511702529.25632 -3.875296e-001 1.786974e+002 -5.131212e+001 -2.346504e+000 -5.160993e+001 -9.108583e+000 -1.050776e-001 1.369609e+002
512080030.20008 -3.861326e-001 1.784616e+002 -5.131733e+001 -2.824838e+000 -5.146708e+001 -9.151441e+000 -1.027173e-001 1.370014e+002
512457531.14383 -3.891509e-001 1.782844e+002 -5.102668e+001 -2.609743e+000 -5.160158e+001 -1.118849e+001 -1.002812e-001 1.370182e+002
512835032.08758 -3.934515e-001 1.781085e+002 -5.128530e+001 -3.985342e+000 -5.177382e+001 -1.252349e+001 -1.015462e-001 1.370570e+002
513212533.03133 -3.984875e-001 1.779414e+002 -5.126182e+001 -3.697308e+000 -5.154723e+001 -1.206229e+001 -1.027706e-001 1.370743e+002
513590033.97508 -3.968060e-001 1.777539e+002 -5.119941e+001 -4.613288e+000 -5.156000e+001 -1.286689e+001 -1.035254e-001 1.371368e+002
513967534.91884 -4.026941e-001 1.775298e+002 -5.097129e+001 -4.161052e+000 -5.154134e+001 -1.296430e+001 -1.032444e-001 1.371566e+002
514345035.86259 -4.039901e-001 1.773262e+002 -5.102061e+001 -6.255520e+000 -5.140392e+001 -1.439755e+001 -1.050665e-001 1.371721e+002
514722536.80634 -4.088089e-001 1.771349e+002 -5.091054e+001 -7.504455e+000 -5.125158e+001 -1.517527e+001 -1.047495e-001 1.372324e+002
515100037.75009 -4.143187e-001 1.769129e+002 -5.056624e+001 -6.481606e+000 -5.142994e+001 -1.540519e+001 -1.060426e-001 1.372365e+002
515477538.69385 -4.191791e-001 1.767629e+002 -5.062558e+001 -6.977952e+000 -5.133213e+001 -1.558020e+001 -1.056944e-001 1.372755e+002
515855039.6376 -4.226282e-001 1.765333e+002 -5.060269e+001 -7.259825e+000 -5.117053e+001 -1.844207e+001 -1.124682e-001 1.372802e+002
516232540.58135 -4.261214e-001 1.763389e+002 -5.048148e+001 -8.858712e+000 -5.124859e+001 -1.759895e+001 -1.111045e-001 1.373020e+002
516610041.5251 -4.319748e-001 1.761380e+002 -5.054336e+001 -7.770889e+000 -5.132281e+001 -1.814880e+001 -1.158479e-001 1.372833e+002
516987542.46886 -4.355852e-001 1.759447e+002 -5.038396e+001 -9.900919e+000 -5.121356e+001 -1.947010e+001 -1.196629e-001 1.372779e+002
517365043.41261 -4.395248e-001 1.757258e+002 -5.016793e+001 -9.389951e+000 -5.112613e+001 -1.963263e+001 -1.191071e-001 1.372760e+002
517742544.35636 -4.409804e-001 1.755721e+002 -5.008103e+001 -1.150107e+001 -5.101594e+001 -1.964780e+001 -1.205477e-001 1.372585e+002
518120045.30011 -4.493081e-001 1.753096e+002 -5.008539e+001 -1.217339e+001 -5.092579e+001 -1.988033e+001 -1.238372e-001 1.372251e+002
518497546.24387 -4.517969e-001 1.751312e+002 -4.993441e+001 -1.456563e+001 -5.100087e+001 -2.226018e+001 -1.226323e-001 1.372132e+002
518875047.18762 -4.561681e-001 1.749468e+002 -5.003644e+001 -1.464280e+001 -5.096739e+001 -2.331267e+001 -1.267515e-001 1.371804e+002
519252548.13137 -4.581067e-001 1.747134e+002 -4.990649e+001 -1.470360e+001 -5.089239e+001 -2.255969e+001 -1.257556e-001 1.371225e+002
519630049.07512 -4.614371e-001 1.744998e+002 -4.973963e+001 -1.747814e+001 -5.090168e+001 -2.385054e+001 -1.287144e-001 1.370980e+002
520007550.01888 -4.640455e-001 1.743004e+002 -4.978455e+001 -1.885417e+001 -5.079194e+001 -2.583834e+001 -1.334629e-001 1.370656e+002
520385050.96263 -4.666417e-001 1.741086e+002 -4.976599e+001 -1.841675e+001 -5.083619e+001 -2.638079e+001 -1.314944e-001 1.370223e+002
520762551.90638 -4.721416e-001 1.738896e+002 -4.950319e+001 -1.986646e+001 -5.069148e+001 -2.770152e+001 -1.330568e-001 1.369693e+002
521140052.85013 -4.707216e-001 1.737025e+002 -4.982113e+001 -2.068070e+001 -5.061533e+001 -2.824496e+001 -1.332667e-001 1.369177e+002
521517553.79388 -4.715769e-001 1.734950e+002 -4.944231e+001 -2.147122e+001 -5.051311e+001 -2.848447e+001 -1.303150e-001 1.368680e+002
521895054.73764 -4.764291e-001 1.732874e+002 -4.955545e+001 -2.456514e+001 -5.056898e+001 -2.761744e+001 -1.316137e-001 1.368181e+002
522272555.68139 -4.734619e-001 1.730789e+002 -4.935803e+001 -2.553127e+001 -5.043193e+001 -2.970701e+001 -1.324478e-001 1.367936e+002
522650056.62514 -4.768252e-001 1.729004e+002 -4.943199e+001 -2.691199e+001 -5.052038e+001 -2.930070e+001 -1.282218e-001 1.367413e+002
523027557.56889 -4.749177e-001 1.726674e+002 -4.948477e+001 -2.539019e+001 -5.039801e+001 -3.151301e+001 -1.293425e-001 1.366334e+002
523405058.51265 -4.749558e-001 1.724814e+002 -4.969737e+001 -2.837024e+001 -5.049586e+001 -3.459310e+001 -1.288250e-001 1.366281e+002
523782559.4564 -4.737399e-001 1.722463e+002 -4.963581e+001 -3.084530e+001 -5.069344e+001 -3.481673e+001 -1.250144e-001 1.366207e+002
524160060.40015 -4.701628e-001 1.720411e+002 -4.963844e+001 -2.969333e+001 -5.035205e+001 -3.477994e+001 -1.226962e-001 1.365911e+002
524537561.3439 -4.741574e-001 1.718372e+002 -4.992130e+001 -3.165615e+001 -5.051620e+001 -3.596954e+001 -1.230626e-001 1.366285e+002
524915062.28766 -4.745263e-001 1.716118e+002 -4.965617e+001 -3.169794e+001 -5.052867e+001 -3.685876e+001 -1.223299e-001 1.365450e+002
525292563.23141 -4.727795e-001 1.714005e+002 -4.974228e+001 -3.223058e+001 -5.057196e+001 -3.780004e+001 -1.211155e-001 1.365179e+002
525670064.17516 -4.741544e-001 1.711792e+002 -4.975442e+001 -3.338956e+001 -5.066568e+001 -3.773005e+001 -1.138906e-001 1.365300e+002
526047565.11891 -4.760272e-001 1.710297e+002 -4.982973e+001 -3.344255e+001 -5.050034e+001 -3.841047e+001 -1.157656e-001 1.365255e+002
526425066.06267 -4.770601e-001 1.707786e+002 -4.976675e+001 -3.551488e+001 -5.052264e+001 -3.746755e+001 -1.128554e-001 1.365452e+002
526802567.00642 -4.769008e-001 1.705561e+002 -4.958482e+001 -3.545828e+001 -5.053632e+001 -4.047110e+001 -1.118807e-001 1.365710e+002
527180067.95017 -4.787280e-001 1.702995e+002 -4.982538e+001 -3.455836e+001 -5.043342e+001 -4.004607e+001 -1.049251e-001 1.365643e+002
527557568.89392 -4.833966e-001 1.700842e+002 -4.993413e+001 -3.642536e+001 -5.043341e+001 -4.082119e+001 -1.028568e-001 1.365828e+002
527935069.83767 -4.829398e-001 1.698435e+002 -4.995524e+001 -3.720040e+001 -5.058675e+001 -4.125139e+001 -1.040892e-001 1.365337e+002
528312570.78143 -4.875714e-001 1.696134e+002 -4.986551e+001 -3.823780e+001 -5.032710e+001 -4.057008e+001 -1.000025e-001 1.366623e+002
528690071.72518 -4.924953e-001 1.693959e+002 -4.973550e+001 -3.767641e+001 -5.045670e+001 -4.238965e+001 -1.009922e-001 1.366676e+002
529067572.66893 -4.945744e-001 1.692009e+002 -4.971443e+001 -3.757028e+001 -5.062577e+001 -4.421069e+001 -9.946495e-002 1.366809e+002
529445073.61268 -4.986913e-001 1.689529e+002 -4.994736e+001 -3.847949e+001 -5.055796e+001 -4.231321e+001 -9.922959e-002 1.367205e+002
529822574.55644 -5.036901e-001 1.687286e+002 -4.977742e+001 -3.884582e+001 -5.051508e+001 -4.225245e+001 -9.935074e-002 1.367449e+002
530200075.50019 -5.031247e-001 1.685276e+002 -4.976243e+001 -4.037111e+001 -5.050662e+001 -4.489849e+001 -9.592061e-002 1.367456e+002
530577576.44394 -5.096802e-001 1.682953e+002 -4.978124e+001 -3.982347e+001 -5.044442e+001 -4.457240e+001 -1.002446e-001 1.367740e+002
530955077.38769 -5.138614e-001 1.681424e+002 -4.968938e+001 -3.998430e+001 -5.018722e+001 -4.435286e+001 -9.710803e-002 1.367596e+002
531332578.33145 -5.158560e-001 1.678855e+002 -4.971375e+001 -4.005824e+001 -5.050576e+001 -4.547444e+001 -1.055165e-001 1.368022e+002
531710079.2752 -5.197958e-001 1.676786e+002 -4.959566e+001 -4.079701e+001 -5.031263e+001 -4.473531e+001 -1.049142e-001 1.367878e+002
532087580.21895 -5.212218e-001 1.674185e+002 -4.963366e+001 -4.120118e+001 -5.026137e+001 -4.798815e+001 -1.053265e-001 1.367781e+002
532465081.1627 -5.228172e-001 1.672648e+002 -4.961484e+001 -4.210098e+001 -5.008315e+001 -4.678625e+001 -1.116976e-001 1.367588e+002
532842582.10646 -5.231174e-001 1.670661e+002 -4.952901e+001 -4.285488e+001 -5.037472e+001 -4.864878e+001 -1.103552e-001 1.367237e+002
533220083.05021 -5.275366e-001 1.667902e+002 -4.952461e+001 -4.414487e+001 -5.011183e+001 -4.781386e+001 -1.104176e-001 1.366996e+002
533597583.99396 -5.294520e-001 1.666038e+002 -4.934821e+001 -4.411523e+001 -5.028577e+001 -4.794992e+001 -1.164231e-001 1.365934e+002
533975084.93771 -5.309785e-001 1.664050e+002 -4.956985e+001 -4.408912e+001 -4.996722e+001 -5.021817e+001 -1.198525e-001 1.366029e+002
534352585.88146 -5.353798e-001 1.661444e+002 -4.949725e+001 -4.494304e+001 -5.015172e+001 -5.122864e+001 -1.175751e-001 1.365318e+002
534730086.82522 -5.346712e-001 1.659360e+002 -4.949444e+001 -4.544282e+001 -5.037663e+001 -5.109978e+001 -1.277976e-001 1.364597e+002
535107587.76897 -5.368817e-001 1.657032e+002 -4.936390e+001 -4.473793e+001 -5.000943e+001 -5.174290e+001 -1.238099e-001 1.364146e+002
535485088.71272 -5.408747e-001 1.654791e+002 -4.927585e+001 -4.586429e+001 -5.015147e+001 -5.115230e+001 -1.335171e-001 1.362731e+002
535862589.65647 -5.422068e-001 1.652916e+002 -4.932329e+001 -4.581194e+001 -4.983633e+001 -5.244059e+001 -1.350738e-001 1.361904e+002
536240090.60023 -5.425246e-001 1.650275e+002 -4.928743e+001 -4.553452e+001 -4.988465e+001 -5.329093e+001 -1.397639e-001 1.360452e+002
536617591.54398 -5.443126e-001 1.648431e+002 -4.922253e+001 -4.874916e+001 -4.978614e+001 -5.290386e+001 -1.413912e-001 1.359798e+002
536995092.48773 -5.456665e-001 1.645708e+002 -4.889089e+001 -4.830870e+001 -4.967097e+001 -5.346433e+001 -1.427655e-001 1.359128e+002
537372593.43148 -5.485012e-001 1.643408e+002 -4.916177e+001 -4.886710e+001 -4.966048e+001 -5.470226e+001 -1.453146e-001 1.357619e+002
537750094.37524 -5.491360e-001 1.641810e+002 -4.909554e+001 -5.063454e+001 -4.963708e+001 -5.405511e+001 -1.498874e-001 1.356247e+002
538127595.31899 -5.526997e-001 1.638782e+002 -4.909241e+001 -5.123006e+001 -4.975064e+001 -5.601888e+001 -1.492850e-001 1.355015e+002
538505096.26274 -5.550704e-001 1.636678e+002 -4.902314e+001 -4.998731e+001 -4.942282e+001 -5.624199e+001 -1.508410e-001 1.354222e+002
538882597.20649 -5.554700e-001 1.634796e+002 -4.890204e+001 -5.105032e+001 -4.972118e+001 -5.758853e+001 -1.460322e-001 1.352690e+002
539260098.15025 -5.565060e-001 1.632553e+002 -4.881611e+001 -5.065387e+001 -4.955188e+001 -5.829915e+001 -1.470756e-001 1.351329e+002
539637599.094 -5.584434e-001 1.630527e+002 -4.866375e+001 -5.182764e+001 -4.952797e+001 -5.812711e+001 -1.473598e-001 1.350103e+002
540015100.03775 -5.631551e-001 1.628018e+002 -4.889775e+001 -5.320579e+001 -4.956881e+001 -5.806224e+001 -1.504611e-001 1.349291e+002
540392600.9815 -5.651756e-001 1.625588e+002 -4.849836e+001 -5.364989e+001 -4.935394e+001 -5.958216e+001 -1.462323e-001 1.347887e+002
540770101.92525 -5.614633e-001 1.623417e+002 -4.860727e+001 -5.369467e+001 -4.939617e+001 -6.128228e+001 -1.450825e-001 1.347117e+002
541147602.86901 -5.677997e-001 1.620826e+002 -4.866642e+001 -5.528664e+001 -4.925394e+001 -6.146923e+001 -1.407679e-001 1.346365e+002
541525103.81276 -5.654560e-001 1.619526e+002 -4.856011e+001 -5.571245e+001 -4.936420e+001 -6.246242e+001 -1.383992e-001 1.345557e+002
541902604.75651 -5.666729e-001 1.616762e+002 -4.843242e+001 -5.666642e+001 -4.925716e+001 -6.326316e+001 -1.329677e-001 1.345113e+002
542280105.70026 -5.695034e-001 1.614061e+002 -4.847790e+001 -5.684930e+001 -4.919353e+001 -6.366012e+001 -1.328915e-001 1.343954e+002
542657606.64402 -5.706695e-001 1.612512e+002 -4.826224e+001 -5.816706e+001 -4.915968e+001 -6.428578e+001 -1.285001e-001 1.343537e+002
543035107.58777 -5.717329e-001 1.609728e+002 -4.831576e+001 -5.866477e+001 -4.925845e+001 -6.537868e+001 -1.258024e-001 1.343107e+002
543412608.53152 -5.776401e-001 1.607902e+002 -4.836773e+001 -6.057279e+001 -4.912117e+001 -6.553477e+001 -1.203309e-001 1.342670e+002
543790109.47527 -5.816059e-001 1.605106e+002 -4.824198e+001 -5.994532e+001 -4.909153e+001 -6.613947e+001 -1.157068e-001 1.342357e+002
544167610.41903 -5.775043e-001 1.602638e+002 -4.826920e+001 -6.087141e+001 -4.929823e+001 -6.708644e+001 -1.126081e-001 1.342353e+002
544545111.36278 -5.841943e-001 1.599877e+002 -4.849337e+001 -6.157476e+001 -4.931344e+001 -6.833719e+001 -1.122517e-001 1.341930e+002
544922612.30653 -5.834527e-001 1.598244e+002 -4.821586e+001 -6.254576e+001 -4.924066e+001 -6.852058e+001 -1.099096e-001 1.341657e+002
545300113.25028 -5.814791e-001 1.595789e+002 -4.824551e+001 -6.283567e+001 -4.937035e+001 -6.848894e+001 -1.092870e-001 1.341750e+002
545677614.19404 -5.878662e-001 1.592897e+002 -4.831967e+001 -6.489933e+001 -4.917510e+001 -6.912852e+001 -1.027613e-001 1.341831e+002
546055115.13779 -5.834638e-001 1.590585e+002 -4.825341e+001 -6.447437e+001 -4.932051e+001 -7.019544e+001 -1.012696e-001 1.341783e+002
546432616.08154 -5.864468e-001 1.588194e+002 -4.834388e+001 -6.482096e+001 -4.938398e+001 -6.976601e+001 -9.967422e-002 1.342058e+002
546810117.02529 -5.880500e-001 1.585896e+002 -4.820449e+001 -6.465724e+001 -4.920336e+001 -7.143226e+001 -9.929982e-002 1.341908e+002
547187617.96904 -5.909565e-001 1.582827e+002 -4.834104e+001 -6.685954e+001 -4.924438e+001 -7.127649e+001 -1.001278e-001 1.342111e+002
547565118.9128 -5.889065e-001 1.579765e+002 -4.805600e+001 -6.592081e+001 -4.931822e+001 -7.111535e+001 -9.760943e-002 1.342525e+002
547942619.85655 -5.923734e-001 1.577694e+002 -4.823148e+001 -6.763771e+001 -4.945854e+001 -7.192207e+001 -9.764508e-002 1.342697e+002
548320120.8003 -5.951049e-001 1.575247e+002 -4.825537e+001 -6.793661e+001 -4.921096e+001 -7.289053e+001 -1.008211e-001 1.342946e+002
548697621.74405 -5.964955e-001 1.572401e+002 -4.828013e+001 -6.818154e+001 -4.940246e+001 -7.276381e+001 -1.011906e-001 1.343422e+002
549075122.68781 -6.013244e-001 1.570005e+002 -4.819315e+001 -6.980470e+001 -4.928981e+001 -7.273867e+001 -1.028121e-001 1.343508e+002
549452623.63156 -6.017730e-001 1.567333e+002 -4.825578e+001 -6.953384e+001 -4.924479e+001 -7.376384e+001 -1.035054e-001 1.343715e+002
549830124.57531 -6.042700e-001 1.564676e+002 -4.830984e+001 -6.954230e+001 -4.914919e+001 -7.220293e+001 -1.035523e-001 1.343516e+002
550207625.51906 -6.051034e-001 1.562312e+002 -4.814063e+001 -7.075748e+001 -4.914143e+001 -7.378907e+001 -1.106614e-001 1.344131e+002
550585126.46282 -6.080498e-001 1.559719e+002 -4.820031e+001 -7.099857e+001 -4.909082e+001 -7.360847e+001 -1.082786e-001 1.344306e+002
550962627.40657 -6.113421e-001 1.557200e+002 -4.820458e+001 -7.227541e+001 -4.893338e+001 -7.411443e+001 -1.152918e-001 1.344293e+002
551340128.35032 -6.122202e-001 1.554535e+002 -4.798465e+001 -7.218078e+001 -4.913063e+001 -7.397549e+001 -1.131802e-001 1.344540e+002
551717629.29407 -6.196117e-001 1.551474e+002 -4.815595e+001 -7.240621e+001 -4.905815e+001 -7.570464e+001 -1.171471e-001 1.344776e+002
552095130.23783 -6.228586e-001 1.549539e+002 -4.801603e+001 -7.213248e+001 -4.888612e+001 -7.583694e+001 -1.234228e-001 1.344729e+002
552472631.18158 -6.273419e-001 1.547069e+002 -4.809436e+001 -7.361330e+001 -4.881840e+001 -7.580363e+001 -1.271577e-001 1.344860e+002
552850132.12533 -6.321435e-001 1.544233e+002 -4.794187e+001 -7.439556e+001 -4.879356e+001 -7.672453e+001 -1.259334e-001 1.344683e+002
553227633.06908 -6.384233e-001 1.541636e+002 -4.826772e+001 -7.271445e+001 -4.879179e+001 -7.700289e+001 -1.355233e-001 1.344851e+002
553605134.01284 -6.394203e-001 1.538871e+002 -4.797869e+001 -7.344814e+001 -4.873693e+001 -7.611475e+001 -1.371817e-001 1.344646e+002
553982634.95659 -6.456206e-001 1.536407e+002 -4.794060e+001 -7.362090e+001 -4.880590e+001 -7.625327e+001 -1.399263e-001 1.344375e+002
554360135.90034 -6.504713e-001 1.534036e+002 -4.804580e+001 -7.388596e+001 -4.856812e+001 -7.711272e+001 -1.399135e-001 1.344278e+002
554737636.84409 -6.536340e-001 1.531311e+002 -4.781667e+001 -7.501807e+001 -4.866232e+001 -7.789932e+001 -1.441267e-001 1.344048e+002
555115137.78784 -6.607664e-001 1.529164e+002 -4.784568e+001 -7.429629e+001 -4.863528e+001 -7.710487e+001 -1.470290e-001 1.343703e+002
