!Agilent Technologies,E8364B,US42250235,A.06.04.32
!Agilent E8364B: A.06.04.32
!Date: Thursday, October 01, 2020 11:07:55
!Correction: S11(Full 2 Port(1,2)) S21(Full 2 Port(1,2)) S12(Full 2 Port(1,2)) S22(Full 2 Port(1,2)) 
!S2P File: Measurements: S11, S21, S12, S22:
# Hz S  dB   R 50
500000000 -1.627787e-001 -1.753616e+002 -5.915668e+001 -7.474799e+001 -5.881990e+001 -7.420709e+001 -2.137975e-001 1.360083e+002
500377500.94375 -1.646392e-001 -1.755562e+002 -5.873402e+001 -7.520095e+001 -5.881733e+001 -7.204958e+001 -2.106034e-001 1.359354e+002
500755001.8875 -1.665837e-001 -1.757216e+002 -5.852941e+001 -7.398273e+001 -5.970512e+001 -6.950642e+001 -2.130056e-001 1.358689e+002
501132502.83126 -1.753077e-001 -1.759515e+002 -5.874116e+001 -7.624839e+001 -5.892803e+001 -7.455584e+001 -2.098991e-001 1.358027e+002
501510003.77501 -1.755614e-001 -1.761778e+002 -5.920865e+001 -7.868047e+001 -5.868861e+001 -7.474158e+001 -2.103815e-001 1.357131e+002
501887504.71876 -1.814538e-001 -1.763352e+002 -5.894978e+001 -7.536589e+001 -5.886152e+001 -7.406328e+001 -2.121481e-001 1.356937e+002
502265005.66251 -1.848063e-001 -1.765916e+002 -5.872768e+001 -7.670416e+001 -5.841687e+001 -7.776042e+001 -2.068319e-001 1.356421e+002
502642506.60627 -1.876507e-001 -1.767959e+002 -5.883396e+001 -7.920274e+001 -5.869517e+001 -7.341164e+001 -2.084865e-001 1.356215e+002
503020007.55002 -1.877501e-001 -1.770118e+002 -5.872125e+001 -7.843249e+001 -5.901583e+001 -7.968945e+001 -2.036995e-001 1.355797e+002
503397508.49377 -1.943213e-001 -1.772528e+002 -5.814090e+001 -8.028507e+001 -5.879611e+001 -7.628595e+001 -1.975501e-001 1.355430e+002
503775009.43752 -1.915384e-001 -1.774849e+002 -5.822249e+001 -8.073883e+001 -5.799736e+001 -7.555872e+001 -1.957060e-001 1.355316e+002
504152510.38128 -1.974518e-001 -1.777284e+002 -5.866441e+001 -8.197095e+001 -5.845852e+001 -8.010793e+001 -1.949108e-001 1.355275e+002
504530011.32503 -2.025503e-001 -1.779279e+002 -5.867619e+001 -8.094530e+001 -5.833892e+001 -8.022217e+001 -1.895733e-001 1.355297e+002
504907512.26878 -2.068569e-001 -1.781483e+002 -5.784471e+001 -8.392299e+001 -5.827009e+001 -7.967004e+001 -1.885155e-001 1.355545e+002
505285013.21253 -2.058472e-001 -1.783661e+002 -5.772185e+001 -8.254713e+001 -5.818483e+001 -8.046379e+001 -1.846645e-001 1.355764e+002
505662514.15629 -2.083683e-001 -1.785893e+002 -5.814412e+001 -8.150183e+001 -5.820632e+001 -8.247954e+001 -1.826679e-001 1.355884e+002
506040015.10004 -2.085988e-001 -1.788463e+002 -5.783036e+001 -8.566119e+001 -5.792525e+001 -8.013471e+001 -1.753209e-001 1.356473e+002
506417516.04379 -2.119973e-001 -1.790278e+002 -5.802140e+001 -8.399544e+001 -5.797451e+001 -7.989186e+001 -1.713454e-001 1.357234e+002
506795016.98754 -2.121534e-001 -1.792815e+002 -5.796490e+001 -8.889764e+001 -5.771235e+001 -7.835840e+001 -1.658229e-001 1.357732e+002
507172517.93129 -2.144653e-001 -1.794320e+002 -5.780150e+001 -8.797083e+001 -5.761330e+001 -8.045943e+001 -1.647000e-001 1.358584e+002
507550018.87505 -2.177752e-001 -1.797274e+002 -5.745301e+001 -8.591787e+001 -5.754785e+001 -8.156115e+001 -1.562453e-001 1.359286e+002
507927519.8188 -2.206626e-001 -1.799176e+002 -5.786358e+001 -8.756354e+001 -5.755733e+001 -8.497701e+001 -1.526863e-001 1.360376e+002
508305020.76255 -2.231025e-001 1.798780e+002 -5.742998e+001 -8.631473e+001 -5.738326e+001 -8.513811e+001 -1.495896e-001 1.361416e+002
508682521.7063 -2.223789e-001 1.796499e+002 -5.746912e+001 -8.598307e+001 -5.680098e+001 -8.185013e+001 -1.496473e-001 1.362480e+002
509060022.65006 -2.239201e-001 1.794721e+002 -5.732975e+001 -8.778902e+001 -5.733423e+001 -8.811240e+001 -1.465835e-001 1.363807e+002
509437523.59381 -2.297253e-001 1.792283e+002 -5.737321e+001 -9.062276e+001 -5.719514e+001 -8.800749e+001 -1.406806e-001 1.365201e+002
509815024.53756 -2.305684e-001 1.790576e+002 -5.759087e+001 -9.085281e+001 -5.721157e+001 -8.789342e+001 -1.400928e-001 1.366547e+002
510192525.48131 -2.326114e-001 1.788377e+002 -5.729112e+001 -9.270628e+001 -5.694688e+001 -8.765624e+001 -1.387248e-001 1.367607e+002
510570026.42507 -2.354249e-001 1.785842e+002 -5.726519e+001 -9.189359e+001 -5.719175e+001 -8.682819e+001 -1.377090e-001 1.369524e+002
510947527.36882 -2.382290e-001 1.784176e+002 -5.687403e+001 -8.916864e+001 -5.685102e+001 -9.026785e+001 -1.353534e-001 1.370744e+002
511325028.31257 -2.395333e-001 1.781551e+002 -5.702567e+001 -9.435600e+001 -5.704787e+001 -8.865372e+001 -1.350189e-001 1.372211e+002
511702529.25632 -2.478176e-001 1.780116e+002 -5.675265e+001 -9.226948e+001 -5.624855e+001 -9.096835e+001 -1.388168e-001 1.373887e+002
512080030.20008 -2.467396e-001 1.777517e+002 -5.653167e+001 -9.322301e+001 -5.665795e+001 -8.740889e+001 -1.371762e-001 1.375194e+002
512457531.14383 -2.526890e-001 1.775069e+002 -5.665642e+001 -9.206872e+001 -5.670690e+001 -9.226373e+001 -1.362991e-001 1.376725e+002
512835032.08758 -2.560232e-001 1.773881e+002 -5.645138e+001 -9.302493e+001 -5.663111e+001 -9.008389e+001 -1.379429e-001 1.377844e+002
513212533.03133 -2.611556e-001 1.771207e+002 -5.672890e+001 -9.239354e+001 -5.607392e+001 -9.222908e+001 -1.438109e-001 1.379035e+002
513590033.97508 -2.609560e-001 1.769528e+002 -5.616804e+001 -9.246224e+001 -5.653314e+001 -9.011866e+001 -1.486532e-001 1.380478e+002
513967534.91884 -2.680141e-001 1.767670e+002 -5.628095e+001 -9.277574e+001 -5.609445e+001 -9.265528e+001 -1.501282e-001 1.381608e+002
514345035.86259 -2.719769e-001 1.764576e+002 -5.626887e+001 -9.438889e+001 -5.591299e+001 -9.332367e+001 -1.554404e-001 1.382408e+002
514722536.80634 -2.779636e-001 1.763380e+002 -5.609477e+001 -9.608940e+001 -5.590922e+001 -9.128107e+001 -1.587657e-001 1.383358e+002
515100037.75009 -2.835630e-001 1.760701e+002 -5.608036e+001 -9.487689e+001 -5.616551e+001 -9.481850e+001 -1.648068e-001 1.384181e+002
515477538.69385 -2.873418e-001 1.758657e+002 -5.595215e+001 -9.702153e+001 -5.568689e+001 -9.701478e+001 -1.700316e-001 1.384745e+002
515855039.6376 -2.906684e-001 1.756741e+002 -5.582170e+001 -9.694454e+001 -5.593169e+001 -9.687234e+001 -1.772553e-001 1.385191e+002
516232540.58135 -2.936364e-001 1.753899e+002 -5.570880e+001 -9.555977e+001 -5.569420e+001 -9.651611e+001 -1.828384e-001 1.385319e+002
516610041.5251 -3.009025e-001 1.752274e+002 -5.567900e+001 -9.785714e+001 -5.569962e+001 -9.506747e+001 -1.918785e-001 1.385338e+002
516987542.46886 -3.052887e-001 1.749693e+002 -5.584500e+001 -9.757393e+001 -5.576133e+001 -9.553835e+001 -1.989356e-001 1.385129e+002
517365043.41261 -3.111730e-001 1.747343e+002 -5.536583e+001 -9.893839e+001 -5.540013e+001 -9.608763e+001 -2.064547e-001 1.384692e+002
517742544.35636 -3.153128e-001 1.745161e+002 -5.512993e+001 -9.639194e+001 -5.541354e+001 -9.794578e+001 -2.139056e-001 1.384103e+002
518120045.30011 -3.244306e-001 1.742563e+002 -5.496822e+001 -1.001425e+002 -5.517175e+001 -1.007942e+002 -2.184447e-001 1.383344e+002
518497546.24387 -3.319598e-001 1.740652e+002 -5.485588e+001 -1.021917e+002 -5.505646e+001 -1.002266e+002 -2.265511e-001 1.382462e+002
518875047.18762 -3.356881e-001 1.738076e+002 -5.492792e+001 -1.035121e+002 -5.518411e+001 -1.002378e+002 -2.353051e-001 1.381283e+002
519252548.13137 -3.377835e-001 1.735832e+002 -5.474732e+001 -1.035938e+002 -5.500747e+001 -1.013162e+002 -2.365952e-001 1.380291e+002
519630049.07512 -3.429109e-001 1.733924e+002 -5.459351e+001 -1.037545e+002 -5.498908e+001 -1.014277e+002 -2.428117e-001 1.378639e+002
520007550.01888 -3.486016e-001 1.731122e+002 -5.424358e+001 -1.039399e+002 -5.456740e+001 -9.892133e+001 -2.524188e-001 1.377086e+002
520385050.96263 -3.539011e-001 1.729076e+002 -5.437391e+001 -1.038403e+002 -5.464106e+001 -1.028467e+002 -2.559245e-001 1.375312e+002
520762551.90638 -3.590826e-001 1.726198e+002 -5.448892e+001 -1.081629e+002 -5.496234e+001 -1.011135e+002 -2.608654e-001 1.373469e+002
521140052.85013 -3.625962e-001 1.723826e+002 -5.454792e+001 -1.061837e+002 -5.463693e+001 -1.029431e+002 -2.653746e-001 1.371324e+002
521517553.79388 -3.664485e-001 1.721379e+002 -5.389490e+001 -1.089485e+002 -5.428989e+001 -1.020947e+002 -2.659459e-001 1.369477e+002
521895054.73764 -3.733391e-001 1.719141e+002 -5.407717e+001 -1.097835e+002 -5.425056e+001 -1.047760e+002 -2.684281e-001 1.367253e+002
522272555.68139 -3.743976e-001 1.717042e+002 -5.388667e+001 -1.085879e+002 -5.406642e+001 -1.031691e+002 -2.703854e-001 1.365310e+002
522650056.62514 -3.816594e-001 1.714509e+002 -5.378568e+001 -1.099289e+002 -5.397382e+001 -1.063554e+002 -2.632036e-001 1.362551e+002
523027557.56889 -3.868476e-001 1.712002e+002 -5.386285e+001 -1.123442e+002 -5.401744e+001 -1.064770e+002 -2.702353e-001 1.360891e+002
523405058.51265 -3.915073e-001 1.709910e+002 -5.384380e+001 -1.128733e+002 -5.386637e+001 -1.063829e+002 -2.684066e-001 1.358515e+002
523782559.4564 -3.977983e-001 1.707285e+002 -5.348465e+001 -1.139927e+002 -5.399677e+001 -1.090558e+002 -2.641408e-001 1.356626e+002
524160060.40015 -4.012574e-001 1.704517e+002 -5.366604e+001 -1.134103e+002 -5.393235e+001 -1.084694e+002 -2.632698e-001 1.354651e+002
524537561.3439 -4.092811e-001 1.702258e+002 -5.357397e+001 -1.158787e+002 -5.353210e+001 -1.113846e+002 -2.576833e-001 1.353148e+002
524915062.28766 -4.141279e-001 1.699609e+002 -5.307259e+001 -1.150646e+002 -5.379076e+001 -1.097275e+002 -2.565444e-001 1.350811e+002
525292563.23141 -4.166434e-001 1.697229e+002 -5.330023e+001 -1.173604e+002 -5.334057e+001 -1.126560e+002 -2.479759e-001 1.349092e+002
525670064.17516 -4.239939e-001 1.695082e+002 -5.340513e+001 -1.168324e+002 -5.328949e+001 -1.104268e+002 -2.430674e-001 1.347439e+002
526047565.11891 -4.279523e-001 1.692430e+002 -5.332538e+001 -1.171224e+002 -5.314407e+001 -1.151019e+002 -2.367615e-001 1.346065e+002
526425066.06267 -4.388274e-001 1.690097e+002 -5.329132e+001 -1.210300e+002 -5.321872e+001 -1.136409e+002 -2.328560e-001 1.344841e+002
526802567.00642 -4.450840e-001 1.687274e+002 -5.334032e+001 -1.191969e+002 -5.303176e+001 -1.145991e+002 -2.239490e-001 1.343715e+002
527180067.95017 -4.483040e-001 1.684650e+002 -5.296024e+001 -1.208386e+002 -5.331050e+001 -1.157907e+002 -2.170063e-001 1.342600e+002
527557568.89392 -4.605251e-001 1.682786e+002 -5.285749e+001 -1.217833e+002 -5.250142e+001 -1.157146e+002 -2.059972e-001 1.341518e+002
527935069.83767 -4.666608e-001 1.679776e+002 -5.301259e+001 -1.228186e+002 -5.302908e+001 -1.160997e+002 -2.008150e-001 1.340437e+002
528312570.78143 -4.786130e-001 1.677156e+002 -5.286663e+001 -1.226849e+002 -5.289602e+001 -1.185768e+002 -1.931193e-001 1.340891e+002
528690071.72518 -4.885685e-001 1.675376e+002 -5.276258e+001 -1.226998e+002 -5.236093e+001 -1.191916e+002 -1.895564e-001 1.340103e+002
529067572.66893 -4.976158e-001 1.672639e+002 -5.271757e+001 -1.244964e+002 -5.279734e+001 -1.189303e+002 -1.789602e-001 1.339750e+002
529445073.61268 -5.057006e-001 1.670703e+002 -5.267607e+001 -1.236402e+002 -5.255463e+001 -1.202294e+002 -1.755718e-001 1.339803e+002
529822574.55644 -5.155618e-001 1.667811e+002 -5.276119e+001 -1.249583e+002 -5.237518e+001 -1.194620e+002 -1.680336e-001 1.339664e+002
530200075.50019 -5.221548e-001 1.665670e+002 -5.237110e+001 -1.244801e+002 -5.237406e+001 -1.203220e+002 -1.567328e-001 1.339784e+002
530577576.44394 -5.350776e-001 1.663020e+002 -5.239205e+001 -1.251506e+002 -5.223008e+001 -1.211757e+002 -1.557839e-001 1.339914e+002
530955077.38769 -5.454565e-001 1.661304e+002 -5.243629e+001 -1.273354e+002 -5.248987e+001 -1.211523e+002 -1.483186e-001 1.339924e+002
531332578.33145 -5.560696e-001 1.659027e+002 -5.204864e+001 -1.301635e+002 -5.240932e+001 -1.224848e+002 -1.469954e-001 1.340496e+002
531710079.2752 -5.632492e-001 1.655966e+002 -5.204811e+001 -1.286783e+002 -5.213419e+001 -1.224554e+002 -1.426793e-001 1.340893e+002
532087580.21895 -5.718231e-001 1.653483e+002 -5.209014e+001 -1.293126e+002 -5.218217e+001 -1.241914e+002 -1.342591e-001 1.341204e+002
532465081.1627 -5.839686e-001 1.652265e+002 -5.231254e+001 -1.290347e+002 -5.230000e+001 -1.236576e+002 -1.346006e-001 1.341836e+002
532842582.10646 -5.927941e-001 1.649864e+002 -5.207576e+001 -1.279174e+002 -5.193313e+001 -1.250010e+002 -1.289420e-001 1.342127e+002
533220083.05021 -6.041977e-001 1.647185e+002 -5.174135e+001 -1.320252e+002 -5.180366e+001 -1.290007e+002 -1.271581e-001 1.342812e+002
533597583.99396 -6.143215e-001 1.645532e+002 -5.185381e+001 -1.327170e+002 -5.166993e+001 -1.286681e+002 -1.275466e-001 1.343270e+002
533975084.93771 -6.218421e-001 1.643004e+002 -5.159568e+001 -1.338266e+002 -5.151658e+001 -1.276439e+002 -1.222271e-001 1.343808e+002
534352585.88146 -6.348420e-001 1.640529e+002 -5.153036e+001 -1.324337e+002 -5.143991e+001 -1.280404e+002 -1.225484e-001 1.344080e+002
534730086.82522 -6.458001e-001 1.638131e+002 -5.141428e+001 -1.346128e+002 -5.112358e+001 -1.287428e+002 -1.247885e-001 1.344827e+002
535107587.76897 -6.577601e-001 1.636338e+002 -5.122642e+001 -1.348810e+002 -5.114571e+001 -1.304155e+002 -1.199879e-001 1.344999e+002
535485088.71272 -6.656722e-001 1.634121e+002 -5.128175e+001 -1.347731e+002 -5.115895e+001 -1.314652e+002 -1.289747e-001 1.345419e+002
535862589.65647 -6.785493e-001 1.631900e+002 -5.110668e+001 -1.380019e+002 -5.101875e+001 -1.323988e+002 -1.260631e-001 1.345966e+002
536240090.60023 -6.877899e-001 1.629915e+002 -5.112853e+001 -1.373677e+002 -5.099015e+001 -1.340516e+002 -1.213904e-001 1.345558e+002
536617591.54398 -6.971836e-001 1.627711e+002 -5.095903e+001 -1.386926e+002 -5.084903e+001 -1.336138e+002 -1.284131e-001 1.346779e+002
536995092.48773 -7.105803e-001 1.625559e+002 -5.082654e+001 -1.399079e+002 -5.063775e+001 -1.354940e+002 -1.284026e-001 1.347426e+002
537372593.43148 -7.238888e-001 1.623260e+002 -5.069149e+001 -1.402242e+002 -5.053770e+001 -1.358902e+002 -1.290795e-001 1.347318e+002
537750094.37524 -7.334327e-001 1.621688e+002 -5.062009e+001 -1.410210e+002 -5.058082e+001 -1.376502e+002 -1.368883e-001 1.347466e+002
538127595.31899 -7.459853e-001 1.619110e+002 -5.051015e+001 -1.429934e+002 -5.035114e+001 -1.386905e+002 -1.368722e-001 1.347654e+002
538505096.26274 -7.540463e-001 1.617142e+002 -5.040725e+001 -1.436084e+002 -5.046597e+001 -1.389310e+002 -1.400951e-001 1.348223e+002
538882597.20649 -7.647970e-001 1.615386e+002 -5.029565e+001 -1.443388e+002 -5.030977e+001 -1.396849e+002 -1.383324e-001 1.347492e+002
539260098.15025 -7.755986e-001 1.613156e+002 -5.048239e+001 -1.461009e+002 -5.032362e+001 -1.410049e+002 -1.444095e-001 1.348129e+002
539637599.094 -7.870345e-001 1.610985e+002 -5.020351e+001 -1.467727e+002 -5.019186e+001 -1.419897e+002 -1.457033e-001 1.348428e+002
540015100.03775 -7.970945e-001 1.609416e+002 -5.006424e+001 -1.469619e+002 -5.000339e+001 -1.442541e+002 -1.505739e-001 1.348207e+002
540392600.9815 -8.118803e-001 1.606828e+002 -5.022244e+001 -1.482705e+002 -4.994757e+001 -1.443671e+002 -1.502331e-001 1.348391e+002
540770101.92525 -8.206244e-001 1.604626e+002 -4.994589e+001 -1.501637e+002 -4.997361e+001 -1.446875e+002 -1.518912e-001 1.348474e+002
541147602.86901 -8.359342e-001 1.602842e+002 -4.997073e+001 -1.514597e+002 -4.989265e+001 -1.454634e+002 -1.532489e-001 1.348726e+002
541525103.81276 -8.450842e-001 1.600771e+002 -4.988214e+001 -1.507040e+002 -4.984435e+001 -1.475591e+002 -1.531210e-001 1.348435e+002
541902604.75651 -8.582719e-001 1.598730e+002 -4.979866e+001 -1.519544e+002 -4.992258e+001 -1.481784e+002 -1.547465e-001 1.348984e+002
542280105.70026 -8.697678e-001 1.596457e+002 -4.975004e+001 -1.531464e+002 -4.973108e+001 -1.499673e+002 -1.585671e-001 1.348588e+002
542657606.64402 -8.786159e-001 1.595248e+002 -4.974365e+001 -1.538698e+002 -4.977954e+001 -1.501666e+002 -1.589696e-001 1.348731e+002
543035107.58777 -8.888552e-001 1.593457e+002 -4.962275e+001 -1.552065e+002 -4.984355e+001 -1.501079e+002 -1.646338e-001 1.348774e+002
543412608.53152 -9.008453e-001 1.591646e+002 -4.956004e+001 -1.558542e+002 -4.955164e+001 -1.511933e+002 -1.645076e-001 1.348806e+002
543790109.47527 -9.135745e-001 1.589755e+002 -4.954637e+001 -1.581116e+002 -4.969492e+001 -1.520439e+002 -1.640652e-001 1.348783e+002
544167610.41903 -9.154986e-001 1.587286e+002 -4.949258e+001 -1.582156e+002 -4.938676e+001 -1.539443e+002 -1.691849e-001 1.349020e+002
544545111.36278 -9.290173e-001 1.585512e+002 -4.931082e+001 -1.593988e+002 -4.950029e+001 -1.541689e+002 -1.709559e-001 1.348686e+002
544922612.30653 -9.305334e-001 1.583576e+002 -4.939380e+001 -1.608238e+002 -4.954874e+001 -1.558315e+002 -1.747113e-001 1.348389e+002
545300113.25028 -9.384347e-001 1.581824e+002 -4.902334e+001 -1.610673e+002 -4.943658e+001 -1.552111e+002 -1.760982e-001 1.348584e+002
545677614.19404 -9.442425e-001 1.579310e+002 -4.926323e+001 -1.615779e+002 -4.932999e+001 -1.571585e+002 -1.781338e-001 1.348525e+002
546055115.13779 -9.465482e-001 1.577753e+002 -4.923984e+001 -1.623333e+002 -4.942725e+001 -1.571696e+002 -1.812138e-001 1.348354e+002
546432616.08154 -9.552414e-001 1.575383e+002 -4.915647e+001 -1.645602e+002 -4.934071e+001 -1.573875e+002 -1.807714e-001 1.347904e+002
546810117.02529 -9.579546e-001 1.573327e+002 -4.897504e+001 -1.644082e+002 -4.920111e+001 -1.594601e+002 -1.835900e-001 1.347888e+002
547187617.96904 -9.661043e-001 1.571223e+002 -4.894124e+001 -1.658221e+002 -4.899615e+001 -1.595966e+002 -1.910643e-001 1.347729e+002
547565118.9128 -9.679533e-001 1.568593e+002 -4.896707e+001 -1.664698e+002 -4.911482e+001 -1.595342e+002 -1.912939e-001 1.347423e+002
547942619.85655 -9.730086e-001 1.567120e+002 -4.871917e+001 -1.677643e+002 -4.892894e+001 -1.612153e+002 -1.964236e-001 1.347141e+002
548320120.8003 -9.818875e-001 1.564874e+002 -4.881933e+001 -1.685822e+002 -4.901306e+001 -1.627135e+002 -1.978799e-001 1.346843e+002
548697621.74405 -9.858804e-001 1.562312e+002 -4.879150e+001 -1.690895e+002 -4.887457e+001 -1.621500e+002 -2.060319e-001 1.346360e+002
549075122.68781 -9.942374e-001 1.560692e+002 -4.872182e+001 -1.706118e+002 -4.877179e+001 -1.645066e+002 -2.125907e-001 1.345831e+002
549452623.63156 -1.000726e+000 1.558080e+002 -4.855064e+001 -1.703339e+002 -4.876070e+001 -1.650079e+002 -2.132259e-001 1.345129e+002
549830124.57531 -1.006888e+000 1.556428e+002 -4.873053e+001 -1.717061e+002 -4.854493e+001 -1.656019e+002 -2.174317e-001 1.344540e+002
550207625.51906 -1.012705e+000 1.554189e+002 -4.850081e+001 -1.737765e+002 -4.860123e+001 -1.664992e+002 -2.214998e-001 1.343979e+002
550585126.46282 -1.018694e+000 1.552138e+002 -4.840165e+001 -1.736930e+002 -4.842045e+001 -1.672105e+002 -2.252871e-001 1.343032e+002
550962627.40657 -1.026754e+000 1.550050e+002 -4.834645e+001 -1.759705e+002 -4.834396e+001 -1.686456e+002 -2.360829e-001 1.342230e+002
551340128.35032 -1.032357e+000 1.548248e+002 -4.830645e+001 -1.757920e+002 -4.835815e+001 -1.691550e+002 -2.378727e-001 1.341668e+002
551717629.29407 -1.039703e+000 1.545801e+002 -4.807117e+001 -1.775836e+002 -4.826608e+001 -1.704238e+002 -2.413148e-001 1.340588e+002
552095130.23783 -1.047248e+000 1.543939e+002 -4.831182e+001 -1.787431e+002 -4.811140e+001 -1.719475e+002 -2.472033e-001 1.339713e+002
552472631.18158 -1.049683e+000 1.542254e+002 -4.837410e+001 1.792792e+002 -4.816726e+001 -1.716998e+002 -2.520784e-001 1.338754e+002
552850132.12533 -1.060054e+000 1.540328e+002 -4.820384e+001 -1.799717e+002 -4.798974e+001 -1.732745e+002 -2.550600e-001 1.337628e+002
553227633.06908 -1.068538e+000 1.537712e+002 -4.831993e+001 1.782390e+002 -4.809900e+001 -1.740612e+002 -2.605674e-001 1.336609e+002
553605134.01284 -1.070513e+000 1.536112e+002 -4.814726e+001 1.773742e+002 -4.818717e+001 -1.757308e+002 -2.667735e-001 1.335370e+002
553982634.95659 -1.080134e+000 1.533679e+002 -4.828164e+001 1.750900e+002 -4.803836e+001 -1.790681e+002 -2.689007e-001 1.334123e+002
554360135.90034 -1.089119e+000 1.531578e+002 -4.814634e+001 1.762314e+002 -4.804131e+001 -1.778620e+002 -2.687916e-001 1.332924e+002
554737636.84409 -1.093856e+000 1.529896e+002 -4.810221e+001 1.751017e+002 -4.795477e+001 -1.793495e+002 -2.751990e-001 1.331765e+002
555115137.78784 -1.101969e+000 1.527509e+002 -4.799714e+001 1.743489e+002 -4.793957e+001 -1.791070e+002 -2.723347e-001 1.330713e+002
