!Agilent Technologies,E8364B,US42250235,A.06.04.32
!Agilent E8364B: A.06.04.32
!Date: Thursday, October 01, 2020 11:12:07
!Correction: S11(Full 2 Port(1,2)) S21(Full 2 Port(1,2)) S12(Full 2 Port(1,2)) S22(Full 2 Port(1,2)) 
!S2P File: Measurements: S11, S21, S12, S22:
# Hz S  dB   R 50
500000000 -2.291245e-001 -1.752583e+002 -5.743287e+001 -1.695272e+002 -5.745070e+001 -1.612264e+002 -2.071916e-001 1.365352e+002
500377500.94375 -2.323349e-001 -1.753888e+002 -5.743737e+001 -1.721884e+002 -5.782658e+001 -1.619180e+002 -2.071715e-001 1.364539e+002
500755001.8875 -2.327341e-001 -1.756590e+002 -5.738657e+001 -1.707739e+002 -5.707291e+001 -1.618757e+002 -2.121147e-001 1.363499e+002
501132502.83126 -2.407626e-001 -1.757699e+002 -5.768360e+001 -1.713107e+002 -5.680764e+001 -1.651294e+002 -2.098520e-001 1.362702e+002
501510003.77501 -2.470737e-001 -1.759717e+002 -5.727491e+001 -1.740977e+002 -5.725228e+001 -1.683984e+002 -2.062410e-001 1.362035e+002
501887504.71876 -2.541053e-001 -1.762155e+002 -5.779215e+001 -1.727868e+002 -5.734276e+001 -1.688756e+002 -2.102665e-001 1.360923e+002
502265005.66251 -2.520400e-001 -1.764018e+002 -5.722031e+001 -1.756596e+002 -5.721674e+001 -1.661186e+002 -2.072433e-001 1.359977e+002
502642506.60627 -2.583517e-001 -1.766208e+002 -5.759072e+001 -1.789428e+002 -5.705152e+001 -1.681072e+002 -2.084927e-001 1.359389e+002
503020007.55002 -2.630833e-001 -1.768145e+002 -5.733937e+001 -1.770983e+002 -5.720372e+001 -1.716910e+002 -2.049487e-001 1.358692e+002
503397508.49377 -2.626290e-001 -1.769742e+002 -5.765852e+001 1.770730e+002 -5.693188e+001 -1.690890e+002 -2.012309e-001 1.357773e+002
503775009.43752 -2.682273e-001 -1.772365e+002 -5.666501e+001 -1.796228e+002 -5.727523e+001 -1.730647e+002 -2.005558e-001 1.357445e+002
504152510.38128 -2.692438e-001 -1.774426e+002 -5.741282e+001 1.776635e+002 -5.694394e+001 -1.744248e+002 -1.960779e-001 1.357032e+002
504530011.32503 -2.729620e-001 -1.776178e+002 -5.712845e+001 1.774785e+002 -5.688360e+001 -1.759771e+002 -1.916795e-001 1.356541e+002
504907512.26878 -2.769472e-001 -1.778478e+002 -5.721566e+001 1.785882e+002 -5.721344e+001 -1.747797e+002 -1.893216e-001 1.356310e+002
505285013.21253 -2.763295e-001 -1.780954e+002 -5.761789e+001 1.793143e+002 -5.713966e+001 -1.758642e+002 -1.865497e-001 1.356274e+002
505662514.15629 -2.762203e-001 -1.782743e+002 -5.805014e+001 1.757688e+002 -5.691071e+001 -1.765936e+002 -1.786146e-001 1.355873e+002
506040015.10004 -2.811469e-001 -1.784825e+002 -5.709766e+001 1.767936e+002 -5.725555e+001 -1.788893e+002 -1.756800e-001 1.356208e+002
506417516.04379 -2.843743e-001 -1.786637e+002 -5.802852e+001 1.746985e+002 -5.687393e+001 -1.765788e+002 -1.628788e-001 1.356338e+002
506795016.98754 -2.863539e-001 -1.789078e+002 -5.732307e+001 1.753683e+002 -5.674636e+001 -1.794886e+002 -1.621943e-001 1.356822e+002
507172517.93129 -2.879769e-001 -1.791044e+002 -5.744986e+001 1.742946e+002 -5.715936e+001 -1.778524e+002 -1.558060e-001 1.357223e+002
507550018.87505 -2.897278e-001 -1.793497e+002 -5.712583e+001 1.696919e+002 -5.679845e+001 1.767785e+002 -1.474187e-001 1.357723e+002
507927519.8188 -2.914620e-001 -1.794853e+002 -5.700751e+001 1.706904e+002 -5.709953e+001 1.789449e+002 -1.442850e-001 1.358828e+002
508305020.76255 -2.936987e-001 -1.797066e+002 -5.726445e+001 1.683930e+002 -5.712448e+001 1.761098e+002 -1.407491e-001 1.359411e+002
508682521.7063 -2.906679e-001 -1.799548e+002 -5.714396e+001 1.696206e+002 -5.701523e+001 1.762957e+002 -1.344725e-001 1.360624e+002
509060022.65006 -2.941097e-001 1.798648e+002 -5.746531e+001 1.697192e+002 -5.682798e+001 1.728316e+002 -1.265670e-001 1.361652e+002
509437523.59381 -2.973552e-001 1.796960e+002 -5.737682e+001 1.709325e+002 -5.698547e+001 1.740686e+002 -1.254273e-001 1.362831e+002
509815024.53756 -2.999067e-001 1.794927e+002 -5.680502e+001 1.667579e+002 -5.677280e+001 1.754073e+002 -1.212252e-001 1.364370e+002
510192525.48131 -2.989360e-001 1.792968e+002 -5.712614e+001 1.672928e+002 -5.664140e+001 1.728753e+002 -1.160730e-001 1.365612e+002
510570026.42507 -3.007671e-001 1.791479e+002 -5.739329e+001 1.658026e+002 -5.669403e+001 1.713565e+002 -1.159872e-001 1.367539e+002
510947527.36882 -3.035543e-001 1.788785e+002 -5.723953e+001 1.678642e+002 -5.649459e+001 1.723553e+002 -1.079426e-001 1.369005e+002
511325028.31257 -2.986470e-001 1.787522e+002 -5.742566e+001 1.660268e+002 -5.642033e+001 1.707627e+002 -1.056932e-001 1.370814e+002
511702529.25632 -3.082103e-001 1.785338e+002 -5.722367e+001 1.629975e+002 -5.645712e+001 1.712580e+002 -1.072766e-001 1.372640e+002
512080030.20008 -3.052143e-001 1.783739e+002 -5.699995e+001 1.637779e+002 -5.629662e+001 1.734473e+002 -1.066819e-001 1.374339e+002
512457531.14383 -3.080313e-001 1.780932e+002 -5.750511e+001 1.617792e+002 -5.683262e+001 1.698957e+002 -1.047301e-001 1.375917e+002
512835032.08758 -3.117100e-001 1.779378e+002 -5.691247e+001 1.658007e+002 -5.660477e+001 1.682591e+002 -1.067347e-001 1.377494e+002
513212533.03133 -3.161602e-001 1.777604e+002 -5.727392e+001 1.584966e+002 -5.609954e+001 1.678182e+002 -1.100157e-001 1.379209e+002
513590033.97508 -3.140654e-001 1.775566e+002 -5.708492e+001 1.592940e+002 -5.649257e+001 1.693418e+002 -1.153439e-001 1.380659e+002
513967534.91884 -3.181952e-001 1.773578e+002 -5.721614e+001 1.642664e+002 -5.624121e+001 1.665744e+002 -1.143940e-001 1.382209e+002
514345035.86259 -3.165865e-001 1.771182e+002 -5.677275e+001 1.625145e+002 -5.624165e+001 1.667934e+002 -1.205594e-001 1.383724e+002
514722536.80634 -3.253596e-001 1.769585e+002 -5.666725e+001 1.614707e+002 -5.625559e+001 1.674322e+002 -1.253519e-001 1.385013e+002
515100037.75009 -3.271804e-001 1.767577e+002 -5.622017e+001 1.601837e+002 -5.615279e+001 1.658325e+002 -1.309895e-001 1.386105e+002
515477538.69385 -3.330678e-001 1.765438e+002 -5.658428e+001 1.607381e+002 -5.618610e+001 1.673988e+002 -1.372546e-001 1.387207e+002
515855039.6376 -3.342333e-001 1.763352e+002 -5.645073e+001 1.604279e+002 -5.624742e+001 1.651141e+002 -1.450770e-001 1.387915e+002
516232540.58135 -3.400625e-001 1.761512e+002 -5.613145e+001 1.576961e+002 -5.562728e+001 1.662674e+002 -1.505728e-001 1.388419e+002
516610041.5251 -3.421369e-001 1.759516e+002 -5.629991e+001 1.561769e+002 -5.590097e+001 1.645737e+002 -1.601594e-001 1.388835e+002
516987542.46886 -3.462901e-001 1.757344e+002 -5.620893e+001 1.560619e+002 -5.567842e+001 1.620081e+002 -1.673670e-001 1.388970e+002
517365043.41261 -3.469898e-001 1.755671e+002 -5.598252e+001 1.541070e+002 -5.568901e+001 1.642381e+002 -1.777574e-001 1.388940e+002
517742544.35636 -3.513403e-001 1.753711e+002 -5.574325e+001 1.535730e+002 -5.552007e+001 1.617330e+002 -1.873797e-001 1.388641e+002
518120045.30011 -3.531605e-001 1.750877e+002 -5.607926e+001 1.520673e+002 -5.564488e+001 1.607681e+002 -1.949425e-001 1.388075e+002
518497546.24387 -3.582154e-001 1.749374e+002 -5.572903e+001 1.532475e+002 -5.569307e+001 1.591557e+002 -2.022976e-001 1.387320e+002
518875047.18762 -3.611464e-001 1.746501e+002 -5.585175e+001 1.498416e+002 -5.561578e+001 1.611039e+002 -2.178972e-001 1.386426e+002
519252548.13137 -3.671004e-001 1.744927e+002 -5.588948e+001 1.529668e+002 -5.531192e+001 1.589936e+002 -2.204892e-001 1.385494e+002
519630049.07512 -3.647725e-001 1.742402e+002 -5.509180e+001 1.476950e+002 -5.517841e+001 1.594705e+002 -2.308522e-001 1.383673e+002
520007550.01888 -3.692797e-001 1.739671e+002 -5.529278e+001 1.508785e+002 -5.515774e+001 1.563750e+002 -2.376681e-001 1.382271e+002
520385050.96263 -3.730808e-001 1.737803e+002 -5.547409e+001 1.474209e+002 -5.502319e+001 1.574204e+002 -2.422224e-001 1.380269e+002
520762551.90638 -3.761362e-001 1.735534e+002 -5.492597e+001 1.476409e+002 -5.487337e+001 1.563905e+002 -2.498237e-001 1.378334e+002
521140052.85013 -3.759898e-001 1.733764e+002 -5.500531e+001 1.459092e+002 -5.460731e+001 1.528639e+002 -2.567523e-001 1.376282e+002
521517553.79388 -3.786461e-001 1.731360e+002 -5.527422e+001 1.445841e+002 -5.502770e+001 1.531105e+002 -2.585116e-001 1.373887e+002
521895054.73764 -3.785919e-001 1.728662e+002 -5.537656e+001 1.431455e+002 -5.473528e+001 1.518065e+002 -2.661982e-001 1.371466e+002
522272555.68139 -3.803326e-001 1.726546e+002 -5.492585e+001 1.386353e+002 -5.443613e+001 1.504514e+002 -2.682609e-001 1.369077e+002
522650056.62514 -3.824184e-001 1.724687e+002 -5.527332e+001 1.373967e+002 -5.468187e+001 1.511173e+002 -2.678732e-001 1.366614e+002
523027557.56889 -3.870806e-001 1.722239e+002 -5.479427e+001 1.383063e+002 -5.444038e+001 1.494785e+002 -2.701260e-001 1.364047e+002
523405058.51265 -3.906347e-001 1.719558e+002 -5.490592e+001 1.368009e+002 -5.457400e+001 1.466952e+002 -2.729890e-001 1.361600e+002
523782559.4564 -3.888902e-001 1.717445e+002 -5.523403e+001 1.358723e+002 -5.470991e+001 1.478241e+002 -2.706233e-001 1.359098e+002
524160060.40015 -3.900516e-001 1.714817e+002 -5.542885e+001 1.374021e+002 -5.456999e+001 1.476079e+002 -2.684779e-001 1.356608e+002
524537561.3439 -3.901058e-001 1.712874e+002 -5.505237e+001 1.356815e+002 -5.460144e+001 1.443672e+002 -2.631575e-001 1.354692e+002
524915062.28766 -3.938172e-001 1.710141e+002 -5.492723e+001 1.347055e+002 -5.453765e+001 1.437883e+002 -2.640764e-001 1.351858e+002
525292563.23141 -3.937048e-001 1.707226e+002 -5.480532e+001 1.339622e+002 -5.440736e+001 1.436978e+002 -2.554587e-001 1.349564e+002
525670064.17516 -3.965356e-001 1.705210e+002 -5.524925e+001 1.347817e+002 -5.450763e+001 1.419272e+002 -2.531187e-001 1.347472e+002
526047565.11891 -4.021134e-001 1.703057e+002 -5.522354e+001 1.295828e+002 -5.417895e+001 1.422614e+002 -2.459343e-001 1.345608e+002
526425066.06267 -4.054864e-001 1.700381e+002 -5.515821e+001 1.305095e+002 -5.465826e+001 1.410191e+002 -2.415318e-001 1.343917e+002
526802567.00642 -4.084315e-001 1.698183e+002 -5.503447e+001 1.308868e+002 -5.445670e+001 1.408794e+002 -2.303796e-001 1.342399e+002
527180067.95017 -4.108937e-001 1.696017e+002 -5.496663e+001 1.282720e+002 -5.463668e+001 1.368751e+002 -2.197685e-001 1.340915e+002
527557568.89392 -4.152320e-001 1.693505e+002 -5.522977e+001 1.282786e+002 -5.424039e+001 1.399118e+002 -2.126263e-001 1.339452e+002
527935069.83767 -4.175752e-001 1.691507e+002 -5.525265e+001 1.281293e+002 -5.421438e+001 1.367101e+002 -2.082412e-001 1.338663e+002
528312570.78143 -4.243976e-001 1.688715e+002 -5.516462e+001 1.302297e+002 -5.443423e+001 1.387823e+002 -1.941581e-001 1.338377e+002
528690071.72518 -4.229006e-001 1.686436e+002 -5.541171e+001 1.281472e+002 -5.432614e+001 1.348825e+002 -1.863203e-001 1.337186e+002
529067572.66893 -4.312187e-001 1.684581e+002 -5.532603e+001 1.275640e+002 -5.400610e+001 1.347110e+002 -1.792269e-001 1.336757e+002
529445073.61268 -4.307728e-001 1.681621e+002 -5.520230e+001 1.296644e+002 -5.413895e+001 1.359864e+002 -1.728844e-001 1.336574e+002
529822574.55644 -4.349821e-001 1.679200e+002 -5.555859e+001 1.290364e+002 -5.421606e+001 1.325756e+002 -1.633590e-001 1.336357e+002
530200075.50019 -4.430709e-001 1.676721e+002 -5.495591e+001 1.262333e+002 -5.412104e+001 1.347338e+002 -1.543293e-001 1.336535e+002
530577576.44394 -4.507147e-001 1.675181e+002 -5.473440e+001 1.251807e+002 -5.435387e+001 1.345406e+002 -1.457021e-001 1.336577e+002
530955077.38769 -4.528064e-001 1.672609e+002 -5.522336e+001 1.247545e+002 -5.414862e+001 1.319434e+002 -1.404539e-001 1.336693e+002
531332578.33145 -4.587631e-001 1.670474e+002 -5.493052e+001 1.261682e+002 -5.395279e+001 1.337282e+002 -1.397650e-001 1.337306e+002
531710079.2752 -4.631246e-001 1.667633e+002 -5.459814e+001 1.267199e+002 -5.401397e+001 1.324912e+002 -1.292797e-001 1.337853e+002
532087580.21895 -4.675543e-001 1.665929e+002 -5.448193e+001 1.237080e+002 -5.361476e+001 1.290847e+002 -1.241959e-001 1.338554e+002
532465081.1627 -4.719938e-001 1.663741e+002 -5.474301e+001 1.239107e+002 -5.369703e+001 1.299192e+002 -1.197676e-001 1.339265e+002
532842582.10646 -4.728671e-001 1.661483e+002 -5.446316e+001 1.228082e+002 -5.373541e+001 1.305258e+002 -1.142030e-001 1.339797e+002
533220083.05021 -4.817734e-001 1.659531e+002 -5.431150e+001 1.229453e+002 -5.376100e+001 1.282409e+002 -1.094448e-001 1.340798e+002
533597583.99396 -4.841017e-001 1.656952e+002 -5.433916e+001 1.228866e+002 -5.362626e+001 1.287250e+002 -1.109458e-001 1.341497e+002
533975084.93771 -4.890520e-001 1.654864e+002 -5.427865e+001 1.207194e+002 -5.391028e+001 1.260994e+002 -1.028225e-001 1.342392e+002
534352585.88146 -4.976140e-001 1.653025e+002 -5.436241e+001 1.197314e+002 -5.352011e+001 1.267856e+002 -1.021685e-001 1.343314e+002
534730086.82522 -4.970368e-001 1.650047e+002 -5.414426e+001 1.208068e+002 -5.365965e+001 1.244781e+002 -1.070928e-001 1.344096e+002
535107587.76897 -5.018435e-001 1.648626e+002 -5.391407e+001 1.196547e+002 -5.357411e+001 1.257723e+002 -9.953967e-002 1.345219e+002
535485088.71272 -5.077803e-001 1.646042e+002 -5.390480e+001 1.196423e+002 -5.334609e+001 1.249435e+002 -1.062289e-001 1.345546e+002
535862589.65647 -5.100834e-001 1.643662e+002 -5.389160e+001 1.184133e+002 -5.352348e+001 1.234428e+002 -1.066047e-001 1.346409e+002
536240090.60023 -5.123256e-001 1.641963e+002 -5.371498e+001 1.174345e+002 -5.347889e+001 1.220027e+002 -1.051575e-001 1.347142e+002
536617591.54398 -5.155149e-001 1.639284e+002 -5.378811e+001 1.165189e+002 -5.330037e+001 1.226261e+002 -1.089044e-001 1.347896e+002
536995092.48773 -5.174515e-001 1.637427e+002 -5.389973e+001 1.142601e+002 -5.351028e+001 1.213307e+002 -1.105145e-001 1.348996e+002
537372593.43148 -5.249084e-001 1.634689e+002 -5.363778e+001 1.161572e+002 -5.311866e+001 1.203231e+002 -1.137984e-001 1.349258e+002
537750094.37524 -5.289435e-001 1.632998e+002 -5.393706e+001 1.133622e+002 -5.309420e+001 1.192637e+002 -1.219316e-001 1.349654e+002
538127595.31899 -5.295954e-001 1.630064e+002 -5.338796e+001 1.144705e+002 -5.328614e+001 1.212762e+002 -1.190080e-001 1.350107e+002
538505096.26274 -5.316278e-001 1.627384e+002 -5.359179e+001 1.139146e+002 -5.324880e+001 1.190792e+002 -1.266255e-001 1.350722e+002
538882597.20649 -5.368145e-001 1.625753e+002 -5.321705e+001 1.111091e+002 -5.327351e+001 1.181906e+002 -1.280249e-001 1.350847e+002
539260098.15025 -5.408646e-001 1.623254e+002 -5.335320e+001 1.123414e+002 -5.316173e+001 1.172662e+002 -1.318661e-001 1.350988e+002
539637599.094 -5.422258e-001 1.620471e+002 -5.289922e+001 1.099206e+002 -5.278885e+001 1.163380e+002 -1.351867e-001 1.351324e+002
540015100.03775 -5.516295e-001 1.618014e+002 -5.303832e+001 1.074125e+002 -5.308016e+001 1.149863e+002 -1.426113e-001 1.351381e+002
540392600.9815 -5.514672e-001 1.615547e+002 -5.287376e+001 1.082046e+002 -5.264734e+001 1.143385e+002 -1.397186e-001 1.351530e+002
540770101.92525 -5.569871e-001 1.613646e+002 -5.262410e+001 1.076863e+002 -5.266412e+001 1.155457e+002 -1.455106e-001 1.351494e+002
541147602.86901 -5.578596e-001 1.610226e+002 -5.293410e+001 1.057443e+002 -5.272330e+001 1.139400e+002 -1.486879e-001 1.351644e+002
541525103.81276 -5.671279e-001 1.608101e+002 -5.249477e+001 1.040620e+002 -5.262312e+001 1.142335e+002 -1.518203e-001 1.351475e+002
541902604.75651 -5.686253e-001 1.606165e+002 -5.257249e+001 1.054799e+002 -5.232448e+001 1.123729e+002 -1.508693e-001 1.351839e+002
542280105.70026 -5.788453e-001 1.602839e+002 -5.256110e+001 1.021516e+002 -5.222675e+001 1.111652e+002 -1.554441e-001 1.351113e+002
542657606.64402 -5.782953e-001 1.600586e+002 -5.242688e+001 1.010970e+002 -5.225457e+001 1.092352e+002 -1.587030e-001 1.350995e+002
543035107.58777 -5.836093e-001 1.598163e+002 -5.259352e+001 1.006572e+002 -5.229378e+001 1.090589e+002 -1.619882e-001 1.350833e+002
543412608.53152 -5.911551e-001 1.595608e+002 -5.247723e+001 9.976523e+001 -5.232347e+001 1.063246e+002 -1.627018e-001 1.350513e+002
543790109.47527 -6.011622e-001 1.593064e+002 -5.210814e+001 9.892147e+001 -5.235450e+001 1.080678e+002 -1.622512e-001 1.350190e+002
544167610.41903 -6.019614e-001 1.590802e+002 -5.224932e+001 9.608776e+001 -5.212677e+001 1.068565e+002 -1.664415e-001 1.350125e+002
544545111.36278 -6.046435e-001 1.587776e+002 -5.220158e+001 9.543983e+001 -5.216469e+001 1.061427e+002 -1.665342e-001 1.349461e+002
544922612.30653 -6.079358e-001 1.585490e+002 -5.232280e+001 9.630229e+001 -5.224820e+001 1.029528e+002 -1.696908e-001 1.348864e+002
545300113.25028 -6.105404e-001 1.583112e+002 -5.218291e+001 9.566241e+001 -5.209222e+001 1.039310e+002 -1.719256e-001 1.348517e+002
545677614.19404 -6.132301e-001 1.580377e+002 -5.227716e+001 9.425179e+001 -5.221818e+001 1.021111e+002 -1.701045e-001 1.348022e+002
546055115.13779 -6.160103e-001 1.578388e+002 -5.230580e+001 9.222874e+001 -5.229816e+001 1.031919e+002 -1.733027e-001 1.347412e+002
546432616.08154 -6.236603e-001 1.575578e+002 -5.223090e+001 9.065612e+001 -5.201582e+001 1.010061e+002 -1.722412e-001 1.346939e+002
546810117.02529 -6.258783e-001 1.572738e+002 -5.218871e+001 8.964785e+001 -5.217992e+001 1.005357e+002 -1.742503e-001 1.346250e+002
547187617.96904 -6.349640e-001 1.570314e+002 -5.230645e+001 8.739178e+001 -5.208355e+001 9.934866e+001 -1.790257e-001 1.345656e+002
547565118.9128 -6.361392e-001 1.566850e+002 -5.230629e+001 8.704288e+001 -5.199958e+001 9.982294e+001 -1.784347e-001 1.345052e+002
547942619.85655 -6.423922e-001 1.564653e+002 -5.228698e+001 8.710349e+001 -5.201941e+001 9.778307e+001 -1.819945e-001 1.344495e+002
548320120.8003 -6.493721e-001 1.561918e+002 -5.240899e+001 8.787644e+001 -5.212963e+001 9.879861e+001 -1.832483e-001 1.343881e+002
548697621.74405 -6.544031e-001 1.559788e+002 -5.217611e+001 8.806864e+001 -5.214315e+001 9.726708e+001 -1.871914e-001 1.343310e+002
549075122.68781 -6.597028e-001 1.556822e+002 -5.232833e+001 8.341473e+001 -5.199097e+001 9.672821e+001 -1.921545e-001 1.342577e+002
549452623.63156 -6.632189e-001 1.554240e+002 -5.241299e+001 8.489072e+001 -5.212166e+001 9.578460e+001 -1.900000e-001 1.341762e+002
549830124.57531 -6.664804e-001 1.551593e+002 -5.240499e+001 8.257049e+001 -5.212435e+001 9.468080e+001 -1.921861e-001 1.341044e+002
550207625.51906 -6.706823e-001 1.549213e+002 -5.215693e+001 8.322668e+001 -5.195675e+001 9.481736e+001 -1.948246e-001 1.340379e+002
550585126.46282 -6.778747e-001 1.546142e+002 -5.220671e+001 8.359509e+001 -5.174388e+001 9.274184e+001 -1.974304e-001 1.339368e+002
550962627.40657 -6.840363e-001 1.543813e+002 -5.207468e+001 8.141505e+001 -5.172676e+001 9.368911e+001 -2.056424e-001 1.338757e+002
551340128.35032 -6.898265e-001 1.541229e+002 -5.225388e+001 8.082708e+001 -5.184021e+001 9.034151e+001 -2.026215e-001 1.338233e+002
551717629.29407 -6.949748e-001 1.538162e+002 -5.224973e+001 8.158488e+001 -5.198871e+001 9.187816e+001 -2.051483e-001 1.337339e+002
552095130.23783 -7.028617e-001 1.536331e+002 -5.225632e+001 7.884319e+001 -5.173815e+001 9.219697e+001 -2.069408e-001 1.336831e+002
552472631.18158 -7.070069e-001 1.533121e+002 -5.216065e+001 7.942189e+001 -5.160281e+001 9.144862e+001 -2.104661e-001 1.336061e+002
552850132.12533 -7.188236e-001 1.530732e+002 -5.206251e+001 7.860493e+001 -5.174797e+001 9.015593e+001 -2.116981e-001 1.335316e+002
553227633.06908 -7.261063e-001 1.527685e+002 -5.222569e+001 8.194669e+001 -5.188148e+001 8.934734e+001 -2.156618e-001 1.334582e+002
553605134.01284 -7.320222e-001 1.525084e+002 -5.194624e+001 7.879156e+001 -5.155230e+001 8.899358e+001 -2.199110e-001 1.333736e+002
553982634.95659 -7.435610e-001 1.522586e+002 -5.207808e+001 7.841234e+001 -5.141432e+001 8.913493e+001 -2.185897e-001 1.332952e+002
554360135.90034 -7.571550e-001 1.520444e+002 -5.199998e+001 7.906841e+001 -5.164671e+001 9.014306e+001 -2.203220e-001 1.332174e+002
554737636.84409 -7.608079e-001 1.517284e+002 -5.195782e+001 7.918285e+001 -5.138900e+001 8.765115e+001 -2.246309e-001 1.331479e+002
555115137.78784 -7.714830e-001 1.514728e+002 -5.188976e+001 7.910551e+001 -5.133393e+001 8.724780e+001 -2.235073e-001 1.330832e+002
555492638.7316 -7.827018e-001 1.512016e+002 -5.176863e+001 7.708604e+001 -5.141150e+001 8.550470e+001 -2.216625e-001 1.329818e+002
555870139.67535 -7.908384e-001 1.509167e+002 -5.159037e+001 7.626328e+001 -5.149329e+001 8.578849e+001 -2.257508e-001 1.329318e+002
