!Agilent Technologies,E8364B,US42250235,A.06.04.32
!Agilent E8364B: A.06.04.32
!Date: Thursday, October 01, 2020 11:05:16
!Correction: S11(Full 2 Port(1,2)) S21(Full 2 Port(1,2)) S12(Full 2 Port(1,2)) S22(Full 2 Port(1,2)) 
!S2P File: Measurements: S11, S21, S12, S22:
# Hz S  dB   R 50
500000000 -2.217493e-001 -1.749194e+002 -5.982460e+001 -3.294278e+001 -6.010079e+001 -4.321515e+001 -8.027846e-002 1.384512e+002
500377500.94375 -2.247733e-001 -1.751620e+002 -5.978963e+001 -3.852493e+001 -5.971266e+001 -4.713079e+001 -8.334275e-002 1.384073e+002
500755001.8875 -2.265207e-001 -1.753214e+002 -5.946836e+001 -3.277684e+001 -6.030502e+001 -4.429686e+001 -8.448465e-002 1.383585e+002
501132502.83126 -2.302023e-001 -1.755508e+002 -5.982735e+001 -3.763937e+001 -5.935042e+001 -4.787342e+001 -8.633956e-002 1.383152e+002
501510003.77501 -2.348032e-001 -1.757453e+002 -6.004877e+001 -4.019357e+001 -5.993542e+001 -4.888647e+001 -8.784743e-002 1.382818e+002
501887504.71876 -2.391913e-001 -1.759032e+002 -5.959367e+001 -4.312590e+001 -5.967354e+001 -4.797673e+001 -9.163028e-002 1.382025e+002
502265005.66251 -2.366844e-001 -1.761544e+002 -5.926553e+001 -4.054882e+001 -5.962816e+001 -5.125534e+001 -9.215540e-002 1.381527e+002
502642506.60627 -2.411892e-001 -1.763180e+002 -5.925940e+001 -4.068547e+001 -6.040005e+001 -4.866761e+001 -9.546035e-002 1.380954e+002
503020007.55002 -2.427464e-001 -1.765770e+002 -5.923063e+001 -4.180592e+001 -6.013126e+001 -4.758697e+001 -9.612504e-002 1.380388e+002
503397508.49377 -2.460633e-001 -1.767813e+002 -5.935552e+001 -4.547432e+001 -6.007434e+001 -5.208332e+001 -9.350412e-002 1.379597e+002
503775009.43752 -2.432458e-001 -1.769912e+002 -5.948980e+001 -4.021825e+001 -6.021858e+001 -4.684918e+001 -9.737782e-002 1.378805e+002
504152510.38128 -2.469124e-001 -1.772073e+002 -5.935664e+001 -4.480188e+001 -5.998511e+001 -5.391170e+001 -9.699403e-002 1.378370e+002
504530011.32503 -2.517212e-001 -1.774025e+002 -5.950241e+001 -4.656222e+001 -5.967570e+001 -5.618531e+001 -9.775517e-002 1.377728e+002
504907512.26878 -2.551583e-001 -1.776138e+002 -5.942309e+001 -4.708321e+001 -6.046224e+001 -5.310556e+001 -9.730224e-002 1.377047e+002
505285013.21253 -2.558815e-001 -1.778064e+002 -5.962700e+001 -4.537414e+001 -6.032604e+001 -5.313480e+001 -1.007242e-001 1.376591e+002
505662514.15629 -2.570139e-001 -1.780190e+002 -5.950584e+001 -4.854136e+001 -6.025166e+001 -4.973406e+001 -9.740464e-002 1.375816e+002
506040015.10004 -2.584912e-001 -1.782602e+002 -5.963428e+001 -4.798930e+001 -5.914826e+001 -5.177520e+001 -1.008015e-001 1.375253e+002
506417516.04379 -2.624893e-001 -1.784352e+002 -6.043271e+001 -4.805777e+001 -6.060913e+001 -5.692061e+001 -9.090104e-002 1.374915e+002
506795016.98754 -2.614734e-001 -1.786678e+002 -5.979685e+001 -5.078820e+001 -5.952293e+001 -5.358138e+001 -9.188895e-002 1.374463e+002
507172517.93129 -2.652286e-001 -1.787736e+002 -5.919869e+001 -5.257258e+001 -5.989259e+001 -5.663391e+001 -8.669809e-002 1.373871e+002
507550018.87505 -2.644899e-001 -1.790676e+002 -5.950353e+001 -5.171289e+001 -5.936279e+001 -5.436633e+001 -8.421038e-002 1.373404e+002
507927519.8188 -2.688127e-001 -1.791808e+002 -6.002920e+001 -5.095824e+001 -5.977909e+001 -5.431851e+001 -8.564541e-002 1.373313e+002
508305020.76255 -2.705164e-001 -1.793658e+002 -5.907711e+001 -4.982678e+001 -5.956079e+001 -5.551132e+001 -8.049184e-002 1.372843e+002
508682521.7063 -2.697904e-001 -1.796028e+002 -5.982047e+001 -5.062985e+001 -5.966711e+001 -5.656371e+001 -7.925906e-002 1.372641e+002
509060022.65006 -2.715369e-001 -1.798044e+002 -5.902988e+001 -5.439825e+001 -5.961945e+001 -5.722683e+001 -7.731465e-002 1.372474e+002
509437523.59381 -2.702945e-001 -1.799725e+002 -5.945126e+001 -5.322090e+001 -5.931377e+001 -5.784452e+001 -7.157483e-002 1.372263e+002
509815024.53756 -2.719846e-001 1.798384e+002 -5.938766e+001 -5.101151e+001 -5.952668e+001 -5.393286e+001 -7.157826e-002 1.372478e+002
510192525.48131 -2.675189e-001 1.795812e+002 -5.918560e+001 -5.482504e+001 -5.911726e+001 -5.770054e+001 -6.712128e-002 1.372420e+002
510570026.42507 -2.719986e-001 1.793994e+002 -5.904480e+001 -5.594723e+001 -5.942244e+001 -6.196677e+001 -6.603540e-002 1.372704e+002
510947527.36882 -2.754411e-001 1.791827e+002 -5.869265e+001 -5.761023e+001 -5.923838e+001 -5.824789e+001 -6.294217e-002 1.372858e+002
511325028.31257 -2.754145e-001 1.789763e+002 -5.905013e+001 -5.558128e+001 -5.927744e+001 -6.033990e+001 -5.931793e-002 1.373101e+002
511702529.25632 -2.791705e-001 1.788340e+002 -5.876877e+001 -5.911173e+001 -5.878050e+001 -6.105603e+001 -5.795870e-002 1.373256e+002
512080030.20008 -2.784941e-001 1.785932e+002 -5.874215e+001 -5.710257e+001 -5.927959e+001 -6.628941e+001 -5.627078e-002 1.373651e+002
512457531.14383 -2.830286e-001 1.784009e+002 -5.859072e+001 -6.047602e+001 -5.969372e+001 -6.600654e+001 -5.545571e-002 1.373719e+002
512835032.08758 -2.868555e-001 1.782159e+002 -5.870422e+001 -6.130510e+001 -5.917382e+001 -6.655251e+001 -5.620788e-002 1.374154e+002
513212533.03133 -2.926303e-001 1.780443e+002 -5.888741e+001 -5.901713e+001 -5.948616e+001 -6.654773e+001 -5.587539e-002 1.374551e+002
513590033.97508 -2.889303e-001 1.778317e+002 -5.845333e+001 -6.018113e+001 -5.893737e+001 -6.670146e+001 -5.561625e-002 1.375007e+002
513967534.91884 -2.964340e-001 1.776056e+002 -5.854697e+001 -6.426756e+001 -5.910159e+001 -6.906094e+001 -5.376704e-002 1.375455e+002
514345035.86259 -2.937578e-001 1.773840e+002 -5.890516e+001 -6.236739e+001 -5.912848e+001 -6.977111e+001 -5.517904e-002 1.375640e+002
514722536.80634 -2.999337e-001 1.772376e+002 -5.844054e+001 -6.175829e+001 -5.893906e+001 -7.405480e+001 -5.522225e-002 1.376161e+002
515100037.75009 -3.014810e-001 1.769736e+002 -5.863130e+001 -6.367368e+001 -5.903369e+001 -6.779396e+001 -5.586306e-002 1.376388e+002
515477538.69385 -3.042619e-001 1.768122e+002 -5.846970e+001 -6.127747e+001 -5.894849e+001 -6.909723e+001 -5.507693e-002 1.376803e+002
515855039.6376 -3.053224e-001 1.765573e+002 -5.838409e+001 -6.632932e+001 -5.860130e+001 -7.132033e+001 -6.103279e-002 1.376913e+002
516232540.58135 -3.086016e-001 1.763413e+002 -5.864933e+001 -6.640356e+001 -5.908811e+001 -7.225552e+001 -5.737332e-002 1.377200e+002
516610041.5251 -3.081259e-001 1.761432e+002 -5.831698e+001 -6.397298e+001 -5.896205e+001 -6.826036e+001 -6.128659e-002 1.377181e+002
516987542.46886 -3.135175e-001 1.759474e+002 -5.860765e+001 -6.958300e+001 -5.863524e+001 -7.605515e+001 -6.543366e-002 1.377278e+002
517365043.41261 -3.170570e-001 1.757155e+002 -5.848976e+001 -6.592367e+001 -5.875203e+001 -7.277574e+001 -6.619182e-002 1.377354e+002
517742544.35636 -3.190058e-001 1.755005e+002 -5.836929e+001 -6.972536e+001 -5.909934e+001 -7.465472e+001 -6.689534e-002 1.377264e+002
518120045.30011 -3.215866e-001 1.752553e+002 -5.794123e+001 -6.945229e+001 -5.871243e+001 -7.465487e+001 -6.957186e-002 1.376988e+002
518497546.24387 -3.258650e-001 1.750663e+002 -5.856054e+001 -6.834069e+001 -5.875661e+001 -7.192150e+001 -6.967874e-002 1.376875e+002
518875047.18762 -3.295394e-001 1.748299e+002 -5.801154e+001 -7.424720e+001 -5.923716e+001 -7.984830e+001 -7.374799e-002 1.376640e+002
519252548.13137 -3.297068e-001 1.746283e+002 -5.775449e+001 -7.131109e+001 -5.904531e+001 -7.798827e+001 -7.450317e-002 1.376656e+002
519630049.07512 -3.285249e-001 1.743998e+002 -5.769527e+001 -7.039716e+001 -5.887976e+001 -7.489865e+001 -7.512124e-002 1.376049e+002
520007550.01888 -3.317090e-001 1.741773e+002 -5.843921e+001 -7.387476e+001 -5.880773e+001 -8.106662e+001 -7.864353e-002 1.375785e+002
520385050.96263 -3.337192e-001 1.739926e+002 -5.823619e+001 -7.622521e+001 -5.825711e+001 -7.576324e+001 -7.870886e-002 1.375378e+002
520762551.90638 -3.341411e-001 1.737195e+002 -5.827732e+001 -7.556437e+001 -5.881325e+001 -7.887228e+001 -8.004117e-002 1.374848e+002
521140052.85013 -3.338385e-001 1.735123e+002 -5.860529e+001 -7.818354e+001 -5.862230e+001 -8.053101e+001 -8.533761e-002 1.374264e+002
521517553.79388 -3.352712e-001 1.732676e+002 -5.775964e+001 -7.629958e+001 -5.933792e+001 -7.704307e+001 -8.177380e-002 1.373784e+002
521895054.73764 -3.361451e-001 1.730564e+002 -5.812115e+001 -7.441679e+001 -5.895316e+001 -8.063435e+001 -7.908014e-002 1.373147e+002
522272555.68139 -3.360264e-001 1.728238e+002 -5.835201e+001 -7.731781e+001 -5.877267e+001 -8.210846e+001 -8.398969e-002 1.372814e+002
522650056.62514 -3.363973e-001 1.726045e+002 -5.811880e+001 -7.714338e+001 -5.827668e+001 -8.007166e+001 -7.798161e-002 1.372303e+002
523027557.56889 -3.395893e-001 1.723653e+002 -5.775822e+001 -8.199304e+001 -5.864852e+001 -7.827363e+001 -8.278011e-002 1.371743e+002
523405058.51265 -3.402948e-001 1.721545e+002 -5.717343e+001 -8.067358e+001 -5.837067e+001 -8.097724e+001 -8.212275e-002 1.371072e+002
523782559.4564 -3.424583e-001 1.718956e+002 -5.810849e+001 -8.222791e+001 -5.897929e+001 -8.107585e+001 -7.957023e-002 1.370796e+002
524160060.40015 -3.302521e-001 1.715381e+002 -5.871553e+001 -8.888016e+001 -5.851765e+001 -8.340946e+001 -7.974266e-002 1.370198e+002
524537561.3439 -3.341318e-001 1.713597e+002 -5.862895e+001 -8.648154e+001 -5.879136e+001 -8.244236e+001 -7.647695e-002 1.370538e+002
524915062.28766 -3.334147e-001 1.710877e+002 -5.890514e+001 -8.934830e+001 -5.841016e+001 -8.553400e+001 -7.879915e-002 1.369685e+002
525292563.23141 -3.333643e-001 1.707954e+002 -5.873999e+001 -9.183724e+001 -5.848621e+001 -8.369427e+001 -7.498495e-002 1.369084e+002
525670064.17516 -3.344819e-001 1.705966e+002 -5.901548e+001 -8.816656e+001 -5.814394e+001 -8.563300e+001 -7.299224e-002 1.369070e+002
526047565.11891 -3.376815e-001 1.703717e+002 -5.879155e+001 -9.055253e+001 -5.781179e+001 -8.381184e+001 -7.163634e-002 1.368996e+002
526425066.06267 -3.387711e-001 1.701071e+002 -5.893870e+001 -9.307130e+001 -5.785835e+001 -8.677560e+001 -7.208957e-002 1.369045e+002
526802567.00642 -3.397957e-001 1.699236e+002 -5.805235e+001 -9.078247e+001 -5.869849e+001 -8.796830e+001 -7.152439e-002 1.369006e+002
527180067.95017 -3.439993e-001 1.696057e+002 -5.856435e+001 -9.634854e+001 -5.843113e+001 -8.992949e+001 -6.413354e-002 1.368887e+002
527557568.89392 -3.476614e-001 1.693877e+002 -5.901159e+001 -9.047252e+001 -5.836847e+001 -9.158712e+001 -6.271937e-002 1.368604e+002
527935069.83767 -3.484224e-001 1.691433e+002 -5.860359e+001 -8.847680e+001 -5.783144e+001 -8.707370e+001 -6.091060e-002 1.368869e+002
528312570.78143 -3.580084e-001 1.688891e+002 -5.907274e+001 -9.536966e+001 -5.801964e+001 -8.921127e+001 -6.002937e-002 1.369413e+002
528690071.72518 -3.572979e-001 1.686464e+002 -5.819040e+001 -9.214051e+001 -5.833383e+001 -8.696199e+001 -5.993351e-002 1.369099e+002
529067572.66893 -3.666236e-001 1.684213e+002 -5.889151e+001 -9.366235e+001 -5.802988e+001 -9.412690e+001 -5.880764e-002 1.369299e+002
529445073.61268 -3.624646e-001 1.681498e+002 -5.890470e+001 -9.414583e+001 -5.809487e+001 -9.430485e+001 -5.699294e-002 1.369382e+002
529822574.55644 -3.717060e-001 1.679036e+002 -5.882939e+001 -9.080543e+001 -5.760569e+001 -9.139494e+001 -5.838498e-002 1.369498e+002
530200075.50019 -3.750044e-001 1.676504e+002 -5.765557e+001 -9.467288e+001 -5.775130e+001 -9.541509e+001 -5.003885e-002 1.369765e+002
530577576.44394 -3.824676e-001 1.674698e+002 -5.919502e+001 -9.654928e+001 -5.853375e+001 -9.353566e+001 -5.722940e-002 1.369482e+002
530955077.38769 -3.857141e-001 1.671986e+002 -5.858491e+001 -9.785091e+001 -5.814697e+001 -9.364211e+001 -5.642731e-002 1.369342e+002
531332578.33145 -3.907092e-001 1.669659e+002 -5.915121e+001 -9.777183e+001 -5.839661e+001 -9.440829e+001 -5.751035e-002 1.369736e+002
531710079.2752 -3.963768e-001 1.666792e+002 -5.837588e+001 -9.847972e+001 -5.799659e+001 -9.641838e+001 -5.820647e-002 1.369447e+002
532087580.21895 -3.994273e-001 1.665045e+002 -5.941117e+001 -1.004073e+002 -5.860351e+001 -9.634869e+001 -5.581399e-002 1.369263e+002
532465081.1627 -4.045274e-001 1.662749e+002 -5.893914e+001 -9.940992e+001 -5.866194e+001 -9.707502e+001 -6.294921e-002 1.369250e+002
532842582.10646 -4.052044e-001 1.660222e+002 -5.867511e+001 -1.004383e+002 -5.813356e+001 -9.496476e+001 -6.387915e-002 1.368758e+002
533220083.05021 -4.118772e-001 1.658224e+002 -5.861703e+001 -1.019078e+002 -5.858030e+001 -9.281530e+001 -6.382649e-002 1.368534e+002
533597583.99396 -4.143889e-001 1.655542e+002 -5.895510e+001 -9.742014e+001 -5.834186e+001 -9.690993e+001 -7.028529e-002 1.367470e+002
533975084.93771 -4.171171e-001 1.653073e+002 -5.853205e+001 -9.705405e+001 -5.848024e+001 -9.656338e+001 -6.888844e-002 1.367543e+002
534352585.88146 -4.227450e-001 1.650973e+002 -5.838830e+001 -9.990684e+001 -5.811094e+001 -9.676806e+001 -7.094494e-002 1.366778e+002
534730086.82522 -4.223245e-001 1.647921e+002 -5.835772e+001 -9.989919e+001 -5.824607e+001 -9.804317e+001 -7.632251e-002 1.366098e+002
535107587.76897 -4.259744e-001 1.646147e+002 -5.888863e+001 -1.011440e+002 -5.809008e+001 -9.811211e+001 -7.161392e-002 1.365866e+002
535485088.71272 -4.329065e-001 1.643383e+002 -5.805515e+001 -9.539879e+001 -5.797522e+001 -9.755286e+001 -8.003505e-002 1.364411e+002
535862589.65647 -4.380589e-001 1.640869e+002 -5.836218e+001 -1.020707e+002 -5.778528e+001 -9.725965e+001 -8.322528e-002 1.363418e+002
536240090.60023 -4.395449e-001 1.638873e+002 -5.786227e+001 -9.782670e+001 -5.804370e+001 -9.780296e+001 -8.183142e-002 1.361913e+002
536617591.54398 -4.461059e-001 1.635909e+002 -5.877068e+001 -1.001046e+002 -5.759077e+001 -1.000894e+002 -8.909421e-002 1.361554e+002
536995092.48773 -4.507058e-001 1.633915e+002 -5.764560e+001 -9.644001e+001 -5.779896e+001 -9.879221e+001 -8.923578e-002 1.360954e+002
537372593.43148 -4.535182e-001 1.631120e+002 -5.796886e+001 -9.905624e+001 -5.721867e+001 -1.004268e+002 -9.312544e-002 1.359303e+002
537750094.37524 -4.635950e-001 1.629353e+002 -5.812740e+001 -9.773452e+001 -5.758154e+001 -1.013012e+002 -9.672519e-002 1.358298e+002
538127595.31899 -4.644102e-001 1.626170e+002 -5.802549e+001 -1.028088e+002 -5.759878e+001 -1.014803e+002 -9.434123e-002 1.356965e+002
538505096.26274 -4.672947e-001 1.623306e+002 -5.767084e+001 -1.004720e+002 -5.733157e+001 -9.921368e+001 -9.587830e-002 1.356344e+002
538882597.20649 -4.743256e-001 1.621714e+002 -5.709311e+001 -1.025796e+002 -5.734736e+001 -1.016428e+002 -9.652955e-002 1.354740e+002
539260098.15025 -4.771741e-001 1.619128e+002 -5.726934e+001 -1.012633e+002 -5.707227e+001 -1.014641e+002 -9.857840e-002 1.353664e+002
539637599.094 -4.865501e-001 1.616168e+002 -5.710179e+001 -1.034461e+002 -5.685292e+001 -1.035887e+002 -9.866977e-002 1.352672e+002
540015100.03775 -4.894649e-001 1.613758e+002 -5.795745e+001 -1.021208e+002 -5.747243e+001 -1.015394e+002 -1.015212e-001 1.351470e+002
540392600.9815 -4.960525e-001 1.611100e+002 -5.722163e+001 -1.068304e+002 -5.726214e+001 -1.053071e+002 -9.704445e-002 1.350170e+002
540770101.92525 -5.008982e-001 1.609287e+002 -5.700769e+001 -1.039160e+002 -5.685398e+001 -1.050107e+002 -9.888060e-002 1.349430e+002
541147602.86901 -5.074037e-001 1.605670e+002 -5.762769e+001 -1.052857e+002 -5.711113e+001 -1.032967e+002 -9.390101e-002 1.348612e+002
541525103.81276 -5.157531e-001 1.603616e+002 -5.723880e+001 -1.028501e+002 -5.668084e+001 -1.059436e+002 -9.252282e-002 1.347804e+002
541902604.75651 -5.190940e-001 1.601571e+002 -5.687129e+001 -1.076024e+002 -5.682232e+001 -1.064935e+002 -8.751033e-002 1.347397e+002
542280105.70026 -5.321729e-001 1.598397e+002 -5.720393e+001 -1.044362e+002 -5.650005e+001 -1.039119e+002 -8.698356e-002 1.346184e+002
542657606.64402 -5.345758e-001 1.596017e+002 -5.662770e+001 -1.073132e+002 -5.682614e+001 -1.072895e+002 -8.504152e-002 1.345703e+002
543035107.58777 -5.429710e-001 1.593745e+002 -5.671658e+001 -1.107483e+002 -5.660611e+001 -1.059376e+002 -8.268417e-002 1.345254e+002
543412608.53152 -5.514715e-001 1.591193e+002 -5.682764e+001 -1.091790e+002 -5.667519e+001 -1.075071e+002 -8.235259e-002 1.344690e+002
543790109.47527 -5.589435e-001 1.588521e+002 -5.680991e+001 -1.085422e+002 -5.669947e+001 -1.049200e+002 -7.611168e-002 1.344460e+002
544167610.41903 -5.638323e-001 1.586375e+002 -5.663293e+001 -1.076809e+002 -5.659659e+001 -1.096846e+002 -7.196627e-002 1.344274e+002
544545111.36278 -5.686606e-001 1.583383e+002 -5.628381e+001 -1.107004e+002 -5.679806e+001 -1.110558e+002 -7.227585e-002 1.343821e+002
544922612.30653 -5.746682e-001 1.581338e+002 -5.595104e+001 -1.132986e+002 -5.655939e+001 -1.117078e+002 -6.984992e-002 1.343305e+002
545300113.25028 -5.796665e-001 1.578748e+002 -5.633937e+001 -1.141018e+002 -5.671035e+001 -1.114198e+002 -6.669804e-002 1.343534e+002
545677614.19404 -5.858628e-001 1.576261e+002 -5.635620e+001 -1.138587e+002 -5.651139e+001 -1.127835e+002 -6.377084e-002 1.343413e+002
546055115.13779 -5.926974e-001 1.574406e+002 -5.678019e+001 -1.154374e+002 -5.637490e+001 -1.120259e+002 -6.300161e-002 1.343286e+002
546432616.08154 -5.991405e-001 1.571679e+002 -5.646935e+001 -1.132375e+002 -5.634522e+001 -1.122429e+002 -5.608913e-002 1.343365e+002
546810117.02529 -6.004882e-001 1.568993e+002 -5.608937e+001 -1.174076e+002 -5.615778e+001 -1.124101e+002 -5.522938e-002 1.343139e+002
547187617.96904 -6.080006e-001 1.566602e+002 -5.616948e+001 -1.174872e+002 -5.649195e+001 -1.146448e+002 -5.508440e-002 1.343420e+002
547565118.9128 -6.123216e-001 1.563082e+002 -5.653300e+001 -1.175857e+002 -5.631007e+001 -1.156684e+002 -5.121130e-002 1.343446e+002
547942619.85655 -6.147735e-001 1.560871e+002 -5.578949e+001 -1.194998e+002 -5.623603e+001 -1.169595e+002 -5.299025e-002 1.343881e+002
548320120.8003 -6.205258e-001 1.558200e+002 -5.588408e+001 -1.188956e+002 -5.596900e+001 -1.143120e+002 -5.312523e-002 1.343848e+002
548697621.74405 -6.287996e-001 1.555985e+002 -5.595647e+001 -1.207733e+002 -5.563988e+001 -1.170982e+002 -5.563189e-002 1.344138e+002
549075122.68781 -6.341488e-001 1.553042e+002 -5.588192e+001 -1.228075e+002 -5.588788e+001 -1.165895e+002 -5.711790e-002 1.344373e+002
549452623.63156 -6.407104e-001 1.550416e+002 -5.584067e+001 -1.222152e+002 -5.602151e+001 -1.199206e+002 -5.555511e-002 1.344412e+002
549830124.57531 -6.469877e-001 1.548143e+002 -5.602958e+001 -1.182483e+002 -5.588547e+001 -1.186420e+002 -5.507212e-002 1.344813e+002
550207625.51906 -6.513207e-001 1.545504e+002 -5.590008e+001 -1.248635e+002 -5.568666e+001 -1.178474e+002 -6.113435e-002 1.344788e+002
550585126.46282 -6.562634e-001 1.542289e+002 -5.577197e+001 -1.238831e+002 -5.617070e+001 -1.208056e+002 -5.862764e-002 1.344793e+002
550962627.40657 -6.653831e-001 1.539800e+002 -5.588470e+001 -1.211094e+002 -5.597105e+001 -1.203892e+002 -6.165182e-002 1.344848e+002
551340128.35032 -6.708204e-001 1.537288e+002 -5.601618e+001 -1.263981e+002 -5.607191e+001 -1.208889e+002 -6.122406e-002 1.345207e+002
551717629.29407 -6.775587e-001 1.534203e+002 -5.608141e+001 -1.235903e+002 -5.597419e+001 -1.222932e+002 -6.569083e-002 1.345322e+002
552095130.23783 -6.833244e-001 1.531950e+002 -5.533159e+001 -1.265474e+002 -5.570765e+001 -1.229980e+002 -6.738402e-002 1.345409e+002
552472631.18158 -6.911237e-001 1.529223e+002 -5.581379e+001 -1.246855e+002 -5.575714e+001 -1.246235e+002 -6.881739e-002 1.345478e+002
552850132.12533 -7.011222e-001 1.526591e+002 -5.590503e+001 -1.264489e+002 -5.497588e+001 -1.236642e+002 -6.910985e-002 1.345483e+002
553227633.06908 -7.074478e-001 1.523646e+002 -5.561847e+001 -1.288079e+002 -5.559153e+001 -1.242033e+002 -7.481387e-002 1.345362e+002
553605134.01284 -7.159975e-001 1.520845e+002 -5.547953e+001 -1.296512e+002 -5.561956e+001 -1.246323e+002 -7.759791e-002 1.345359e+002
553982634.95659 -7.286758e-001 1.518312e+002 -5.538427e+001 -1.276703e+002 -5.564353e+001 -1.258519e+002 -7.886422e-002 1.345399e+002
554360135.90034 -7.379211e-001 1.515970e+002 -5.548995e+001 -1.291339e+002 -5.572771e+001 -1.259583e+002 -8.137138e-002 1.345181e+002
554737636.84409 -7.483275e-001 1.512876e+002 -5.542499e+001 -1.305733e+002 -5.522480e+001 -1.273234e+002 -8.281811e-002 1.345291e+002
555115137.78784 -7.557350e-001 1.510233e+002 -5.576728e+001 -1.325036e+002 -5.561006e+001 -1.250342e+002 -8.107062e-002 1.345089e+002
