!Agilent Technologies,E8364B,US42250235,A.06.04.32
!Agilent E8364B: A.06.04.32
!Date: Thursday, October 01, 2020 11:09:24
!Correction: S11(Full 2 Port(1,2)) S21(Full 2 Port(1,2)) S12(Full 2 Port(1,2)) S22(Full 2 Port(1,2)) 
!S2P File: Measurements: S11, S21, S12, S22:
# Hz S  dB   R 50
500000000 -1.849569e-001 -1.754151e+002 -6.285420e+001 -1.039911e+002 -6.239045e+001 -1.028070e+002 -1.801880e-001 1.363437e+002
500377500.94375 -1.836211e-001 -1.755910e+002 -6.240928e+001 -1.015650e+002 -6.174651e+001 -1.039730e+002 -1.807894e-001 1.362595e+002
500755001.8875 -1.882073e-001 -1.758277e+002 -6.187060e+001 -1.051984e+002 -6.196614e+001 -1.040719e+002 -1.841246e-001 1.361936e+002
501132502.83126 -1.926227e-001 -1.760149e+002 -6.142047e+001 -1.017407e+002 -6.147958e+001 -1.023050e+002 -1.794107e-001 1.361232e+002
501510003.77501 -1.961900e-001 -1.762281e+002 -6.137672e+001 -1.066997e+002 -6.207194e+001 -1.040892e+002 -1.783645e-001 1.360478e+002
501887504.71876 -2.046720e-001 -1.764353e+002 -6.203458e+001 -1.074324e+002 -6.175420e+001 -1.051813e+002 -1.812699e-001 1.360163e+002
502265005.66251 -2.054300e-001 -1.766588e+002 -6.165840e+001 -1.024620e+002 -6.194738e+001 -1.075292e+002 -1.785243e-001 1.359562e+002
502642506.60627 -2.080555e-001 -1.768924e+002 -6.117463e+001 -1.075500e+002 -6.131846e+001 -1.088998e+002 -1.821697e-001 1.359388e+002
503020007.55002 -2.089023e-001 -1.771051e+002 -6.158973e+001 -1.064509e+002 -6.154702e+001 -1.072155e+002 -1.756933e-001 1.359041e+002
503397508.49377 -2.145088e-001 -1.773317e+002 -6.146254e+001 -1.109907e+002 -6.172158e+001 -1.064002e+002 -1.719004e-001 1.358685e+002
503775009.43752 -2.186440e-001 -1.775037e+002 -6.089039e+001 -1.117505e+002 -6.184801e+001 -1.051824e+002 -1.699703e-001 1.358515e+002
504152510.38128 -2.201311e-001 -1.777747e+002 -6.079330e+001 -1.118804e+002 -6.174499e+001 -1.101469e+002 -1.675902e-001 1.358657e+002
504530011.32503 -2.267035e-001 -1.779553e+002 -6.151848e+001 -1.080329e+002 -6.195119e+001 -1.074197e+002 -1.645433e-001 1.358627e+002
504907512.26878 -2.294101e-001 -1.782041e+002 -6.133887e+001 -1.103552e+002 -6.126891e+001 -1.062953e+002 -1.598641e-001 1.358900e+002
505285013.21253 -2.314309e-001 -1.784695e+002 -6.086472e+001 -1.126250e+002 -6.117885e+001 -1.110663e+002 -1.601705e-001 1.359149e+002
505662514.15629 -2.353656e-001 -1.786082e+002 -6.028194e+001 -1.183908e+002 -6.033101e+001 -1.110214e+002 -1.567932e-001 1.359194e+002
506040015.10004 -2.386232e-001 -1.788961e+002 -6.035149e+001 -1.141605e+002 -6.143562e+001 -1.098989e+002 -1.543344e-001 1.359937e+002
506417516.04379 -2.410435e-001 -1.790575e+002 -6.049885e+001 -1.157065e+002 -6.079488e+001 -1.085308e+002 -1.458063e-001 1.360412e+002
506795016.98754 -2.441461e-001 -1.793447e+002 -6.120091e+001 -1.137379e+002 -6.143354e+001 -1.082159e+002 -1.416313e-001 1.361068e+002
507172517.93129 -2.467992e-001 -1.795188e+002 -6.053248e+001 -1.134506e+002 -6.067193e+001 -1.153002e+002 -1.374180e-001 1.361855e+002
507550018.87505 -2.509229e-001 -1.797866e+002 -6.039187e+001 -1.161168e+002 -6.153600e+001 -1.115095e+002 -1.304237e-001 1.362656e+002
507927519.8188 -2.554142e-001 -1.799465e+002 -6.025892e+001 -1.161596e+002 -6.122054e+001 -1.117239e+002 -1.306136e-001 1.363696e+002
508305020.76255 -2.592599e-001 1.798903e+002 -6.064225e+001 -1.142620e+002 -6.062979e+001 -1.116429e+002 -1.251934e-001 1.364769e+002
508682521.7063 -2.608148e-001 1.796329e+002 -6.061114e+001 -1.177356e+002 -6.080696e+001 -1.083738e+002 -1.231545e-001 1.365927e+002
509060022.65006 -2.663227e-001 1.794146e+002 -6.035759e+001 -1.173016e+002 -6.058123e+001 -1.153075e+002 -1.197321e-001 1.366962e+002
509437523.59381 -2.656312e-001 1.792569e+002 -6.015677e+001 -1.138180e+002 -6.062819e+001 -1.183190e+002 -1.136598e-001 1.368395e+002
509815024.53756 -2.691906e-001 1.790125e+002 -6.083175e+001 -1.186229e+002 -6.040265e+001 -1.183363e+002 -1.134195e-001 1.369678e+002
510192525.48131 -2.674444e-001 1.788079e+002 -6.033544e+001 -1.190487e+002 -6.091525e+001 -1.143619e+002 -1.119513e-001 1.370909e+002
510570026.42507 -2.711341e-001 1.785950e+002 -6.077927e+001 -1.225356e+002 -6.036704e+001 -1.195834e+002 -1.124662e-001 1.372660e+002
510947527.36882 -2.781428e-001 1.783647e+002 -6.070148e+001 -1.227116e+002 -6.053521e+001 -1.171203e+002 -1.073346e-001 1.373947e+002
511325028.31257 -2.767725e-001 1.781642e+002 -5.974307e+001 -1.183254e+002 -6.004527e+001 -1.179914e+002 -1.063670e-001 1.375539e+002
511702529.25632 -2.861931e-001 1.779877e+002 -5.988257e+001 -1.219493e+002 -5.972970e+001 -1.116068e+002 -1.118641e-001 1.377073e+002
512080030.20008 -2.852195e-001 1.778017e+002 -6.014229e+001 -1.193306e+002 -5.985289e+001 -1.171769e+002 -1.103602e-001 1.378403e+002
512457531.14383 -2.918617e-001 1.775356e+002 -5.912903e+001 -1.183912e+002 -5.977089e+001 -1.142438e+002 -1.098984e-001 1.379783e+002
512835032.08758 -2.985670e-001 1.773806e+002 -5.976763e+001 -1.159150e+002 -6.009395e+001 -1.186168e+002 -1.114727e-001 1.380870e+002
513212533.03133 -3.056863e-001 1.771787e+002 -5.977071e+001 -1.172517e+002 -5.999775e+001 -1.157288e+002 -1.152528e-001 1.382261e+002
513590033.97508 -3.086943e-001 1.770026e+002 -5.957896e+001 -1.184529e+002 -5.929755e+001 -1.211795e+002 -1.212114e-001 1.383621e+002
513967534.91884 -3.154406e-001 1.767645e+002 -5.966574e+001 -1.215398e+002 -5.925118e+001 -1.169099e+002 -1.225937e-001 1.384599e+002
514345035.86259 -3.183611e-001 1.765528e+002 -5.932784e+001 -1.220659e+002 -5.930632e+001 -1.170584e+002 -1.282447e-001 1.385631e+002
514722536.80634 -3.265263e-001 1.763658e+002 -5.903504e+001 -1.214265e+002 -5.879068e+001 -1.175880e+002 -1.316700e-001 1.386607e+002
515100037.75009 -3.283049e-001 1.761319e+002 -5.915282e+001 -1.226607e+002 -5.882603e+001 -1.196967e+002 -1.380393e-001 1.387278e+002
515477538.69385 -3.348967e-001 1.759274e+002 -5.807012e+001 -1.216026e+002 -5.881109e+001 -1.224589e+002 -1.423201e-001 1.387858e+002
515855039.6376 -3.396784e-001 1.757227e+002 -5.905669e+001 -1.244915e+002 -5.835441e+001 -1.211272e+002 -1.492349e-001 1.388321e+002
516232540.58135 -3.424537e-001 1.755130e+002 -5.844587e+001 -1.266610e+002 -5.857316e+001 -1.242516e+002 -1.534519e-001 1.388506e+002
516610041.5251 -3.485340e-001 1.752972e+002 -5.871410e+001 -1.264623e+002 -5.801897e+001 -1.240467e+002 -1.616236e-001 1.388448e+002
516987542.46886 -3.562274e-001 1.750981e+002 -5.748809e+001 -1.269565e+002 -5.830207e+001 -1.225088e+002 -1.692334e-001 1.388205e+002
517365043.41261 -3.622667e-001 1.748702e+002 -5.842584e+001 -1.272854e+002 -5.857995e+001 -1.244547e+002 -1.752031e-001 1.388019e+002
517742544.35636 -3.653650e-001 1.747092e+002 -5.809229e+001 -1.294126e+002 -5.831545e+001 -1.263082e+002 -1.853951e-001 1.387291e+002
518120045.30011 -3.735665e-001 1.744172e+002 -5.741552e+001 -1.302270e+002 -5.793384e+001 -1.272635e+002 -1.895085e-001 1.386584e+002
518497546.24387 -3.794818e-001 1.742217e+002 -5.756234e+001 -1.331956e+002 -5.817056e+001 -1.284078e+002 -1.949391e-001 1.385627e+002
518875047.18762 -3.841265e-001 1.740171e+002 -5.737168e+001 -1.308164e+002 -5.761232e+001 -1.301611e+002 -2.022565e-001 1.384674e+002
519252548.13137 -3.894193e-001 1.737741e+002 -5.701009e+001 -1.317195e+002 -5.774221e+001 -1.297858e+002 -2.061873e-001 1.383784e+002
519630049.07512 -3.903682e-001 1.735444e+002 -5.748654e+001 -1.342122e+002 -5.750869e+001 -1.297719e+002 -2.129008e-001 1.382111e+002
520007550.01888 -3.968953e-001 1.733070e+002 -5.744596e+001 -1.355149e+002 -5.787188e+001 -1.305309e+002 -2.192493e-001 1.380308e+002
520385050.96263 -4.017038e-001 1.730757e+002 -5.693746e+001 -1.376529e+002 -5.740948e+001 -1.303448e+002 -2.242747e-001 1.378663e+002
520762551.90638 -4.108901e-001 1.728482e+002 -5.680589e+001 -1.376854e+002 -5.757473e+001 -1.319062e+002 -2.293415e-001 1.376868e+002
521140052.85013 -4.126497e-001 1.726259e+002 -5.676299e+001 -1.330822e+002 -5.753671e+001 -1.330853e+002 -2.333735e-001 1.374722e+002
521517553.79388 -4.197732e-001 1.724343e+002 -5.673894e+001 -1.382898e+002 -5.722528e+001 -1.335939e+002 -2.373164e-001 1.373028e+002
521895054.73764 -4.227456e-001 1.721557e+002 -5.709308e+001 -1.391915e+002 -5.707183e+001 -1.347834e+002 -2.363417e-001 1.370864e+002
522272555.68139 -4.269232e-001 1.719342e+002 -5.623575e+001 -1.432996e+002 -5.699739e+001 -1.367882e+002 -2.387469e-001 1.368898e+002
522650056.62514 -4.347756e-001 1.717073e+002 -5.716264e+001 -1.425986e+002 -5.668249e+001 -1.365035e+002 -2.316943e-001 1.366333e+002
523027557.56889 -4.379789e-001 1.714591e+002 -5.612711e+001 -1.446450e+002 -5.660284e+001 -1.352365e+002 -2.389124e-001 1.364582e+002
523405058.51265 -4.475500e-001 1.712536e+002 -5.657602e+001 -1.425414e+002 -5.646070e+001 -1.372707e+002 -2.358634e-001 1.362556e+002
523782559.4564 -4.511229e-001 1.709860e+002 -5.633485e+001 -1.479631e+002 -5.637984e+001 -1.392101e+002 -2.351309e-001 1.360741e+002
524160060.40015 -4.533491e-001 1.708081e+002 -5.654523e+001 -1.451271e+002 -5.642221e+001 -1.404453e+002 -2.333017e-001 1.358584e+002
524537561.3439 -4.617503e-001 1.705438e+002 -5.639597e+001 -1.467152e+002 -5.654647e+001 -1.406520e+002 -2.260279e-001 1.357219e+002
524915062.28766 -4.682755e-001 1.703509e+002 -5.591011e+001 -1.469418e+002 -5.692184e+001 -1.452182e+002 -2.244326e-001 1.355033e+002
525292563.23141 -4.698710e-001 1.700837e+002 -5.642986e+001 -1.484863e+002 -5.657659e+001 -1.416517e+002 -2.181271e-001 1.353344e+002
525670064.17516 -4.755018e-001 1.698594e+002 -5.645535e+001 -1.474630e+002 -5.616441e+001 -1.439806e+002 -2.138584e-001 1.351572e+002
526047565.11891 -4.827802e-001 1.696567e+002 -5.607626e+001 -1.473189e+002 -5.631546e+001 -1.429469e+002 -2.088638e-001 1.350321e+002
526425066.06267 -4.885269e-001 1.694018e+002 -5.577590e+001 -1.510760e+002 -5.633099e+001 -1.447586e+002 -2.046141e-001 1.349210e+002
526802567.00642 -4.935939e-001 1.692188e+002 -5.652607e+001 -1.516536e+002 -5.627490e+001 -1.447636e+002 -1.969428e-001 1.348087e+002
527180067.95017 -4.994845e-001 1.689361e+002 -5.612571e+001 -1.517589e+002 -5.601525e+001 -1.456131e+002 -1.873849e-001 1.346999e+002
527557568.89392 -5.064071e-001 1.687282e+002 -5.612529e+001 -1.513158e+002 -5.625041e+001 -1.450072e+002 -1.810706e-001 1.346047e+002
527935069.83767 -5.103492e-001 1.684782e+002 -5.617390e+001 -1.555323e+002 -5.554995e+001 -1.450034e+002 -1.755823e-001 1.345364e+002
528312570.78143 -5.214545e-001 1.682522e+002 -5.611524e+001 -1.531417e+002 -5.612536e+001 -1.491919e+002 -1.652938e-001 1.345363e+002
528690071.72518 -5.236083e-001 1.680352e+002 -5.607143e+001 -1.554861e+002 -5.582026e+001 -1.484622e+002 -1.615387e-001 1.344405e+002
529067572.66893 -5.363188e-001 1.678115e+002 -5.593995e+001 -1.536822e+002 -5.565618e+001 -1.517359e+002 -1.531913e-001 1.344160e+002
529445073.61268 -5.402287e-001 1.675748e+002 -5.568680e+001 -1.582847e+002 -5.539985e+001 -1.487376e+002 -1.504701e-001 1.344025e+002
529822574.55644 -5.477031e-001 1.673496e+002 -5.566642e+001 -1.578941e+002 -5.529499e+001 -1.512410e+002 -1.446190e-001 1.343831e+002
530200075.50019 -5.531070e-001 1.671040e+002 -5.586393e+001 -1.596654e+002 -5.564033e+001 -1.506823e+002 -1.381785e-001 1.343977e+002
530577576.44394 -5.636057e-001 1.669538e+002 -5.568759e+001 -1.595203e+002 -5.571033e+001 -1.512479e+002 -1.347421e-001 1.343967e+002
530955077.38769 -5.715547e-001 1.667359e+002 -5.529922e+001 -1.567500e+002 -5.549578e+001 -1.524191e+002 -1.266227e-001 1.343981e+002
531332578.33145 -5.783895e-001 1.664775e+002 -5.550846e+001 -1.584148e+002 -5.550351e+001 -1.542036e+002 -1.268640e-001 1.344404e+002
531710079.2752 -5.858948e-001 1.662383e+002 -5.551918e+001 -1.612508e+002 -5.505719e+001 -1.550494e+002 -1.229546e-001 1.344802e+002
532087580.21895 -5.922619e-001 1.659967e+002 -5.544503e+001 -1.607661e+002 -5.569796e+001 -1.544123e+002 -1.165274e-001 1.345091e+002
532465081.1627 -6.022591e-001 1.658396e+002 -5.535316e+001 -1.610001e+002 -5.516821e+001 -1.575882e+002 -1.155694e-001 1.345645e+002
532842582.10646 -6.100128e-001 1.656180e+002 -5.513522e+001 -1.601334e+002 -5.485123e+001 -1.578648e+002 -1.156209e-001 1.345712e+002
533220083.05021 -6.186842e-001 1.653965e+002 -5.514977e+001 -1.634464e+002 -5.490712e+001 -1.591056e+002 -1.071920e-001 1.346251e+002
533597583.99396 -6.246514e-001 1.652001e+002 -5.501852e+001 -1.621135e+002 -5.482343e+001 -1.557286e+002 -1.111001e-001 1.346592e+002
533975084.93771 -6.313732e-001 1.649880e+002 -5.505088e+001 -1.628665e+002 -5.462781e+001 -1.599411e+002 -1.072389e-001 1.347057e+002
534352585.88146 -6.425194e-001 1.648076e+002 -5.490939e+001 -1.635140e+002 -5.446545e+001 -1.609936e+002 -1.040903e-001 1.347339e+002
534730086.82522 -6.498134e-001 1.645371e+002 -5.482848e+001 -1.649017e+002 -5.491597e+001 -1.616902e+002 -1.099936e-001 1.347194e+002
535107587.76897 -6.570587e-001 1.643501e+002 -5.455834e+001 -1.652674e+002 -5.462289e+001 -1.622152e+002 -1.020037e-001 1.347796e+002
535485088.71272 -6.662751e-001 1.641898e+002 -5.436288e+001 -1.657431e+002 -5.467314e+001 -1.635367e+002 -1.114959e-001 1.348410e+002
535862589.65647 -6.721980e-001 1.639918e+002 -5.467037e+001 -1.649815e+002 -5.421207e+001 -1.641147e+002 -1.110015e-001 1.348718e+002
536240090.60023 -6.778413e-001 1.637852e+002 -5.455929e+001 -1.657375e+002 -5.448148e+001 -1.638584e+002 -1.052389e-001 1.348530e+002
536617591.54398 -6.891868e-001 1.635808e+002 -5.458165e+001 -1.681305e+002 -5.388271e+001 -1.636215e+002 -1.131901e-001 1.349334e+002
536995092.48773 -6.928980e-001 1.633318e+002 -5.417038e+001 -1.693972e+002 -5.421065e+001 -1.643730e+002 -1.147037e-001 1.350041e+002
537372593.43148 -7.031205e-001 1.631282e+002 -5.395622e+001 -1.693458e+002 -5.384669e+001 -1.652550e+002 -1.149136e-001 1.349662e+002
537750094.37524 -7.118912e-001 1.629441e+002 -5.386237e+001 -1.693393e+002 -5.393534e+001 -1.654722e+002 -1.200451e-001 1.349816e+002
538127595.31899 -7.145469e-001 1.626784e+002 -5.382995e+001 -1.710818e+002 -5.357014e+001 -1.675763e+002 -1.212750e-001 1.349965e+002
538505096.26274 -7.217342e-001 1.624577e+002 -5.352769e+001 -1.705467e+002 -5.363019e+001 -1.664090e+002 -1.224080e-001 1.350296e+002
538882597.20649 -7.298617e-001 1.622747e+002 -5.337117e+001 -1.738522e+002 -5.330426e+001 -1.701322e+002 -1.236981e-001 1.349880e+002
539260098.15025 -7.371627e-001 1.621023e+002 -5.324859e+001 -1.738855e+002 -5.343235e+001 -1.708212e+002 -1.277132e-001 1.350206e+002
539637599.094 -7.479025e-001 1.618817e+002 -5.344501e+001 -1.763951e+002 -5.306955e+001 -1.709684e+002 -1.290690e-001 1.350191e+002
540015100.03775 -7.578880e-001 1.616374e+002 -5.322388e+001 -1.768595e+002 -5.315514e+001 -1.715007e+002 -1.359274e-001 1.350260e+002
540392600.9815 -7.658615e-001 1.614298e+002 -5.296051e+001 -1.770968e+002 -5.295473e+001 -1.720905e+002 -1.315836e-001 1.350396e+002
540770101.92525 -7.711954e-001 1.612346e+002 -5.295213e+001 -1.768606e+002 -5.274940e+001 -1.733963e+002 -1.339274e-001 1.350349e+002
541147602.86901 -7.857529e-001 1.609807e+002 -5.283508e+001 -1.795204e+002 -5.297203e+001 -1.757858e+002 -1.334850e-001 1.350563e+002
541525103.81276 -7.962177e-001 1.608807e+002 -5.273234e+001 1.781116e+002 -5.273487e+001 -1.762375e+002 -1.337378e-001 1.350513e+002
541902604.75651 -8.009375e-001 1.606893e+002 -5.252872e+001 1.777235e+002 -5.282627e+001 -1.787663e+002 -1.353551e-001 1.350895e+002
542280105.70026 -8.094018e-001 1.604252e+002 -5.261788e+001 1.765612e+002 -5.263125e+001 -1.798997e+002 -1.376251e-001 1.350510e+002
542657606.64402 -8.169560e-001 1.602490e+002 -5.246012e+001 1.745566e+002 -5.267704e+001 1.782736e+002 -1.372998e-001 1.350693e+002
543035107.58777 -8.195751e-001 1.600764e+002 -5.273767e+001 1.755486e+002 -5.291026e+001 1.789507e+002 -1.391373e-001 1.350821e+002
543412608.53152 -8.290164e-001 1.598773e+002 -5.258130e+001 1.731824e+002 -5.271974e+001 1.741257e+002 -1.396645e-001 1.350762e+002
543790109.47527 -8.333346e-001 1.596664e+002 -5.238181e+001 1.711980e+002 -5.267170e+001 1.748216e+002 -1.383834e-001 1.350925e+002
544167610.41903 -8.314396e-001 1.594796e+002 -5.266229e+001 1.697832e+002 -5.291010e+001 1.741693e+002 -1.382646e-001 1.350730e+002
544545111.36278 -8.380681e-001 1.592188e+002 -5.246214e+001 1.700728e+002 -5.284536e+001 1.734560e+002 -1.418281e-001 1.350970e+002
544922612.30653 -8.376290e-001 1.590934e+002 -5.285548e+001 1.672717e+002 -5.294203e+001 1.715311e+002 -1.436790e-001 1.350751e+002
545300113.25028 -8.414136e-001 1.588427e+002 -5.245794e+001 1.674363e+002 -5.293572e+001 1.718778e+002 -1.454589e-001 1.350908e+002
545677614.19404 -8.457897e-001 1.586522e+002 -5.239803e+001 1.678342e+002 -5.290351e+001 1.720971e+002 -1.455270e-001 1.350937e+002
546055115.13779 -8.444769e-001 1.584108e+002 -5.269488e+001 1.656638e+002 -5.295836e+001 1.707948e+002 -1.486797e-001 1.350802e+002
546432616.08154 -8.516853e-001 1.582279e+002 -5.262656e+001 1.649945e+002 -5.303144e+001 1.700082e+002 -1.471123e-001 1.350715e+002
546810117.02529 -8.509410e-001 1.580002e+002 -5.247371e+001 1.669367e+002 -5.291166e+001 1.705957e+002 -1.490650e-001 1.350486e+002
547187617.96904 -8.561915e-001 1.577236e+002 -5.266026e+001 1.661725e+002 -5.274215e+001 1.696572e+002 -1.540832e-001 1.350133e+002
547565118.9128 -8.547773e-001 1.574452e+002 -5.245716e+001 1.650002e+002 -5.282059e+001 1.693324e+002 -1.557893e-001 1.349885e+002
547942619.85655 -8.591309e-001 1.572491e+002 -5.251030e+001 1.643220e+002 -5.293397e+001 1.704739e+002 -1.598169e-001 1.349767e+002
548320120.8003 -8.651060e-001 1.570195e+002 -5.224129e+001 1.648195e+002 -5.261460e+001 1.685173e+002 -1.606800e-001 1.349437e+002
548697621.74405 -8.716569e-001 1.567794e+002 -5.231448e+001 1.614527e+002 -5.239662e+001 1.691807e+002 -1.645896e-001 1.349008e+002
549075122.68781 -8.752387e-001 1.565630e+002 -5.212728e+001 1.629480e+002 -5.215943e+001 1.684264e+002 -1.709292e-001 1.348454e+002
549452623.63156 -8.792426e-001 1.563269e+002 -5.207518e+001 1.618490e+002 -5.241609e+001 1.686949e+002 -1.761434e-001 1.347928e+002
549830124.57531 -8.872589e-001 1.560994e+002 -5.192233e+001 1.618910e+002 -5.207306e+001 1.682683e+002 -1.768039e-001 1.347395e+002
550207625.51906 -8.910261e-001 1.559056e+002 -5.187821e+001 1.629772e+002 -5.209642e+001 1.679444e+002 -1.818772e-001 1.346723e+002
550585126.46282 -8.955674e-001 1.556971e+002 -5.151411e+001 1.610697e+002 -5.186951e+001 1.674449e+002 -1.853753e-001 1.345822e+002
550962627.40657 -9.005598e-001 1.554944e+002 -5.140105e+001 1.600354e+002 -5.194044e+001 1.665080e+002 -1.934808e-001 1.345245e+002
551340128.35032 -9.037187e-001 1.552527e+002 -5.147298e+001 1.568463e+002 -5.172376e+001 1.663316e+002 -1.966748e-001 1.344551e+002
551717629.29407 -9.105216e-001 1.550013e+002 -5.132520e+001 1.572084e+002 -5.159923e+001 1.642192e+002 -1.982345e-001 1.343646e+002
552095130.23783 -9.133325e-001 1.548482e+002 -5.150668e+001 1.574554e+002 -5.115266e+001 1.612040e+002 -2.010841e-001 1.342746e+002
552472631.18158 -9.172284e-001 1.546300e+002 -5.113220e+001 1.543819e+002 -5.129911e+001 1.616647e+002 -2.039419e-001 1.341716e+002
552850132.12533 -9.248481e-001 1.543748e+002 -5.115162e+001 1.544308e+002 -5.129722e+001 1.596900e+002 -2.087934e-001 1.340474e+002
553227633.06908 -9.276406e-001 1.541581e+002 -5.108128e+001 1.512822e+002 -5.102343e+001 1.593165e+002 -2.125529e-001 1.339629e+002
553605134.01284 -9.328001e-001 1.539075e+002 -5.117631e+001 1.507708e+002 -5.130795e+001 1.568023e+002 -2.192774e-001 1.338420e+002
553982634.95659 -9.386290e-001 1.536996e+002 -5.086526e+001 1.482771e+002 -5.110012e+001 1.572665e+002 -2.179398e-001 1.337241e+002
554360135.90034 -9.485292e-001 1.534896e+002 -5.077723e+001 1.489197e+002 -5.084674e+001 1.572844e+002 -2.197904e-001 1.336073e+002
554737636.84409 -9.542079e-001 1.532710e+002 -5.086109e+001 1.482708e+002 -5.103043e+001 1.536960e+002 -2.244911e-001 1.334891e+002
555115137.78784 -9.579914e-001 1.530980e+002 -5.073903e+001 1.463544e+002 -5.092266e+001 1.538354e+002 -2.254930e-001 1.333772e+002
