!Agilent Technologies,E8364B,US42250235,A.06.04.32
!Agilent E8364B: A.06.04.32
!Date: Thursday, October 01, 2020 11:13:12
!Correction: S11(Full 2 Port(1,2)) S21(Full 2 Port(1,2)) S12(Full 2 Port(1,2)) S22(Full 2 Port(1,2)) 
!S2P File: Measurements: S11, S21, S12, S22:
# Hz S  dB   R 50
500000000 -1.758948e-001 -1.750509e+002 -6.121197e+001 1.380291e+002 -6.224928e+001 1.266315e+002 -2.213027e-001 1.368474e+002
500377500.94375 -1.804640e-001 -1.752425e+002 -6.194355e+001 1.391769e+002 -6.144524e+001 1.270181e+002 -2.232166e-001 1.367337e+002
500755001.8875 -1.776531e-001 -1.754483e+002 -6.092009e+001 1.334341e+002 -6.219110e+001 1.228131e+002 -2.256803e-001 1.366316e+002
501132502.83126 -1.852244e-001 -1.756461e+002 -6.124875e+001 1.360189e+002 -6.121900e+001 1.237340e+002 -2.259182e-001 1.365334e+002
501510003.77501 -1.897341e-001 -1.758536e+002 -6.181440e+001 1.304001e+002 -6.182517e+001 1.260816e+002 -2.278797e-001 1.364697e+002
501887504.71876 -1.938810e-001 -1.760185e+002 -6.100189e+001 1.301087e+002 -6.084336e+001 1.214894e+002 -2.319053e-001 1.363363e+002
502265005.66251 -1.970194e-001 -1.762314e+002 -6.114905e+001 1.306148e+002 -6.178910e+001 1.207611e+002 -2.293757e-001 1.362355e+002
502642506.60627 -1.999433e-001 -1.764460e+002 -6.047177e+001 1.258054e+002 -6.138544e+001 1.280887e+002 -2.316732e-001 1.361568e+002
503020007.55002 -2.004901e-001 -1.766741e+002 -6.084587e+001 1.245234e+002 -6.175698e+001 1.171717e+002 -2.300313e-001 1.360740e+002
503397508.49377 -2.036806e-001 -1.769166e+002 -6.087147e+001 1.242656e+002 -6.131692e+001 1.203049e+002 -2.260541e-001 1.359606e+002
503775009.43752 -2.027946e-001 -1.771442e+002 -6.093677e+001 1.291230e+002 -6.151478e+001 1.161865e+002 -2.269605e-001 1.359196e+002
504152510.38128 -2.055744e-001 -1.773812e+002 -6.111123e+001 1.281259e+002 -6.099178e+001 1.183485e+002 -2.223830e-001 1.358661e+002
504530011.32503 -2.099318e-001 -1.775878e+002 -6.067466e+001 1.217545e+002 -6.083962e+001 1.188439e+002 -2.198398e-001 1.358032e+002
504907512.26878 -2.142651e-001 -1.778027e+002 -6.027419e+001 1.240153e+002 -6.053235e+001 1.142702e+002 -2.155633e-001 1.357723e+002
505285013.21253 -2.128821e-001 -1.780183e+002 -6.142957e+001 1.247821e+002 -6.130350e+001 1.136316e+002 -2.130769e-001 1.357491e+002
505662514.15629 -2.161771e-001 -1.782316e+002 -6.106487e+001 1.228322e+002 -6.070542e+001 1.078450e+002 -2.070867e-001 1.357061e+002
506040015.10004 -2.178673e-001 -1.785023e+002 -6.167508e+001 1.176387e+002 -6.149596e+001 1.134742e+002 -2.037212e-001 1.357018e+002
506417516.04379 -2.183185e-001 -1.786827e+002 -6.067059e+001 1.141240e+002 -6.011179e+001 1.109109e+002 -1.936192e-001 1.357538e+002
506795016.98754 -2.201440e-001 -1.789411e+002 -6.040982e+001 1.157100e+002 -6.136880e+001 1.098721e+002 -1.894321e-001 1.357656e+002
507172517.93129 -2.222223e-001 -1.790754e+002 -6.083019e+001 1.192184e+002 -6.105194e+001 1.093142e+002 -1.833942e-001 1.357929e+002
507550018.87505 -2.249433e-001 -1.793387e+002 -6.035523e+001 1.201887e+002 -6.077614e+001 1.095272e+002 -1.729890e-001 1.358530e+002
507927519.8188 -2.272356e-001 -1.795522e+002 -6.053726e+001 1.133592e+002 -6.034982e+001 1.082852e+002 -1.716492e-001 1.359320e+002
508305020.76255 -2.283270e-001 -1.797492e+002 -6.028838e+001 1.156047e+002 -6.127412e+001 1.073246e+002 -1.666908e-001 1.360154e+002
508682521.7063 -2.272850e-001 1.799964e+002 -6.087395e+001 1.074401e+002 -6.085617e+001 1.118816e+002 -1.599063e-001 1.361245e+002
509060022.65006 -2.286341e-001 1.798338e+002 -6.038343e+001 1.138942e+002 -6.089698e+001 1.056896e+002 -1.537598e-001 1.362329e+002
509437523.59381 -2.295119e-001 1.795964e+002 -6.062674e+001 1.088492e+002 -6.072570e+001 1.085443e+002 -1.488329e-001 1.363593e+002
509815024.53756 -2.305856e-001 1.794275e+002 -6.112255e+001 1.152553e+002 -6.119217e+001 1.023228e+002 -1.441883e-001 1.365010e+002
510192525.48131 -2.332859e-001 1.792045e+002 -6.065603e+001 1.102231e+002 -6.087960e+001 1.044198e+002 -1.396915e-001 1.366553e+002
510570026.42507 -2.360052e-001 1.789561e+002 -6.107336e+001 1.127715e+002 -6.121933e+001 1.036016e+002 -1.385581e-001 1.368310e+002
510947527.36882 -2.373995e-001 1.787788e+002 -6.080661e+001 1.097185e+002 -6.115461e+001 1.041071e+002 -1.297579e-001 1.369902e+002
511325028.31257 -2.380422e-001 1.785790e+002 -6.080832e+001 1.072850e+002 -6.094351e+001 1.054130e+002 -1.309455e-001 1.371811e+002
511702529.25632 -2.428455e-001 1.783909e+002 -6.177601e+001 1.077629e+002 -6.098841e+001 1.043620e+002 -1.301424e-001 1.373565e+002
512080030.20008 -2.426841e-001 1.781389e+002 -6.068230e+001 1.066736e+002 -6.061574e+001 9.951189e+001 -1.290433e-001 1.375475e+002
512457531.14383 -2.466474e-001 1.778940e+002 -6.085228e+001 1.135684e+002 -6.119812e+001 1.010377e+002 -1.303112e-001 1.377199e+002
512835032.08758 -2.502297e-001 1.777888e+002 -6.037895e+001 1.109097e+002 -6.078531e+001 9.572133e+001 -1.304741e-001 1.379038e+002
513212533.03133 -2.569679e-001 1.775301e+002 -6.084171e+001 1.034519e+002 -6.062703e+001 1.024608e+002 -1.342254e-001 1.380728e+002
513590033.97508 -2.570611e-001 1.773264e+002 -6.098095e+001 1.095314e+002 -5.949850e+001 9.913872e+001 -1.376945e-001 1.382609e+002
513967534.91884 -2.614453e-001 1.771800e+002 -6.087152e+001 1.042815e+002 -6.086735e+001 9.951713e+001 -1.408965e-001 1.384065e+002
514345035.86259 -2.677589e-001 1.768994e+002 -6.141649e+001 1.065491e+002 -6.060093e+001 1.021087e+002 -1.464605e-001 1.385424e+002
514722536.80634 -2.705853e-001 1.767683e+002 -6.071046e+001 1.098860e+002 -6.038958e+001 9.699506e+001 -1.483404e-001 1.386941e+002
515100037.75009 -2.750768e-001 1.765576e+002 -6.075149e+001 1.100434e+002 -6.080106e+001 1.018283e+002 -1.545849e-001 1.388075e+002
515477538.69385 -2.779104e-001 1.762977e+002 -6.031908e+001 1.089078e+002 -6.058589e+001 9.524444e+001 -1.602453e-001 1.389189e+002
515855039.6376 -2.798709e-001 1.761396e+002 -6.002587e+001 1.040151e+002 -6.051424e+001 1.008952e+002 -1.713420e-001 1.390133e+002
516232540.58135 -2.831655e-001 1.758738e+002 -6.024710e+001 1.070126e+002 -6.084781e+001 9.638473e+001 -1.753022e-001 1.390798e+002
516610041.5251 -2.874486e-001 1.757208e+002 -5.947788e+001 1.031813e+002 -5.988887e+001 9.768038e+001 -1.862054e-001 1.391239e+002
516987542.46886 -2.924451e-001 1.755146e+002 -6.020836e+001 1.043033e+002 -6.068061e+001 9.931419e+001 -1.976677e-001 1.391459e+002
517365043.41261 -2.955175e-001 1.752523e+002 -6.003842e+001 1.081077e+002 -5.992393e+001 9.585075e+001 -2.064181e-001 1.391447e+002
517742544.35636 -2.960873e-001 1.750276e+002 -5.970811e+001 1.024084e+002 -5.971184e+001 9.146671e+001 -2.141872e-001 1.391163e+002
518120045.30011 -3.058896e-001 1.747799e+002 -5.994939e+001 1.014840e+002 -5.990067e+001 9.773066e+001 -2.253485e-001 1.390688e+002
518497546.24387 -3.081498e-001 1.745870e+002 -5.969936e+001 1.060421e+002 -5.999592e+001 9.202232e+001 -2.335563e-001 1.390006e+002
518875047.18762 -3.137024e-001 1.743272e+002 -5.924695e+001 9.936731e+001 -5.997908e+001 9.169224e+001 -2.436727e-001 1.389087e+002
519252548.13137 -3.166286e-001 1.741362e+002 -5.902661e+001 1.029497e+002 -6.034509e+001 9.190855e+001 -2.473572e-001 1.387857e+002
519630049.07512 -3.192344e-001 1.739279e+002 -5.898942e+001 1.018468e+002 -5.911690e+001 9.028793e+001 -2.591201e-001 1.386549e+002
520007550.01888 -3.197084e-001 1.736221e+002 -5.913598e+001 9.700332e+001 -6.008366e+001 9.185969e+001 -2.691171e-001 1.385228e+002
520385050.96263 -3.274004e-001 1.734570e+002 -5.890238e+001 1.000144e+002 -5.960168e+001 9.780775e+001 -2.730604e-001 1.383319e+002
520762551.90638 -3.337084e-001 1.732366e+002 -5.887971e+001 9.713548e+001 -5.942698e+001 9.432207e+001 -2.812148e-001 1.381440e+002
521140052.85013 -3.346316e-001 1.729429e+002 -5.921776e+001 9.529185e+001 -5.913309e+001 9.414342e+001 -2.874599e-001 1.379113e+002
521517553.79388 -3.381503e-001 1.727102e+002 -5.863416e+001 9.549231e+001 -5.899141e+001 9.484195e+001 -2.900964e-001 1.377017e+002
521895054.73764 -3.418405e-001 1.724962e+002 -5.865779e+001 9.919343e+001 -5.923751e+001 9.026681e+001 -2.946264e-001 1.374532e+002
522272555.68139 -3.403609e-001 1.722941e+002 -5.901674e+001 9.462921e+001 -5.960893e+001 8.980921e+001 -3.007458e-001 1.372260e+002
522650056.62514 -3.443493e-001 1.720283e+002 -5.890160e+001 9.159236e+001 -5.881458e+001 8.606669e+001 -2.980003e-001 1.369285e+002
523027557.56889 -3.463786e-001 1.717705e+002 -5.860372e+001 9.172431e+001 -5.864508e+001 8.509600e+001 -3.001615e-001 1.366842e+002
523405058.51265 -3.503173e-001 1.715744e+002 -5.837132e+001 9.341534e+001 -5.875856e+001 8.654430e+001 -3.025538e-001 1.364528e+002
523782559.4564 -3.496975e-001 1.712811e+002 -5.794258e+001 9.513810e+001 -5.921572e+001 8.659530e+001 -3.013370e-001 1.362091e+002
524160060.40015 -3.518770e-001 1.710354e+002 -5.853636e+001 9.087527e+001 -5.883871e+001 8.284849e+001 -3.006017e-001 1.359713e+002
524537561.3439 -3.550704e-001 1.708051e+002 -5.842030e+001 8.815987e+001 -5.814190e+001 8.378712e+001 -2.935294e-001 1.357855e+002
524915062.28766 -3.598597e-001 1.705564e+002 -5.814350e+001 9.083736e+001 -5.892406e+001 8.133926e+001 -2.953279e-001 1.355013e+002
525292563.23141 -3.572829e-001 1.702617e+002 -5.841175e+001 8.880006e+001 -5.826258e+001 7.954596e+001 -2.881608e-001 1.352716e+002
525670064.17516 -3.625311e-001 1.700964e+002 -5.813633e+001 8.758997e+001 -5.812497e+001 8.459765e+001 -2.795926e-001 1.350640e+002
526047565.11891 -3.650170e-001 1.698458e+002 -5.794658e+001 8.833034e+001 -5.789499e+001 8.545803e+001 -2.761745e-001 1.348775e+002
526425066.06267 -3.689010e-001 1.695430e+002 -5.758799e+001 8.502209e+001 -5.806297e+001 7.908241e+001 -2.727487e-001 1.347096e+002
526802567.00642 -3.723931e-001 1.692964e+002 -5.814700e+001 8.622736e+001 -5.770272e+001 8.080292e+001 -2.598613e-001 1.345685e+002
527180067.95017 -3.775884e-001 1.690268e+002 -5.808709e+001 8.250270e+001 -5.707332e+001 7.825714e+001 -2.512548e-001 1.343862e+002
527557568.89392 -3.855893e-001 1.688370e+002 -5.815460e+001 8.006030e+001 -5.772530e+001 7.945185e+001 -2.429250e-001 1.342538e+002
527935069.83767 -3.902322e-001 1.685238e+002 -5.802530e+001 8.245338e+001 -5.735545e+001 7.665522e+001 -2.374535e-001 1.341509e+002
528312570.78143 -3.973967e-001 1.682421e+002 -5.736557e+001 8.111249e+001 -5.752033e+001 7.531685e+001 -2.265363e-001 1.341120e+002
528690071.72518 -4.044787e-001 1.680767e+002 -5.729405e+001 8.233527e+001 -5.743010e+001 7.156583e+001 -2.221726e-001 1.339977e+002
529067572.66893 -4.103647e-001 1.678023e+002 -5.781808e+001 8.017776e+001 -5.713360e+001 7.421378e+001 -2.106476e-001 1.339631e+002
529445073.61268 -4.173693e-001 1.675851e+002 -5.759291e+001 8.258082e+001 -5.773749e+001 7.425522e+001 -2.070049e-001 1.339346e+002
529822574.55644 -4.249306e-001 1.673373e+002 -5.713615e+001 7.876600e+001 -5.745188e+001 7.488710e+001 -1.977181e-001 1.339091e+002
530200075.50019 -4.288760e-001 1.670593e+002 -5.700489e+001 7.832238e+001 -5.759226e+001 7.169276e+001 -1.880573e-001 1.339179e+002
530577576.44394 -4.393815e-001 1.668159e+002 -5.734706e+001 7.862292e+001 -5.709648e+001 7.040969e+001 -1.817509e-001 1.339210e+002
530955077.38769 -4.467708e-001 1.666007e+002 -5.717556e+001 7.802016e+001 -5.700734e+001 6.954980e+001 -1.727382e-001 1.339270e+002
531332578.33145 -4.523321e-001 1.664015e+002 -5.735564e+001 7.462538e+001 -5.738554e+001 6.823405e+001 -1.710458e-001 1.339896e+002
531710079.2752 -4.583266e-001 1.661009e+002 -5.695509e+001 7.405867e+001 -5.732209e+001 6.841366e+001 -1.649105e-001 1.340308e+002
532087580.21895 -4.671315e-001 1.658522e+002 -5.748249e+001 7.224847e+001 -5.700329e+001 6.668658e+001 -1.561954e-001 1.340880e+002
532465081.1627 -4.735323e-001 1.657146e+002 -5.746105e+001 7.207535e+001 -5.676045e+001 6.493566e+001 -1.559425e-001 1.341796e+002
532842582.10646 -4.781721e-001 1.654223e+002 -5.640941e+001 7.363550e+001 -5.684972e+001 6.556490e+001 -1.477011e-001 1.342187e+002
533220083.05021 -4.886086e-001 1.651882e+002 -5.688393e+001 7.219157e+001 -5.689893e+001 6.264397e+001 -1.442469e-001 1.343176e+002
533597583.99396 -4.965000e-001 1.650167e+002 -5.742151e+001 7.175496e+001 -5.678456e+001 6.528677e+001 -1.446990e-001 1.343822e+002
533975084.93771 -5.017115e-001 1.647429e+002 -5.684602e+001 6.755923e+001 -5.669574e+001 6.469611e+001 -1.365976e-001 1.344865e+002
534352585.88146 -5.085996e-001 1.645053e+002 -5.756251e+001 7.220847e+001 -5.675692e+001 6.154986e+001 -1.328462e-001 1.345544e+002
534730086.82522 -5.167906e-001 1.642566e+002 -5.656726e+001 7.156783e+001 -5.654584e+001 6.177948e+001 -1.385612e-001 1.346421e+002
535107587.76897 -5.208124e-001 1.640579e+002 -5.716281e+001 6.742748e+001 -5.633531e+001 5.779594e+001 -1.301710e-001 1.347500e+002
535485088.71272 -5.323529e-001 1.638116e+002 -5.687645e+001 6.620753e+001 -5.675920e+001 5.879488e+001 -1.390743e-001 1.347979e+002
535862589.65647 -5.398059e-001 1.635822e+002 -5.686497e+001 6.601005e+001 -5.695362e+001 5.914146e+001 -1.387192e-001 1.348878e+002
536240090.60023 -5.460923e-001 1.633595e+002 -5.637603e+001 6.408202e+001 -5.622938e+001 6.071595e+001 -1.376553e-001 1.349440e+002
536617591.54398 -5.523456e-001 1.631076e+002 -5.681905e+001 6.523810e+001 -5.691158e+001 5.658724e+001 -1.428178e-001 1.350237e+002
536995092.48773 -5.592398e-001 1.628641e+002 -5.673452e+001 6.582105e+001 -5.661907e+001 5.903452e+001 -1.412396e-001 1.351564e+002
537372593.43148 -5.695182e-001 1.626094e+002 -5.711475e+001 6.561816e+001 -5.640072e+001 5.440089e+001 -1.418343e-001 1.351489e+002
537750094.37524 -5.755942e-001 1.623911e+002 -5.645472e+001 6.177853e+001 -5.658176e+001 5.466537e+001 -1.491517e-001 1.352184e+002
538127595.31899 -5.843927e-001 1.621226e+002 -5.658751e+001 6.321649e+001 -5.600362e+001 5.616655e+001 -1.465577e-001 1.352714e+002
538505096.26274 -5.920940e-001 1.619227e+002 -5.683879e+001 6.330385e+001 -5.611947e+001 5.197887e+001 -1.493069e-001 1.353515e+002
538882597.20649 -5.988717e-001 1.616857e+002 -5.672236e+001 6.014289e+001 -5.630265e+001 5.319592e+001 -1.499760e-001 1.353696e+002
539260098.15025 -6.053196e-001 1.614397e+002 -5.664222e+001 6.284475e+001 -5.631173e+001 5.256834e+001 -1.544559e-001 1.353902e+002
539637599.094 -6.171816e-001 1.611952e+002 -5.648417e+001 5.952620e+001 -5.609810e+001 4.991507e+001 -1.575485e-001 1.354374e+002
540015100.03775 -6.288611e-001 1.609889e+002 -5.672258e+001 6.267789e+001 -5.596830e+001 5.111374e+001 -1.633188e-001 1.354478e+002
540392600.9815 -6.396726e-001 1.607433e+002 -5.618338e+001 6.266656e+001 -5.602531e+001 4.964255e+001 -1.608473e-001 1.354736e+002
540770101.92525 -6.459346e-001 1.604418e+002 -5.638143e+001 6.033197e+001 -5.595275e+001 4.730715e+001 -1.659305e-001 1.354862e+002
541147602.86901 -6.567767e-001 1.602222e+002 -5.598699e+001 6.072761e+001 -5.634347e+001 4.919495e+001 -1.673910e-001 1.354932e+002
541525103.81276 -6.646413e-001 1.599835e+002 -5.578565e+001 6.015024e+001 -5.606426e+001 5.032525e+001 -1.689927e-001 1.354957e+002
541902604.75651 -6.772528e-001 1.597394e+002 -5.563721e+001 6.124142e+001 -5.565971e+001 4.810451e+001 -1.690058e-001 1.355199e+002
542280105.70026 -6.893668e-001 1.594329e+002 -5.566539e+001 5.967694e+001 -5.566199e+001 4.694218e+001 -1.721655e-001 1.354541e+002
542657606.64402 -6.970996e-001 1.593147e+002 -5.528391e+001 5.990591e+001 -5.559362e+001 4.843575e+001 -1.751636e-001 1.354578e+002
543035107.58777 -7.112501e-001 1.590696e+002 -5.547794e+001 5.853622e+001 -5.558719e+001 4.659285e+001 -1.784429e-001 1.354366e+002
543412608.53152 -7.213485e-001 1.588259e+002 -5.508599e+001 5.897905e+001 -5.552798e+001 4.741191e+001 -1.782464e-001 1.354146e+002
543790109.47527 -7.363507e-001 1.586364e+002 -5.514343e+001 5.698257e+001 -5.517463e+001 4.452319e+001 -1.812446e-001 1.353714e+002
544167610.41903 -7.400440e-001 1.583940e+002 -5.506153e+001 5.717292e+001 -5.520249e+001 4.597680e+001 -1.868728e-001 1.353578e+002
544545111.36278 -7.518169e-001 1.581436e+002 -5.534379e+001 5.336102e+001 -5.516378e+001 4.494216e+001 -1.886401e-001 1.353023e+002
544922612.30653 -7.560110e-001 1.579185e+002 -5.483781e+001 5.248705e+001 -5.505428e+001 4.308578e+001 -1.913952e-001 1.352245e+002
545300113.25028 -7.616074e-001 1.577209e+002 -5.488787e+001 5.357322e+001 -5.490118e+001 4.213437e+001 -1.945263e-001 1.352006e+002
545677614.19404 -7.706000e-001 1.574435e+002 -5.460644e+001 5.289108e+001 -5.473872e+001 4.177925e+001 -1.968691e-001 1.351397e+002
546055115.13779 -7.758063e-001 1.572279e+002 -5.399071e+001 5.217492e+001 -5.462583e+001 3.931974e+001 -2.021933e-001 1.350521e+002
546432616.08154 -7.854515e-001 1.569819e+002 -5.418680e+001 5.003334e+001 -5.463371e+001 4.123496e+001 -2.006623e-001 1.350002e+002
546810117.02529 -7.918916e-001 1.567430e+002 -5.444031e+001 4.844221e+001 -5.445700e+001 3.984803e+001 -2.043797e-001 1.349184e+002
547187617.96904 -7.998521e-001 1.565060e+002 -5.398811e+001 5.047444e+001 -5.429905e+001 3.858784e+001 -2.089456e-001 1.348331e+002
547565118.9128 -8.050535e-001 1.562390e+002 -5.413767e+001 4.839262e+001 -5.436120e+001 3.802929e+001 -2.094237e-001 1.347552e+002
547942619.85655 -8.127546e-001 1.560391e+002 -5.408392e+001 4.606754e+001 -5.421553e+001 3.637257e+001 -2.147264e-001 1.346846e+002
548320120.8003 -8.219225e-001 1.558021e+002 -5.346609e+001 4.491866e+001 -5.416089e+001 3.408756e+001 -2.168525e-001 1.346109e+002
548697621.74405 -8.336040e-001 1.555075e+002 -5.386362e+001 4.249812e+001 -5.424082e+001 3.320335e+001 -2.223984e-001 1.345403e+002
549075122.68781 -8.378476e-001 1.553229e+002 -5.393367e+001 4.229055e+001 -5.382917e+001 3.395589e+001 -2.247622e-001 1.344284e+002
549452623.63156 -8.491086e-001 1.550380e+002 -5.349946e+001 4.112180e+001 -5.408455e+001 3.178028e+001 -2.240925e-001 1.343312e+002
549830124.57531 -8.565736e-001 1.548343e+002 -5.385446e+001 3.978730e+001 -5.395846e+001 3.197676e+001 -2.278920e-001 1.341817e+002
550207625.51906 -8.660438e-001 1.545955e+002 -5.359240e+001 3.924139e+001 -5.360986e+001 3.154522e+001 -2.327855e-001 1.341686e+002
550585126.46282 -8.755685e-001 1.543532e+002 -5.389783e+001 3.700853e+001 -5.344472e+001 3.019907e+001 -2.323841e-001 1.340478e+002
550962627.40657 -8.838382e-001 1.541506e+002 -5.343135e+001 3.636608e+001 -5.352922e+001 2.665764e+001 -2.386738e-001 1.339747e+002
551340128.35032 -8.919777e-001 1.539143e+002 -5.330273e+001 3.613190e+001 -5.339581e+001 2.597771e+001 -2.407027e-001 1.339094e+002
551717629.29407 -9.026094e-001 1.536343e+002 -5.327836e+001 3.568086e+001 -5.333072e+001 2.519222e+001 -2.411392e-001 1.338449e+002
552095130.23783 -9.143381e-001 1.534099e+002 -5.302695e+001 3.405507e+001 -5.349346e+001 2.631592e+001 -2.427479e-001 1.337550e+002
552472631.18158 -9.233910e-001 1.531838e+002 -5.345097e+001 3.324115e+001 -5.354100e+001 2.270782e+001 -2.418449e-001 1.336663e+002
552850132.12533 -9.373686e-001 1.529884e+002 -5.338282e+001 3.189202e+001 -5.347783e+001 2.142775e+001 -2.416461e-001 1.335895e+002
553227633.06908 -9.473264e-001 1.526992e+002 -5.317967e+001 3.169461e+001 -5.332931e+001 2.067988e+001 -2.455918e-001 1.335284e+002
553605134.01284 -9.566438e-001 1.525096e+002 -5.326652e+001 2.905282e+001 -5.351621e+001 2.225580e+001 -2.468567e-001 1.334411e+002
553982634.95659 -9.731540e-001 1.522457e+002 -5.355124e+001 3.047383e+001 -5.308682e+001 1.962276e+001 -2.469434e-001 1.333719e+002
554360135.90034 -9.872086e-001 1.520320e+002 -5.347071e+001 2.754609e+001 -5.339927e+001 1.997585e+001 -2.443050e-001 1.333049e+002
554737636.84409 -9.978908e-001 1.518443e+002 -5.322520e+001 2.995319e+001 -5.358202e+001 1.867653e+001 -2.458241e-001 1.332499e+002
555115137.78784 -1.009768e+000 1.516021e+002 -5.345127e+001 2.900739e+001 -5.324839e+001 1.673111e+001 -2.452172e-001 1.331855e+002
555492638.7316 -1.019086e+000 1.513561e+002 -5.333310e+001 2.738253e+001 -5.317929e+001 1.727429e+001 -2.427157e-001 1.330960e+002
555870139.67535 -1.027506e+000 1.511981e+002 -5.341795e+001 2.591029e+001 -5.330375e+001 1.748738e+001 -2.440578e-001 1.330601e+002
