!Agilent Technologies,E8364B,US42250235,A.06.04.32
!Agilent E8364B: A.06.04.32
!Date: Thursday, October 01, 2020 11:17:11
!Correction: S11(Full 2 Port(1,2)) S21(Full 2 Port(1,2)) S12(Full 2 Port(1,2)) S22(Full 2 Port(1,2)) 
!S2P File: Measurements: S11, S21, S12, S22:
# Hz S  dB   R 50
500000000 -1.947578e-001 -1.753369e+002 -6.338106e+001 5.678495e+001 -6.223112e+001 6.422955e+001 -2.091371e-001 1.362862e+002
500377500.94375 -1.957977e-001 -1.755645e+002 -6.344809e+001 5.257998e+001 -6.204515e+001 6.460994e+001 -2.102429e-001 1.361890e+002
500755001.8875 -1.985345e-001 -1.757466e+002 -6.203059e+001 4.897648e+001 -6.197361e+001 5.950972e+001 -2.132938e-001 1.360910e+002
501132502.83126 -2.063269e-001 -1.759756e+002 -6.336738e+001 5.350052e+001 -6.195920e+001 5.594511e+001 -2.074279e-001 1.359931e+002
501510003.77501 -2.122991e-001 -1.761892e+002 -6.264213e+001 5.150489e+001 -6.142638e+001 5.909825e+001 -2.091216e-001 1.358954e+002
501887504.71876 -2.182781e-001 -1.763428e+002 -6.279524e+001 4.731223e+001 -6.159984e+001 5.652842e+001 -2.115082e-001 1.358247e+002
502265005.66251 -2.222196e-001 -1.766158e+002 -6.202072e+001 4.673875e+001 -6.164441e+001 5.399308e+001 -2.056543e-001 1.357448e+002
502642506.60627 -2.259479e-001 -1.768039e+002 -6.266476e+001 4.789803e+001 -6.193141e+001 5.476815e+001 -2.092703e-001 1.356916e+002
503020007.55002 -2.255872e-001 -1.770452e+002 -6.186924e+001 4.288925e+001 -6.221313e+001 5.480853e+001 -2.039967e-001 1.356198e+002
503397508.49377 -2.329270e-001 -1.772705e+002 -6.260364e+001 3.967015e+001 -6.088353e+001 4.964906e+001 -1.998287e-001 1.355385e+002
503775009.43752 -2.332315e-001 -1.774775e+002 -6.229932e+001 4.103730e+001 -6.141924e+001 5.014043e+001 -1.977114e-001 1.355036e+002
504152510.38128 -2.395020e-001 -1.777169e+002 -6.231968e+001 3.868329e+001 -6.187873e+001 5.263818e+001 -1.915738e-001 1.354618e+002
504530011.32503 -2.449615e-001 -1.779304e+002 -6.300421e+001 3.548271e+001 -6.214856e+001 4.817152e+001 -1.878054e-001 1.354279e+002
504907512.26878 -2.507859e-001 -1.781472e+002 -6.258665e+001 3.935100e+001 -6.144144e+001 4.410265e+001 -1.846713e-001 1.354200e+002
505285013.21253 -2.497026e-001 -1.783555e+002 -6.344655e+001 3.851354e+001 -6.177592e+001 4.592764e+001 -1.804111e-001 1.354032e+002
505662514.15629 -2.522666e-001 -1.785677e+002 -6.253889e+001 3.677731e+001 -6.178392e+001 4.345304e+001 -1.762783e-001 1.353913e+002
506040015.10004 -2.575267e-001 -1.788184e+002 -6.260900e+001 3.531971e+001 -6.164293e+001 4.507303e+001 -1.687274e-001 1.354343e+002
506417516.04379 -2.608075e-001 -1.789930e+002 -6.265498e+001 3.552755e+001 -6.157202e+001 4.498819e+001 -1.588338e-001 1.354421e+002
506795016.98754 -2.628230e-001 -1.792501e+002 -6.239143e+001 3.519009e+001 -6.199051e+001 4.810810e+001 -1.541141e-001 1.354773e+002
507172517.93129 -2.681593e-001 -1.793846e+002 -6.269436e+001 3.696874e+001 -6.164742e+001 4.218055e+001 -1.511704e-001 1.355292e+002
507550018.87505 -2.715697e-001 -1.796720e+002 -6.261705e+001 3.522812e+001 -6.208553e+001 4.102488e+001 -1.415956e-001 1.355975e+002
507927519.8188 -2.753677e-001 -1.798117e+002 -6.222379e+001 3.541112e+001 -6.097910e+001 4.500092e+001 -1.394200e-001 1.356985e+002
508305020.76255 -2.794569e-001 1.799445e+002 -6.218480e+001 2.430450e+001 -6.154097e+001 4.390850e+001 -1.314286e-001 1.357739e+002
508682521.7063 -2.808836e-001 1.797503e+002 -6.169214e+001 3.075579e+001 -6.124326e+001 4.075935e+001 -1.275834e-001 1.359021e+002
509060022.65006 -2.833064e-001 1.795636e+002 -6.226404e+001 2.988711e+001 -6.107341e+001 4.720247e+001 -1.218042e-001 1.360247e+002
509437523.59381 -2.891751e-001 1.793439e+002 -6.249793e+001 3.462947e+001 -6.102975e+001 3.950388e+001 -1.152121e-001 1.361398e+002
509815024.53756 -2.938602e-001 1.791768e+002 -6.220038e+001 3.111746e+001 -6.078380e+001 4.168052e+001 -1.140066e-001 1.362985e+002
510192525.48131 -2.940661e-001 1.789647e+002 -6.198890e+001 3.108557e+001 -6.049938e+001 4.206672e+001 -1.092042e-001 1.364327e+002
510570026.42507 -2.972321e-001 1.787203e+002 -6.161987e+001 3.512723e+001 -6.069426e+001 4.004020e+001 -1.080931e-001 1.366112e+002
510947527.36882 -3.018766e-001 1.785664e+002 -6.088863e+001 3.474873e+001 -6.094417e+001 3.650985e+001 -1.018941e-001 1.367762e+002
511325028.31257 -3.034110e-001 1.783155e+002 -6.069099e+001 2.774123e+001 -6.033555e+001 3.712027e+001 -1.005776e-001 1.369480e+002
511702529.25632 -3.108301e-001 1.781845e+002 -6.127729e+001 2.593204e+001 -6.016130e+001 3.815559e+001 -9.856027e-002 1.371369e+002
512080030.20008 -3.116571e-001 1.779440e+002 -6.053059e+001 2.647245e+001 -6.057439e+001 3.720055e+001 -9.879199e-002 1.372992e+002
512457531.14383 -3.175118e-001 1.777518e+002 -6.130450e+001 2.376156e+001 -5.991651e+001 3.607557e+001 -9.800643e-002 1.374716e+002
512835032.08758 -3.224474e-001 1.775997e+002 -6.104868e+001 2.054324e+001 -6.019506e+001 3.527840e+001 -1.011811e-001 1.376153e+002
513212533.03133 -3.313095e-001 1.773589e+002 -6.053240e+001 2.494810e+001 -5.957542e+001 3.126251e+001 -1.065126e-001 1.377719e+002
513590033.97508 -3.309170e-001 1.772064e+002 -6.093071e+001 2.514091e+001 -5.981239e+001 3.591407e+001 -1.081531e-001 1.379459e+002
513967534.91884 -3.382499e-001 1.770251e+002 -6.028002e+001 2.207524e+001 -6.022851e+001 3.041144e+001 -1.127900e-001 1.380886e+002
514345035.86259 -3.419135e-001 1.767870e+002 -6.066759e+001 2.645363e+001 -5.965481e+001 2.908381e+001 -1.176408e-001 1.382232e+002
514722536.80634 -3.475527e-001 1.766299e+002 -6.089780e+001 1.669621e+001 -5.980020e+001 3.107577e+001 -1.212907e-001 1.383508e+002
515100037.75009 -3.527505e-001 1.763962e+002 -6.069456e+001 2.021976e+001 -5.994173e+001 2.757130e+001 -1.292398e-001 1.384572e+002
515477538.69385 -3.572470e-001 1.762191e+002 -5.969383e+001 2.306239e+001 -5.962662e+001 2.971464e+001 -1.341908e-001 1.385721e+002
515855039.6376 -3.628766e-001 1.760118e+002 -6.000939e+001 2.151201e+001 -5.922626e+001 2.470653e+001 -1.423270e-001 1.386466e+002
516232540.58135 -3.675328e-001 1.757617e+002 -5.960580e+001 1.570389e+001 -5.889009e+001 2.817136e+001 -1.490761e-001 1.387035e+002
516610041.5251 -3.740731e-001 1.756114e+002 -5.956900e+001 1.350726e+001 -5.872134e+001 2.531542e+001 -1.602775e-001 1.387445e+002
516987542.46886 -3.796554e-001 1.753878e+002 -5.939352e+001 1.278294e+001 -5.910184e+001 3.045678e+001 -1.667396e-001 1.387594e+002
517365043.41261 -3.849764e-001 1.751862e+002 -5.934682e+001 1.338437e+001 -5.894616e+001 2.272120e+001 -1.765713e-001 1.387432e+002
517742544.35636 -3.871875e-001 1.749818e+002 -5.946358e+001 9.646684e+000 -5.914253e+001 2.201948e+001 -1.864113e-001 1.387045e+002
518120045.30011 -3.982656e-001 1.747618e+002 -5.973897e+001 9.908208e+000 -5.878230e+001 1.966461e+001 -1.920385e-001 1.386655e+002
518497546.24387 -4.056850e-001 1.746016e+002 -5.917723e+001 5.664954e+000 -5.889726e+001 2.058679e+001 -1.986311e-001 1.386004e+002
518875047.18762 -4.078269e-001 1.743510e+002 -5.892605e+001 1.137424e+001 -5.849913e+001 1.880152e+001 -2.118005e-001 1.385080e+002
519252548.13137 -4.117811e-001 1.741729e+002 -5.927176e+001 2.869560e+000 -5.871004e+001 1.886258e+001 -2.163712e-001 1.384305e+002
519630049.07512 -4.110010e-001 1.740064e+002 -5.958955e+001 4.374295e+000 -5.876632e+001 1.038124e+001 -2.274275e-001 1.382780e+002
520007550.01888 -4.172417e-001 1.737486e+002 -5.870985e+001 -9.983801e-001 -5.861777e+001 1.489259e+001 -2.325241e-001 1.381285e+002
520385050.96263 -4.226206e-001 1.735790e+002 -5.937681e+001 1.029166e+000 -5.858281e+001 1.195263e+001 -2.380842e-001 1.379412e+002
520762551.90638 -4.261360e-001 1.733077e+002 -5.922858e+001 -2.866730e+000 -5.855069e+001 1.064161e+001 -2.420706e-001 1.377450e+002
521140052.85013 -4.253197e-001 1.731014e+002 -5.941809e+001 -2.894871e+000 -5.894500e+001 1.012913e+001 -2.475164e-001 1.375551e+002
521517553.79388 -4.296349e-001 1.728802e+002 -5.906952e+001 -6.746593e+000 -5.804448e+001 1.458372e+001 -2.550697e-001 1.373444e+002
521895054.73764 -4.333900e-001 1.726706e+002 -5.872384e+001 -5.740673e+000 -5.862311e+001 8.162629e+000 -2.603644e-001 1.371197e+002
522272555.68139 -4.338957e-001 1.724947e+002 -5.855887e+001 -9.339787e+000 -5.854399e+001 7.368475e+000 -2.611135e-001 1.369124e+002
522650056.62514 -4.349942e-001 1.722445e+002 -5.908450e+001 -6.582623e+000 -5.817210e+001 5.021654e+000 -2.582091e-001 1.366881e+002
523027557.56889 -4.379174e-001 1.719927e+002 -5.876238e+001 -7.786914e+000 -5.799840e+001 9.069677e+000 -2.633094e-001 1.364180e+002
523405058.51265 -4.418478e-001 1.718006e+002 -5.955667e+001 -8.053259e+000 -5.872861e+001 6.267107e+000 -2.648934e-001 1.361740e+002
523782559.4564 -4.404973e-001 1.715632e+002 -5.906384e+001 -8.606641e+000 -5.845684e+001 6.283434e+000 -2.615910e-001 1.359437e+002
524160060.40015 -4.433269e-001 1.712976e+002 -5.877501e+001 -6.982191e+000 -5.885601e+001 7.750526e+000 -2.603236e-001 1.356922e+002
524537561.3439 -4.486310e-001 1.710840e+002 -5.842359e+001 -1.318143e+001 -5.821430e+001 4.325892e+000 -2.574227e-001 1.355195e+002
524915062.28766 -4.516551e-001 1.708454e+002 -5.870274e+001 -1.052899e+001 -5.858857e+001 3.505378e+000 -2.565034e-001 1.352219e+002
525292563.23141 -4.511673e-001 1.706121e+002 -5.910769e+001 -1.412487e+001 -5.791935e+001 4.384709e+000 -2.529168e-001 1.350014e+002
525670064.17516 -4.572299e-001 1.704111e+002 -5.892334e+001 -1.638422e+001 -5.795729e+001 8.778836e-001 -2.473553e-001 1.348014e+002
526047565.11891 -4.605578e-001 1.702121e+002 -5.881105e+001 -1.543417e+001 -5.867604e+001 -2.820942e+000 -2.412328e-001 1.346161e+002
526425066.06267 -4.686857e-001 1.699599e+002 -5.901508e+001 -2.093430e+001 -5.832669e+001 1.744947e+000 -2.394390e-001 1.344513e+002
526802567.00642 -4.711982e-001 1.696900e+002 -5.830124e+001 -1.396660e+001 -5.826202e+001 -1.738800e+000 -2.279854e-001 1.343217e+002
527180067.95017 -4.726197e-001 1.694839e+002 -5.869713e+001 -1.776116e+001 -5.744300e+001 -2.774765e+000 -2.189718e-001 1.341455e+002
527557568.89392 -4.810947e-001 1.692968e+002 -5.885054e+001 -1.908967e+001 -5.771329e+001 -4.103577e+000 -2.094368e-001 1.340206e+002
527935069.83767 -4.844025e-001 1.690100e+002 -5.858644e+001 -1.870662e+001 -5.783467e+001 -1.623800e+000 -2.059223e-001 1.339223e+002
528312570.78143 -4.901502e-001 1.687589e+002 -5.893755e+001 -1.930856e+001 -5.745385e+001 -3.732674e+000 -1.961543e-001 1.338823e+002
528690071.72518 -5.007595e-001 1.685688e+002 -5.873029e+001 -2.136375e+001 -5.730893e+001 -5.181885e+000 -1.893040e-001 1.337794e+002
529067572.66893 -5.036190e-001 1.683649e+002 -5.879060e+001 -2.201370e+001 -5.749791e+001 -7.022368e+000 -1.813842e-001 1.337260e+002
529445073.61268 -5.087703e-001 1.681713e+002 -5.823270e+001 -2.219252e+001 -5.686275e+001 -6.980901e+000 -1.737229e-001 1.336979e+002
529822574.55644 -5.150294e-001 1.679072e+002 -5.829329e+001 -2.303321e+001 -5.699770e+001 -1.103724e+001 -1.652411e-001 1.336858e+002
530200075.50019 -5.169677e-001 1.677169e+002 -5.807778e+001 -2.561427e+001 -5.731615e+001 -1.158153e+001 -1.561480e-001 1.336969e+002
530577576.44394 -5.248860e-001 1.674708e+002 -5.844557e+001 -2.479044e+001 -5.667738e+001 -1.003482e+001 -1.533293e-001 1.336949e+002
530955077.38769 -5.292912e-001 1.673179e+002 -5.828521e+001 -2.390240e+001 -5.676328e+001 -9.714970e+000 -1.471487e-001 1.336870e+002
531332578.33145 -5.344824e-001 1.671103e+002 -5.799500e+001 -2.771395e+001 -5.682352e+001 -9.720469e+000 -1.471500e-001 1.337577e+002
531710079.2752 -5.382236e-001 1.668279e+002 -5.811023e+001 -2.449135e+001 -5.676034e+001 -1.280656e+001 -1.377200e-001 1.337929e+002
532087580.21895 -5.426670e-001 1.665992e+002 -5.739478e+001 -2.872615e+001 -5.681622e+001 -1.324929e+001 -1.290281e-001 1.338441e+002
532465081.1627 -5.464534e-001 1.664921e+002 -5.839957e+001 -2.589168e+001 -5.652781e+001 -1.573119e+001 -1.288643e-001 1.339170e+002
532842582.10646 -5.489544e-001 1.662708e+002 -5.812912e+001 -2.783125e+001 -5.684118e+001 -1.613462e+001 -1.228979e-001 1.339627e+002
533220083.05021 -5.537204e-001 1.660138e+002 -5.777858e+001 -2.979750e+001 -5.654010e+001 -1.625577e+001 -1.182621e-001 1.340509e+002
533597583.99396 -5.571343e-001 1.658191e+002 -5.728315e+001 -3.277835e+001 -5.672254e+001 -1.985997e+001 -1.195504e-001 1.341075e+002
533975084.93771 -5.612712e-001 1.656405e+002 -5.765753e+001 -3.186384e+001 -5.638602e+001 -2.025225e+001 -1.167069e-001 1.341990e+002
534352585.88146 -5.653017e-001 1.653867e+002 -5.772063e+001 -3.331769e+001 -5.662549e+001 -2.374762e+001 -1.131830e-001 1.342822e+002
534730086.82522 -5.675860e-001 1.651838e+002 -5.722769e+001 -3.436644e+001 -5.642813e+001 -2.283760e+001 -1.170990e-001 1.343599e+002
535107587.76897 -5.683715e-001 1.649720e+002 -5.725356e+001 -3.656279e+001 -5.617943e+001 -2.395824e+001 -1.095278e-001 1.344727e+002
535485088.71272 -5.756102e-001 1.647349e+002 -5.721601e+001 -3.680256e+001 -5.610999e+001 -2.436147e+001 -1.140842e-001 1.345164e+002
535862589.65647 -5.786630e-001 1.645533e+002 -5.713406e+001 -3.821112e+001 -5.619833e+001 -2.475700e+001 -1.123965e-001 1.346015e+002
536240090.60023 -5.775385e-001 1.643066e+002 -5.711656e+001 -3.850676e+001 -5.598463e+001 -2.591017e+001 -1.127612e-001 1.346613e+002
536617591.54398 -5.841164e-001 1.640893e+002 -5.697549e+001 -4.182009e+001 -5.590822e+001 -2.742897e+001 -1.167112e-001 1.347455e+002
536995092.48773 -5.872672e-001 1.638515e+002 -5.694163e+001 -3.953072e+001 -5.574603e+001 -2.961533e+001 -1.164997e-001 1.348629e+002
537372593.43148 -5.910142e-001 1.636086e+002 -5.681123e+001 -4.333337e+001 -5.584224e+001 -3.282353e+001 -1.194204e-001 1.348658e+002
537750094.37524 -5.930465e-001 1.634208e+002 -5.693262e+001 -4.567623e+001 -5.558519e+001 -3.197943e+001 -1.239167e-001 1.349250e+002
538127595.31899 -5.983098e-001 1.631335e+002 -5.739418e+001 -4.996101e+001 -5.597923e+001 -3.528505e+001 -1.266197e-001 1.349833e+002
538505096.26274 -6.011698e-001 1.629191e+002 -5.769296e+001 -4.665144e+001 -5.580509e+001 -3.565214e+001 -1.286504e-001 1.350526e+002
538882597.20649 -6.053042e-001 1.627252e+002 -5.684946e+001 -5.136025e+001 -5.565147e+001 -3.513705e+001 -1.284483e-001 1.350600e+002
539260098.15025 -6.104718e-001 1.624795e+002 -5.675710e+001 -4.827337e+001 -5.570636e+001 -3.784172e+001 -1.321760e-001 1.350902e+002
539637599.094 -6.160258e-001 1.622749e+002 -5.738239e+001 -5.156218e+001 -5.549089e+001 -3.961723e+001 -1.364807e-001 1.351378e+002
540015100.03775 -6.207476e-001 1.620710e+002 -5.705072e+001 -4.917983e+001 -5.563029e+001 -4.043817e+001 -1.403269e-001 1.351454e+002
540392600.9815 -6.258521e-001 1.617646e+002 -5.687854e+001 -5.202283e+001 -5.612067e+001 -4.008657e+001 -1.424969e-001 1.351566e+002
540770101.92525 -6.256903e-001 1.615456e+002 -5.673569e+001 -5.559687e+001 -5.575951e+001 -4.193780e+001 -1.455676e-001 1.351663e+002
541147602.86901 -6.367527e-001 1.612921e+002 -5.708216e+001 -5.329484e+001 -5.581193e+001 -4.441085e+001 -1.464998e-001 1.351832e+002
541525103.81276 -6.439500e-001 1.611350e+002 -5.671503e+001 -5.510303e+001 -5.552009e+001 -4.421662e+001 -1.479535e-001 1.351800e+002
541902604.75651 -6.468640e-001 1.608620e+002 -5.718460e+001 -5.821915e+001 -5.580205e+001 -4.514138e+001 -1.489250e-001 1.352077e+002
542280105.70026 -6.479719e-001 1.605896e+002 -5.665351e+001 -5.627037e+001 -5.564828e+001 -4.830819e+001 -1.524725e-001 1.351430e+002
542657606.64402 -6.553358e-001 1.604469e+002 -5.653342e+001 -5.925597e+001 -5.587606e+001 -4.724477e+001 -1.548724e-001 1.351383e+002
543035107.58777 -6.616380e-001 1.601656e+002 -5.656485e+001 -6.186352e+001 -5.558004e+001 -4.954617e+001 -1.569583e-001 1.351357e+002
543412608.53152 -6.669286e-001 1.599933e+002 -5.657325e+001 -6.193428e+001 -5.519796e+001 -5.146889e+001 -1.588904e-001 1.351031e+002
543790109.47527 -6.720394e-001 1.597186e+002 -5.674665e+001 -6.349353e+001 -5.598038e+001 -5.131429e+001 -1.585099e-001 1.350859e+002
544167610.41903 -6.684106e-001 1.594911e+002 -5.662128e+001 -6.676434e+001 -5.572672e+001 -5.163979e+001 -1.605448e-001 1.350837e+002
544545111.36278 -6.781188e-001 1.592571e+002 -5.654230e+001 -6.322056e+001 -5.585760e+001 -5.389581e+001 -1.613480e-001 1.350024e+002
544922612.30653 -6.766071e-001 1.590522e+002 -5.671476e+001 -6.477129e+001 -5.590752e+001 -5.412196e+001 -1.666707e-001 1.349458e+002
545300113.25028 -6.775824e-001 1.588037e+002 -5.701117e+001 -6.767452e+001 -5.636767e+001 -5.412453e+001 -1.688603e-001 1.349220e+002
545677614.19404 -6.821061e-001 1.585264e+002 -5.656056e+001 -7.014344e+001 -5.605439e+001 -5.477429e+001 -1.692434e-001 1.348738e+002
546055115.13779 -6.831125e-001 1.582959e+002 -5.680367e+001 -6.762318e+001 -5.613919e+001 -5.695672e+001 -1.718358e-001 1.348162e+002
546432616.08154 -6.844357e-001 1.580334e+002 -5.712045e+001 -6.780388e+001 -5.640845e+001 -5.623336e+001 -1.700147e-001 1.347660e+002
546810117.02529 -6.881715e-001 1.578417e+002 -5.701907e+001 -6.984250e+001 -5.601265e+001 -5.673136e+001 -1.729238e-001 1.346981e+002
547187617.96904 -6.937556e-001 1.575438e+002 -5.708256e+001 -6.970922e+001 -5.646558e+001 -5.648558e+001 -1.747086e-001 1.346342e+002
547565118.9128 -6.927199e-001 1.572244e+002 -5.680880e+001 -7.296085e+001 -5.609352e+001 -5.644923e+001 -1.776550e-001 1.345684e+002
547942619.85655 -6.975158e-001 1.570415e+002 -5.688163e+001 -7.214343e+001 -5.576324e+001 -5.878692e+001 -1.785833e-001 1.345077e+002
548320120.8003 -7.014265e-001 1.567467e+002 -5.650015e+001 -6.884410e+001 -5.599664e+001 -5.760091e+001 -1.823103e-001 1.344428e+002
548697621.74405 -7.055532e-001 1.564999e+002 -5.718567e+001 -6.843480e+001 -5.551571e+001 -5.916897e+001 -1.874002e-001 1.343929e+002
549075122.68781 -7.101558e-001 1.562820e+002 -5.683216e+001 -7.327391e+001 -5.588121e+001 -6.115557e+001 -1.902415e-001 1.342872e+002
549452623.63156 -7.150305e-001 1.559966e+002 -5.682617e+001 -7.278008e+001 -5.590318e+001 -5.982436e+001 -1.883989e-001 1.342179e+002
549830124.57531 -7.203404e-001 1.557424e+002 -5.656141e+001 -7.338901e+001 -5.530870e+001 -6.019718e+001 -1.926169e-001 1.341545e+002
550207625.51906 -7.238868e-001 1.555201e+002 -5.673940e+001 -7.463836e+001 -5.532237e+001 -5.902068e+001 -1.949757e-001 1.340798e+002
550585126.46282 -7.288309e-001 1.552766e+002 -5.659863e+001 -7.598844e+001 -5.526999e+001 -6.178930e+001 -1.944895e-001 1.339832e+002
550962627.40657 -7.316264e-001 1.550319e+002 -5.655876e+001 -7.731486e+001 -5.541818e+001 -6.508224e+001 -1.994087e-001 1.339202e+002
551340128.35032 -7.371325e-001 1.548021e+002 -5.681107e+001 -7.767875e+001 -5.548672e+001 -6.339217e+001 -1.977137e-001 1.338660e+002
551717629.29407 -7.431930e-001 1.545106e+002 -5.635424e+001 -7.965710e+001 -5.498968e+001 -6.318959e+001 -2.025453e-001 1.337932e+002
552095130.23783 -7.467216e-001 1.542633e+002 -5.608210e+001 -7.977670e+001 -5.508702e+001 -6.604586e+001 -2.057253e-001 1.337040e+002
552472631.18158 -7.544388e-001 1.540353e+002 -5.611337e+001 -7.811336e+001 -5.498070e+001 -6.653146e+001 -2.062818e-001 1.336422e+002
552850132.12533 -7.619313e-001 1.537716e+002 -5.575774e+001 -8.067200e+001 -5.472744e+001 -6.947214e+001 -2.013670e-001 1.335575e+002
553227633.06908 -7.687463e-001 1.535064e+002 -5.621722e+001 -8.237580e+001 -5.475532e+001 -6.627962e+001 -2.060788e-001 1.334955e+002
553605134.01284 -7.720971e-001 1.532391e+002 -5.588478e+001 -8.437935e+001 -5.491403e+001 -6.959256e+001 -2.091523e-001 1.334042e+002
553982634.95659 -7.846047e-001 1.529961e+002 -5.630947e+001 -8.301132e+001 -5.478295e+001 -7.388742e+001 -2.087586e-001 1.333285e+002
554360135.90034 -7.932220e-001 1.527553e+002 -5.603199e+001 -8.609080e+001 -5.470325e+001 -7.754595e+001 -2.078489e-001 1.332611e+002
554737636.84409 -7.975198e-001 1.525001e+002 -5.625653e+001 -8.552313e+001 -5.510085e+001 -7.448660e+001 -2.101025e-001 1.331979e+002
555115137.78784 -8.077677e-001 1.523093e+002 -5.627333e+001 -8.579384e+001 -5.470389e+001 -7.481963e+001 -2.079115e-001 1.331311e+002
555492638.7316 -8.133458e-001 1.519993e+002 -5.643098e+001 -8.442435e+001 -5.526771e+001 -7.684075e+001 -2.049458e-001 1.330480e+002
