!Agilent Technologies,E8364B,US42250235,A.06.04.32
!Agilent E8364B: A.06.04.32
!Date: Thursday, October 01, 2020 11:19:33
!Correction: S11(Full 2 Port(1,2)) S21(Full 2 Port(1,2)) S12(Full 2 Port(1,2)) S22(Full 2 Port(1,2)) 
!S2P File: Measurements: S11, S21, S12, S22:
# Hz S  dB   R 50
500000000 -1.828884e-001 -1.751459e+002 -6.322591e+001 -4.236491e+001 -6.448133e+001 -5.499533e+001 -2.125678e-001 1.361609e+002
500377500.94375 -1.856367e-001 -1.753802e+002 -6.478150e+001 -4.130974e+001 -6.442326e+001 -5.115268e+001 -2.138790e-001 1.360558e+002
500755001.8875 -1.885392e-001 -1.755503e+002 -6.545028e+001 -4.724797e+001 -6.402998e+001 -4.984498e+001 -2.188038e-001 1.359397e+002
501132502.83126 -1.928497e-001 -1.757876e+002 -6.510542e+001 -5.156768e+001 -6.365886e+001 -5.102139e+001 -2.154607e-001 1.358421e+002
501510003.77501 -1.954527e-001 -1.760016e+002 -6.276614e+001 -4.552299e+001 -6.383782e+001 -5.577078e+001 -2.115851e-001 1.357805e+002
501887504.71876 -2.032330e-001 -1.761926e+002 -6.434187e+001 -4.271753e+001 -6.397671e+001 -5.462978e+001 -2.175394e-001 1.356471e+002
502265005.66251 -2.045658e-001 -1.764236e+002 -6.467931e+001 -5.062087e+001 -6.413177e+001 -5.100095e+001 -2.121055e-001 1.355721e+002
502642506.60627 -2.067879e-001 -1.766110e+002 -6.409743e+001 -4.969663e+001 -6.397959e+001 -5.254019e+001 -2.108650e-001 1.354554e+002
503020007.55002 -2.075357e-001 -1.768739e+002 -6.378147e+001 -5.468272e+001 -6.561670e+001 -6.097367e+001 -2.102037e-001 1.354360e+002
503397508.49377 -2.128514e-001 -1.770948e+002 -6.432530e+001 -4.840136e+001 -6.413380e+001 -4.945345e+001 -2.041805e-001 1.353424e+002
503775009.43752 -2.155991e-001 -1.772940e+002 -6.471896e+001 -5.418388e+001 -6.384800e+001 -5.878033e+001 -2.047259e-001 1.352851e+002
504152510.38128 -2.171466e-001 -1.775514e+002 -6.347169e+001 -5.325218e+001 -6.401136e+001 -5.156899e+001 -1.992353e-001 1.352565e+002
504530011.32503 -2.222010e-001 -1.777435e+002 -6.389740e+001 -5.081223e+001 -6.341062e+001 -5.669992e+001 -1.968477e-001 1.352056e+002
504907512.26878 -2.281376e-001 -1.779471e+002 -6.328548e+001 -5.204830e+001 -6.381833e+001 -5.853487e+001 -1.920133e-001 1.351908e+002
505285013.21253 -2.295160e-001 -1.782174e+002 -6.298697e+001 -5.264244e+001 -6.364600e+001 -5.378859e+001 -1.885513e-001 1.351878e+002
505662514.15629 -2.285208e-001 -1.783604e+002 -6.359779e+001 -5.498532e+001 -6.359583e+001 -5.647855e+001 -1.785315e-001 1.351599e+002
506040015.10004 -2.321434e-001 -1.786248e+002 -6.247712e+001 -5.964549e+001 -6.267139e+001 -6.369272e+001 -1.772305e-001 1.351866e+002
506417516.04379 -2.338760e-001 -1.788268e+002 -6.288033e+001 -5.885690e+001 -6.279710e+001 -5.999460e+001 -1.645617e-001 1.352162e+002
506795016.98754 -2.357629e-001 -1.790634e+002 -6.251062e+001 -6.680368e+001 -6.199046e+001 -6.210592e+001 -1.618435e-001 1.352797e+002
507172517.93129 -2.387722e-001 -1.791887e+002 -6.309229e+001 -6.639423e+001 -6.229248e+001 -6.496301e+001 -1.538731e-001 1.353174e+002
507550018.87505 -2.386546e-001 -1.794948e+002 -6.327968e+001 -6.080615e+001 -6.320190e+001 -6.583955e+001 -1.442540e-001 1.353792e+002
507927519.8188 -2.411747e-001 -1.796333e+002 -6.302414e+001 -5.447430e+001 -6.300481e+001 -6.522782e+001 -1.429245e-001 1.354750e+002
508305020.76255 -2.447084e-001 -1.798217e+002 -6.263848e+001 -6.032611e+001 -6.314214e+001 -6.497295e+001 -1.359958e-001 1.355677e+002
508682521.7063 -2.412345e-001 1.799435e+002 -6.215136e+001 -6.267085e+001 -6.280349e+001 -6.468944e+001 -1.328008e-001 1.356799e+002
509060022.65006 -2.446161e-001 1.797564e+002 -6.255581e+001 -6.601154e+001 -6.169132e+001 -7.088506e+001 -1.265443e-001 1.358184e+002
509437523.59381 -2.453015e-001 1.795626e+002 -6.267701e+001 -6.548978e+001 -6.263708e+001 -6.933400e+001 -1.214805e-001 1.359337e+002
509815024.53756 -2.462886e-001 1.793468e+002 -6.188089e+001 -6.876810e+001 -6.306386e+001 -7.133662e+001 -1.160019e-001 1.360738e+002
510192525.48131 -2.441632e-001 1.790988e+002 -6.202368e+001 -7.046488e+001 -6.234787e+001 -6.926338e+001 -1.120806e-001 1.362261e+002
510570026.42507 -2.478637e-001 1.789039e+002 -6.216643e+001 -7.118642e+001 -6.215412e+001 -7.728485e+001 -1.122450e-001 1.363958e+002
510947527.36882 -2.525512e-001 1.786816e+002 -6.273807e+001 -7.278208e+001 -6.260648e+001 -7.676717e+001 -1.036909e-001 1.365605e+002
511325028.31257 -2.492445e-001 1.784695e+002 -6.212176e+001 -7.277635e+001 -6.162148e+001 -7.513186e+001 -1.036319e-001 1.367131e+002
511702529.25632 -2.560301e-001 1.783264e+002 -6.225239e+001 -7.378233e+001 -6.197073e+001 -8.279758e+001 -1.053922e-001 1.369016e+002
512080030.20008 -2.558524e-001 1.780714e+002 -6.251856e+001 -7.879482e+001 -6.097720e+001 -7.745386e+001 -1.039974e-001 1.370889e+002
512457531.14383 -2.623176e-001 1.778667e+002 -6.207169e+001 -7.239564e+001 -6.171988e+001 -8.063082e+001 -1.018231e-001 1.372496e+002
512835032.08758 -2.626052e-001 1.776874e+002 -6.097477e+001 -7.392879e+001 -6.181066e+001 -8.211445e+001 -1.044412e-001 1.373976e+002
513212533.03133 -2.714655e-001 1.774965e+002 -6.221889e+001 -7.829357e+001 -6.083657e+001 -8.291515e+001 -1.094740e-001 1.375645e+002
513590033.97508 -2.702586e-001 1.773134e+002 -6.194571e+001 -7.346610e+001 -6.207444e+001 -8.414102e+001 -1.123608e-001 1.377271e+002
513967534.91884 -2.765937e-001 1.770804e+002 -6.192883e+001 -7.657091e+001 -6.174047e+001 -8.398883e+001 -1.123891e-001 1.378689e+002
514345035.86259 -2.783705e-001 1.768540e+002 -6.175660e+001 -8.265481e+001 -6.120945e+001 -8.691048e+001 -1.198926e-001 1.379897e+002
514722536.80634 -2.856792e-001 1.767050e+002 -6.189931e+001 -7.760677e+001 -6.204935e+001 -8.155702e+001 -1.241155e-001 1.381339e+002
515100037.75009 -2.854199e-001 1.764292e+002 -6.198466e+001 -7.549352e+001 -6.153036e+001 -8.600040e+001 -1.299969e-001 1.382343e+002
515477538.69385 -2.901316e-001 1.762537e+002 -6.127411e+001 -8.014016e+001 -6.147089e+001 -8.553644e+001 -1.341793e-001 1.383321e+002
515855039.6376 -2.929797e-001 1.760206e+002 -6.124728e+001 -8.202731e+001 -6.152601e+001 -8.809213e+001 -1.439212e-001 1.384099e+002
516232540.58135 -2.969570e-001 1.757833e+002 -6.218314e+001 -8.100092e+001 -6.113826e+001 -8.551326e+001 -1.470892e-001 1.384636e+002
516610041.5251 -2.971733e-001 1.755742e+002 -6.069399e+001 -8.133326e+001 -6.143331e+001 -8.970686e+001 -1.549175e-001 1.385001e+002
516987542.46886 -3.026935e-001 1.753558e+002 -6.146167e+001 -8.270016e+001 -6.119410e+001 -8.645306e+001 -1.653325e-001 1.385063e+002
517365043.41261 -3.102525e-001 1.751273e+002 -6.089191e+001 -8.548783e+001 -6.081673e+001 -9.209915e+001 -1.752108e-001 1.384998e+002
517742544.35636 -3.103729e-001 1.749070e+002 -6.108484e+001 -8.733925e+001 -6.137655e+001 -9.612733e+001 -1.835766e-001 1.384736e+002
518120045.30011 -3.190936e-001 1.746513e+002 -6.167523e+001 -8.705779e+001 -6.125492e+001 -8.804485e+001 -1.918642e-001 1.383996e+002
518497546.24387 -3.269075e-001 1.744531e+002 -6.049214e+001 -8.486139e+001 -6.126920e+001 -9.267098e+001 -1.972663e-001 1.383301e+002
518875047.18762 -3.260280e-001 1.742040e+002 -6.113000e+001 -9.465859e+001 -6.087520e+001 -9.898151e+001 -2.098719e-001 1.382399e+002
519252548.13137 -3.324105e-001 1.739921e+002 -6.000518e+001 -8.841132e+001 -6.045853e+001 -9.646992e+001 -2.109430e-001 1.381144e+002
519630049.07512 -3.335233e-001 1.737494e+002 -6.054183e+001 -9.166399e+001 -5.984932e+001 -9.784547e+001 -2.208751e-001 1.379964e+002
520007550.01888 -3.377261e-001 1.735122e+002 -6.029493e+001 -9.406955e+001 -5.959752e+001 -9.616438e+001 -2.274559e-001 1.378512e+002
520385050.96263 -3.432408e-001 1.733253e+002 -6.061292e+001 -1.019735e+002 -6.046103e+001 -9.753362e+001 -2.335309e-001 1.376630e+002
520762551.90638 -3.468505e-001 1.730535e+002 -6.053772e+001 -1.009814e+002 -5.973075e+001 -9.912968e+001 -2.401484e-001 1.374791e+002
521140052.85013 -3.480034e-001 1.728298e+002 -6.041656e+001 -9.826218e+001 -5.972705e+001 -1.010344e+002 -2.468855e-001 1.372731e+002
521517553.79388 -3.551162e-001 1.725800e+002 -6.057575e+001 -1.039901e+002 -6.045284e+001 -1.043541e+002 -2.504826e-001 1.370560e+002
521895054.73764 -3.576129e-001 1.723673e+002 -5.937909e+001 -9.883436e+001 -6.002232e+001 -1.023153e+002 -2.524492e-001 1.368291e+002
522272555.68139 -3.574196e-001 1.721172e+002 -6.004767e+001 -1.011571e+002 -6.053201e+001 -1.074897e+002 -2.571412e-001 1.366116e+002
522650056.62514 -3.635246e-001 1.718907e+002 -6.115347e+001 -1.016377e+002 -6.031446e+001 -1.035087e+002 -2.539072e-001 1.363182e+002
523027557.56889 -3.662786e-001 1.716420e+002 -5.995978e+001 -9.753924e+001 -6.066836e+001 -1.057831e+002 -2.558113e-001 1.360884e+002
523405058.51265 -3.692247e-001 1.714169e+002 -6.063561e+001 -1.075034e+002 -5.965437e+001 -1.045039e+002 -2.580068e-001 1.358632e+002
523782559.4564 -3.706194e-001 1.711611e+002 -6.030558e+001 -1.049211e+002 -6.005099e+001 -1.096139e+002 -2.560848e-001 1.356444e+002
524160060.40015 -3.692142e-001 1.709176e+002 -6.003920e+001 -1.012076e+002 -6.027422e+001 -1.079939e+002 -2.549034e-001 1.354154e+002
524537561.3439 -3.739504e-001 1.706846e+002 -6.110393e+001 -1.031804e+002 -5.938436e+001 -1.066694e+002 -2.489013e-001 1.352389e+002
524915062.28766 -3.781977e-001 1.704289e+002 -6.107675e+001 -1.014540e+002 -5.946520e+001 -1.103556e+002 -2.478216e-001 1.349685e+002
525292563.23141 -3.773355e-001 1.701809e+002 -5.958255e+001 -1.026680e+002 -5.963123e+001 -1.038492e+002 -2.417266e-001 1.347498e+002
525670064.17516 -3.838595e-001 1.699656e+002 -5.976903e+001 -1.099246e+002 -5.967833e+001 -1.048918e+002 -2.345853e-001 1.345623e+002
526047565.11891 -3.872938e-001 1.697061e+002 -5.985357e+001 -1.110254e+002 -6.001424e+001 -1.101587e+002 -2.327095e-001 1.343804e+002
526425066.06267 -3.949183e-001 1.694710e+002 -6.035963e+001 -1.085789e+002 -5.921803e+001 -1.111034e+002 -2.250589e-001 1.342331e+002
526802567.00642 -3.993671e-001 1.691745e+002 -5.988326e+001 -1.071625e+002 -5.957908e+001 -1.141582e+002 -2.148957e-001 1.341036e+002
527180067.95017 -4.045101e-001 1.689258e+002 -5.971252e+001 -1.067950e+002 -5.939124e+001 -1.097398e+002 -2.066140e-001 1.339536e+002
527557568.89392 -4.140802e-001 1.687269e+002 -5.898502e+001 -1.061940e+002 -5.898482e+001 -1.149633e+002 -1.998294e-001 1.338309e+002
527935069.83767 -4.188127e-001 1.684136e+002 -5.957907e+001 -1.135842e+002 -5.900732e+001 -1.136102e+002 -1.972434e-001 1.337470e+002
528312570.78143 -4.295540e-001 1.681560e+002 -5.951969e+001 -1.136254e+002 -5.940543e+001 -1.160084e+002 -1.851021e-001 1.337150e+002
528690071.72518 -4.378206e-001 1.679181e+002 -5.933404e+001 -1.161608e+002 -5.900409e+001 -1.196190e+002 -1.771087e-001 1.336259e+002
529067572.66893 -4.453031e-001 1.677011e+002 -5.941266e+001 -1.120928e+002 -5.882985e+001 -1.197080e+002 -1.681848e-001 1.335511e+002
529445073.61268 -4.539787e-001 1.674471e+002 -5.907750e+001 -1.144131e+002 -5.865635e+001 -1.211440e+002 -1.653018e-001 1.335463e+002
529822574.55644 -4.610072e-001 1.672098e+002 -5.906046e+001 -1.143106e+002 -5.788355e+001 -1.238558e+002 -1.559465e-001 1.335156e+002
530200075.50019 -4.700029e-001 1.670037e+002 -5.949527e+001 -1.152984e+002 -5.830483e+001 -1.181486e+002 -1.468675e-001 1.335387e+002
530577576.44394 -4.801177e-001 1.667528e+002 -5.847258e+001 -1.185513e+002 -5.861406e+001 -1.221145e+002 -1.424052e-001 1.335311e+002
530955077.38769 -4.911295e-001 1.665730e+002 -5.875017e+001 -1.201134e+002 -5.874786e+001 -1.218364e+002 -1.359103e-001 1.335309e+002
531332578.33145 -4.975566e-001 1.663461e+002 -5.849762e+001 -1.203312e+002 -5.827534e+001 -1.238150e+002 -1.371441e-001 1.336063e+002
531710079.2752 -5.042626e-001 1.660622e+002 -5.871792e+001 -1.224044e+002 -5.824534e+001 -1.263311e+002 -1.297234e-001 1.336456e+002
532087580.21895 -5.118023e-001 1.658105e+002 -5.863404e+001 -1.226406e+002 -5.772635e+001 -1.232801e+002 -1.208819e-001 1.336990e+002
532465081.1627 -5.206966e-001 1.656833e+002 -5.883772e+001 -1.224211e+002 -5.766911e+001 -1.240780e+002 -1.225340e-001 1.337755e+002
532842582.10646 -5.260372e-001 1.654568e+002 -5.807277e+001 -1.226568e+002 -5.734404e+001 -1.279119e+002 -1.162615e-001 1.338196e+002
533220083.05021 -5.363720e-001 1.651739e+002 -5.749327e+001 -1.242105e+002 -5.779121e+001 -1.288805e+002 -1.125946e-001 1.339019e+002
533597583.99396 -5.435675e-001 1.649745e+002 -5.852654e+001 -1.216603e+002 -5.772334e+001 -1.290570e+002 -1.172179e-001 1.339533e+002
533975084.93771 -5.495881e-001 1.647835e+002 -5.820144e+001 -1.261304e+002 -5.740032e+001 -1.270017e+002 -1.078653e-001 1.340449e+002
534352585.88146 -5.576997e-001 1.645246e+002 -5.811324e+001 -1.280483e+002 -5.732875e+001 -1.329926e+002 -1.046911e-001 1.341060e+002
534730086.82522 -5.639530e-001 1.642801e+002 -5.787695e+001 -1.290423e+002 -5.702047e+001 -1.325117e+002 -1.118958e-001 1.341919e+002
535107587.76897 -5.678733e-001 1.640803e+002 -5.766028e+001 -1.267366e+002 -5.712801e+001 -1.331650e+002 -1.037394e-001 1.342874e+002
535485088.71272 -5.766888e-001 1.638495e+002 -5.782298e+001 -1.302299e+002 -5.701279e+001 -1.346415e+002 -1.125001e-001 1.343327e+002
535862589.65647 -5.836867e-001 1.636658e+002 -5.703774e+001 -1.306541e+002 -5.678689e+001 -1.364275e+002 -1.096814e-001 1.344119e+002
536240090.60023 -5.888513e-001 1.633935e+002 -5.726927e+001 -1.319160e+002 -5.695385e+001 -1.361163e+002 -1.109403e-001 1.344744e+002
536617591.54398 -5.975202e-001 1.632078e+002 -5.730385e+001 -1.330972e+002 -5.663025e+001 -1.388954e+002 -1.161456e-001 1.345565e+002
536995092.48773 -6.048846e-001 1.629099e+002 -5.734639e+001 -1.335361e+002 -5.665972e+001 -1.423497e+002 -1.144750e-001 1.346550e+002
537372593.43148 -6.132339e-001 1.626697e+002 -5.724298e+001 -1.378013e+002 -5.656539e+001 -1.413720e+002 -1.163945e-001 1.346632e+002
537750094.37524 -6.198974e-001 1.625018e+002 -5.703666e+001 -1.369333e+002 -5.672423e+001 -1.403347e+002 -1.273286e-001 1.347065e+002
538127595.31899 -6.313240e-001 1.621980e+002 -5.694771e+001 -1.395228e+002 -5.637544e+001 -1.434333e+002 -1.257928e-001 1.347519e+002
538505096.26274 -6.399555e-001 1.619735e+002 -5.702629e+001 -1.393253e+002 -5.638000e+001 -1.447770e+002 -1.299605e-001 1.348082e+002
538882597.20649 -6.477310e-001 1.617874e+002 -5.719056e+001 -1.390779e+002 -5.612465e+001 -1.472022e+002 -1.320479e-001 1.348176e+002
539260098.15025 -6.560606e-001 1.615456e+002 -5.642026e+001 -1.421373e+002 -5.649396e+001 -1.471587e+002 -1.349914e-001 1.348534e+002
539637599.094 -6.666008e-001 1.613582e+002 -5.669436e+001 -1.410826e+002 -5.638885e+001 -1.494157e+002 -1.395073e-001 1.348688e+002
540015100.03775 -6.781595e-001 1.611546e+002 -5.705243e+001 -1.420501e+002 -5.611874e+001 -1.491282e+002 -1.466829e-001 1.348696e+002
540392600.9815 -6.871593e-001 1.608667e+002 -5.666369e+001 -1.435012e+002 -5.615278e+001 -1.528312e+002 -1.468073e-001 1.349003e+002
540770101.92525 -6.934152e-001 1.606535e+002 -5.618526e+001 -1.444769e+002 -5.596643e+001 -1.517868e+002 -1.491999e-001 1.348951e+002
541147602.86901 -7.062913e-001 1.603900e+002 -5.662384e+001 -1.471062e+002 -5.586451e+001 -1.520050e+002 -1.517105e-001 1.348903e+002
541525103.81276 -7.156259e-001 1.602505e+002 -5.620821e+001 -1.467392e+002 -5.565530e+001 -1.522837e+002 -1.546179e-001 1.348817e+002
541902604.75651 -7.241755e-001 1.599817e+002 -5.628962e+001 -1.500574e+002 -5.610666e+001 -1.557616e+002 -1.554820e-001 1.349211e+002
542280105.70026 -7.361230e-001 1.597393e+002 -5.605927e+001 -1.477092e+002 -5.567534e+001 -1.566444e+002 -1.597958e-001 1.348590e+002
542657606.64402 -7.468933e-001 1.596009e+002 -5.594672e+001 -1.505435e+002 -5.596842e+001 -1.597598e+002 -1.587085e-001 1.348642e+002
543035107.58777 -7.568241e-001 1.593589e+002 -5.584232e+001 -1.519928e+002 -5.577525e+001 -1.577112e+002 -1.659412e-001 1.348514e+002
543412608.53152 -7.675329e-001 1.592050e+002 -5.546190e+001 -1.548500e+002 -5.591911e+001 -1.607161e+002 -1.644921e-001 1.348190e+002
543790109.47527 -7.761454e-001 1.589642e+002 -5.564017e+001 -1.553598e+002 -5.577832e+001 -1.597739e+002 -1.637530e-001 1.347880e+002
544167610.41903 -7.781799e-001 1.587487e+002 -5.557629e+001 -1.564293e+002 -5.570498e+001 -1.638804e+002 -1.667278e-001 1.347913e+002
544545111.36278 -7.885383e-001 1.585407e+002 -5.568612e+001 -1.576731e+002 -5.534792e+001 -1.681825e+002 -1.691256e-001 1.347215e+002
544922612.30653 -7.888581e-001 1.583599e+002 -5.572861e+001 -1.577039e+002 -5.546835e+001 -1.655518e+002 -1.733953e-001 1.346518e+002
545300113.25028 -7.951399e-001 1.581296e+002 -5.534264e+001 -1.612726e+002 -5.564530e+001 -1.689117e+002 -1.749614e-001 1.346375e+002
545677614.19404 -8.015790e-001 1.578591e+002 -5.572936e+001 -1.609586e+002 -5.543909e+001 -1.677682e+002 -1.759594e-001 1.345954e+002
546055115.13779 -8.011262e-001 1.576305e+002 -5.550209e+001 -1.635190e+002 -5.541782e+001 -1.679207e+002 -1.800735e-001 1.345295e+002
546432616.08154 -8.110315e-001 1.574026e+002 -5.553280e+001 -1.632777e+002 -5.537660e+001 -1.698242e+002 -1.787370e-001 1.344964e+002
546810117.02529 -8.146772e-001 1.571904e+002 -5.549671e+001 -1.670581e+002 -5.553893e+001 -1.705951e+002 -1.789209e-001 1.344130e+002
547187617.96904 -8.256398e-001 1.569114e+002 -5.527198e+001 -1.660138e+002 -5.518525e+001 -1.709460e+002 -1.847417e-001 1.343699e+002
547565118.9128 -8.305080e-001 1.566135e+002 -5.534668e+001 -1.655836e+002 -5.538036e+001 -1.737721e+002 -1.819207e-001 1.343043e+002
547942619.85655 -8.389681e-001 1.564490e+002 -5.506992e+001 -1.682422e+002 -5.535850e+001 -1.731673e+002 -1.848309e-001 1.342686e+002
548320120.8003 -8.478674e-001 1.562137e+002 -5.499531e+001 -1.692743e+002 -5.500219e+001 -1.738103e+002 -1.880344e-001 1.342047e+002
548697621.74405 -8.559640e-001 1.559515e+002 -5.505575e+001 -1.719819e+002 -5.501473e+001 -1.764588e+002 -1.894560e-001 1.341427e+002
549075122.68781 -8.644373e-001 1.557778e+002 -5.528771e+001 -1.722938e+002 -5.490435e+001 -1.775695e+002 -1.975526e-001 1.340655e+002
549452623.63156 -8.746512e-001 1.555200e+002 -5.517530e+001 -1.732283e+002 -5.499734e+001 -1.796348e+002 -1.936882e-001 1.339942e+002
549830124.57531 -8.822798e-001 1.553098e+002 -5.504172e+001 -1.764015e+002 -5.470691e+001 -1.775674e+002 -1.977078e-001 1.338583e+002
550207625.51906 -8.895217e-001 1.551201e+002 -5.507022e+001 -1.773483e+002 -5.473124e+001 -1.793396e+002 -1.996523e-001 1.338604e+002
550585126.46282 -8.965555e-001 1.548955e+002 -5.445122e+001 -1.747962e+002 -5.468372e+001 1.782092e+002 -2.016277e-001 1.337641e+002
550962627.40657 -9.032963e-001 1.546888e+002 -5.476569e+001 -1.776199e+002 -5.499215e+001 1.775287e+002 -2.095042e-001 1.336938e+002
551340128.35032 -9.042650e-001 1.544748e+002 -5.467636e+001 -1.794603e+002 -5.469861e+001 1.775894e+002 -2.074618e-001 1.336335e+002
551717629.29407 -9.132798e-001 1.542427e+002 -5.473341e+001 -1.799923e+002 -5.456235e+001 1.742935e+002 -2.124733e-001 1.335909e+002
552095130.23783 -9.210166e-001 1.540248e+002 -5.475336e+001 1.776868e+002 -5.459389e+001 1.725741e+002 -2.112750e-001 1.335154e+002
552472631.18158 -9.259371e-001 1.538476e+002 -5.463843e+001 1.748770e+002 -5.425825e+001 1.730828e+002 -2.130435e-001 1.334334e+002
552850132.12533 -9.356539e-001 1.536462e+002 -5.470242e+001 1.761177e+002 -5.430850e+001 1.703235e+002 -2.147056e-001 1.333671e+002
553227633.06908 -9.419203e-001 1.533553e+002 -5.447490e+001 1.714640e+002 -5.461691e+001 1.694732e+002 -2.156190e-001 1.333030e+002
553605134.01284 -9.473994e-001 1.531606e+002 -5.453557e+001 1.722919e+002 -5.435784e+001 1.672643e+002 -2.221113e-001 1.332039e+002
553982634.95659 -9.570611e-001 1.529341e+002 -5.483477e+001 1.714575e+002 -5.443861e+001 1.651452e+002 -2.200514e-001 1.331518e+002
554360135.90034 -9.677464e-001 1.527398e+002 -5.490562e+001 1.689326e+002 -5.449256e+001 1.654568e+002 -2.177723e-001 1.330556e+002
554737636.84409 -9.734206e-001 1.525509e+002 -5.449751e+001 1.701828e+002 -5.476896e+001 1.661918e+002 -2.233823e-001 1.330020e+002
555115137.78784 -9.782403e-001 1.523009e+002 -5.493386e+001 1.665593e+002 -5.474662e+001 1.641482e+002 -2.199995e-001 1.329360e+002
