! TOUCHSTONE file generated by CST MICROWAVE STUDIO
! Date and time: Sat Oct 24 10:42:57 2020
! Project name: Scenario_1_Planar_Body_Tissue_Center.cst
! Parameters = {hfat=3; hmuscle=50; hskin=1.5; hgap=25; Wtissue=700; Ltissue=700; L_HA=400; MT=2.54; Rad_Dielectric=30; Rad_Lower=7.3; Rad_Upper=30; a_HA=580; a_WG=246; b_HA=500; b_WG=121; c_HA=0; c_WG=187; d_feed=85; dx1=363.52; h_feed=15; h_lower=18; h_upper=40}
! Header version: 2018
! Port assignment regex: !\s*Touchstone port\s*([0-9]+)\s*=\s*(CST MWS port|CST DS port)\s*([0-9]+|Zmin|Zmax)\s*\(\"(.*)\"\)(\s*mode\s*([0-9]+))?.*
! Touchstone port assignment:
! Touchstone port 1 = CST MWS port 1 ("")
! Touchstone port 2 = CST MWS port 2 ("")
# GHz S DB R 50
0.5                    -0.255899        -121.395         -56.0882         21.3611         -56.0881         21.3617      -0.00799735          151.15
0.501                  -0.255753        -121.795         -55.9458         20.9922         -55.9451         20.9928      -0.00805434         151.085
0.502                  -0.255642        -122.198         -55.7924          20.643         -55.7909         20.6434      -0.00811178          151.02
0.503                  -0.255569        -122.603         -55.6262         20.3142         -55.6238         20.3142      -0.00816969         150.955
0.504                  -0.255537        -123.012         -55.4452         20.0062         -55.4418         20.0053      -0.00822808          150.89
0.505                  -0.255546        -123.423          -55.247         19.7183         -55.2425          19.716      -0.00828694         150.824
0.506                    -0.2556        -123.837         -55.0286         19.4486         -55.0228          19.444       -0.0083463         150.759
0.507                  -0.255701        -124.255         -54.7863         19.1928         -54.7789          19.185      -0.00840617         150.693
0.508                  -0.255852        -124.675         -54.5155         18.9432         -54.5065         18.9306      -0.00846655         150.628
0.509                  -0.256055        -125.099         -54.2107         18.6865         -54.1997         18.6671      -0.00852745         150.562
0.51                   -0.256312        -125.526         -53.8648         18.4011         -53.8515         18.3719      -0.00858888         150.496
0.511                  -0.256627        -125.956         -53.4693         18.0515         -53.4534         18.0085      -0.00865085          150.43
0.512                  -0.257002         -126.39         -53.0136         17.5813         -52.9949         17.5185      -0.00871338         150.365
0.513                  -0.257441        -126.826         -52.4853         16.8997         -52.4637         16.8088      -0.00877646         150.298
0.514                  -0.257947        -127.267         -51.8709         15.8625         -51.8464         15.7314      -0.00884012         150.232
0.515                  -0.258524         -127.71         -51.1578         14.2404         -51.1311         14.0526      -0.00890436         150.166
0.516                  -0.259173        -128.157         -50.3411         11.6772         -50.3145         11.4112      -0.00896918           150.1
0.517                  -0.259901        -128.608         -49.4394         7.64698         -49.4176         7.28001       -0.0090346         150.034
0.518                  -0.260709        -129.062         -48.5271         1.48255         -48.5192         1.00462      -0.00910061         149.967
0.519                  -0.261602        -129.521         -47.7793        -7.32713         -47.7978        -7.87881      -0.00916725         149.901
0.52                   -0.262584        -129.982         -47.4641        -18.3543         -47.5166        -18.8659      -0.00923455         149.834
0.521                   -0.26366        -130.448         -47.7672         -29.637         -47.8449        -29.9751      -0.00930255         149.767
0.522                  -0.264835        -130.917         -48.5868        -38.8157         -48.6696        -38.9388      -0.00937123           149.7
0.523                  -0.266114        -131.391         -49.6348        -44.8923         -49.7077        -44.8504      -0.00944056         149.634
0.524                  -0.267501        -131.868         -50.6721        -48.2285           -50.73        -48.0916      -0.00951055         149.567
0.525                  -0.269001         -132.35         -51.5802        -49.6344         -51.6236        -49.4558      -0.00958122         149.499
0.526                  -0.270621        -132.835          -52.324        -49.8414         -52.3553        -49.6535      -0.00965259         149.432
0.527                  -0.272366        -133.325         -52.9085        -49.3766         -52.9306        -49.1968      -0.00972467         149.365
0.528                  -0.274242        -133.819         -53.3543         -48.585         -53.3695        -48.4215      -0.00979747         149.298
0.529                  -0.276256        -134.318         -53.6851        -47.6802         -53.6954        -47.5358        -0.009871          149.23
0.53                   -0.278415        -134.821         -53.9234        -46.7875         -53.9301        -46.6622      -0.00994529         149.163
0.531                  -0.280726        -135.329          -54.088         -45.976         -54.0923        -45.8685       -0.0100203         149.095
0.532                  -0.283196        -135.841         -54.1945        -45.2802         -54.1971        -45.1886       -0.0100961         149.027
0.533                  -0.285834        -136.358         -54.2549        -44.7138         -54.2563         -44.636       -0.0101727         148.959
0.534                  -0.288648         -136.88         -54.2788        -44.2784         -54.2795        -44.2126       -0.0102501         148.891
0.535                  -0.291646        -137.406         -54.2736        -43.9695         -54.2737        -43.9139       -0.0103284         148.823
0.536                  -0.294839        -137.938         -54.2449         -43.779         -54.2447        -43.7321       -0.0104074         148.755
0.537                  -0.298236        -138.475         -54.1971        -43.6976         -54.1967        -43.6581       -0.0104872         148.687
0.538                  -0.301848        -139.017         -54.1337        -43.7159         -54.1332        -43.6827        -0.010568         148.619
0.539                  -0.305686        -139.565         -54.0572        -43.8246         -54.0566        -43.7967       -0.0106495          148.55
0.54                   -0.309762        -140.118         -53.9698        -44.0152         -53.9692        -43.9918        -0.010732         148.482
0.541                  -0.314088        -140.677          -53.873        -44.2799         -53.8725        -44.2604       -0.0108153         148.413
0.542                  -0.318677        -141.241         -53.7682        -44.6118         -53.7677        -44.5956       -0.0108996         148.344
0.543                  -0.323545        -141.811         -53.6564        -45.0046         -53.6559        -44.9912       -0.0109847         148.275
0.544                  -0.328705        -142.388         -53.5383        -45.4528         -53.5379        -45.4418       -0.0110708         148.206
0.545                  -0.334173         -142.97         -53.4146        -45.9516         -53.4143        -45.9427       -0.0111578         148.137
0.546                  -0.339967        -143.559         -53.2859        -46.4967         -53.2857        -46.4896       -0.0112458         148.068
0.547                  -0.346104        -144.154         -53.1526        -47.0843         -53.1524        -47.0787       -0.0113348         147.999
0.548                  -0.352604        -144.755         -53.0149        -47.7111         -53.0148        -47.7068       -0.0114248         147.929
0.549                  -0.359486        -145.364         -52.8732        -48.3743         -52.8731        -48.3711       -0.0115157          147.86
0.55                   -0.366774        -145.979         -52.7277        -49.0712         -52.7276         -49.069       -0.0116077          147.79
0.551                  -0.374489        -146.601         -52.5785        -49.7997         -52.5785        -49.7983       -0.0117007          147.72
0.552                  -0.382657        -147.231         -52.4259        -50.5577         -52.4259         -50.557       -0.0117948          147.65
0.553                  -0.391305        -147.868         -52.2698        -51.3436         -52.2699        -51.3435         -0.01189          147.58
0.554                   -0.40046        -148.513         -52.1105        -52.1559         -52.1105        -52.1563       -0.0119862          147.51
0.555                  -0.410152        -149.165         -51.9479        -52.9932          -51.948         -52.994       -0.0120836          147.44
0.556                  -0.420416        -149.826         -51.7821        -53.8545         -51.7822        -53.8557       -0.0121821         147.369
0.557                  -0.431285        -150.494         -51.6132        -54.7388         -51.6134        -54.7402       -0.0122817         147.299
0.558                  -0.442796        -151.171         -51.4413        -55.6453         -51.4414        -55.6469       -0.0123825         147.228
0.559                  -0.454991        -151.857         -51.2662        -56.5732         -51.2664         -56.575       -0.0124845         147.157
0.56                   -0.467911        -152.552         -51.0881         -57.522         -51.0883         -57.524       -0.0125878         147.086
0.561                  -0.481605        -153.256          -50.907        -58.4913         -50.9072        -58.4933       -0.0126922         147.015
0.562                   -0.49612        -153.969         -50.7229        -59.4806         -50.7231        -59.4827       -0.0127979         146.944
0.563                  -0.511513        -154.692         -50.5357        -60.4898         -50.5359        -60.4919       -0.0129049         146.873
0.564                   -0.52784        -155.425         -50.3454        -61.5186         -50.3456        -61.5208       -0.0130132         146.801
0.565                  -0.545164        -156.168         -50.1521         -62.567         -50.1524        -62.5691       -0.0131228          146.73
0.566                  -0.563553        -156.922         -49.9558        -63.6349          -49.956        -63.6371       -0.0132339         146.658
0.567                   -0.58308        -157.686         -49.7564        -64.7225         -49.7567        -64.7246       -0.0133463         146.586
0.568                  -0.603824        -158.462          -49.554        -65.8299         -49.5542         -65.832       -0.0134601         146.514
0.569                  -0.625871        -159.249         -49.3485        -66.9574         -49.3487        -66.9594       -0.0135754         146.442
0.57                   -0.649314        -160.047         -49.1399        -68.1052         -49.1401        -68.1071       -0.0136922          146.37
0.571                  -0.674253        -160.858         -48.9282        -69.2738         -48.9284        -69.2756       -0.0138106         146.297
0.572                  -0.700798         -161.68         -48.7134        -70.4636         -48.7136        -70.4653       -0.0139305         146.225
0.573                  -0.729067        -162.516         -48.4956        -71.6751         -48.4957        -71.6767       -0.0140521         146.152
0.574                  -0.759188        -163.364         -48.2746         -72.909         -48.2747        -72.9105       -0.0141753         146.079
0.575                  -0.791302        -164.225         -48.0505        -74.1659         -48.0506        -74.1673       -0.0143003         146.006
0.576                  -0.825562        -165.101         -47.8233        -75.4466         -47.8235        -75.4479       -0.0144271         145.933
0.577                  -0.862132        -165.989          -47.593         -76.752         -47.5932        -76.7531       -0.0145557         145.859
0.578                  -0.901194        -166.892         -47.3597        -78.0829         -47.3598         -78.084       -0.0146862         145.786
0.579                  -0.942944        -167.809         -47.1233        -79.4405         -47.1234        -79.4414       -0.0148187         145.712
0.58                   -0.987596        -168.741         -46.8839        -80.8257          -46.884        -80.8265       -0.0149534         145.638
0.581                   -1.03539        -169.687         -46.6415        -82.2398         -46.6416        -82.2405       -0.0150901         145.564
0.582                   -1.08656        -170.648         -46.3962         -83.684         -46.3963        -83.6846       -0.0152292          145.49
0.583                   -1.14141        -171.624          -46.148        -85.1596         -46.1481        -85.1601       -0.0153705         145.416
0.584                   -1.20023        -172.615          -45.897        -86.6682          -45.897        -86.6685       -0.0155144         145.341
0.585                   -1.26335         -173.62         -45.6433        -88.2111         -45.6433        -88.2114       -0.0156609         145.267
0.586                   -1.33113         -174.64          -45.387        -89.7901          -45.387        -89.7903       -0.0158101         145.192
0.587                   -1.40396        -175.673         -45.1282        -91.4068         -45.1282        -91.4069       -0.0159623         145.117
0.588                   -1.48227         -176.72         -44.8671         -93.063          -44.867         -93.063       -0.0161175         145.042
0.589                   -1.56652         -177.78         -44.6038        -94.7604         -44.6037        -94.7604        -0.016276         144.966
0.59                     -1.6572        -178.851         -44.3385        -96.5012         -44.3385        -96.5011       -0.0164379         144.891
0.591                   -1.75486        -179.932         -44.0715        -98.2871         -44.0715        -98.2869       -0.0166035         144.815
0.592                   -1.86007         178.979          -43.803         -100.12          -43.803         -100.12       -0.0167731         144.739
0.593                   -1.97346         177.884         -43.5334        -102.003         -43.5333        -102.002       -0.0169468         144.663
0.594                    -2.0957         176.785         -43.2629        -103.936         -43.2628        -103.936       -0.0171251         144.587
0.595                   -2.22749         175.687          -42.992        -105.923         -42.9919        -105.923       -0.0173081          144.51
0.596                   -2.36957         174.593          -42.721        -107.966         -42.7209        -107.965       -0.0174963         144.433
0.597                   -2.52271         173.509         -42.4505        -110.065         -42.4503        -110.065         -0.01769         144.356
0.598                   -2.68772          172.44         -42.1809        -112.223         -42.1808        -112.223       -0.0178896         144.279
0.599                   -2.86537         171.394         -41.9129        -114.442         -41.9128        -114.442       -0.0180954         144.202
0.6                     -3.05647          170.38         -41.6471        -116.723          -41.647        -116.723        -0.018308         144.124
0.601                   -3.26175         169.408         -41.3842        -119.067         -41.3841        -119.067       -0.0185277         144.047
0.602                   -3.48186         168.489          -41.125        -121.475         -41.1248        -121.475        -0.018755         143.969
0.603                   -3.71734         167.639         -40.8701        -123.946           -40.87        -123.946       -0.0189903         143.891
0.604                   -3.96851         166.874         -40.6206        -126.481         -40.6204        -126.482       -0.0192339         143.812
0.605                    -4.2354         166.212         -40.3772         -129.08          -40.377         -129.08       -0.0194864         143.734
0.606                   -4.51766         165.674         -40.1408        -131.739         -40.1407        -131.739        -0.019748         143.655
0.607                   -4.81439         165.285         -39.9125        -134.458         -39.9123        -134.458       -0.0200189         143.576
0.608                   -5.12399         165.069          -39.693        -137.233         -39.6929        -137.233       -0.0202994         143.497
0.609                   -5.44399         165.055         -39.4834         -140.06         -39.4832         -140.06       -0.0205895         143.418
0.61                    -5.77082         165.269         -39.2844        -142.935         -39.2843        -142.936       -0.0208891         143.338
0.611                   -6.09964         165.738         -39.0968        -145.853         -39.0967        -145.854       -0.0211981         143.259
0.612                    -6.4242         166.484         -38.9214        -148.807         -38.9213        -148.808       -0.0215161         143.179
0.613                   -6.73678         167.523         -38.7588        -151.791         -38.7587        -151.792       -0.0218424         143.099
0.614                   -7.02835         168.858         -38.6094        -154.797         -38.6094        -154.798       -0.0221766         143.019
0.615                   -7.28902         170.478         -38.4736        -157.817         -38.4736        -157.818       -0.0225177         142.938
0.616                   -7.50875         172.353         -38.3517        -160.843         -38.3516        -160.844       -0.0228647         142.858
0.617                   -7.67838         174.433         -38.2435        -163.867         -38.2435        -163.867       -0.0232166         142.777
0.618                    -7.7908          176.65          -38.149         -166.88         -38.1491         -166.88       -0.0235722         142.696
0.619                   -7.84198         178.923          -38.068        -169.874          -38.068        -169.875       -0.0239305         142.615
0.62                    -7.83161        -178.834         -37.9999        -172.842              -38        -172.843       -0.0242902         142.534
0.621                   -7.76305        -176.703         -37.9443        -175.777         -37.9444        -175.777       -0.0246504         142.452
0.622                   -7.64275        -174.754         -37.9004        -178.671         -37.9005        -178.671         -0.02501         142.371
0.623                   -7.47925        -173.037         -37.8674         178.481         -37.8675          178.48       -0.0253682         142.289
0.624                   -7.28199        -171.586         -37.8446         175.683         -37.8447         175.683       -0.0257244         142.207
0.625                   -7.06032        -170.414         -37.8309         172.941          -37.831          172.94       -0.0260781         142.124
0.626                   -6.82279        -169.521         -37.8255         170.256         -37.8256         170.256       -0.0264289         142.042
0.627                   -6.57677        -168.896         -37.8274         167.633         -37.8275         167.633       -0.0267768         141.959
0.628                   -6.32824         -168.52         -37.8356         165.073         -37.8358         165.073       -0.0271218         141.876
0.629                    -6.0819        -168.371         -37.8493         162.576         -37.8495         162.576       -0.0274639         141.793
