! TOUCHSTONE file generated by CST MICROWAVE STUDIO
! Date and time: Sat Oct 24 10:45:17 2020
! Project name: Scenario_1_Planar_Body_Tissue_Center.cst
! Parameters = {hfat=3; hmuscle=50; hskin=1.5; hgap=25; Wtissue=700; Ltissue=700; L_HA=400; MT=2.54; Rad_Dielectric=30; Rad_Lower=7.3; Rad_Upper=30; a_HA=580; a_WG=246; b_HA=500; b_WG=121; c_HA=0; c_WG=187; d_feed=85; dx1=467.44; h_feed=15; h_lower=18; h_upper=40}
! Header version: 2018
! Port assignment regex: !\s*Touchstone port\s*([0-9]+)\s*=\s*(CST MWS port|CST DS port)\s*([0-9]+|Zmin|Zmax)\s*\(\"(.*)\"\)(\s*mode\s*([0-9]+))?.*
! Touchstone port assignment:
! Touchstone port 1 = CST MWS port 1 ("")
! Touchstone port 2 = CST MWS port 2 ("")
# GHz S DB R 50
0.5                   -0.0890936        -121.589         -61.0068        -27.9093         -61.0075          -27.91      -0.00753531         151.151
0.501                 -0.0907357        -122.031         -60.8611        -28.8028         -60.8618        -28.8036      -0.00759477         151.086
0.502                 -0.0924546        -122.477         -60.7126        -29.7027         -60.7132        -29.7036      -0.00765474          151.02
0.503                  -0.094256        -122.925         -60.5612         -30.609         -60.5618          -30.61      -0.00771524         150.955
0.504                 -0.0961459        -123.378         -60.4067        -31.5219         -60.4073        -31.5229      -0.00777626          150.89
0.505                 -0.0981306        -123.833         -60.2493        -32.4414         -60.2499        -32.4425      -0.00783781         150.824
0.506                  -0.100217        -124.293         -60.0888        -33.3678         -60.0893         -33.369       -0.0078999         150.758
0.507                  -0.102413        -124.756         -59.9252        -34.3011         -59.9257        -34.3024      -0.00796253         150.693
0.508                  -0.104726        -125.223         -59.7585        -35.2416         -59.7589        -35.2429       -0.0080257         150.627
0.509                  -0.107165        -125.693         -59.5885        -36.1895         -59.5889        -36.1908      -0.00808942         150.561
0.51                   -0.109739        -126.168         -59.4152        -37.1449         -59.4156        -37.1462      -0.00815369         150.495
0.511                  -0.112459        -126.647         -59.2386        -38.1081         -59.2389        -38.1094      -0.00821853         150.429
0.512                  -0.115334         -127.13         -59.0586        -39.0793         -59.0589        -39.0807      -0.00828392         150.363
0.513                  -0.118377        -127.617         -58.8751        -40.0589         -58.8754        -40.0603      -0.00834989         150.297
0.514                  -0.121601        -128.109         -58.6881        -41.0471         -58.6884        -41.0484      -0.00841644         150.231
0.515                  -0.125019        -128.605         -58.4976        -42.0442         -58.4978        -42.0456      -0.00848357         150.165
0.516                  -0.128646        -129.106         -58.3034        -43.0507         -58.3036        -43.0521      -0.00855129         150.098
0.517                  -0.132499        -129.612         -58.1054        -44.0669         -58.1057        -44.0683       -0.0086196         150.032
0.518                  -0.136595        -130.123         -57.9037        -45.0933          -57.904        -45.0946      -0.00868852         149.965
0.519                  -0.140953        -130.638         -57.6982        -46.1303         -57.6984        -46.1316      -0.00875805         149.898
0.52                   -0.145595         -131.16         -57.4887        -47.1784         -57.4889        -47.1796      -0.00882821         149.832
0.521                  -0.150544        -131.686         -57.2753        -48.2382         -57.2754        -48.2394      -0.00889899         149.765
0.522                  -0.155825        -132.219         -57.0577        -49.3103         -57.0579        -49.3115      -0.00897042         149.698
0.523                  -0.161466        -132.757          -56.836        -50.3954         -56.8362        -50.3965       -0.0090425         149.631
0.524                  -0.167496        -133.301         -56.6101        -51.4942         -56.6103        -51.4952      -0.00911525         149.564
0.525                  -0.173949        -133.851         -56.3799        -52.6073           -56.38        -52.6083      -0.00918869         149.497
0.526                  -0.180862        -134.408         -56.1453        -53.7358         -56.1454        -53.7368      -0.00926282         149.429
0.527                  -0.188275        -134.971         -55.9062        -54.8805         -55.9063        -54.8814      -0.00933767         149.362
0.528                  -0.196232        -135.541         -55.6625        -56.0423         -55.6627        -56.0432      -0.00941325         149.294
0.529                  -0.204782        -136.118         -55.4142        -57.2225         -55.4144        -57.2232       -0.0094896         149.227
0.53                   -0.213981        -136.703         -55.1612         -58.422         -55.1613        -58.4227      -0.00956673         149.159
0.531                  -0.223886        -137.295         -54.9033        -59.6423         -54.9034        -59.6429      -0.00964469         149.091
0.532                  -0.234566        -137.894         -54.6405        -60.8847         -54.6406        -60.8852      -0.00972349         149.023
0.533                  -0.246094        -138.502         -54.3727        -62.1506         -54.3728        -62.1511      -0.00980319         148.955
0.534                  -0.258552        -139.118         -54.0998        -63.4418         -54.0999        -63.4422      -0.00988383         148.887
0.535                  -0.272031        -139.743         -53.8218          -64.76         -53.8219        -64.7603      -0.00996546         148.819
0.536                  -0.286632        -140.376         -53.5384        -66.1071         -53.5385        -66.1074       -0.0100481         148.751
0.537                  -0.302469        -141.019         -53.2498        -67.4852         -53.2499        -67.4854       -0.0101319         148.682
0.538                  -0.319668         -141.67         -52.9557        -68.8966         -52.9558        -68.8968       -0.0102169         148.614
0.539                  -0.338369        -142.331         -52.6562        -70.3438         -52.6563        -70.3439       -0.0103032         148.545
0.54                   -0.358729        -143.002         -52.3511        -71.8295         -52.3512        -71.8295       -0.0103909         148.476
0.541                  -0.380923        -143.683         -52.0405        -73.3566         -52.0406        -73.3565       -0.0104801         148.408
0.542                  -0.405148        -144.373         -51.7244        -74.9282         -51.7245        -74.9281        -0.010571         148.339
0.543                  -0.431621        -145.073         -51.4026        -76.5479         -51.4028        -76.5477       -0.0106637         148.269
0.544                  -0.460585        -145.784         -51.0754        -78.2194         -51.0755        -78.2191       -0.0107585           148.2
0.545                  -0.492311        -146.503         -50.7427        -79.9467         -50.7428        -79.9463       -0.0108555         148.131
0.546                  -0.527099        -147.232         -50.4046        -81.7342         -50.4047        -81.7338       -0.0109549         148.061
0.547                  -0.565281         -147.97         -50.0613        -83.5867         -50.0614        -83.5862       -0.0110572         147.992
0.548                  -0.607224        -148.715         -49.7131        -85.5091         -49.7132        -85.5086       -0.0111626         147.922
0.549                  -0.653327        -149.467         -49.3602        -87.5071         -49.3603        -87.5065       -0.0112715         147.852
0.55                   -0.704026        -150.224          -49.003        -89.5862         -49.0031        -89.5856       -0.0113844         147.782
0.551                  -0.759788        -150.984          -48.642        -91.7527         -48.6421         -91.752       -0.0115016         147.712
0.552                  -0.821109        -151.744         -48.2778        -94.0129         -48.2779        -94.0122       -0.0116239         147.642
0.553                  -0.888499          -152.5         -47.9112        -96.3735         -47.9113        -96.3728       -0.0117517         147.571
0.554                  -0.962477         -153.25         -47.5431        -98.8413         -47.5432        -98.8405       -0.0118857         147.501
0.555                   -1.04354        -153.986         -47.1745        -101.423         -47.1746        -101.422       -0.0120266          147.43
0.556                   -1.13214        -154.702         -46.8069        -104.125          -46.807        -104.124       -0.0121752         147.359
0.557                   -1.22863        -155.391         -46.4418        -106.954         -46.4419        -106.953       -0.0123321         147.288
0.558                   -1.33321        -156.042         -46.0809        -109.915          -46.081        -109.914        -0.012498         147.217
0.559                   -1.44586        -156.646         -45.7264        -113.013         -45.7265        -113.012       -0.0126737         147.146
0.56                    -1.56624        -157.188         -45.3805        -116.251         -45.3806         -116.25       -0.0128595         147.075
0.561                   -1.69359        -157.657         -45.0459        -119.628          -45.046        -119.628       -0.0130558         147.004
0.562                   -1.82662        -158.037         -44.7253        -123.145         -44.7254        -123.145       -0.0132625         146.932
0.563                   -1.96342        -158.315         -44.4216        -126.797         -44.4217        -126.796       -0.0134795         146.861
0.564                   -2.10138        -158.479         -44.1378        -130.575         -44.1379        -130.574        -0.013706         146.789
0.565                   -2.23719        -158.519         -43.8768        -134.467         -43.8768        -134.467       -0.0139408         146.717
0.566                   -2.36694        -158.433         -43.6412        -138.459         -43.6413        -138.458       -0.0141825         146.646
0.567                   -2.48634        -158.221         -43.4336         -142.53         -43.4337         -142.53       -0.0144289         146.574
0.568                   -2.59101        -157.896         -43.2557        -146.659         -43.2558        -146.659       -0.0146779         146.502
0.569                   -2.67694        -157.476         -43.1088         -150.82         -43.1089         -150.82        -0.014927          146.43
0.57                    -2.74093        -156.988         -42.9934        -154.987         -42.9935        -154.986       -0.0151738         146.358
0.571                   -2.78097        -156.463         -42.9094        -159.132         -42.9095        -159.132       -0.0154159         146.286
0.572                    -2.7965        -155.936         -42.8557        -163.231         -42.8558        -163.231       -0.0156515         146.214
0.573                   -2.78839        -155.441         -42.8308        -167.259         -42.8309        -167.259       -0.0158789         146.142
0.574                   -2.75876        -155.008         -42.8325        -171.196         -42.8327        -171.196        -0.016097          146.07
0.575                   -2.71069        -154.658         -42.8582        -175.023         -42.8584        -175.023       -0.0163055         145.998
0.576                   -2.64775        -154.409         -42.9051        -178.728         -42.9053        -178.728       -0.0165041         145.925
0.577                   -2.57364        -154.269         -42.9702         177.699         -42.9704         177.699       -0.0166933         145.853
0.578                   -2.49191         -154.24         -43.0504         174.264         -43.0506         174.264       -0.0168737          145.78
0.579                   -2.40569        -154.321          -43.143         170.971         -43.1432         170.971       -0.0170461         145.707
0.58                    -2.31765        -154.505         -43.2453         167.818         -43.2455         167.818       -0.0172116         145.634
0.581                    -2.2299        -154.785         -43.3547         164.805         -43.3549         164.804       -0.0173712         145.561
0.582                   -2.14409        -155.151          -43.469         161.926         -43.4693         161.926        -0.017526         145.487
0.583                    -2.0614        -155.594         -43.5864         159.177         -43.5867         159.177       -0.0176771         145.414
0.584                   -1.98265        -156.105         -43.7051         156.552         -43.7054         156.552       -0.0178254          145.34
0.585                   -1.90838        -156.675         -43.8237         154.045          -43.824         154.045       -0.0179717         145.266
0.586                   -1.83889        -157.297         -43.9409         151.647         -43.9412         151.647       -0.0181168         145.192
0.587                   -1.77428        -157.963         -44.0558         149.353          -44.056         149.353       -0.0182615         145.117
0.588                   -1.71457        -158.669         -44.1674         147.155         -44.1677         147.155       -0.0184063         145.043
0.589                   -1.65966        -159.408         -44.2751         145.047         -44.2753         145.047       -0.0185517         144.968
0.59                     -1.6094        -160.176         -44.3783         143.023         -44.3785         143.023       -0.0186981         144.893
0.591                   -1.56362        -160.971         -44.4765         141.075         -44.4768         141.075       -0.0188459         144.818
0.592                   -1.52211        -161.788         -44.5695         139.198         -44.5697         139.198       -0.0189954         144.742
0.593                   -1.48465        -162.626         -44.6569         137.387         -44.6571         137.387        -0.019147         144.667
0.594                   -1.45104        -163.481         -44.7385         135.637         -44.7387         135.637       -0.0193007         144.591
0.595                   -1.42107        -164.354         -44.8141         133.942         -44.8144         133.942       -0.0194568         144.515
0.596                   -1.39455        -165.241         -44.8838         132.298          -44.884         132.299       -0.0196154         144.439
0.597                   -1.37129        -166.143         -44.9473         130.702         -44.9476         130.702       -0.0197767         144.363
0.598                   -1.35113        -167.058         -45.0047         129.148          -45.005         129.148       -0.0199408         144.286
0.599                   -1.33391        -167.986          -45.056         127.634         -45.0563         127.634       -0.0201077         144.209
0.6                     -1.31949        -168.926         -45.1012         126.155         -45.1014         126.156       -0.0202776         144.133
0.601                   -1.30776        -169.878         -45.1403          124.71         -45.1405          124.71       -0.0204505         144.055
0.602                   -1.29861        -170.842         -45.1733         123.294         -45.1735         123.294       -0.0206264         143.978
0.603                   -1.29193        -171.817         -45.2004         121.905         -45.2006         121.905       -0.0208055         143.901
0.604                   -1.28765        -172.805         -45.2215         120.541         -45.2217         120.541       -0.0209878         143.823
0.605                    -1.2857        -173.804         -45.2367         119.198         -45.2369         119.199       -0.0211734         143.745
0.606                   -1.28602        -174.814         -45.2462         117.876         -45.2464         117.876       -0.0213622         143.667
0.607                   -1.28858        -175.837           -45.25          116.57         -45.2502         116.571       -0.0215543         143.588
0.608                   -1.29332        -176.872         -45.2482         115.281         -45.2484         115.281       -0.0217498          143.51
0.609                   -1.30024         -177.92         -45.2409         114.004         -45.2411         114.004       -0.0219487         143.431
0.61                    -1.30932        -178.981         -45.2281          112.74         -45.2283          112.74        -0.022151         143.352
0.611                   -1.32056         179.945           -45.21         111.485         -45.2102         111.485       -0.0223568         143.273
0.612                   -1.33396         178.858         -45.1866         110.238         -45.1868         110.238       -0.0225662         143.193
0.613                   -1.34955         177.757         -45.1581         108.998         -45.1582         108.998       -0.0227791         143.113
0.614                   -1.36735         176.641         -45.1245         107.763         -45.1246         107.763       -0.0229956         143.033
0.615                    -1.3874          175.51         -45.0859         106.531          -45.086         106.531       -0.0232159         142.953
0.616                   -1.40974         174.363         -45.0424         105.302         -45.0426         105.302       -0.0234398         142.873
0.617                   -1.43444         173.201         -44.9942         104.073         -44.9943         104.073       -0.0236675         142.792
0.618                   -1.46155         172.023         -44.9412         102.843         -44.9414         102.843       -0.0238991         142.711
0.619                   -1.49116         170.827         -44.8837         101.612         -44.8839         101.612       -0.0241345          142.63
0.62                    -1.52334         169.614         -44.8217         100.377         -44.8219         100.377       -0.0243739         142.549
0.621                    -1.5582         168.383         -44.7554         99.1375         -44.7555         99.1377       -0.0246173         142.467
0.622                   -1.59585         167.133         -44.6847         97.8925         -44.6848         97.8926       -0.0248648         142.385
0.623                    -1.6364         165.864         -44.6099         96.6405           -44.61         96.6406       -0.0251164         142.303
0.624                   -1.67998         164.575          -44.531         95.3803         -44.5311         95.3804       -0.0253722         142.221
0.625                   -1.72675         163.266         -44.4482         94.1109         -44.4483         94.1109       -0.0256323         142.138
0.626                   -1.77686         161.935         -44.3616          92.831         -44.3617         92.8311       -0.0258968         142.055
0.627                   -1.83047         160.583         -44.2712         91.5396         -44.2713         91.5397       -0.0261658         141.972
0.628                   -1.88779         159.208         -44.1774         90.2355         -44.1775         90.2356       -0.0264392         141.889
0.629                     -1.949         157.811           -44.08         88.9178         -44.0801         88.9178       -0.0267173         141.805
