! TOUCHSTONE file generated by CST MICROWAVE STUDIO
! Date and time: Sat Oct 24 10:45:25 2020
! Project name: Scenario_1_Planar_Body_Tissue_Center.cst
! Parameters = {hfat=3; hmuscle=50; hskin=1.5; hgap=25; Wtissue=700; Ltissue=700; L_HA=400; MT=2.54; Rad_Dielectric=30; Rad_Lower=7.3; Rad_Upper=30; a_HA=580; a_WG=246; b_HA=500; b_WG=121; c_HA=0; c_WG=187; d_feed=85; dx1=484.76; h_feed=15; h_lower=18; h_upper=40}
! Header version: 2018
! Port assignment regex: !\s*Touchstone port\s*([0-9]+)\s*=\s*(CST MWS port|CST DS port)\s*([0-9]+|Zmin|Zmax)\s*\(\"(.*)\"\)(\s*mode\s*([0-9]+))?.*
! Touchstone port assignment:
! Touchstone port 1 = CST MWS port 1 ("")
! Touchstone port 2 = CST MWS port 2 ("")
# GHz S DB R 50
0.5                   -0.0805389        -121.701         -61.2753        -34.3081         -61.2757         -34.306      -0.00750712         151.149
0.501                 -0.0823943        -122.149         -61.1113        -35.1964         -61.1117        -35.1946      -0.00756687         151.084
0.502                 -0.0843503          -122.6         -60.9441        -36.0945         -60.9444        -36.0929      -0.00762715         151.018
0.503                 -0.0864143        -123.055         -60.7735        -37.0025         -60.7739        -37.0011      -0.00768797         150.953
0.504                 -0.0885945        -123.513         -60.5996        -37.9207         -60.5999        -37.9195      -0.00774934         150.887
0.505                 -0.0908994        -123.975         -60.4222        -38.8493         -60.4225        -38.8483      -0.00781127         150.822
0.506                 -0.0933386        -124.441         -60.2412        -39.7885         -60.2415        -39.7877      -0.00787375         150.756
0.507                 -0.0959222         -124.91         -60.0566        -40.7386         -60.0569        -40.7379      -0.00793679         150.691
0.508                 -0.0986615        -125.384         -59.8683        -41.6998         -59.8686        -41.6993       -0.0080004         150.625
0.509                  -0.101568        -125.862         -59.6763        -42.6725         -59.6765        -42.6721      -0.00806458         150.559
0.51                   -0.104656        -126.344         -59.4803         -43.657         -59.4805        -43.6567      -0.00812935         150.493
0.511                  -0.107939        -126.831         -59.2804        -44.6536         -59.2806        -44.6534       -0.0081947         150.427
0.512                  -0.111434        -127.322         -59.0765        -45.6628         -59.0767        -45.6627      -0.00826065         150.361
0.513                  -0.115156        -127.818         -58.8685        -46.6849         -58.8686        -46.6849      -0.00832721         150.295
0.514                  -0.119125        -128.319         -58.6562        -47.7205         -58.6563        -47.7206      -0.00839437         150.229
0.515                  -0.123362        -128.824         -58.4397        -48.7701         -58.4398        -48.7701      -0.00846216         150.162
0.516                  -0.127889        -129.335         -58.2187        -49.8342         -58.2188        -49.8342      -0.00853059         150.096
0.517                   -0.13273        -129.851         -57.9933        -50.9134         -57.9934        -50.9135      -0.00859966         150.029
0.518                  -0.137914        -130.373         -57.7633        -52.0083         -57.7634        -52.0085      -0.00866939         149.963
0.519                   -0.14347          -130.9         -57.5287        -53.1199         -57.5288          -53.12       -0.0087398         149.896
0.52                   -0.149432        -131.433         -57.2893        -54.2487         -57.2894        -54.2488       -0.0088109         149.829
0.521                  -0.155836        -131.972         -57.0451        -55.3958         -57.0451        -55.3959      -0.00888272         149.762
0.522                  -0.162722        -132.517         -56.7959         -56.562          -56.796        -56.5621      -0.00895527         149.695
0.523                  -0.170135        -133.069         -56.5417        -57.7485         -56.5418        -57.7486      -0.00902858         149.628
0.524                  -0.178126        -133.627         -56.2824        -58.9564         -56.2824        -58.9564      -0.00910268         149.561
0.525                  -0.186749        -134.192         -56.0178         -60.187         -56.0179        -60.1869      -0.00917761         149.494
0.526                  -0.196065        -134.765          -55.748        -61.4416          -55.748        -61.4415      -0.00925339         149.426
0.527                  -0.206143        -135.344         -55.4727        -62.7218         -55.4728        -62.7217      -0.00933007         149.359
0.528                  -0.217059        -135.931          -55.192        -64.0292          -55.192        -64.0291      -0.00940771         149.291
0.529                  -0.228897        -136.526         -54.9057        -65.3658         -54.9057        -65.3656      -0.00948635         149.224
0.53                   -0.241752        -137.129         -54.6137        -66.7334         -54.6138        -66.7333      -0.00956607         149.156
0.531                   -0.25573        -137.741         -54.3161        -68.1344         -54.3161        -68.1342      -0.00964693         149.088
0.532                  -0.270947         -138.36         -54.0126        -69.5711         -54.0127        -69.5709      -0.00972903          149.02
0.533                  -0.287537        -138.988         -53.7034        -71.0461         -53.7035        -71.0459      -0.00981247         148.952
0.534                  -0.305647        -139.625         -53.3883        -72.5624         -53.3884        -72.5621      -0.00989735         148.884
0.535                  -0.325441        -140.271         -53.0674        -74.1231         -53.0675        -74.1227      -0.00998383         148.816
0.536                  -0.347103        -140.926         -52.7405        -75.7315         -52.7407        -75.7312        -0.010072         148.747
0.537                  -0.370839        -141.589         -52.4079        -77.3916          -52.408        -77.3912       -0.0101622         148.679
0.538                  -0.396879        -142.261         -52.0696        -79.1073         -52.0697        -79.1069       -0.0102544          148.61
0.539                  -0.425475        -142.942         -51.7256         -80.883         -51.7257        -80.8827        -0.010349         148.541
0.54                   -0.456912         -143.63         -51.3761        -82.7237         -51.3762        -82.7233       -0.0104463         148.473
0.541                  -0.491498        -144.326         -51.0214        -84.6344         -51.0216         -84.634       -0.0105465         148.404
0.542                  -0.529576        -145.027         -50.6618        -86.6206          -50.662        -86.6203         -0.01065         148.334
0.543                  -0.571516        -145.734         -50.2977        -88.6885         -50.2978        -88.6881       -0.0107572         148.265
0.544                  -0.617716        -146.444         -49.9295        -90.8441         -49.9296        -90.8438       -0.0108685         148.196
0.545                  -0.668598        -147.156         -49.5579        -93.0943          -49.558         -93.094       -0.0109845         148.126
0.546                  -0.724599        -147.865         -49.1836        -95.4458         -49.1838        -95.4455       -0.0111057         148.057
0.547                  -0.786158        -148.568         -48.8077        -97.9058         -48.8079        -97.9055       -0.0112328         147.987
0.548                    -0.8537        -149.261         -48.4313        -100.481         -48.4314        -100.481       -0.0113662         147.917
0.549                  -0.927602        -149.939         -48.0556         -103.18         -48.0558        -103.179       -0.0115068         147.847
0.55                    -1.00816        -150.594         -47.6824        -106.007         -47.6825        -106.007       -0.0116551         147.777
0.551                   -1.09554        -151.218         -47.3135        -108.969         -47.3136        -108.969       -0.0118117         147.707
0.552                   -1.18972        -151.802          -46.951        -112.072         -46.9511        -112.071       -0.0119773         147.637
0.553                   -1.29037        -152.335         -46.5973        -115.317         -46.5974        -115.317       -0.0121522         147.566
0.554                   -1.39683        -152.807         -46.2552        -118.707         -46.2553        -118.707       -0.0123366         147.496
0.555                   -1.50799        -153.206         -45.9275        -122.239         -45.9276        -122.239       -0.0125305         147.425
0.556                    -1.6222        -153.519         -45.6173         -125.91         -45.6173         -125.91       -0.0127334         147.355
0.557                   -1.73724        -153.738         -45.3277        -129.711         -45.3277        -129.711       -0.0129445         147.284
0.558                   -1.85034        -153.856         -45.0617        -133.631         -45.0617        -133.631       -0.0131627         147.213
0.559                   -1.95824        -153.869         -44.8222        -137.651         -44.8222        -137.652       -0.0133863         147.143
0.56                    -2.05742        -153.781         -44.6117        -141.754         -44.6117        -141.754       -0.0136133         147.072
0.561                   -2.14433        -153.601         -44.4321        -145.914          -44.432        -145.914       -0.0138416         147.001
0.562                   -2.21578        -153.345         -44.2846        -150.106         -44.2846        -150.106       -0.0140687          146.93
0.563                   -2.26929        -153.036         -44.1699        -154.301         -44.1698        -154.302       -0.0142924         146.859
0.564                   -2.30334          -152.7         -44.0875        -158.473         -44.0875        -158.473       -0.0145107         146.788
0.565                   -2.31759        -152.364         -44.0365        -162.593         -44.0365        -162.594       -0.0147219         146.717
0.566                    -2.3128        -152.054         -44.0151        -166.638         -44.0151        -166.639       -0.0149246         146.646
0.567                   -2.29075        -151.795          -44.021        -170.587         -44.0209        -170.587       -0.0151181         146.574
0.568                    -2.2539        -151.605         -44.0513         -174.42         -44.0513        -174.421       -0.0153022         146.503
0.569                    -2.2051        -151.495         -44.1032        -178.126         -44.1031        -178.127        -0.015477         146.432
0.57                     -2.1473        -151.474         -44.1733         178.306         -44.1732         178.305       -0.0156431          146.36
0.571                   -2.08329        -151.542         -44.2587          174.88         -44.2586          174.88       -0.0158012         146.288
0.572                   -2.01558        -151.699         -44.3563         171.601         -44.3562           171.6       -0.0159523         146.216
0.573                   -1.94628        -151.939         -44.4634         168.465         -44.4634         168.465       -0.0160974         146.144
0.574                    -1.8771        -152.257         -44.5775         165.472         -44.5774         165.472       -0.0162376         146.072
0.575                   -1.80933        -152.646         -44.6963         162.617         -44.6962         162.616       -0.0163739         145.999
0.576                   -1.74396        -153.097         -44.8177         159.894         -44.8177         159.893       -0.0165072         145.927
0.577                   -1.68166        -153.604         -44.9402         157.295         -44.9402         157.295       -0.0166384         145.854
0.578                   -1.62287        -154.161         -45.0623         154.816         -45.0623         154.815       -0.0167684         145.781
0.579                   -1.56786         -154.76         -45.1827         152.447         -45.1827         152.447       -0.0168977         145.708
0.58                    -1.51673        -155.397         -45.3004         150.183         -45.3004         150.182        -0.017027         145.634
0.581                   -1.46952        -156.067         -45.4146         148.015         -45.4146         148.014       -0.0171568         145.561
0.582                   -1.42616        -156.765         -45.5246         145.936         -45.5245         145.936       -0.0172874         145.487
0.583                   -1.38655        -157.489         -45.6298         143.941         -45.6298         143.941       -0.0174193         145.413
0.584                   -1.35055        -158.235         -45.7298         142.023         -45.7298         142.023       -0.0175528         145.339
0.585                   -1.31803        -159.002         -45.8242         140.175         -45.8242         140.175       -0.0176881         145.265
0.586                   -1.28882        -159.786         -45.9129         138.393         -45.9129         138.393       -0.0178253         145.191
0.587                   -1.26275        -160.587         -45.9955         136.671         -45.9955         136.671       -0.0179648         145.116
0.588                   -1.23968        -161.402          -46.072         135.004          -46.072         135.004       -0.0181065         145.041
0.589                   -1.21946        -162.231         -46.1423         133.388         -46.1423         133.388       -0.0182507         144.966
0.59                    -1.20195        -163.074         -46.2063         131.818         -46.2063         131.819       -0.0183974         144.891
0.591                   -1.18701        -163.928         -46.2639         130.291         -46.2639         130.291       -0.0185467         144.816
0.592                   -1.17455        -164.795         -46.3152         128.803         -46.3152         128.803       -0.0186986          144.74
0.593                   -1.16444        -165.673         -46.3602          127.35         -46.3603         127.351       -0.0188533         144.664
0.594                    -1.1566        -166.562          -46.399          125.93          -46.399          125.93       -0.0190108         144.588
0.595                   -1.15095        -167.462         -46.4315         124.539         -46.4315          124.54       -0.0191711         144.512
0.596                   -1.14742        -168.373         -46.4578         123.175         -46.4578         123.176       -0.0193342         144.436
0.597                   -1.14595        -169.295          -46.478         121.835         -46.4781         121.836       -0.0195003          144.36
0.598                   -1.14648        -170.228         -46.4922         120.517         -46.4923         120.518       -0.0196692         144.283
0.599                   -1.14899        -171.172         -46.5005         119.219         -46.5005         119.219       -0.0198412         144.206
0.6                     -1.15344        -172.128         -46.5028         117.937         -46.5029         117.938       -0.0200161         144.129
0.601                   -1.15982        -173.095         -46.4994         116.671         -46.4994         116.672        -0.020194         144.052
0.602                   -1.16811        -174.073         -46.4903         115.419         -46.4903         115.419        -0.020375         143.974
0.603                   -1.17831        -175.064         -46.4755         114.178         -46.4756         114.178       -0.0205591         143.897
0.604                   -1.19043        -176.067         -46.4552         112.947         -46.4553         112.947       -0.0207462         143.819
0.605                   -1.20448        -177.082         -46.4295         111.724         -46.4296         111.725       -0.0209366         143.741
0.606                    -1.2205        -178.111         -46.3984         110.508         -46.3985         110.509       -0.0211301         143.662
0.607                   -1.23851        -179.153         -46.3621         109.297         -46.3621         109.298       -0.0213269         143.584
0.608                   -1.25855         179.792         -46.3206          108.09         -46.3206         108.091       -0.0215269         143.505
0.609                   -1.28067         178.722          -46.274         106.886         -46.2741         106.886       -0.0217302         143.426
0.61                    -1.30494         177.638         -46.2225         105.682         -46.2225         105.682       -0.0219368         143.347
0.611                   -1.33141         176.539          -46.166         104.478          -46.166         104.478       -0.0221469         143.268
0.612                   -1.36016         175.425         -46.1048         103.272         -46.1048         103.272       -0.0223604         143.188
0.613                   -1.39129         174.294         -46.0388         102.063         -46.0388         102.063       -0.0225774         143.109
0.614                   -1.42487         173.148         -45.9683          100.85         -45.9683          100.85        -0.022798         143.029
0.615                   -1.46103         171.984         -45.8932         99.6315         -45.8932         99.6316       -0.0230221         142.948
0.616                   -1.49987         170.804         -45.8138         98.4066         -45.8138         98.4067       -0.0232499         142.868
0.617                   -1.54151         169.605         -45.7301         97.1739         -45.7301         97.1739       -0.0234814         142.787
0.618                   -1.58611         168.389         -45.6422         95.9324         -45.6422         95.9323       -0.0237168         142.706
0.619                   -1.63381         167.154         -45.5502         94.6808         -45.5502         94.6807       -0.0239559         142.625
0.62                    -1.68476         165.899         -45.4543          93.418         -45.4543         93.4179        -0.024199         142.543
0.621                   -1.73916         164.625         -45.3546          92.143         -45.3546         92.1428       -0.0244461         142.462
0.622                   -1.79718          163.33         -45.2512         90.8546         -45.2512         90.8544       -0.0246973          142.38
0.623                   -1.85904         162.015         -45.1442         89.5518         -45.1442         89.5515       -0.0249526         142.298
0.624                   -1.92496         160.679         -45.0338         88.2334         -45.0338         88.2331       -0.0252122         142.215
0.625                   -1.99518         159.321         -44.9201         86.8985         -44.9201         86.8982       -0.0254761         142.132
0.626                   -2.06997         157.942         -44.8033         85.5461         -44.8032         85.5457       -0.0257444         142.049
0.627                   -2.14959         156.539         -44.6835          84.175         -44.6835         84.1746       -0.0260172         141.966
0.628                   -2.23435         155.115         -44.5609         82.7844         -44.5609          82.784       -0.0262946         141.883
0.629                   -2.32458         153.667         -44.4357         81.3733         -44.4356         81.3728       -0.0265767         141.799
