! TOUCHSTONE file generated by CST MICROWAVE STUDIO
! Date and time: Sat Oct 24 10:41:31 2020
! Project name: Scenario_1_Planar_Body_Tissue_Center.cst
! Parameters = {hfat=3; hmuscle=50; hskin=1.5; hgap=25; Wtissue=700; Ltissue=700; L_HA=400; MT=2.54; Rad_Dielectric=30; Rad_Lower=7.3; Rad_Upper=30; a_HA=580; a_WG=246; b_HA=500; b_WG=121; c_HA=0; c_WG=187; d_feed=85; dx1=190.32; h_feed=15; h_lower=18; h_upper=40}
! Header version: 2018
! Port assignment regex: !\s*Touchstone port\s*([0-9]+)\s*=\s*(CST MWS port|CST DS port)\s*([0-9]+|Zmin|Zmax)\s*\(\"(.*)\"\)(\s*mode\s*([0-9]+))?.*
! Touchstone port assignment:
! Touchstone port 1 = CST MWS port 1 ("")
! Touchstone port 2 = CST MWS port 2 ("")
# GHz S DB R 50
0.5                   -0.0427825        -121.898         -57.0313         128.246         -57.0313         128.248      -0.00714879         151.138
0.501                  -0.044028        -122.358         -56.8272         127.884         -56.8272         127.886      -0.00718791         151.073
0.502                  -0.045376        -122.822         -56.6207         127.509         -56.6208         127.511      -0.00722789         151.007
0.503                 -0.0468322        -123.289         -56.4118         127.122         -56.4119         127.123      -0.00726875         150.942
0.504                 -0.0484024         -123.76         -56.2005         126.721         -56.2006         126.722       -0.0073105         150.876
0.505                 -0.0500933        -124.236         -55.9866         126.306         -55.9868         126.308      -0.00735316          150.81
0.506                  -0.051912        -124.715         -55.7701         125.878         -55.7703          125.88      -0.00739674         150.744
0.507                 -0.0538662        -125.198          -55.551         125.437         -55.5512         125.438      -0.00744128         150.679
0.508                 -0.0559643        -125.686         -55.3291         124.981         -55.3293         124.982      -0.00748679         150.613
0.509                 -0.0582155        -126.179         -55.1044         124.511         -55.1046         124.511      -0.00753329         150.547
0.51                  -0.0606298        -126.676         -54.8768         124.026          -54.877         124.027      -0.00758082          150.48
0.511                 -0.0632183        -127.177         -54.6462         123.526         -54.6465         123.527       -0.0076294         150.414
0.512                 -0.0659928        -127.684         -54.4125         123.011         -54.4128         123.012      -0.00767907         150.348
0.513                 -0.0689666        -128.196         -54.1758          122.48         -54.1761         122.481      -0.00772985         150.282
0.514                 -0.0721541        -128.713         -53.9357         121.933         -53.9361         121.934       -0.0077818         150.215
0.515                  -0.075571        -129.236         -53.6924          121.37         -53.6927          121.37      -0.00783496         150.148
0.516                 -0.0792349        -129.764         -53.4456          120.79          -53.446          120.79      -0.00788936         150.082
0.517                  -0.083165        -130.299         -53.1953         120.192         -53.1957         120.192      -0.00794507         150.015
0.518                 -0.0873824        -130.839         -52.9413         119.576         -52.9417         119.576      -0.00800214         149.948
0.519                 -0.0919106        -131.386         -52.6836         118.941          -52.684         118.941      -0.00806064         149.881
0.52                  -0.0967756         -131.94          -52.422         118.288         -52.4224         118.288      -0.00812063         149.814
0.521                  -0.102006          -132.5         -52.1564         117.614         -52.1568         117.614      -0.00818221         149.747
0.522                  -0.107634        -133.068         -51.8867         116.919         -51.8871         116.919      -0.00824544          149.68
0.523                  -0.113695        -133.644         -51.6127         116.203         -51.6131         116.203      -0.00831044         149.612
0.524                  -0.120228        -134.227         -51.3343         115.464         -51.3348         115.464       -0.0083773         149.545
0.525                  -0.127278        -134.819         -51.0514         114.701         -51.0519         114.701      -0.00844616         149.477
0.526                  -0.134895         -135.42         -50.7638         113.914         -50.7643         113.914      -0.00851714          149.41
0.527                  -0.143133        -136.029         -50.4714         113.102         -50.4718         113.101      -0.00859039         149.342
0.528                  -0.152055        -136.649          -50.174         112.261         -50.1744         112.261      -0.00866608         149.274
0.529                  -0.161731        -137.278         -49.8714         111.393         -49.8718         111.392       -0.0087444         149.206
0.53                   -0.172241        -137.918         -49.5634         110.494         -49.5639         110.493      -0.00882556         149.138
0.531                  -0.183672        -138.569           -49.25         109.563         -49.2505         109.562      -0.00890979          149.07
0.532                  -0.196127        -139.231         -48.9308         108.598         -48.9313         108.598      -0.00899736         149.001
0.533                   -0.20972        -139.906         -48.6058         107.598         -48.6063         107.597      -0.00908855         148.933
0.534                  -0.224582        -140.595         -48.2747         106.559         -48.2752         106.558      -0.00918371         148.864
0.535                  -0.240861        -141.296         -47.9374          105.48         -47.9379         105.479      -0.00928318         148.796
0.536                  -0.258727        -142.012         -47.5936         104.356         -47.5941         104.356      -0.00938741         148.727
0.537                  -0.278376        -142.744         -47.2432         103.186         -47.2436         103.186      -0.00949683         148.658
0.538                  -0.300031        -143.491         -46.8859         101.966         -46.8864         101.965      -0.00961198         148.589
0.539                   -0.32395        -144.256         -46.5217         100.692         -46.5221         100.691      -0.00973342          148.52
0.54                   -0.350429        -145.038         -46.1502          99.359         -46.1507         99.3582      -0.00986181          148.45
0.541                  -0.379811        -145.839         -45.7715         97.9633          -45.772         97.9624      -0.00999785         148.381
0.542                  -0.412495        -146.659         -45.3853         96.4992         -45.3858         96.4983       -0.0101423         148.311
0.543                   -0.44894          -147.5         -44.9917         94.9609         -44.9921         94.9601       -0.0102962         148.242
0.544                  -0.489684        -148.361         -44.5904         93.3419         -44.5908         93.3411       -0.0104603         148.172
0.545                   -0.53535        -149.245         -44.1816         91.6351          -44.182         91.6343       -0.0106357         148.102
0.546                  -0.586664        -150.151         -43.7654         89.8324         -43.7658         89.8317       -0.0108235         148.032
0.547                  -0.644473        -151.079         -43.3419         87.9252         -43.3424         87.9244       -0.0110249         147.962
0.548                  -0.709761        -152.029         -42.9116         85.9036          -42.912         85.9029       -0.0112412         147.891
0.549                  -0.783671        -152.999         -42.4749         83.7572         -42.4753         83.7565       -0.0114736         147.821
0.55                   -0.867527        -153.988         -42.0325         81.4745         -42.0329         81.4738       -0.0117234          147.75
0.551                  -0.962852        -154.993         -41.5855          79.043         -41.5859         79.0424       -0.0119917          147.68
0.552                   -1.07138        -156.007         -41.1351         76.4498         -41.1355         76.4492       -0.0122796         147.609
0.553                   -1.19506        -157.023         -40.6831         73.6811         -40.6834         73.6807       -0.0125879         147.538
0.554                   -1.33605         -158.03         -40.2316         70.7234         -40.2319          70.723       -0.0129171         147.467
0.555                   -1.49664        -159.012         -39.7834         67.5631         -39.7837         67.5628       -0.0132672         147.397
0.556                   -1.67915        -159.947         -39.3417         64.1882          -39.342          64.188       -0.0136375         147.326
0.557                   -1.88572        -160.807         -38.9107         60.5888          -38.911         60.5886       -0.0140268         147.255
0.558                   -2.11797        -161.554         -38.4949         56.7584         -38.4952         56.7583       -0.0144328         147.184
0.559                   -2.37648         -162.14         -38.0998         52.6958            -38.1         52.6958       -0.0148523         147.113
0.56                    -2.66003        -162.506          -37.731         48.4067         -37.7312         48.4067        -0.015281         147.043
0.561                   -2.96459        -162.586         -37.3947          43.905          -37.395         43.9051       -0.0157137         146.972
0.562                   -3.28224        -162.311          -37.097         39.2144         -37.0971         39.2145       -0.0161446         146.902
0.563                   -3.60014        -161.618         -36.8431         34.3684         -36.8433         34.3685       -0.0165671         146.832
0.564                   -3.90029        -160.469         -36.6377         29.4101         -36.6378         29.4102       -0.0169747         146.762
0.565                   -4.16072         -158.87         -36.4836         24.3898         -36.4837         24.3899        -0.017361         146.692
0.566                   -4.35872        -156.887         -36.3819         19.3618          -36.382         19.3619       -0.0177205         146.622
0.567                   -4.47583        -154.652          -36.332         14.3813          -36.332         14.3813       -0.0180487         146.552
0.568                   -4.50286         -152.34         -36.3311         9.49938         -36.3311         9.49937       -0.0183424         146.482
0.569                    -4.4424        -150.138          -36.375         4.76062          -36.375         4.76054       -0.0186002         146.412
0.57                    -4.30753        -148.198         -36.4584        0.200407         -36.4584        0.200263       -0.0188218         146.342
0.571                   -4.11754         -146.62         -36.5754        -4.15583         -36.5754        -4.15604       -0.0190086         146.272
0.572                   -3.89292        -145.442         -36.7199        -8.29243         -36.7199         -8.2927       -0.0191631         146.201
0.573                   -3.65178        -144.655         -36.8859        -12.2024         -36.8859        -12.2027       -0.0192882          146.13
0.574                   -3.40807        -144.222         -37.0681        -15.8858         -37.0681        -15.8862        -0.019388         146.059
0.575                   -3.17144         -144.09         -37.2617        -19.3484         -37.2616        -19.3488       -0.0194661         145.988
0.576                   -2.94784        -144.207         -37.4624        -22.5994         -37.4624        -22.5999       -0.0195268         145.917
0.577                   -2.74045        -144.522         -37.6669        -25.6509         -37.6669        -25.6514       -0.0195737         145.845
0.578                   -2.55053        -144.993         -37.8723         -28.516         -37.8723        -28.5165       -0.0196103         145.773
0.579                   -2.37809        -145.584         -38.0763        -31.2085         -38.0763         -31.209       -0.0196398         145.701
0.58                     -2.2224        -146.267         -38.2772        -33.7421         -38.2771        -33.7426       -0.0196648         145.628
0.581                   -2.08234         -147.02         -38.4734        -36.1302         -38.4734        -36.1307       -0.0196878         145.556
0.582                    -1.9566        -147.824         -38.6641        -38.3853          -38.664        -38.3858       -0.0197106         145.482
0.583                   -1.84383        -148.666         -38.8483        -40.5191         -38.8483        -40.5196       -0.0197348         145.409
0.584                   -1.74273        -149.537         -39.0256        -42.5425         -39.0256         -42.543       -0.0197618         145.336
0.585                   -1.65208        -150.429         -39.1956        -44.4654         -39.1956        -44.4659       -0.0197925         145.262
0.586                   -1.57077        -151.335          -39.358        -46.2969          -39.358        -46.2973       -0.0198277         145.188
0.587                   -1.49777        -152.252         -39.5127        -48.0451         -39.5126        -48.0456        -0.019868         145.113
0.588                   -1.43221        -153.177         -39.6596        -49.7176         -39.6596         -49.718       -0.0199139         145.039
0.589                   -1.37329        -154.106         -39.7988         -51.321         -39.7988        -51.3214       -0.0199657         144.964
0.59                     -1.3203        -155.039         -39.9303        -52.8615         -39.9303        -52.8619       -0.0200236         144.889
0.591                   -1.27263        -155.975         -40.0543        -54.3445         -40.0543        -54.3449       -0.0200877         144.814
0.592                   -1.22973        -156.913         -40.1709         -55.775         -40.1709        -55.7754        -0.020158         144.739
0.593                   -1.19114        -157.852         -40.2801        -57.1575         -40.2801        -57.1579       -0.0202347         144.663
0.594                   -1.15644        -158.792         -40.3823        -58.4961         -40.3823        -58.4964       -0.0203176         144.587
0.595                   -1.12526        -159.733         -40.4775        -59.7944         -40.4775        -59.7947       -0.0204068         144.511
0.596                   -1.09728        -160.676          -40.566        -61.0558          -40.566        -61.0561       -0.0205021         144.435
0.597                   -1.07221         -161.62         -40.6478        -62.2834         -40.6478        -62.2836       -0.0206035         144.358
0.598                   -1.04982        -162.566         -40.7233        -63.4799         -40.7233        -63.4801        -0.020711         144.282
0.599                   -1.02989        -163.515         -40.7925        -64.6479         -40.7925        -64.6481       -0.0208243         144.205
0.6                     -1.01221        -164.466         -40.8556        -65.7897         -40.8556        -65.7899       -0.0209434         144.128
0.601                  -0.996628         -165.42         -40.9129        -66.9074         -40.9129        -66.9076       -0.0210683         144.051
0.602                  -0.982992        -166.377         -40.9644        -68.0031         -40.9644        -68.0032       -0.0211988         143.973
0.603                  -0.971172        -167.338         -41.0104        -69.0784         -41.0104        -69.0786       -0.0213348         143.896
0.604                  -0.961052        -168.304         -41.0509        -70.1352         -41.0509        -70.1353       -0.0214763         143.818
0.605                  -0.952534        -169.274         -41.0862        -71.1749         -41.0862         -71.175       -0.0216232          143.74
0.606                  -0.945529         -170.25         -41.1163         -72.199         -41.1163        -72.1991       -0.0217754         143.661
0.607                   -0.93996        -171.231         -41.1415        -73.2089         -41.1415         -73.209       -0.0219328         143.583
0.608                  -0.935762        -172.219         -41.1617        -74.2057         -41.1618        -74.2058       -0.0220954         143.504
0.609                  -0.932877        -173.213         -41.1773        -75.1908         -41.1773        -75.1909       -0.0222632         143.425
0.61                   -0.931256        -174.215         -41.1882        -76.1651         -41.1882        -76.1652        -0.022436         143.346
0.611                  -0.930858        -175.224         -41.1946        -77.1298         -41.1946        -77.1299       -0.0226138         143.267
0.612                  -0.931647        -176.242         -41.1966        -78.0859         -41.1966         -78.086       -0.0227967         143.187
0.613                  -0.933597        -177.268         -41.1943        -79.0342         -41.1943        -79.0343       -0.0229845         143.107
0.614                  -0.936685        -178.304         -41.1878        -79.9758         -41.1878        -79.9759       -0.0231773         143.027
0.615                  -0.940893         -179.35         -41.1772        -80.9113         -41.1772        -80.9115       -0.0233751         142.947
0.616                  -0.946211         179.595         -41.1626        -81.8418         -41.1626        -81.8419       -0.0235777         142.866
0.617                  -0.952631         178.528          -41.144        -82.7679          -41.144        -82.7681       -0.0237853         142.786
0.618                  -0.960153          177.45         -41.1216        -83.6905         -41.1217        -83.6907       -0.0239978         142.705
0.619                  -0.968777         176.361         -41.0955        -84.6103         -41.0955        -84.6104       -0.0242152         142.623
0.62                   -0.978511         175.258         -41.0657        -85.5279         -41.0657        -85.5281       -0.0244376         142.542
0.621                  -0.989367         174.143         -41.0322        -86.4442         -41.0323        -86.4444       -0.0246649          142.46
0.622                   -1.00136         173.015         -40.9953        -87.3597         -40.9953        -87.3599       -0.0248971         142.378
0.623                   -1.01451         171.872         -40.9548        -88.2752         -40.9549        -88.2754       -0.0251344         142.296
0.624                   -1.02884         170.714          -40.911        -89.1913          -40.911        -89.1915       -0.0253766         142.214
0.625                   -1.04437         169.541         -40.8638        -90.1087         -40.8638        -90.1089       -0.0256239         142.131
0.626                   -1.06115         168.352         -40.8133         -91.028         -40.8134        -91.0282       -0.0258763         142.048
0.627                    -1.0792         167.146         -40.7597        -91.9498         -40.7597          -91.95       -0.0261337         141.965
0.628                   -1.09857         165.923         -40.7029        -92.8747         -40.7029         -92.875       -0.0263963         141.881
0.629                    -1.1193         164.682          -40.643        -93.8035          -40.643        -93.8037       -0.0266642         141.798
