! TOUCHSTONE file generated by CST MICROWAVE STUDIO
! Date and time: Sat Oct 24 10:45:32 2020
! Project name: Scenario_1_Planar_Body_Tissue_Center.cst
! Parameters = {hfat=3; hmuscle=50; hskin=1.5; hgap=25; Wtissue=700; Ltissue=700; L_HA=400; MT=2.54; Rad_Dielectric=30; Rad_Lower=7.3; Rad_Upper=30; a_HA=580; a_WG=246; b_HA=500; b_WG=121; c_HA=0; c_WG=187; d_feed=85; dx1=502.08; h_feed=15; h_lower=18; h_upper=40}
! Header version: 2018
! Port assignment regex: !\s*Touchstone port\s*([0-9]+)\s*=\s*(CST MWS port|CST DS port)\s*([0-9]+|Zmin|Zmax)\s*\(\"(.*)\"\)(\s*mode\s*([0-9]+))?.*
! Touchstone port assignment:
! Touchstone port 1 = CST MWS port 1 ("")
! Touchstone port 2 = CST MWS port 2 ("")
# GHz S DB R 50
0.5                   -0.0756653        -121.834         -61.4029        -40.7941         -61.4028        -40.7916       -0.0074724         151.147
0.501                 -0.0777769        -122.287         -61.2109        -41.7229         -61.2108        -41.7204       -0.0075333         151.081
0.502                 -0.0800296        -122.744         -61.0152        -42.6615         -61.0151        -42.6592      -0.00759474         151.016
0.503                 -0.0824339        -123.205         -60.8159        -43.6105         -60.8158        -43.6083      -0.00765672         150.951
0.504                 -0.0850013        -123.669         -60.6127        -44.5704         -60.6127        -44.5682      -0.00771926         150.885
0.505                 -0.0877444        -124.138         -60.4058        -45.5415         -60.4057        -45.5394      -0.00778236          150.82
0.506                 -0.0906768         -124.61         -60.1949        -46.5244         -60.1948        -46.5224      -0.00784602         150.754
0.507                 -0.0938137        -125.087           -59.98        -47.5197           -59.98        -47.5178      -0.00791025         150.688
0.508                 -0.0971714        -125.569         -59.7611         -48.528          -59.761        -48.5262      -0.00797507         150.623
0.509                  -0.100768        -126.054          -59.538        -49.5499         -59.5379        -49.5483      -0.00804048         150.557
0.51                   -0.104624        -126.545         -59.3106        -50.5863         -59.3105        -50.5847       -0.0081065         150.491
0.511                  -0.108761         -127.04         -59.0789        -51.6378         -59.0789        -51.6363      -0.00817313         150.425
0.512                  -0.113203         -127.54         -58.8428        -52.7054         -58.8428        -52.7039      -0.00824039         150.359
0.513                  -0.117976        -128.045         -58.6022        -53.7898         -58.6021        -53.7885       -0.0083083         150.292
0.514                  -0.123111        -128.556          -58.357        -54.8922         -58.3569         -54.891      -0.00837687         150.226
0.515                   -0.12864        -129.072         -58.1071        -56.0137          -58.107        -56.0125      -0.00844612          150.16
0.516                  -0.134599        -129.594         -57.8524        -57.1553         -57.8523        -57.1542      -0.00851608         150.093
0.517                  -0.141028        -130.121         -57.5928        -58.3183         -57.5927        -58.3173      -0.00858677         150.027
0.518                  -0.147972        -130.655         -57.3282        -59.5043         -57.3282        -59.5033      -0.00865822          149.96
0.519                   -0.15548        -131.194         -57.0586        -60.7145         -57.0585        -60.7136      -0.00873047         149.893
0.52                   -0.163608         -131.74         -56.7838        -61.9508         -56.7837        -61.9499      -0.00880355         149.827
0.521                  -0.172416        -132.293         -56.5037        -63.2148         -56.5036        -63.2139      -0.00887751          149.76
0.522                  -0.181974        -132.852         -56.2183        -64.5084         -56.2182        -64.5077      -0.00895239         149.693
0.523                  -0.192357        -133.419         -55.9274        -65.8339         -55.9274        -65.8332      -0.00902827         149.626
0.524                  -0.203652        -133.992          -55.631        -67.1934          -55.631        -67.1928       -0.0091052         149.558
0.525                  -0.215954        -134.573          -55.329        -68.5895          -55.329        -68.5889      -0.00918326         149.491
0.526                  -0.229369        -135.161         -55.0214        -70.0249         -55.0214        -70.0243      -0.00926255         149.424
0.527                  -0.244018        -135.757         -54.7081        -71.5025          -54.708         -71.502      -0.00934316         149.356
0.528                  -0.260033        -136.361          -54.389        -73.0255          -54.389         -73.025      -0.00942522         149.289
0.529                  -0.277563        -136.972         -54.0642        -74.5974         -54.0642        -74.5969      -0.00950886         149.221
0.53                   -0.296776        -137.591         -53.7337         -76.222         -53.7337        -76.2215      -0.00959424         149.153
0.531                  -0.317857        -138.218         -53.3976        -77.9033         -53.3976        -77.9029      -0.00968155         149.085
0.532                  -0.341012        -138.852         -53.0559        -79.6459         -53.0559        -79.6455        -0.009771         149.017
0.533                  -0.366469        -139.494         -52.7087        -81.4546         -52.7087        -81.4542      -0.00986282         148.949
0.534                  -0.394482        -140.142         -52.3564        -83.3344         -52.3564         -83.334      -0.00995729         148.881
0.535                  -0.425326        -140.796         -51.9991         -85.291         -51.9991        -85.2906       -0.0100547         148.813
0.536                  -0.459301        -141.454         -51.6373        -87.3302         -51.6373        -87.3299       -0.0101555         148.744
0.537                  -0.496731        -142.116         -51.2714        -89.4585         -51.2714        -89.4581         -0.01026         148.676
0.538                  -0.537959         -142.78          -50.902        -91.6822          -50.902        -91.6819       -0.0103686         148.607
0.539                  -0.583338        -143.443         -50.5299        -94.0084         -50.5299        -94.0081       -0.0104818         148.538
0.54                   -0.633228        -144.102         -50.1559        -96.4441          -50.156        -96.4437       -0.0106003         148.469
0.541                  -0.687974        -144.755         -49.7813        -98.9963         -49.7813        -98.9959       -0.0107244           148.4
0.542                  -0.747888        -145.396         -49.4072        -101.672         -49.4073        -101.672       -0.0108548         148.331
0.543                  -0.813218        -146.019         -49.0354        -104.478         -49.0355        -104.478       -0.0109921         148.262
0.544                  -0.884108         -146.62         -48.6676         -107.42         -48.6677        -107.419       -0.0111368         148.193
0.545                  -0.960549        -147.189          -48.306        -110.502          -48.306        -110.502       -0.0112892         148.123
0.546                   -1.04232         -147.72         -47.9529        -113.729         -47.9529        -113.729       -0.0114499         148.054
0.547                   -1.12892        -148.203          -47.611        -117.102          -47.611        -117.101       -0.0116189         147.984
0.548                   -1.21949        -148.628         -47.2831        -120.618         -47.2832        -120.618        -0.011796         147.914
0.549                   -1.31277        -148.988         -46.9724        -124.275         -46.9724        -124.274       -0.0119811         147.844
0.55                    -1.40706        -149.272         -46.6819        -128.063         -46.6819        -128.062       -0.0121732         147.775
0.551                   -1.50023        -149.477         -46.4147        -131.971         -46.4147         -131.97       -0.0123712         147.705
0.552                   -1.58974          -149.6         -46.1736        -135.982         -46.1736        -135.982       -0.0125737         147.635
0.553                   -1.67285        -149.641         -45.9611        -140.078         -45.9611        -140.077        -0.012779         147.565
0.554                   -1.74679        -149.608         -45.7792        -144.233         -45.7793        -144.233       -0.0129849         147.495
0.555                     -1.809        -149.513         -45.6294        -148.423         -45.6294        -148.422       -0.0131894         147.425
0.556                   -1.85743        -149.372          -45.512        -152.618          -45.512        -152.618       -0.0133906         147.355
0.557                   -1.89077        -149.205         -45.4269        -156.792         -45.4269        -156.791       -0.0135864         147.285
0.558                   -1.90853        -149.033         -45.3731        -160.916         -45.3731        -160.916       -0.0137756         147.214
0.559                   -1.91113        -148.877         -45.3489        -164.967         -45.3489        -164.967        -0.013957         147.144
0.56                    -1.89973        -148.756          -45.352        -168.922          -45.352        -168.922         -0.01413         147.074
0.561                   -1.87611        -148.685         -45.3796        -172.764         -45.3796        -172.764       -0.0142944         147.003
0.562                   -1.84239        -148.675         -45.4288        -176.478         -45.4288        -176.478       -0.0144506         146.932
0.563                   -1.80081        -148.732         -45.4964         179.945         -45.4964         179.945       -0.0145989         146.862
0.564                   -1.75358        -148.861         -45.5792         176.512         -45.5792         176.512       -0.0147401         146.791
0.565                   -1.70269        -149.059         -45.6744         173.224         -45.6744         173.224       -0.0148752          146.72
0.566                   -1.64987        -149.325         -45.7791         170.081         -45.7791         170.081       -0.0150051         146.649
0.567                   -1.59656        -149.654         -45.8908         167.082         -45.8908         167.082       -0.0151308         146.577
0.568                   -1.54388        -150.042         -46.0073         164.221         -46.0073         164.221       -0.0152531         146.506
0.569                    -1.4927        -150.482         -46.1264         161.493         -46.1264         161.494        -0.015373         146.434
0.57                    -1.44363         -150.97         -46.2466         158.892         -46.2466         158.893       -0.0154913         146.362
0.571                   -1.39712          -151.5         -46.3663         156.411         -46.3663         156.411       -0.0156085          146.29
0.572                   -1.35342        -152.066         -46.4843         154.042         -46.4843         154.042       -0.0157254         146.218
0.573                    -1.3127        -152.666         -46.5996         151.778         -46.5996         151.778       -0.0158424         146.146
0.574                   -1.27501        -153.294         -46.7114         149.613         -46.7114         149.613         -0.01596         146.073
0.575                   -1.24036        -153.948         -46.8189         147.538         -46.8189         147.538       -0.0160785         146.001
0.576                   -1.20869        -154.625         -46.9215         145.548         -46.9216         145.548       -0.0161982         145.928
0.577                   -1.17993        -155.322          -47.019         143.636          -47.019         143.636       -0.0163194         145.855
0.578                   -1.15397        -156.038         -47.1108         141.796         -47.1108         141.796       -0.0164423         145.781
0.579                   -1.13072        -156.769         -47.1968         140.023         -47.1968         140.023       -0.0165671         145.708
0.58                    -1.11005        -157.516         -47.2767         138.311         -47.2768         138.311       -0.0166939         145.635
0.581                   -1.09185        -158.277         -47.3505         136.655         -47.3505         136.655       -0.0168228         145.561
0.582                   -1.07601        -159.051         -47.4179         135.051          -47.418         135.052        -0.016954         145.487
0.583                   -1.06244        -159.836         -47.4791         133.496         -47.4791         133.496       -0.0170874         145.413
0.584                   -1.05103        -160.634         -47.5338         131.983         -47.5338         131.984       -0.0172232         145.339
0.585                    -1.0417        -161.443         -47.5822         130.511         -47.5822         130.512       -0.0173614         145.265
0.586                   -1.03436        -162.262         -47.6242         129.076         -47.6242         129.076       -0.0175021          145.19
0.587                   -1.02896        -163.092         -47.6599         127.674         -47.6599         127.674       -0.0176453         145.115
0.588                   -1.02542        -163.933         -47.6893         126.302         -47.6893         126.303        -0.017791          145.04
0.589                   -1.02371        -164.784         -47.7125         124.959         -47.7125         124.959       -0.0179392         144.965
0.59                    -1.02376        -165.645         -47.7296          123.64         -47.7296         123.641         -0.01809          144.89
0.591                   -1.02556        -166.516         -47.7406         122.344         -47.7406         122.345       -0.0182435         144.815
0.592                   -1.02906        -167.398         -47.7455         121.069         -47.7455         121.069       -0.0183996         144.739
0.593                   -1.03427        -168.291         -47.7446         119.812         -47.7446         119.812       -0.0185583         144.663
0.594                   -1.04115        -169.194         -47.7377         118.571         -47.7377         118.571       -0.0187198         144.587
0.595                   -1.04972        -170.108         -47.7252         117.344         -47.7251         117.345       -0.0188839         144.511
0.596                   -1.05998        -171.034         -47.7069          116.13         -47.7069         116.131       -0.0190508         144.435
0.597                   -1.07193         -171.97          -47.683         114.927          -47.683         114.927       -0.0192205         144.358
0.598                    -1.0856        -172.919         -47.6536         113.732         -47.6536         113.733        -0.019393         144.282
0.599                   -1.10102        -173.879         -47.6187         112.545         -47.6187         112.546       -0.0195683         144.205
0.6                     -1.11821        -174.852         -47.5786         111.364         -47.5785         111.365       -0.0197464         144.128
0.601                   -1.13722        -175.837         -47.5331         110.188          -47.533         110.188       -0.0199274         144.051
0.602                    -1.1581        -176.835         -47.4824         109.014         -47.4824         109.015       -0.0201114         143.973
0.603                   -1.18091        -177.846         -47.4267         107.842         -47.4266         107.842       -0.0202983         143.895
0.604                    -1.2057        -178.871         -47.3659          106.67         -47.3659          106.67       -0.0204883         143.817
0.605                   -1.23256         -179.91         -47.3003         105.497         -47.3002         105.497       -0.0206813         143.739
0.606                   -1.26155         179.037         -47.2297         104.321         -47.2296         104.322       -0.0208773         143.661
0.607                   -1.29278         177.969         -47.1545         103.142         -47.1544         103.143       -0.0210765         143.583
0.608                   -1.32634         176.886         -47.0745         101.958         -47.0744         101.958       -0.0212789         143.504
0.609                   -1.36233         175.787           -46.99         100.768         -46.9899         100.768       -0.0214845         143.425
0.61                    -1.40088         174.673         -46.9011         99.5697          -46.901         99.5701       -0.0216935         143.346
0.611                   -1.44211         173.542         -46.8077         98.3633         -46.8076         98.3636       -0.0219057         143.266
0.612                   -1.48616         172.395         -46.7101          97.147           -46.71         97.1474       -0.0221214         143.187
0.613                   -1.53318         171.231         -46.6083         95.9198         -46.6082         95.9201       -0.0223405         143.107
0.614                   -1.58334         170.049         -46.5025         94.6804         -46.5024         94.6806       -0.0225631         143.027
0.615                   -1.63681         168.849         -46.3927         93.4276         -46.3926         93.4279       -0.0227893         142.947
0.616                   -1.69379         167.632         -46.2791         92.1604          -46.279         92.1606       -0.0230192         142.866
0.617                   -1.75446         166.396         -46.1618         90.8776         -46.1617         90.8778       -0.0232528         142.785
0.618                   -1.81907         165.141          -46.041         89.5781         -46.0408         89.5782       -0.0234901         142.705
0.619                   -1.88784         163.867         -45.9167         88.2607         -45.9166         88.2608       -0.0237314         142.623
0.62                    -1.96104         162.574         -45.7891         86.9244          -45.789         86.9244       -0.0239766         142.542
0.621                   -2.03892         161.262         -45.6585          85.568         -45.6583          85.568       -0.0242259          142.46
0.622                    -2.1218          159.93         -45.5248         84.1906         -45.5247         84.1905       -0.0244793         142.378
0.623                   -2.20998         158.578         -45.3884          82.791         -45.3883         82.7909       -0.0247368         142.296
0.624                    -2.3038         157.207         -45.2494         81.3684         -45.2493         81.3682       -0.0249987         142.214
0.625                   -2.40363         155.816          -45.108         79.9216         -45.1079         79.9214        -0.025265         142.131
0.626                   -2.50985         154.406         -44.9644         78.4499         -44.9643         78.4497       -0.0255358         142.048
0.627                   -2.62288         152.977         -44.8189         76.9522         -44.8188          76.952       -0.0258111         141.965
0.628                   -2.74317         151.529         -44.6715         75.4279         -44.6714         75.4276       -0.0260912         141.881
0.629                   -2.87118         150.063         -44.5227         73.8761         -44.5226         73.8758        -0.026376         141.797
