! TOUCHSTONE file generated by CST MICROWAVE STUDIO
! Date and time: Sat Oct 24 10:45:41 2020
! Project name: Scenario_1_Planar_Body_Tissue_Center.cst
! Parameters = {hfat=3; hmuscle=50; hskin=1.5; hgap=25; Wtissue=700; Ltissue=700; L_HA=400; MT=2.54; Rad_Dielectric=30; Rad_Lower=7.3; Rad_Upper=30; a_HA=580; a_WG=246; b_HA=500; b_WG=121; c_HA=0; c_WG=187; d_feed=85; dx1=519.4; h_feed=15; h_lower=18; h_upper=40}
! Header version: 2018
! Port assignment regex: !\s*Touchstone port\s*([0-9]+)\s*=\s*(CST MWS port|CST DS port)\s*([0-9]+|Zmin|Zmax)\s*\(\"(.*)\"\)(\s*mode\s*([0-9]+))?.*
! Touchstone port assignment:
! Touchstone port 1 = CST MWS port 1 ("")
! Touchstone port 2 = CST MWS port 2 ("")
# GHz S DB R 50
0.5                   -0.0744994        -121.961         -61.3874         -47.617         -61.3878        -47.6142      -0.00745033         151.147
0.501                   -0.07783         -122.41         -61.1657         -48.647          -61.166        -48.6449      -0.00751125         151.082
0.502                 -0.0812875        -122.862         -60.9403         -49.688         -60.9405        -49.6865      -0.00757288         151.017
0.503                 -0.0848868        -123.319          -60.711        -50.7405         -60.7111        -50.7397      -0.00763523         150.951
0.504                 -0.0886444         -123.78         -60.4777        -51.8055         -60.4777        -51.8053       -0.0076983         150.886
0.505                 -0.0925785        -124.245         -60.2404        -52.8839         -60.2403        -52.8842      -0.00776211          150.82
0.506                 -0.0967094        -124.716          -59.999        -53.9765         -59.9988        -53.9774      -0.00782668         150.755
0.507                  -0.101059        -125.191         -59.7534        -55.0845         -59.7531        -55.0858      -0.00789202         150.689
0.508                  -0.105653        -125.671         -59.5035        -56.2088         -59.5031        -56.2106      -0.00795815         150.623
0.509                  -0.110519        -126.156         -59.2491        -57.3507         -59.2487        -57.3529      -0.00802509         150.557
0.51                   -0.115687        -126.647         -58.9903        -58.5114         -58.9897         -58.514      -0.00809288         150.491
0.511                  -0.121192        -127.143         -58.7268        -59.6924         -58.7262        -59.6953      -0.00816153         150.425
0.512                  -0.127072        -127.645         -58.4587         -60.895         -58.4581        -60.8984      -0.00823107         150.359
0.513                   -0.13337        -128.152         -58.1857         -62.121         -58.1851        -62.1247      -0.00830154         150.293
0.514                  -0.140135        -128.666         -57.9079        -63.3721         -57.9072        -63.3761      -0.00837297         150.227
0.515                  -0.147419        -129.186         -57.6251        -64.6502         -57.6244        -64.6544      -0.00844541          150.16
0.516                  -0.155283        -129.713         -57.3372        -65.9573         -57.3364        -65.9617       -0.0085189         150.094
0.517                  -0.163796        -130.246         -57.0441        -67.2956         -57.0434        -67.3002       -0.0085935         150.027
0.518                  -0.173032        -130.786         -56.7458        -68.6676         -56.7451        -68.6724      -0.00866927         149.961
0.519                  -0.183079        -131.334         -56.4422        -70.0759         -56.4415        -70.0809      -0.00874628         149.894
0.52                   -0.194032        -131.888         -56.1332        -71.5233         -56.1325        -71.5284       -0.0088246         149.827
0.521                     -0.206         -132.45         -55.8189        -73.0129         -55.8181        -73.0181      -0.00890432          149.76
0.522                  -0.219105         -133.02         -55.4991        -74.5481         -55.4984        -74.5534      -0.00898554         149.693
0.523                  -0.233484        -133.597         -55.1739        -76.1325         -55.1732        -76.1378      -0.00906839         149.626
0.524                  -0.249291        -134.181         -54.8433          -77.77         -54.8426        -77.7753      -0.00915297         149.559
0.525                    -0.2667        -134.774         -54.5073        -79.4648         -54.5067        -79.4701      -0.00923945         149.491
0.526                  -0.285903        -135.374         -54.1662        -81.2216         -54.1656        -81.2268      -0.00932798         149.424
0.527                  -0.307115         -135.98         -53.8201        -83.0452         -53.8195        -83.0503      -0.00941876         149.356
0.528                  -0.330574        -136.594         -53.4692        -84.9409         -53.4687        -84.9459      -0.00951198         149.289
0.529                  -0.356542        -137.214         -53.1138        -86.9145         -53.1133        -86.9193       -0.0096079         149.221
0.53                   -0.385305        -137.838         -52.7543        -88.9718         -52.7539        -88.9764      -0.00970676         149.153
0.531                   -0.41717        -138.467         -52.3914        -91.1192          -52.391        -91.1235      -0.00980886         149.085
0.532                   -0.45246        -139.098         -52.0256        -93.3633         -52.0252        -93.3673      -0.00991451         149.017
0.533                  -0.491509        -139.728         -51.6577        -95.7108         -51.6574        -95.7145       -0.0100241         148.949
0.534                  -0.534651        -140.355         -51.2887        -98.1686         -51.2885         -98.172       -0.0101379         148.881
0.535                  -0.582199        -140.976         -50.9199        -100.744         -50.9198        -100.747       -0.0102564         148.813
0.536                  -0.634422        -141.586         -50.5527        -103.442         -50.5525        -103.445         -0.01038         148.744
0.537                  -0.691513         -142.18         -50.1886        -106.271         -50.1885        -106.273        -0.010509         148.676
0.538                  -0.753543        -142.751         -49.8296        -109.234         -49.8296        -109.236       -0.0106438         148.607
0.539                  -0.820408        -143.293          -49.478        -112.336          -49.478        -112.337       -0.0107847         148.539
0.54                   -0.891771        -143.797         -49.1361        -115.579         -49.1361         -115.58        -0.010932          148.47
0.541                  -0.966997        -144.256         -48.8065        -118.964         -48.8066        -118.964       -0.0110858         148.401
0.542                   -1.04509        -144.661         -48.4923        -122.486         -48.4923        -122.485       -0.0112459         148.332
0.543                   -1.12468        -145.005         -48.1963        -126.141         -48.1963         -126.14       -0.0114121         148.263
0.544                   -1.20397        -145.282         -47.9215        -129.918         -47.9215        -129.917       -0.0115838         148.194
0.545                   -1.28086        -145.491         -47.6708        -133.805         -47.6708        -133.802       -0.0117603         148.125
0.546                     -1.353         -145.63         -47.4468        -137.783         -47.4467         -137.78       -0.0119404         148.056
0.547                   -1.41802        -145.706         -47.2516        -141.832         -47.2515        -141.829       -0.0121227         147.986
0.548                   -1.47371        -145.727         -47.0869        -145.927         -47.0867        -145.924       -0.0123057         147.917
0.549                   -1.51829        -145.708         -46.9536        -150.044         -46.9534         -150.04       -0.0124876         147.848
0.55                    -1.55057        -145.665         -46.8519        -154.154         -46.8517         -154.15       -0.0126668         147.778
0.551                   -1.57011        -145.615         -46.7813         -158.23          -46.781        -158.227       -0.0128416         147.709
0.552                   -1.57719        -145.576         -46.7405        -162.249         -46.7402        -162.245       -0.0130108         147.639
0.553                   -1.57274        -145.562         -46.7276        -166.185         -46.7273        -166.182       -0.0131731          147.57
0.554                   -1.55816        -145.588         -46.7402        -170.021         -46.7398        -170.018       -0.0133281           147.5
0.555                   -1.53517        -145.662         -46.7755        -173.741          -46.775        -173.738       -0.0134755          147.43
0.556                   -1.50558         -145.79         -46.8305        -177.332           -46.83        -177.329       -0.0136152          147.36
0.557                   -1.47117        -145.975         -46.9022         179.214         -46.9018         179.217       -0.0137479          147.29
0.558                   -1.43356        -146.215         -46.9877         175.901         -46.9872         175.903        -0.013874          147.22
0.559                   -1.39413         -146.51          -47.084          172.73         -47.0836         172.732       -0.0139945          147.15
0.56                    -1.35406        -146.857         -47.1887         169.701         -47.1883         169.702       -0.0141102         147.079
0.561                   -1.31426         -147.25         -47.2992          166.81         -47.2988         166.811       -0.0142221         147.009
0.562                   -1.27544        -147.687         -47.4136         164.053         -47.4132         164.054       -0.0143311         146.938
0.563                    -1.2381        -148.162         -47.5299         161.424         -47.5295         161.425       -0.0144379         146.867
0.564                   -1.20262        -148.672         -47.6465         158.917         -47.6462         158.918       -0.0145434         146.796
0.565                   -1.16921        -149.213         -47.7621         156.524         -47.7618         156.525       -0.0146482         146.725
0.566                   -1.13804        -149.781         -47.8755          154.24         -47.8753         154.241       -0.0147529         146.654
0.567                   -1.10916        -150.374         -47.9859         152.056         -47.9857         152.057        -0.014858         146.582
0.568                   -1.08258        -150.988         -48.0923         149.967         -48.0922         149.967        -0.014964          146.51
0.569                    -1.0583        -151.622         -48.1942         147.964         -48.1941         147.965        -0.015071         146.439
0.57                    -1.03625        -152.274         -48.2911         146.043          -48.291         146.043       -0.0151796         146.367
0.571                   -1.01637        -152.942         -48.3825         144.196         -48.3825         144.196       -0.0152897         146.294
0.572                  -0.998597        -153.624         -48.4681         142.418         -48.4681         142.419       -0.0154017         146.222
0.573                  -0.982846         -154.32         -48.5477         140.704         -48.5477         140.705       -0.0155157          146.15
0.574                   -0.96904        -155.029         -48.6211         139.049         -48.6211          139.05       -0.0156318         146.077
0.575                  -0.957104         -155.75         -48.6881         137.448         -48.6882         137.448         -0.01575         146.004
0.576                  -0.946965        -156.482         -48.7487         135.896         -48.7488         135.897       -0.0158705         145.931
0.577                  -0.938559        -157.224         -48.8028          134.39          -48.803         134.391       -0.0159933         145.858
0.578                  -0.931825        -157.977         -48.8504         132.926         -48.8506         132.926       -0.0161184         145.785
0.579                  -0.926708        -158.741         -48.8915         131.499         -48.8917           131.5       -0.0162459         145.712
0.58                   -0.923162        -159.514         -48.9261         130.108         -48.9263         130.108       -0.0163758         145.638
0.581                  -0.921147        -160.297         -48.9542         128.748         -48.9545         128.749        -0.016508         145.564
0.582                  -0.920629         -161.09         -48.9759         127.417         -48.9762         127.418       -0.0166427          145.49
0.583                  -0.921581        -161.893         -48.9913         126.113         -48.9916         126.114       -0.0167799         145.416
0.584                  -0.923985        -162.705         -49.0004         124.832         -49.0006         124.833       -0.0169194         145.342
0.585                  -0.927826        -163.528         -49.0032         123.572         -49.0035         123.573       -0.0170614         145.268
0.586                  -0.933098         -164.36         -48.9999         122.331         -49.0002         122.332       -0.0172059         145.193
0.587                  -0.939799        -165.203         -48.9905         121.107         -48.9908         121.108       -0.0173528         145.118
0.588                  -0.947935        -166.056         -48.9751         119.899         -48.9754           119.9       -0.0175022         145.044
0.589                  -0.957518        -166.919         -48.9537         118.703          -48.954         118.704       -0.0176541         144.968
0.59                   -0.968566        -167.793         -48.9266         117.518         -48.9269         117.519       -0.0178085         144.893
0.591                  -0.981101        -168.678         -48.8937         116.342         -48.8939         116.344       -0.0179655         144.818
0.592                  -0.995155        -169.574         -48.8551         115.175         -48.8553         115.176       -0.0181249         144.742
0.593                   -1.01076        -170.481         -48.8109         114.014         -48.8111         114.015       -0.0182869         144.666
0.594                   -1.02797        -171.401         -48.7612         112.857         -48.7614         112.858       -0.0184515         144.591
0.595                   -1.04681        -172.332         -48.7061         111.704         -48.7063         111.705       -0.0186187         144.514
0.596                   -1.06736        -173.275         -48.6456         110.552         -48.6459         110.553       -0.0187885         144.438
0.597                   -1.08967         -174.23         -48.5799         109.401         -48.5802         109.402        -0.018961         144.362
0.598                   -1.11381        -175.199         -48.5091         108.248         -48.5093         108.249       -0.0191361         144.285
0.599                   -1.13986        -176.181         -48.4331         107.094         -48.4333         107.095        -0.019314         144.208
0.6                     -1.16789        -177.176         -48.3522         105.936         -48.3524         105.937       -0.0194946         144.131
0.601                   -1.19801        -178.184         -48.2664         104.773         -48.2666         104.774       -0.0196779         144.054
0.602                   -1.23031        -179.207         -48.1758         103.604          -48.176         103.605       -0.0198641         143.976
0.603                   -1.26489         179.756         -48.0805         102.427         -48.0806         102.428       -0.0200532         143.899
0.604                   -1.30189         178.704         -47.9805         101.242         -47.9807         101.243       -0.0202452         143.821
0.605                   -1.34141         177.638         -47.8761         100.047         -47.8762         100.048       -0.0204401         143.743
0.606                   -1.38361         176.556         -47.7672         98.8418         -47.7673         98.8426        -0.020638         143.664
0.607                   -1.42863         175.458         -47.6541         97.6241         -47.6542         97.6248        -0.020839         143.586
0.608                   -1.47662         174.345         -47.5367          96.393         -47.5368         96.3936       -0.0210431         143.507
0.609                   -1.52777         173.216         -47.4153         95.1475         -47.4153         95.1481       -0.0212503         143.428
0.61                    -1.58226         172.071         -47.2899         93.8865         -47.2899         93.8869       -0.0214608         143.349
0.611                   -1.64028         170.909         -47.1606         92.6086         -47.1607          92.609       -0.0216746          143.27
0.612                   -1.70205         169.731         -47.0277         91.3129         -47.0278         91.3132       -0.0218917          143.19
0.613                    -1.7678         168.535         -46.8912         89.9982         -46.8913         89.9984       -0.0221123         143.111
0.614                   -1.83777         167.324         -46.7513         88.6634         -46.7514         88.6635       -0.0223364         143.031
0.615                   -1.91223         166.095         -46.6082         87.3073         -46.6082         87.3074        -0.022564          142.95
0.616                   -1.99146         164.849          -46.462          85.929          -46.462         85.9289       -0.0227954          142.87
0.617                   -2.07576         163.588         -46.3128         84.5273         -46.3128         84.5272       -0.0230304         142.789
0.618                   -2.16545         162.309         -46.1609         83.1012         -46.1609          83.101       -0.0232693         142.708
0.619                   -2.26087         161.015         -46.0065         81.6496         -46.0065         81.6494       -0.0235121         142.627
0.62                     -2.3624         159.705         -45.8497         80.1717         -45.8497         80.1714       -0.0237589         142.546
0.621                   -2.47041          158.38         -45.6908         78.6665         -45.6908         78.6661       -0.0240098         142.464
0.622                   -2.58534         157.041           -45.53          77.133           -45.53         77.1326       -0.0242649         142.382
0.623                   -2.70761         155.688         -45.3676         75.5706         -45.3676         75.5701       -0.0245243           142.3
0.624                    -2.8377         154.324         -45.2037         73.9783         -45.2037         73.9778       -0.0247881         142.218
0.625                   -2.97611         152.948         -45.0388         72.3556         -45.0388         72.3551       -0.0250564         142.135
0.626                   -3.12336         151.563          -44.873         70.7018          -44.873         70.7012       -0.0253293         142.052
0.627                   -3.28001         150.171         -44.7066         69.0164         -44.7066         69.0159        -0.025607         141.969
0.628                   -3.44664         148.775           -44.54         67.2991           -44.54         67.2986       -0.0258894         141.885
0.629                   -3.62388         147.375         -44.3734         65.5496         -44.3734          65.549       -0.0261769         141.802
