! TOUCHSTONE file generated by CST MICROWAVE STUDIO
! Date and time: Sat Oct 24 10:46:10 2020
! Project name: Scenario_1_Planar_Body_Tissue_Center.cst
! Parameters = {hfat=3; hmuscle=50; hskin=1.5; hgap=25; Wtissue=700; Ltissue=700; L_HA=400; MT=2.54; Rad_Dielectric=30; Rad_Lower=7.3; Rad_Upper=30; a_HA=580; a_WG=246; b_HA=500; b_WG=121; c_HA=0; c_WG=187; d_feed=85; dx1=571.36; h_feed=15; h_lower=18; h_upper=40}
! Header version: 2018
! Port assignment regex: !\s*Touchstone port\s*([0-9]+)\s*=\s*(CST MWS port|CST DS port)\s*([0-9]+|Zmin|Zmax)\s*\(\"(.*)\"\)(\s*mode\s*([0-9]+))?.*
! Touchstone port assignment:
! Touchstone port 1 = CST MWS port 1 ("")
! Touchstone port 2 = CST MWS port 2 ("")
# GHz S DB R 50
0.5                    -0.102603        -122.364         -60.5213         -72.187          -60.521        -72.1861      -0.00741717         151.137
0.501                   -0.10888        -122.836         -60.2282        -73.4036         -60.2273        -73.4015      -0.00747633         151.072
0.502                  -0.115741        -123.313         -59.9291        -74.6777         -59.9278        -74.6748      -0.00753806         151.006
0.503                  -0.123253        -123.794         -59.6243        -76.0134         -59.6226        -76.0098      -0.00760248         150.941
0.504                  -0.131484        -124.279         -59.3137        -77.4147         -59.3116        -77.4105      -0.00766968         150.875
0.505                  -0.140512        -124.769         -58.9977        -78.8858         -58.9952        -78.8812      -0.00773975         150.809
0.506                  -0.150421        -125.264         -58.6763        -80.4314         -58.6735        -80.4266      -0.00781277         150.744
0.507                  -0.161305        -125.762         -58.3501        -82.0563          -58.347        -82.0516       -0.0078888         150.678
0.508                  -0.173261        -126.265         -58.0192        -83.7656         -58.0159        -83.7611      -0.00796789         150.612
0.509                  -0.186397        -126.771         -57.6843        -85.5647         -57.6808        -85.5605      -0.00805006         150.546
0.51                   -0.200825         -127.28         -57.3459         -87.459         -57.3422        -87.4553      -0.00813533          150.48
0.511                  -0.216663        -127.791         -57.0047         -89.454          -57.001         -89.451      -0.00822367         150.414
0.512                  -0.234031        -128.305         -56.6617        -91.5555         -56.6579        -91.5532      -0.00831503         150.348
0.513                  -0.253047        -128.819         -56.3177        -93.7688          -56.314        -93.7673      -0.00840934         150.282
0.514                  -0.273827        -129.333         -55.9741        -96.0993         -55.9705        -96.0986      -0.00850651         150.215
0.515                  -0.296471        -129.845         -55.6322        -98.5516         -55.6288        -98.5519       -0.0086064         150.149
0.516                  -0.321064        -130.354         -55.2935         -101.13         -55.2905        -101.131      -0.00870885         150.082
0.517                  -0.347657        -130.858           -54.96        -103.838         -54.9573        -103.839      -0.00881368         150.016
0.518                  -0.376264        -131.354         -54.6334        -106.676         -54.6313        -106.678      -0.00892067         149.949
0.519                  -0.406841        -131.841         -54.3161        -109.645         -54.3145        -109.647       -0.0090296         149.883
0.52                   -0.439273        -132.315         -54.0102        -112.744         -54.0093        -112.745      -0.00914021         149.816
0.521                  -0.473363        -132.774         -53.7181        -115.967         -53.7181        -115.968      -0.00925224         149.749
0.522                  -0.508816        -133.216         -53.4424        -119.309         -53.4432        -119.307      -0.00936542         149.682
0.523                  -0.545231        -133.638         -53.1853        -122.758          -53.187        -122.755      -0.00947947         149.615
0.524                    -0.5821        -134.037          -52.949        -126.304         -52.9516        -126.296      -0.00959412         149.548
0.525                  -0.618816        -134.413         -52.7355        -129.928         -52.7391        -129.917       -0.0097091         149.481
0.526                  -0.654694        -134.765         -52.5464        -133.615         -52.5509        -133.599      -0.00982416         149.414
0.527                  -0.689004        -135.092         -52.3827        -137.343         -52.3882        -137.321      -0.00993906         149.347
0.528                   -0.72101        -135.398         -52.2452        -141.092         -52.2515        -141.063       -0.0100536         149.279
0.529                  -0.750023        -135.684         -52.1337        -144.839         -52.1408        -144.802       -0.0101675         149.212
0.53                   -0.775448        -135.954         -52.0477        -148.563         -52.0556        -148.519       -0.0102807         149.144
0.531                   -0.79683        -136.212         -51.9863        -152.244         -51.9947        -152.191       -0.0103931         149.077
0.532                  -0.813883        -136.464         -51.9478        -155.864         -51.9567        -155.802       -0.0105044         149.009
0.533                  -0.826504        -136.715         -51.9303        -159.406         -51.9395        -159.335       -0.0106147         148.942
0.534                  -0.834769         -136.97         -51.9316        -162.858         -51.9411        -162.778       -0.0107238         148.874
0.535                  -0.838912        -137.234         -51.9494         -166.21          -51.959        -166.121       -0.0108318         148.806
0.536                  -0.839294        -137.511         -51.9812        -169.454         -51.9909        -169.357       -0.0109385         148.738
0.537                  -0.836365        -137.805         -52.0246        -172.586         -52.0343        -172.481       -0.0110442          148.67
0.538                  -0.830623        -138.116         -52.0773        -175.604         -52.0869        -175.491       -0.0111487         148.601
0.539                  -0.822584        -138.448         -52.1372        -178.507         -52.1466        -178.388       -0.0112522         148.533
0.54                   -0.812751        -138.801         -52.2021         178.701         -52.2114         178.827       -0.0113547         148.465
0.541                  -0.801594        -139.176         -52.2704          176.02         -52.2795         176.152       -0.0114563         148.396
0.542                  -0.789537        -139.572         -52.3403         173.443         -52.3492          173.58        -0.011557         148.328
0.543                  -0.776952        -139.988         -52.4104         170.967         -52.4191         171.109       -0.0116571         148.259
0.544                  -0.764156        -140.424         -52.4795         168.586          -52.488         168.733       -0.0117565          148.19
0.545                  -0.751413        -140.879         -52.5465         166.295         -52.5548         166.445       -0.0118555         148.121
0.546                  -0.738938        -141.352         -52.6104         164.088         -52.6186         164.241        -0.011954         148.052
0.547                  -0.726904        -141.842         -52.6705         161.959         -52.6786         162.114       -0.0120523         147.983
0.548                  -0.715446        -142.347         -52.7261         159.902         -52.7341         160.059       -0.0121505         147.914
0.549                  -0.704667        -142.868         -52.7767         157.913         -52.7846         158.071       -0.0122486         147.844
0.55                   -0.694646        -143.402         -52.8217         155.985         -52.8296         156.144       -0.0123468         147.775
0.551                  -0.685439        -143.949         -52.8606         154.114         -52.8686         154.273       -0.0124452         147.705
0.552                  -0.677085        -144.508         -52.8933         152.295         -52.9013         152.454       -0.0125439         147.635
0.553                  -0.669612        -145.079         -52.9192         150.524         -52.9274         150.681        -0.012643         147.565
0.554                  -0.663036        -145.661         -52.9382         148.795         -52.9466          148.95       -0.0127426         147.495
0.555                  -0.657369        -146.253         -52.9499         147.106         -52.9585         147.257       -0.0128428         147.425
0.556                  -0.652613        -146.855          -52.954         145.453         -52.9629         145.599       -0.0129437         147.355
0.557                   -0.64877        -147.467         -52.9503         143.832         -52.9594         143.972       -0.0130454         147.284
0.558                   -0.64584        -148.088         -52.9384         142.241         -52.9478         142.374       -0.0131479         147.214
0.559                  -0.643821        -148.719          -52.918         140.677         -52.9275           140.8       -0.0132514         147.143
0.56                   -0.642709        -149.358         -52.8887         139.138         -52.8982          139.25       -0.0133559         147.072
0.561                  -0.642505        -150.006         -52.8499         137.624         -52.8593         137.723       -0.0134615         147.001
0.562                  -0.643207        -150.663         -52.8012         136.134         -52.8101         136.217       -0.0135683          146.93
0.563                  -0.644818        -151.328          -52.742         134.671         -52.7499         134.735       -0.0136763         146.859
0.564                   -0.64734        -152.001         -52.6717         133.236          -52.678          133.28       -0.0137856         146.788
0.565                  -0.650779        -152.684         -52.5895         131.835         -52.5933         131.857       -0.0138963         146.716
0.566                  -0.655144        -153.374         -52.4951         130.477         -52.4951         130.477       -0.0140084         146.645
0.567                  -0.660444        -154.073         -52.3883         129.173          -52.383         129.155        -0.014122         146.573
0.568                  -0.666693        -154.781         -52.2693          127.94         -52.2571         127.909       -0.0142371         146.501
0.569                  -0.673909        -155.498         -52.1394         126.794         -52.1187         126.764       -0.0143539         146.429
0.57                   -0.682111        -156.223         -52.0014         125.757         -51.9712         125.748       -0.0144722         146.357
0.571                  -0.691321        -156.957         -51.8596         124.843           -51.82         124.881       -0.0145923         146.285
0.572                  -0.701567          -157.7         -51.7198         124.058         -51.6733         124.171       -0.0147141         146.212
0.573                  -0.712879        -158.452          -51.589         123.391         -51.5402         123.599       -0.0148377         146.139
0.574                  -0.725291        -159.214         -51.4735         122.809         -51.4283         123.116       -0.0149631         146.067
0.575                   -0.73884        -159.985         -51.3769         122.261         -51.3412         122.652       -0.0150904         145.994
0.576                   -0.75357        -160.765         -51.2994         121.691         -51.2772         122.134       -0.0152196         145.921
0.577                  -0.769526        -161.555         -51.2374         121.049         -51.2298         121.507       -0.0153508         145.848
0.578                  -0.786759        -162.356         -51.1853         120.305         -51.1909         120.743        -0.015484         145.774
0.579                  -0.805327        -163.166         -51.1367         119.446         -51.1527         119.843       -0.0156192         145.701
0.58                   -0.825289        -163.986         -51.0864         118.476         -51.1094         118.821       -0.0157565         145.627
0.581                  -0.846713        -164.818         -51.0303         117.409         -51.0575           117.7        -0.015896         145.553
0.582                   -0.86967        -165.659          -50.966         116.261         -50.9949         116.501       -0.0160376         145.479
0.583                   -0.89424        -166.512         -50.8923         115.048         -50.9213         115.243       -0.0161815         145.405
0.584                  -0.920507        -167.376         -50.8087         113.785         -50.8368         113.942       -0.0163276         145.331
0.585                  -0.948564        -168.251         -50.7154         112.483         -50.7419         112.609        -0.016476         145.256
0.586                  -0.978508        -169.137         -50.6128          111.15         -50.6373         111.251       -0.0166268         145.181
0.587                   -1.01045        -170.035         -50.5015         109.792         -50.5239         109.873       -0.0167799         145.107
0.588                    -1.0445        -170.945          -50.382         108.415         -50.4023         108.479       -0.0169355         145.032
0.589                   -1.08079        -171.867         -50.2549         107.019         -50.2732         107.071       -0.0170935         144.957
0.59                    -1.11944          -172.8         -50.1208         105.608         -50.1372         105.649        -0.017254         144.881
0.591                   -1.16061        -173.746         -49.9802         104.181         -49.9948         104.215       -0.0174171         144.806
0.592                   -1.20444        -174.703         -49.8335          102.74         -49.8465         102.767       -0.0175828          144.73
0.593                   -1.25111        -175.673         -49.6811         101.283         -49.6926         101.305       -0.0177511         144.654
0.594                   -1.30079        -176.655         -49.5235         99.8099         -49.5337          99.828       -0.0179221         144.578
0.595                   -1.35367        -177.649         -49.3609         98.3206         -49.3699         98.3356       -0.0180959         144.502
0.596                   -1.40996        -178.655         -49.1937         96.8139         -49.2016         96.8264       -0.0182724         144.425
0.597                   -1.46988        -179.673         -49.0222         95.2887          -49.029         95.2991       -0.0184518         144.349
0.598                   -1.53365         179.298         -48.8466         93.7438         -48.8525         93.7526       -0.0186341         144.272
0.599                   -1.60152         178.258         -48.6671          92.178         -48.6723         92.1856       -0.0188193         144.195
0.6                     -1.67377         177.207         -48.4841         90.5902         -48.4886         90.5967       -0.0190075         144.118
0.601                   -1.75068         176.146         -48.2978          88.979         -48.3016         88.9847       -0.0191987          144.04
0.602                   -1.83253         175.077         -48.1084         87.3432         -48.1116         87.3481       -0.0193931         143.963
0.603                   -1.91965         173.999         -47.9161         85.6815         -47.9189         85.6858       -0.0195907         143.885
0.604                   -2.01237         172.914         -47.7213         83.9926         -47.7236         83.9964       -0.0197914         143.807
0.605                   -2.11105         171.823         -47.5242         82.2753         -47.5261         82.2785       -0.0199955         143.729
0.606                   -2.21603         170.729          -47.325         80.5283         -47.3266         80.5311        -0.020203         143.651
0.607                   -2.32772         169.632          -47.124         78.7504         -47.1253         78.7528       -0.0204138         143.572
0.608                    -2.4465         168.535         -46.9216         76.9404         -46.9226         76.9426       -0.0206282         143.493
0.609                   -2.57277         167.441          -46.718         75.0974         -46.7187         75.0992       -0.0208462         143.414
0.61                    -2.70695         166.353         -46.5135         73.2202         -46.5141         73.2217       -0.0210679         143.335
0.611                   -2.84946         165.273         -46.3085          71.308         -46.3089         71.3092       -0.0212933         143.256
0.612                    -3.0007         164.207         -46.1033         69.3598         -46.1036         69.3608       -0.0215225         143.176
0.613                   -3.16109         163.159         -45.8984         67.3751         -45.8984         67.3758       -0.0217557         143.096
0.614                   -3.33099         162.133         -45.6939         65.3532         -45.6939         65.3537       -0.0219928         143.016
0.615                   -3.51076         161.136         -45.4905         63.2938         -45.4904         63.2941       -0.0222341         142.936
0.616                    -3.7007         160.175         -45.2884         61.1967         -45.2883         61.1967       -0.0224797         142.855
0.617                   -3.90104         159.257         -45.0882         59.0618          -45.088         59.0616       -0.0227295         142.774
0.618                   -4.11195         158.389         -44.8902         56.8893         -44.8899         56.8889       -0.0229838         142.693
0.619                   -4.33343         157.583         -44.6949         54.6797         -44.6946         54.6791       -0.0232427         142.612
0.62                     -4.5654         156.846         -44.5028         52.4337         -44.5024          52.433       -0.0235062          142.53
0.621                   -4.80754         156.192         -44.3142         50.1523         -44.3139         50.1515       -0.0237745         142.449
0.622                   -5.05934         155.631         -44.1297         47.8367         -44.1293         47.8359       -0.0240478         142.367
0.623                   -5.31998         155.177         -43.9496         45.4886         -43.9493         45.4877        -0.024326         142.284
0.624                   -5.58835         154.842         -43.7745         43.1098         -43.7742         43.1088       -0.0246094         142.202
0.625                    -5.8629         154.641         -43.6047         40.7025         -43.6044         40.7015       -0.0248981         142.119
0.626                   -6.14168         154.586         -43.4405         38.2691         -43.4403         38.2681       -0.0251921         142.036
0.627                    -6.4222          154.69         -43.2824         35.8123         -43.2822         35.8113       -0.0254916         141.953
0.628                   -6.70147         154.964         -43.1306         33.3352         -43.1304         33.3343       -0.0257966         141.869
0.629                   -6.97591         155.417         -42.9854          30.841         -42.9852         30.8402       -0.0261072         141.785
