! TOUCHSTONE file generated by CST MICROWAVE STUDIO
! Date and time: Sat Oct 24 10:46:32 2020
! Project name: Scenario_1_Planar_Body_Tissue_Center.cst
! Parameters = {hfat=3; hmuscle=50; hskin=1.5; hgap=25; Wtissue=700; Ltissue=700; L_HA=400; MT=2.54; Rad_Dielectric=30; Rad_Lower=7.3; Rad_Upper=30; a_HA=580; a_WG=246; b_HA=500; b_WG=121; c_HA=0; c_WG=187; d_feed=85; dx1=623.32; h_feed=15; h_lower=18; h_upper=40}
! Header version: 2018
! Port assignment regex: !\s*Touchstone port\s*([0-9]+)\s*=\s*(CST MWS port|CST DS port)\s*([0-9]+|Zmin|Zmax)\s*\(\"(.*)\"\)(\s*mode\s*([0-9]+))?.*
! Touchstone port assignment:
! Touchstone port 1 = CST MWS port 1 ("")
! Touchstone port 2 = CST MWS port 2 ("")
# GHz S DB R 50
0.5                    -0.201651        -122.464         -59.1119         -109.41         -59.1125        -109.409      -0.00767041         151.138
0.501                  -0.206833        -122.844         -59.0042        -110.753         -59.0047        -110.754      -0.00775522         151.073
0.502                  -0.211956        -123.227         -58.8939        -112.125         -58.8942        -112.129      -0.00783993         151.007
0.503                  -0.217023        -123.612         -58.7808        -113.529         -58.7811        -113.535      -0.00792454         150.942
0.504                  -0.222034        -123.999         -58.6651        -114.966         -58.6652        -114.973      -0.00800906         150.877
0.505                  -0.226991        -124.389         -58.5466        -116.436         -58.5466        -116.445      -0.00809351         150.811
0.506                  -0.231895        -124.781         -58.4254         -117.94         -58.4253        -117.952      -0.00817788         150.746
0.507                  -0.236748        -125.176         -58.3015        -119.481         -58.3013        -119.496      -0.00826218          150.68
0.508                  -0.241551        -125.573          -58.175         -121.06         -58.1747        -121.077      -0.00834644         150.614
0.509                  -0.246307        -125.973         -58.0458        -122.678         -58.0454        -122.697      -0.00843065         150.549
0.51                   -0.251017        -126.376         -57.9142        -124.336         -57.9137        -124.358      -0.00851482         150.483
0.511                  -0.255683        -126.781           -57.78        -126.037         -57.7795         -126.06      -0.00859897         150.417
0.512                  -0.260307         -127.19         -57.6436        -127.781          -57.643        -127.807      -0.00868311         150.351
0.513                  -0.264891        -127.601          -57.505         -129.57         -57.5043        -129.599      -0.00876724         150.285
0.514                  -0.269438        -128.015         -57.3643        -131.407         -57.3636        -131.438      -0.00885138         150.219
0.515                   -0.27395        -128.432         -57.2219        -133.292         -57.2212        -133.326      -0.00893555         150.152
0.516                  -0.278429        -128.852         -57.0779        -135.227         -57.0773        -135.264      -0.00901975         150.086
0.517                  -0.282879        -129.275         -56.9327        -137.215         -56.9321        -137.254      -0.00910399         150.019
0.518                  -0.287301        -129.701         -56.7866        -139.255          -56.786        -139.297       -0.0091883         149.953
0.519                    -0.2917        -130.131         -56.6399         -141.35         -56.6394        -141.394      -0.00927268         149.886
0.52                   -0.296079        -130.563         -56.4932        -143.501         -56.4928        -143.547      -0.00935714          149.82
0.521                   -0.30044            -131         -56.3468        -145.708         -56.3466        -145.757      -0.00944171         149.753
0.522                  -0.304788        -131.439         -56.2014        -147.973         -56.2014        -148.025       -0.0095264         149.686
0.523                  -0.309127        -131.883         -56.0575        -150.296         -56.0577         -150.35      -0.00961122         149.619
0.524                   -0.31346        -132.329         -55.9158        -152.677         -55.9162        -152.733      -0.00969619         149.552
0.525                  -0.317792         -132.78          -55.777        -155.116         -55.7777        -155.173      -0.00978132         149.485
0.526                  -0.322127        -133.234         -55.6417        -157.611         -55.6428         -157.67      -0.00986664         149.418
0.527                  -0.326471        -133.692         -55.5109        -160.161         -55.5123        -160.222      -0.00995216          149.35
0.528                  -0.330829        -134.154         -55.3853        -162.764          -55.387        -162.825       -0.0100379         149.283
0.529                  -0.335206         -134.62         -55.2656        -165.416         -55.2677        -165.478       -0.0101239         149.216
0.53                   -0.339608        -135.091         -55.1528        -168.114         -55.1553        -168.176       -0.0102101         149.148
0.531                  -0.344041        -135.565         -55.0476        -170.853         -55.0504        -170.915       -0.0102966          149.08
0.532                  -0.348513        -136.044         -54.9506        -173.627         -54.9539        -173.689       -0.0103835         149.012
0.533                  -0.353029        -136.527         -54.8626         -176.43         -54.8663        -176.491       -0.0104706         148.945
0.534                  -0.357598        -137.015         -54.7842        -179.255         -54.7883        -179.314       -0.0105581         148.877
0.535                  -0.362228        -137.507         -54.7157         177.907         -54.7202         177.849       -0.0106459         148.809
0.536                  -0.366928        -138.004         -54.6576         175.063         -54.6623         175.007       -0.0107341          148.74
0.537                  -0.371706        -138.506         -54.6098         172.222         -54.6149         172.169       -0.0108228         148.672
0.538                  -0.376572        -139.013         -54.5726         169.395         -54.5779         169.345       -0.0109119         148.604
0.539                  -0.381538        -139.525         -54.5455          166.59         -54.5511         166.542       -0.0110014         148.535
0.54                   -0.386613        -140.042         -54.5284         163.816         -54.5341         163.772       -0.0110915         148.467
0.541                   -0.39181        -140.565         -54.5206         161.082         -54.5263         161.042        -0.011182         148.398
0.542                  -0.397142        -141.093         -54.5214         158.397         -54.5272         158.361       -0.0112731         148.329
0.543                  -0.402622        -141.627         -54.5301         155.769         -54.5358         155.736       -0.0113648          148.26
0.544                  -0.408265        -142.166         -54.5456         153.203         -54.5512         153.174       -0.0114571         148.191
0.545                  -0.414086        -142.712         -54.5668         150.707         -54.5722         150.682         -0.01155         148.122
0.546                  -0.420103        -143.263         -54.5926         148.285         -54.5978         148.263       -0.0116436         148.053
0.547                  -0.426333        -143.821         -54.6218         145.941         -54.6267         145.923       -0.0117379         147.983
0.548                  -0.432796        -144.385         -54.6531         143.678         -54.6577         143.663       -0.0118329         147.914
0.549                  -0.439512        -144.956         -54.6853         141.499         -54.6895         141.486       -0.0119287         147.844
0.55                   -0.446503        -145.534         -54.7172         139.403          -54.721         139.393       -0.0120252         147.774
0.551                  -0.453794        -146.118         -54.7474         137.391         -54.7508         137.384       -0.0121227         147.705
0.552                   -0.46141         -146.71         -54.7749         135.463         -54.7778         135.457        -0.012221         147.635
0.553                  -0.469379        -147.309         -54.7986         133.616          -54.801         133.612       -0.0123202         147.565
0.554                  -0.477731        -147.916         -54.8173         131.848         -54.8192         131.845       -0.0124204         147.494
0.555                  -0.486497         -148.53         -54.8301         130.156         -54.8316         130.155       -0.0125215         147.424
0.556                  -0.495713        -149.153         -54.8361         128.538         -54.8371         128.537       -0.0126237         147.354
0.557                  -0.505415        -149.783         -54.8345         126.988         -54.8351         126.988        -0.012727         147.283
0.558                  -0.515644        -150.422         -54.8246         125.503         -54.8248         125.503       -0.0128315         147.212
0.559                  -0.526443         -151.07         -54.8056         124.077         -54.8054         124.077       -0.0129371         147.141
0.56                    -0.53786        -151.726         -54.7771         122.707         -54.7766         122.707       -0.0130439          147.07
0.561                  -0.549946        -152.392         -54.7386         121.387         -54.7377         121.386        -0.013152         146.999
0.562                  -0.562754        -153.067         -54.6896         120.112         -54.6884          120.11       -0.0132614         146.928
0.563                  -0.576346        -153.752         -54.6299         118.876         -54.6283         118.874       -0.0133723         146.857
0.564                  -0.590785        -154.446         -54.5591         117.674         -54.5573         117.671       -0.0134845         146.785
0.565                  -0.606141        -155.151         -54.4771         116.501         -54.4751         116.497       -0.0135982         146.714
0.566                  -0.622491        -155.866         -54.3838         115.352         -54.3816         115.347       -0.0137135         146.642
0.567                  -0.639915        -156.592         -54.2791         114.221         -54.2768         114.215       -0.0138304          146.57
0.568                  -0.658505        -157.329         -54.1631         113.103         -54.1607         113.096        -0.013949         146.498
0.569                  -0.678355        -158.077         -54.0357         111.993         -54.0332         111.985       -0.0140693         146.426
0.57                   -0.699571        -158.836         -53.8972         110.886         -53.8947         110.877       -0.0141914         146.353
0.571                  -0.722268        -159.607         -53.7477         109.778         -53.7451         109.768       -0.0143153         146.281
0.572                  -0.746568         -160.39         -53.5873         108.663         -53.5847         108.652       -0.0144412         146.208
0.573                  -0.772607        -161.185         -53.4163         107.538         -53.4138         107.526       -0.0145691         146.135
0.574                  -0.800531        -161.993          -53.235         106.398         -53.2326         106.386        -0.014699         146.062
0.575                  -0.830498        -162.813         -53.0437         105.239         -53.0413         105.226       -0.0148311         145.989
0.576                  -0.862679        -163.645         -52.8427         104.057         -52.8404         104.044       -0.0149655         145.916
0.577                  -0.897262         -164.49         -52.6323         102.849         -52.6301         102.834       -0.0151021         145.843
0.578                  -0.934448        -165.348          -52.413         101.609         -52.4108         101.595       -0.0152411         145.769
0.579                  -0.974457        -166.219          -52.185         100.336          -52.183         100.321       -0.0153825         145.695
0.58                    -1.01752        -167.101         -51.9488         99.0258          -51.947         99.0109       -0.0155265         145.621
0.581                    -1.0639        -167.996         -51.7049         97.6748         -51.7032         97.6598       -0.0156731         145.547
0.582                   -1.11387        -168.903         -51.4537           96.28         -51.4521         96.2651       -0.0158225         145.473
0.583                   -1.16772        -169.821         -51.1956         94.8384         -51.1941         94.8237       -0.0159746         145.399
0.584                   -1.22577         -170.75         -50.9311          93.347         -50.9298         93.3326       -0.0161296         145.324
0.585                   -1.28836        -171.688         -50.6608         91.8031         -50.6596          91.789       -0.0162875          145.25
0.586                   -1.35584        -172.635         -50.3851         90.2037         -50.3841         90.1901       -0.0164486         145.175
0.587                   -1.42859        -173.589         -50.1047         88.5463         -50.1038         88.5332       -0.0166127           145.1
0.588                   -1.50701        -174.548           -49.82         86.8283         -49.8192         86.8158       -0.0167801         145.024
0.589                   -1.59151         -175.51         -49.5317         85.0472         -49.5311         85.0353       -0.0169508         144.949
0.59                     -1.6825        -176.472         -49.2405         83.2007         -49.2399         83.1896        -0.017125         144.874
0.591                   -1.78042        -177.432         -48.9469         81.2866         -48.9465         81.2763       -0.0173026         144.798
0.592                    -1.8857        -178.386         -48.6518          79.303         -48.6515         79.2935       -0.0174838         144.722
0.593                   -1.99873        -179.329         -48.3559         77.2481         -48.3557         77.2395       -0.0176687         144.646
0.594                   -2.11991         179.744           -48.06         75.1204         -48.0599         75.1127       -0.0178573          144.57
0.595                   -2.24958         178.838          -47.765         72.9187         -47.7649          72.912       -0.0180497         144.493
0.596                   -2.38801          177.96         -47.4716         70.6423         -47.4716         70.6365        -0.018246         144.416
0.597                   -2.53538         177.118         -47.1809         68.2907         -47.1809         68.2858       -0.0184463          144.34
0.598                   -2.69175          176.32         -46.8938         65.8642         -46.8939         65.8602       -0.0186507         144.263
0.599                   -2.85702         175.575         -46.6113         63.3633         -46.6114         63.3603       -0.0188591         144.185
0.6                     -3.03088         174.894         -46.3344         60.7895         -46.3344         60.7874       -0.0190717         144.108
0.601                   -3.21278         174.286         -46.0641         58.1448         -46.0641         58.1436       -0.0192884          144.03
0.602                   -3.40189         173.764         -45.8014          55.432         -45.8014         55.4315       -0.0195094         143.953
0.603                     -3.597         173.339         -45.5473         52.6545         -45.5473         52.6548       -0.0197346         143.875
0.604                   -3.79655         173.022         -45.3028         49.8168         -45.3028         49.8178       -0.0199642         143.797
0.605                   -3.99854         172.822         -45.0687          46.924         -45.0687         46.9256        -0.020198         143.718
0.606                   -4.20055         172.749         -44.8459         43.9819         -44.8458         43.9841       -0.0204362          143.64
0.607                   -4.39972          172.81         -44.6351         40.9973          -44.635              41       -0.0206786         143.561
0.608                   -4.59286         173.006         -44.4369         37.9772         -44.4367         37.9803       -0.0209253         143.482
0.609                   -4.77647         173.337         -44.2517         34.9295         -44.2514         34.9329       -0.0211764         143.403
0.61                    -4.94693         173.798         -44.0799          31.862         -44.0795         31.8657       -0.0214316         143.323
0.611                   -5.10067         174.378         -43.9215         28.7832         -43.9211          28.787        -0.021691         143.244
0.612                    -5.2344         175.059         -43.7767         25.7012         -43.7763         25.7051       -0.0219546         143.164
0.613                    -5.3453         175.822         -43.6452         22.6243         -43.6447         22.6281       -0.0222223         143.084
0.614                   -5.43129          176.64         -43.5268         19.5601         -43.5262         19.5639        -0.022494         143.004
0.615                   -5.49113         177.486         -43.4209         16.5162         -43.4203         16.5199       -0.0227696         142.923
0.616                   -5.52454          178.33         -43.3271         13.4992         -43.3265         13.5028       -0.0230491         142.843
0.617                   -5.53217         179.146         -43.2445         10.5154         -43.2439         10.5188       -0.0233324         142.762
0.618                   -5.51554         179.906         -43.1726         7.57016          -43.172         7.57328       -0.0236193         142.681
0.619                   -5.47684        -179.412         -43.1104         4.66796         -43.1098         4.67084       -0.0239099         142.599
0.62                    -5.41875        -178.825         -43.0571         1.81262         -43.0565         1.81524       -0.0242039         142.518
0.621                   -5.34424        -178.346         -43.0118       -0.992875         -43.0112       -0.990519       -0.0245014         142.436
0.622                   -5.25637        -177.985         -42.9736        -3.74631          -42.973        -3.74422       -0.0248022         142.354
0.623                    -5.1581        -177.744         -42.9416        -6.44619          -42.941        -6.44436       -0.0251062         142.272
0.624                   -5.05222        -177.626         -42.9149        -9.09167         -42.9143        -9.09009       -0.0254134         142.189
0.625                   -4.94124        -177.628         -42.8928        -11.6825         -42.8922        -11.6812       -0.0257237         142.107
0.626                   -4.82736        -177.747         -42.8743         -14.219         -42.8738        -14.2178       -0.0260371         142.023
0.627                   -4.71246        -177.976         -42.8589        -16.7018         -42.8584        -16.7008       -0.0263534          141.94
0.628                    -4.5981         -178.31         -42.8457         -19.132         -42.8452        -19.1313       -0.0266727         141.857
0.629                   -4.48555        -178.742         -42.8342        -21.5111         -42.8338        -21.5106       -0.0269949         141.773
