! TOUCHSTONE file generated by CST MICROWAVE STUDIO
! Date and time: Sat Oct 24 10:46:38 2020
! Project name: Scenario_1_Planar_Body_Tissue_Center.cst
! Parameters = {hfat=3; hmuscle=50; hskin=1.5; hgap=25; Wtissue=700; Ltissue=700; L_HA=400; MT=2.54; Rad_Dielectric=30; Rad_Lower=7.3; Rad_Upper=30; a_HA=580; a_WG=246; b_HA=500; b_WG=121; c_HA=0; c_WG=187; d_feed=85; dx1=640.64; h_feed=15; h_lower=18; h_upper=40}
! Header version: 2018
! Port assignment regex: !\s*Touchstone port\s*([0-9]+)\s*=\s*(CST MWS port|CST DS port)\s*([0-9]+|Zmin|Zmax)\s*\(\"(.*)\"\)(\s*mode\s*([0-9]+))?.*
! Touchstone port assignment:
! Touchstone port 1 = CST MWS port 1 ("")
! Touchstone port 2 = CST MWS port 2 ("")
# GHz S DB R 50
0.5                    -0.235016        -122.261         -59.0223        -125.163         -59.0227        -125.161      -0.00773389         151.137
0.501                  -0.248774        -122.669         -58.8023        -128.002         -58.8026            -128      -0.00782197         151.071
0.502                  -0.262597        -123.071          -58.592        -130.885         -58.5923        -130.883       -0.0079098         151.006
0.503                  -0.276307        -123.468         -58.3923        -133.807         -58.3925        -133.806      -0.00799726         150.941
0.504                  -0.289718        -123.858          -58.204        -136.763         -58.2042        -136.762      -0.00808423         150.875
0.505                  -0.302647        -124.243          -58.028        -139.746         -58.0281        -139.744       -0.0081706          150.81
0.506                  -0.314921        -124.623         -57.8648        -142.748         -57.8648        -142.747      -0.00825631         150.745
0.507                  -0.326382        -124.999         -57.7149        -145.762         -57.7149         -145.76      -0.00834127         150.679
0.508                  -0.336899        -125.372         -57.5786        -148.778         -57.5786        -148.777      -0.00842543         150.613
0.509                  -0.346372        -125.743         -57.4562        -151.789         -57.4562        -151.788      -0.00850878         150.548
0.51                   -0.354734        -126.113         -57.3475        -154.785         -57.3475        -154.784      -0.00859128         150.482
0.511                  -0.361952        -126.484         -57.2524        -157.757         -57.2524        -157.756      -0.00867294         150.416
0.512                  -0.368027        -126.856         -57.1705        -160.697         -57.1704        -160.697      -0.00875378          150.35
0.513                   -0.37299        -127.231         -57.1012        -163.598         -57.1011        -163.597      -0.00883382         150.284
0.514                  -0.376898         -127.61         -57.0438         -166.45         -57.0437         -166.45       -0.0089131         150.218
0.515                  -0.379828        -127.993         -56.9975        -169.249         -56.9974        -169.249      -0.00899167         150.152
0.516                  -0.381872        -128.383         -56.9614        -171.988         -56.9613        -171.988      -0.00906961         150.085
0.517                   -0.38313        -128.778         -56.9345        -174.663         -56.9344        -174.663      -0.00914696         150.019
0.518                  -0.383709         -129.18         -56.9157        -177.269         -56.9156        -177.269      -0.00922382         149.953
0.519                  -0.383715        -129.589         -56.9039        -179.804         -56.9039        -179.804      -0.00930025         149.886
0.52                   -0.383251        -130.005         -56.8982         177.734         -56.8981         177.734      -0.00937635         149.819
0.521                  -0.382417        -130.429         -56.8974         175.346         -56.8973         175.346      -0.00945219         149.753
0.522                  -0.381304        -130.861         -56.9006         173.033         -56.9005         173.033      -0.00952787         149.686
0.523                  -0.379997          -131.3         -56.9066         170.794         -56.9065         170.794      -0.00960346         149.619
0.524                  -0.378572        -131.746         -56.9147         168.628         -56.9146         168.628      -0.00967906         149.552
0.525                  -0.377099        -132.201         -56.9239         166.535         -56.9238         166.535      -0.00975475         149.485
0.526                  -0.375638        -132.662         -56.9334         164.512         -56.9333         164.512      -0.00983061         149.418
0.527                  -0.374244        -133.131         -56.9425         162.557         -56.9424         162.557      -0.00990671          149.35
0.528                  -0.372964        -133.607         -56.9505         160.668         -56.9504         160.668      -0.00998314         149.283
0.529                  -0.371839         -134.09         -56.9568         158.841         -56.9567         158.842         -0.01006         149.216
0.53                   -0.370907        -134.581         -56.9608         157.075         -56.9607         157.076       -0.0101373         149.148
0.531                  -0.370199        -135.078          -56.962         155.367         -56.9619         155.367       -0.0102151          149.08
0.532                  -0.369743        -135.581           -56.96         153.712         -56.9599         153.713       -0.0102935         149.013
0.533                  -0.369566        -136.092         -56.9544         152.109         -56.9542          152.11       -0.0103726         148.945
0.534                   -0.36969        -136.609         -56.9447         150.555         -56.9446         150.555       -0.0104524         148.877
0.535                  -0.370135        -137.133         -56.9308         149.046         -56.9306         149.046        -0.010533         148.809
0.536                  -0.370921        -137.663         -56.9123         147.579         -56.9121         147.579       -0.0106144          148.74
0.537                  -0.372066          -138.2          -56.889         146.152         -56.8888         146.152       -0.0106966         148.672
0.538                  -0.373587        -138.743         -56.8607         144.762         -56.8605         144.762       -0.0107798         148.604
0.539                    -0.3755        -139.293         -56.8271         143.405          -56.827         143.406       -0.0108639         148.535
0.54                   -0.377823         -139.85         -56.7883          142.08         -56.7881         142.081        -0.010949         148.467
0.541                  -0.380573        -140.412          -56.744         140.784         -56.7438         140.784       -0.0110351         148.398
0.542                  -0.383766        -140.982         -56.6941         139.514         -56.6939         139.514       -0.0111223         148.329
0.543                   -0.38742        -141.558         -56.6385         138.268         -56.6384         138.268       -0.0112105          148.26
0.544                  -0.391554         -142.14         -56.5772         137.043          -56.577         137.043       -0.0112999         148.191
0.545                  -0.396189         -142.73         -56.5101         135.837         -56.5099         135.837       -0.0113904         148.122
0.546                  -0.401344        -143.326         -56.4372         134.648          -56.437         134.648       -0.0114822         148.053
0.547                  -0.407043        -143.929         -56.3583         133.474         -56.3581         133.474       -0.0115751         147.983
0.548                  -0.413309        -144.539         -56.2736         132.312         -56.2734         132.312       -0.0116692         147.914
0.549                  -0.420168        -145.157         -56.1829         131.161         -56.1827         131.161       -0.0117646         147.844
0.55                   -0.427649        -145.781         -56.0863         130.019         -56.0861         130.019       -0.0118613         147.774
0.551                  -0.435782        -146.413         -55.9837         128.883         -55.9835         128.883       -0.0119593         147.705
0.552                  -0.444598        -147.052         -55.8752         127.752          -55.875         127.752       -0.0120586         147.635
0.553                  -0.454134        -147.699         -55.7608         126.624         -55.7606         126.624       -0.0121592         147.565
0.554                  -0.464427        -148.353         -55.6404         125.498         -55.6403         125.497       -0.0122612         147.494
0.555                   -0.47552        -149.016         -55.5142          124.37          -55.514          124.37       -0.0123646         147.424
0.556                  -0.487456        -149.686         -55.3821         123.241         -55.3819         123.241       -0.0124694         147.354
0.557                  -0.500285        -150.365         -55.2442         122.108          -55.244         122.108       -0.0125756         147.283
0.558                  -0.514058        -151.052         -55.1004          120.97         -55.1003         120.969       -0.0126833         147.212
0.559                  -0.528834        -151.747         -54.9509         119.824         -54.9507         119.824       -0.0127924         147.141
0.56                   -0.544674        -152.452         -54.7956         118.669         -54.7955         118.669        -0.012903          147.07
0.561                  -0.561645        -153.165         -54.6346         117.505         -54.6345         117.504       -0.0130152         146.999
0.562                   -0.57982        -153.887          -54.468         116.328         -54.4678         116.327       -0.0131289         146.928
0.563                  -0.599277        -154.618         -54.2957         115.138         -54.2956         115.137       -0.0132441         146.857
0.564                  -0.620103        -155.358         -54.1179         113.932         -54.1177         113.932       -0.0133609         146.785
0.565                  -0.642391        -156.109         -53.9345          112.71         -53.9344         112.709       -0.0134794         146.714
0.566                   -0.66624        -156.868         -53.7457         111.469         -53.7455         111.469       -0.0135995         146.642
0.567                  -0.691761        -157.637         -53.5514         110.209         -53.5513         110.208       -0.0137212          146.57
0.568                  -0.719071        -158.417         -53.3519         108.926         -53.3518         108.926       -0.0138447         146.498
0.569                    -0.7483        -159.205          -53.147         107.621         -53.1469          107.62       -0.0139698         146.426
0.57                   -0.779586        -160.004          -52.937          106.29         -52.9369         106.289       -0.0140968         146.354
0.571                  -0.813079        -160.813         -52.7218         104.932         -52.7218         104.931       -0.0142256         146.281
0.572                  -0.848944        -161.632         -52.5017         103.545         -52.5016         103.545       -0.0143562         146.209
0.573                  -0.887357         -162.46         -52.2766         102.128         -52.2766         102.128       -0.0144887         146.136
0.574                  -0.928508        -163.298         -52.0468         100.679         -52.0467         100.678       -0.0146231         146.063
0.575                  -0.972602        -164.145         -51.8122         99.1944         -51.8122         99.1938       -0.0147596          145.99
0.576                   -1.01986        -165.001         -51.5732         97.6737         -51.5731         97.6731       -0.0148981         145.917
0.577                   -1.07052        -165.865         -51.3298         96.1144         -51.3297         96.1139       -0.0150387         145.843
0.578                   -1.12484        -166.738         -51.0821         94.5145         -51.0821         94.5139       -0.0151815          145.77
0.579                   -1.18309        -167.617         -50.8305         92.8716         -50.8305         92.8711       -0.0153266         145.696
0.58                    -1.24556        -168.502         -50.5751         91.1836         -50.5751         91.1831        -0.015474         145.622
0.581                   -1.31255        -169.392         -50.3162         89.4481         -50.3162         89.4477       -0.0156238         145.548
0.582                   -1.38439        -170.285         -50.0541          87.663         -50.0541         87.6625       -0.0157762         145.474
0.583                   -1.46141        -171.179          -49.789         85.8257          -49.789         85.8253       -0.0159312           145.4
0.584                   -1.54395        -172.073         -49.5213          83.934         -49.5213         83.9336        -0.016089         145.326
0.585                   -1.63237        -172.964         -49.2515         81.9855         -49.2515         81.9851       -0.0162496         145.251
0.586                   -1.72703        -173.848         -48.9799         79.9779         -48.9799         79.9776       -0.0164133         145.176
0.587                   -1.82826        -174.722          -48.707          77.909          -48.707         77.9087       -0.0165801         145.101
0.588                   -1.93639        -175.581         -48.4334         75.7766         -48.4334         75.7763       -0.0167503         145.026
0.589                   -2.05172        -176.422         -48.1597         73.5788         -48.1597         73.5785        -0.016924         144.951
0.59                    -2.17449        -177.239         -47.8864         71.3137         -47.8864         71.3134       -0.0171013         144.875
0.591                   -2.30488        -178.024         -47.6143         68.9797         -47.6143         68.9796       -0.0172826         144.799
0.592                   -2.44296        -178.771         -47.3442         66.5758         -47.3442         66.5757       -0.0174679         144.724
0.593                   -2.58868        -179.472         -47.0768          64.101         -47.0768         64.1009       -0.0176575         144.648
0.594                   -2.74183         179.881          -46.813         61.5551          -46.813          61.555       -0.0178516         144.571
0.595                   -2.90196         179.299         -46.5538         58.9381         -46.5538          58.938       -0.0180504         144.495
0.596                   -3.06841         178.791         -46.3001         56.2508         -46.3001         56.2507       -0.0182541         144.418
0.597                   -3.24018         178.367         -46.0528         53.4949         -46.0528         53.4948       -0.0184628         144.342
0.598                   -3.41597         178.038         -45.8129         50.6724         -45.8129         50.6724       -0.0186769         144.265
0.599                   -3.59405         177.813         -45.5815         47.7867         -45.5815         47.7867       -0.0188962         144.188
0.6                     -3.77232           177.7         -45.3595         44.8415         -45.3595         44.8415       -0.0191211          144.11
0.601                   -3.94824         177.706         -45.1478         41.8417         -45.1477         41.8417       -0.0193514         144.033
0.602                   -4.11893         177.835         -44.9472          38.793         -44.9472          38.793       -0.0195872         143.955
0.603                   -4.28118         178.087         -44.7586         35.7018         -44.7585         35.7018       -0.0198284         143.877
0.604                   -4.43162         178.458         -44.5825         32.5753         -44.5825         32.5753       -0.0200748         143.799
0.605                   -4.56685         178.938         -44.4195         29.4214         -44.4195         29.4214       -0.0203263         143.721
0.606                   -4.68368         179.513         -44.2699         26.2482         -44.2699         26.2482       -0.0205824         143.643
0.607                   -4.77934        -179.836          -44.134         23.0645          -44.134         23.0644        -0.020843         143.564
0.608                   -4.85166        -179.133         -44.0118         19.8788         -44.0118         19.8787       -0.0211075         143.485
0.609                   -4.89935        -178.405         -43.9032         16.6998         -43.9031         16.6997       -0.0213755         143.406
0.61                    -4.92198        -177.679         -43.8077         13.5358         -43.8077         13.5358       -0.0216465         143.327
0.611                    -4.9201        -176.983         -43.7251         10.3949          -43.725         10.3948       -0.0219201         143.248
0.612                    -4.8951        -176.343         -43.6547          7.2843         -43.6546          7.2842       -0.0221958         143.168
0.613                   -4.84912         -175.78         -43.5957         4.21074         -43.5956         4.21063       -0.0224733         143.088
0.614                   -4.78481        -175.314         -43.5474         1.18008         -43.5474         1.17995       -0.0227521         143.009
0.615                   -4.70512        -174.956         -43.5089        -1.80267         -43.5089        -1.80281        -0.023032         142.928
0.616                   -4.61312        -174.715         -43.4793        -4.73336         -43.4793        -4.73351       -0.0233127         142.848
0.617                   -4.51183        -174.596         -43.4576        -7.60872         -43.4575        -7.60886       -0.0235941         142.767
0.618                   -4.40404        -174.598         -43.4428        -10.4263         -43.4427        -10.4264       -0.0238761         142.687
0.619                    -4.2923         -174.72          -43.434        -13.1845         -43.4339        -13.1846       -0.0241587         142.606
0.62                    -4.17879        -174.956         -43.4302        -15.8823         -43.4301        -15.8824        -0.024442         142.524
0.621                    -4.0654        -175.301         -43.4305        -18.5195         -43.4304        -18.5197       -0.0247262         142.443
0.622                   -3.95365        -175.748         -43.4341        -21.0965          -43.434        -21.0966       -0.0250112         142.361
0.623                   -3.84478        -176.289         -43.4401         -23.614         -43.4401        -23.6141       -0.0252975         142.279
0.624                   -3.73974        -176.917         -43.4479        -26.0733         -43.4478        -26.0734       -0.0255852         142.197
0.625                   -3.63928        -177.625         -43.4567        -28.4759         -43.4566         -28.476       -0.0258745         142.114
0.626                   -3.54392        -178.405         -43.4658        -30.8237         -43.4657        -30.8239       -0.0261657         142.032
0.627                   -3.45403        -179.252         -43.4748        -33.1189         -43.4747         -33.119       -0.0264591         141.949
0.628                   -3.36986         179.841          -43.483        -35.3636          -43.483        -35.3638        -0.026755         141.865
0.629                   -3.29154         178.879         -43.4901        -37.5603           -43.49        -37.5604       -0.0270535         141.782
