! TOUCHSTONE file generated by CST MICROWAVE STUDIO
! Date and time: Sat Oct 24 10:46:46 2020
! Project name: Scenario_1_Planar_Body_Tissue_Center.cst
! Parameters = {hfat=3; hmuscle=50; hskin=1.5; hgap=25; Wtissue=700; Ltissue=700; L_HA=400; MT=2.54; Rad_Dielectric=30; Rad_Lower=7.3; Rad_Upper=30; a_HA=580; a_WG=246; b_HA=500; b_WG=121; c_HA=0; c_WG=187; d_feed=85; dx1=657.96; h_feed=15; h_lower=18; h_upper=40}
! Header version: 2018
! Port assignment regex: !\s*Touchstone port\s*([0-9]+)\s*=\s*(CST MWS port|CST DS port)\s*([0-9]+|Zmin|Zmax)\s*\(\"(.*)\"\)(\s*mode\s*([0-9]+))?.*
! Touchstone port assignment:
! Touchstone port 1 = CST MWS port 1 ("")
! Touchstone port 2 = CST MWS port 2 ("")
# GHz S DB R 50
0.5                    -0.248013        -121.991         -59.3088        -141.269          -59.309        -141.269      -0.00778039         151.148
0.501                    -0.2536        -122.321         -59.1571        -143.654         -59.1572        -143.655      -0.00784996         151.082
0.502                  -0.258414         -122.66         -59.0115        -146.081         -59.0115        -146.082      -0.00791969         151.017
0.503                  -0.262572        -123.009         -58.8725        -148.546         -58.8725        -148.547      -0.00798958         150.952
0.504                  -0.266173        -123.366         -58.7409        -151.045         -58.7409        -151.046      -0.00805966         150.887
0.505                  -0.269302        -123.732         -58.6172        -153.572         -58.6171        -153.574      -0.00812994         150.821
0.506                  -0.272029        -124.105          -58.502        -156.123         -58.5019        -156.125      -0.00820042         150.756
0.507                  -0.274416        -124.485         -58.3956        -158.691         -58.3954        -158.693      -0.00827113          150.69
0.508                  -0.276516        -124.873         -58.2983        -161.271         -58.2982        -161.273      -0.00834208         150.625
0.509                  -0.278377        -125.267         -58.2105        -163.855         -58.2103        -163.857      -0.00841329         150.559
0.51                   -0.280038        -125.668         -58.1321        -166.436         -58.1319        -166.439      -0.00848477         150.493
0.511                  -0.281535        -126.075          -58.063        -169.008         -58.0629        -169.011      -0.00855653         150.427
0.512                  -0.282901        -126.488         -58.0033        -171.563         -58.0031        -171.567      -0.00862859         150.361
0.513                  -0.284165        -126.907         -57.9524        -174.095         -57.9523        -174.099      -0.00870097         150.295
0.514                  -0.285351        -127.331         -57.9101        -176.598           -57.91        -176.602      -0.00877369         150.229
0.515                  -0.286483        -127.762         -57.8758        -179.064         -57.8757        -179.068      -0.00884675         150.163
0.516                  -0.287584        -128.198         -57.8488         178.511         -57.8488         178.506      -0.00892018         150.097
0.517                  -0.288672        -128.639         -57.8284         176.132         -57.8284         176.127        -0.008994          150.03
0.518                  -0.289767        -129.086         -57.8139         173.803          -57.814         173.798      -0.00906821         149.964
0.519                  -0.290885        -129.538         -57.8045         171.528         -57.8046         171.524      -0.00914284         149.897
0.52                   -0.292043        -129.996         -57.7992          169.31         -57.7993         169.306      -0.00921791         149.831
0.521                  -0.293257        -130.459         -57.7972         167.151         -57.7974         167.147      -0.00929342         149.764
0.522                  -0.294542        -130.927         -57.7976         165.052         -57.7979         165.048      -0.00936941         149.697
0.523                  -0.295912          -131.4         -57.7997         163.015            -57.8          163.01      -0.00944589          149.63
0.524                  -0.297382        -131.879         -57.8024         161.038         -57.8028         161.034      -0.00952287         149.563
0.525                  -0.298965        -132.363         -57.8051         159.122         -57.8055         159.119      -0.00960039         149.496
0.526                  -0.300676        -132.852          -57.807         157.267         -57.8074         157.263      -0.00967844         149.429
0.527                  -0.302529        -133.347         -57.8073          155.47         -57.8077         155.467      -0.00975706         149.362
0.528                  -0.304536        -133.847         -57.8054         153.731         -57.8059         153.728      -0.00983627         149.294
0.529                  -0.306714        -134.352         -57.8006         152.047         -57.8011         152.044      -0.00991608         149.227
0.53                   -0.309076        -134.862         -57.7924         150.416         -57.7929         150.413      -0.00999652         149.159
0.531                  -0.311636        -135.379         -57.7803         148.835         -57.7808         148.833       -0.0100776         149.092
0.532                   -0.31441          -135.9         -57.7637         147.303         -57.7643         147.301       -0.0101594         149.024
0.533                  -0.317415        -136.427         -57.7424         145.816         -57.7429         145.814       -0.0102418         148.956
0.534                  -0.320665         -136.96         -57.7158         144.372         -57.7164         144.371        -0.010325         148.888
0.535                  -0.324178        -137.499         -57.6837         142.968         -57.6843         142.967       -0.0104088          148.82
0.536                  -0.327972        -138.044         -57.6458         141.601         -57.6464           141.6       -0.0104935         148.752
0.537                  -0.332066        -138.594         -57.6019         140.269         -57.6025         140.268       -0.0105789         148.684
0.538                  -0.336479         -139.15         -57.5517         138.967         -57.5522         138.967       -0.0106652         148.615
0.539                  -0.341232        -139.713          -57.495         137.695         -57.4955         137.694       -0.0107522         148.547
0.54                   -0.346347        -140.282         -57.4317         136.448         -57.4323         136.448       -0.0108401         148.478
0.541                  -0.351846        -140.857         -57.3617         135.224         -57.3622         135.224       -0.0109289          148.41
0.542                  -0.357756        -141.438         -57.2849         134.021         -57.2854         134.021       -0.0110186         148.341
0.543                  -0.364102        -142.027         -57.2012         132.836         -57.2017         132.836       -0.0111092         148.272
0.544                  -0.370913        -142.622         -57.1106         131.666         -57.1111         131.666       -0.0112008         148.203
0.545                  -0.378218        -143.223          -57.013         130.508         -57.0135         130.509       -0.0112934         148.134
0.546                   -0.38605        -143.832         -56.9084         129.361         -56.9089         129.362       -0.0113869         148.064
0.547                  -0.394443        -144.448         -56.7968         128.222         -56.7973         128.223       -0.0114816         147.995
0.548                  -0.403435        -145.071         -56.6783         127.089         -56.6787         127.089       -0.0115772         147.926
0.549                  -0.413064        -145.701         -56.5528         125.959         -56.5532          125.96        -0.011674         147.856
0.55                   -0.423375         -146.34         -56.4203          124.83         -56.4207         124.831       -0.0117719         147.786
0.551                  -0.434412        -146.986          -56.281         123.701         -56.2814         123.702        -0.011871         147.717
0.552                  -0.446227        -147.639         -56.1349         122.568         -56.1353         122.569       -0.0119713         147.647
0.553                  -0.458872        -148.301          -55.982         121.431         -55.9823         121.432       -0.0120728         147.577
0.554                  -0.472406        -148.972         -55.8224         120.287         -55.8227         120.287       -0.0121755         147.506
0.555                  -0.486892         -149.65         -55.6561         119.133         -55.6564         119.134       -0.0122796         147.436
0.556                  -0.502397        -150.337         -55.4832         117.969         -55.4835          117.97        -0.012385         147.366
0.557                  -0.518996        -151.034         -55.3039         116.792         -55.3041         116.793       -0.0124917         147.295
0.558                  -0.536767        -151.739         -55.1181           115.6         -55.1183         115.601       -0.0125999         147.224
0.559                  -0.555799        -152.453          -54.926         114.392         -54.9262         114.393       -0.0127095         147.154
0.56                   -0.576184        -153.176         -54.7276         113.165         -54.7278         113.166       -0.0128206         147.083
0.561                  -0.598026        -153.909          -54.523         111.918         -54.5232         111.919       -0.0129332         147.012
0.562                  -0.621435        -154.651         -54.3124         110.648         -54.3126         110.649       -0.0130474          146.94
0.563                  -0.646531        -155.403         -54.0959         109.354          -54.096         109.355       -0.0131632         146.869
0.564                  -0.673445        -156.164         -53.8734         108.034         -53.8736         108.035       -0.0132807         146.798
0.565                   -0.70232        -156.936         -53.6452         106.686         -53.6454         106.686       -0.0133999         146.726
0.566                   -0.73331        -157.717         -53.4114         105.307         -53.4115         105.307       -0.0135209         146.654
0.567                  -0.766582        -158.507         -53.1721         103.896         -53.1722         103.896       -0.0136437         146.582
0.568                  -0.802319        -159.307         -52.9274          102.45         -52.9275          102.45       -0.0137683          146.51
0.569                  -0.840717        -160.117         -52.6775         100.967         -52.6776         100.967       -0.0138949         146.438
0.57                    -0.88199        -160.935         -52.4225         99.4451         -52.4226         99.4454       -0.0140235         146.366
0.571                  -0.926367        -161.763         -52.1627         97.8818         -52.1628          97.882       -0.0141542         146.294
0.572                  -0.974097        -162.598         -51.8982         96.2745         -51.8983         96.2747        -0.014287         146.221
0.573                   -1.02545        -163.441         -51.6293         94.6208         -51.6293         94.6209       -0.0144221         146.148
0.574                    -1.0807         -164.29         -51.3561         92.9181         -51.3562         92.9181       -0.0145594         146.075
0.575                   -1.14015        -165.145         -51.0791         91.1637         -51.0791         91.1637       -0.0146991         146.002
0.576                   -1.20414        -166.003         -50.7984          89.355         -50.7985         89.3549       -0.0148413         145.929
0.577                   -1.27298        -166.864         -50.5145         87.4891         -50.5146         87.4889        -0.014986         145.856
0.578                   -1.34704        -167.725         -50.2278         85.5632         -50.2278          85.563       -0.0151334         145.782
0.579                   -1.42666        -168.584         -49.9386         83.5746         -49.9386         83.5744       -0.0152837         145.709
0.58                    -1.51222        -169.438         -49.6475         81.5205         -49.6475         81.5202       -0.0154368         145.635
0.581                   -1.60406        -170.284          -49.355         79.3982         -49.3551         79.3978        -0.015593         145.561
0.582                   -1.70252        -171.116         -49.0618         77.2049         -49.0618         77.2045       -0.0157524         145.487
0.583                   -1.80792        -171.931         -48.7684         74.9383         -48.7685         74.9378       -0.0159152         145.412
0.584                    -1.9205        -172.722         -48.4757          72.596         -48.4758         72.5955       -0.0160816         145.338
0.585                   -2.04045        -173.484         -48.1845         70.1761         -48.1846         70.1755       -0.0162516         145.263
0.586                   -2.16784        -174.209         -47.8957          67.677         -47.8957         67.6764       -0.0164256         145.189
0.587                   -2.30261        -174.889         -47.6102         65.0975         -47.6102         65.0969       -0.0166038         145.114
0.588                   -2.44451        -175.515         -47.3291         62.4372         -47.3291         62.4365       -0.0167863         145.039
0.589                   -2.59308        -176.077         -47.0534          59.696         -47.0534         59.6954       -0.0169734         144.963
0.59                    -2.74755        -176.565         -46.7843          56.875         -46.7844         56.8744       -0.0171654         144.888
0.591                   -2.90685         -176.97          -46.523          53.976         -46.5231         53.9753       -0.0173625         144.812
0.592                    -3.0695        -177.279         -46.2707         51.0017         -46.2708          51.001       -0.0175649         144.736
0.593                   -3.23365        -177.486         -46.0286         47.9559         -46.0287         47.9553       -0.0177728          144.66
0.594                   -3.39697        -177.581         -45.7978         44.8438         -45.7979         44.8432       -0.0179863         144.584
0.595                   -3.55677        -177.559         -45.5794         41.6713         -45.5795         41.6707       -0.0182056         144.508
0.596                   -3.70996        -177.419         -45.3744         38.4456         -45.3745          38.445       -0.0184307         144.431
0.597                   -3.85323        -177.163         -45.1838         35.1749         -45.1838         35.1743       -0.0186613         144.355
0.598                   -3.98318        -176.798         -45.0081         31.8682         -45.0082         31.8677       -0.0188974         144.278
0.599                   -4.09652        -176.336          -44.848         28.5353         -44.8481          28.535       -0.0191384         144.201
0.6                     -4.19034        -175.795         -44.7037         25.1866         -44.7038         25.1863        -0.019384         144.124
0.601                    -4.2623        -175.198         -44.5755         21.8324         -44.5756         21.8322       -0.0196334         144.047
0.602                   -4.31089         -174.57         -44.4632         18.4834         -44.4632         18.4832       -0.0198859         143.969
0.603                   -4.33548        -173.938         -44.3664         15.1497         -44.3665         15.1497       -0.0201407         143.891
0.604                   -4.33645        -173.332         -44.2846         11.8412         -44.2847         11.8412        -0.020397         143.814
0.605                   -4.31508        -172.776         -44.2173         8.56682         -44.2174         8.56693       -0.0206541         143.736
0.606                    -4.2734        -172.292         -44.1634         5.33475         -44.1635         5.33495       -0.0209113         143.658
0.607                     -4.214        -171.899          -44.122         2.15211         -44.1221          2.1524       -0.0211682         143.579
0.608                   -4.13982        -171.611         -44.0921       -0.975059         -44.0922       -0.974681       -0.0214246         143.501
0.609                   -4.05392        -171.435         -44.0724        -4.04186         -44.0725         -4.0414       -0.0216802         143.422
0.61                    -3.95927        -171.375         -44.0619         -7.0445          -44.062        -7.04396       -0.0219352         143.343
0.611                   -3.85867        -171.432         -44.0593        -9.98026         -44.0594        -9.97963       -0.0221898         143.264
0.612                    -3.7546        -171.604         -44.0636        -12.8474         -44.0636        -12.8467       -0.0224442         143.185
0.613                   -3.64923        -171.884         -44.0734        -15.6451         -44.0735        -15.6443       -0.0226987         143.105
0.614                   -3.54435        -172.267         -44.0879        -18.3733         -44.0879        -18.3725       -0.0229538         143.025
0.615                   -3.44143        -172.746         -44.1059        -21.0327         -44.1059        -21.0318       -0.0232098         142.945
0.616                   -3.34164        -173.313         -44.1266        -23.6245         -44.1266        -23.6236       -0.0234671         142.865
0.617                   -3.24586        -173.961         -44.1491        -26.1505         -44.1491        -26.1495        -0.023726         142.785
0.618                   -3.15473        -174.682         -44.1726        -28.6126         -44.1726        -28.6116       -0.0239868         142.704
0.619                   -3.06874         -175.47         -44.1964        -31.0134         -44.1963        -31.0124       -0.0242498         142.623
0.62                    -2.98817        -176.318         -44.2198        -33.3555         -44.2197        -33.3544       -0.0245151         142.542
0.621                   -2.91322        -177.221         -44.2423        -35.6415         -44.2422        -35.6404       -0.0247829          142.46
0.622                   -2.84398        -178.174         -44.2633        -37.8744         -44.2632        -37.8733       -0.0250535         142.379
0.623                   -2.78046        -179.172         -44.2825        -40.0571         -44.2824         -40.056       -0.0253268         142.297
0.624                   -2.72263         179.788         -44.2993        -42.1926         -44.2992        -42.1915       -0.0256031         142.215
0.625                   -2.67042          178.71         -44.3136        -44.2837         -44.3135        -44.2826       -0.0258824         142.132
0.626                   -2.62373         177.597         -44.3249        -46.3335         -44.3248        -46.3324       -0.0261649         142.049
0.627                   -2.58246         176.451         -44.3331        -48.3447          -44.333        -48.3436       -0.0264505         141.966
0.628                   -2.54649         175.275         -44.3379        -50.3202         -44.3378        -50.3191       -0.0267394         141.883
0.629                   -2.51571         174.069         -44.3392        -52.2627          -44.339        -52.2616       -0.0270317           141.8
