! TOUCHSTONE file generated by CST MICROWAVE STUDIO
! Date and time: Sat Oct 24 10:48:01 2020
! Project name: Scenario_1_Planar_Body_Tissue_Center.cst
! Parameters = {hfat=3; hmuscle=50; hskin=1.5; hgap=25; Wtissue=700; Ltissue=700; L_HA=400; MT=2.54; Rad_Dielectric=30; Rad_Lower=7.3; Rad_Upper=30; a_HA=580; a_WG=246; b_HA=500; b_WG=121; c_HA=0; c_WG=187; d_feed=85; dx1=813.84; h_feed=15; h_lower=18; h_upper=40}
! Header version: 2018
! Port assignment regex: !\s*Touchstone port\s*([0-9]+)\s*=\s*(CST MWS port|CST DS port)\s*([0-9]+|Zmin|Zmax)\s*\(\"(.*)\"\)(\s*mode\s*([0-9]+))?.*
! Touchstone port assignment:
! Touchstone port 1 = CST MWS port 1 ("")
! Touchstone port 2 = CST MWS port 2 ("")
# GHz S DB R 50
0.5                   -0.0920382        -121.829         -64.1502         130.866         -64.1506         130.869      -0.00749933         151.152
0.501                  -0.094821        -122.283          -63.969         129.729         -63.9694         129.732      -0.00756595         151.086
0.502                 -0.0977778        -122.741         -63.7835         128.573         -63.7839         128.577      -0.00763283         151.021
0.503                  -0.100923        -123.202         -63.5935         127.398          -63.594         127.402      -0.00769997         150.956
0.504                  -0.104272        -123.667          -63.399         126.203         -63.3994         126.208       -0.0077674          150.89
0.505                  -0.107843        -124.136         -63.1998         124.987         -63.2002         124.992      -0.00783511         150.825
0.506                  -0.111654        -124.609         -62.9958         123.749         -62.9963         123.754      -0.00790311         150.759
0.507                  -0.115727        -125.086         -62.7869         122.488         -62.7874         122.493      -0.00797141         150.694
0.508                  -0.120085        -125.568         -62.5731         121.203         -62.5736         121.208      -0.00804004         150.628
0.509                  -0.124754        -126.054         -62.3541         119.892         -62.3546         119.898        -0.008109         150.562
0.51                   -0.129763        -126.544         -62.1299         118.555         -62.1305         118.561      -0.00817831         150.496
0.511                  -0.135145         -127.04         -61.9005         117.191          -61.901         117.196        -0.008248          150.43
0.512                  -0.140934         -127.54         -61.6656         115.796         -61.6662         115.802       -0.0083181         150.364
0.513                  -0.147171        -128.045         -61.4252         114.371         -61.4258         114.377      -0.00838865         150.298
0.514                  -0.153899        -128.555         -61.1792         112.912         -61.1798         112.918      -0.00845969         150.232
0.515                  -0.161169        -129.071         -60.9275         111.419         -60.9281         111.425      -0.00853128         150.166
0.516                  -0.169035        -129.592         -60.6701         109.888         -60.6706         109.895      -0.00860347         150.099
0.517                  -0.177558        -130.118         -60.4068         108.319         -60.4073         108.325      -0.00867634         150.033
0.518                  -0.186807         -130.65         -60.1376         106.707         -60.1382         106.714      -0.00874999         149.966
0.519                  -0.196859        -131.187         -59.8625         105.051         -59.8631         105.058      -0.00882452           149.9
0.52                   -0.207798        -131.731         -59.5815         103.348          -59.582         103.354      -0.00890006         149.833
0.521                  -0.219721         -132.28         -59.2946         101.593         -59.2951           101.6      -0.00897677         149.766
0.522                  -0.232732        -132.835         -59.0018         99.7848         -59.0022         99.7909      -0.00905481         149.699
0.523                  -0.246949        -133.395         -58.7031         97.9183         -58.7036         97.9243      -0.00913439         149.632
0.524                  -0.262502        -133.961         -58.3988         95.9897         -58.3993         95.9956      -0.00921575         149.565
0.525                  -0.279534        -134.533          -58.089         93.9948         -58.0894         94.0005      -0.00929914         149.498
0.526                  -0.298202        -135.109         -57.7739         91.9288         -57.7743         91.9343      -0.00938487          149.43
0.527                  -0.318677         -135.69         -57.4539         89.7868         -57.4543          89.792      -0.00947324         149.363
0.528                  -0.341142        -136.274         -57.1294         87.5635         -57.1297         87.5685      -0.00956461         149.295
0.529                  -0.365795        -136.862         -56.8008         85.2535         -56.8011         85.2582      -0.00965933         149.228
0.53                   -0.392838        -137.451         -56.4688          82.851          -56.469         82.8554      -0.00975774          149.16
0.531                  -0.422481         -138.04         -56.1342         80.3502         -56.1344         80.3543      -0.00986019         149.092
0.532                  -0.454929        -138.628         -55.7978         77.7451          -55.798         77.7489      -0.00996694         149.024
0.533                  -0.490374        -139.212         -55.4609           75.03          -55.461         75.0334       -0.0100782         148.956
0.534                  -0.528978        -139.789         -55.1246         72.1993         -55.1247         72.2023       -0.0101941         148.888
0.535                  -0.570858        -140.356         -54.7905          69.248         -54.7906         69.2505       -0.0103146          148.82
0.536                  -0.616057        -140.909         -54.4603         66.1718         -54.4604         66.1739       -0.0104395         148.751
0.537                  -0.664516        -141.443          -54.136         62.9676         -54.1361         62.9691       -0.0105685         148.683
0.538                  -0.716038        -141.954         -53.8198         59.6336         -53.8198         59.6347        -0.010701         148.615
0.539                  -0.770257        -142.437         -53.5139         56.1702         -53.5139         56.1708       -0.0108363         148.546
0.54                   -0.826595        -142.887          -53.221           52.58          -53.221           52.58       -0.0109738         148.477
0.541                  -0.884243        -143.298         -52.9436         48.8681         -52.9436         48.8677       -0.0111125         148.409
0.542                   -0.94215        -143.666         -52.6844         45.0429         -52.6844          45.042       -0.0112516          148.34
0.543                  -0.999043         -143.99         -52.4459         41.1162         -52.4459         41.1148       -0.0113904         148.271
0.544                   -1.05347        -144.269         -52.2304         37.1028         -52.2305          37.101       -0.0115282         148.202
0.545                    -1.1039        -144.503         -52.0401         33.0207         -52.0401         33.0185       -0.0116643         148.133
0.546                   -1.14883        -144.699         -51.8763         28.8906         -51.8764         28.8881       -0.0117985         148.064
0.547                   -1.18693        -144.863         -51.7402         24.7353         -51.7404         24.7325       -0.0119304         147.995
0.548                   -1.21717        -145.005         -51.6322         20.5784         -51.6324         20.5754         -0.01206         147.926
0.549                   -1.23892        -145.136         -51.5519          16.444         -51.5521         16.4408       -0.0121873         147.857
0.55                      -1.252        -145.267         -51.4986          12.355         -51.4988         12.3517       -0.0123123         147.787
0.551                   -1.25669         -145.41         -51.4707         8.33282          -51.471         8.32945       -0.0124354         147.717
0.552                   -1.25367        -145.575         -51.4664         4.39609         -51.4666         4.39272       -0.0125566         147.648
0.553                   -1.24391         -145.77         -51.4832        0.560589         -51.4835        0.557253       -0.0126763         147.578
0.554                   -1.22853        -146.001         -51.5188        -3.16126         -51.5191        -3.16453       -0.0127947         147.508
0.555                   -1.20877        -146.272         -51.5704        -6.76036         -51.5707        -6.76352       -0.0129121         147.438
0.556                    -1.1858        -146.585         -51.6353        -10.2308         -51.6356        -10.2338       -0.0130289         147.368
0.557                   -1.16072        -146.939          -51.711        -13.5694         -51.7113        -13.5723       -0.0131451         147.297
0.558                   -1.13449        -147.334          -51.795        -16.7756         -51.7953        -16.7784       -0.0132611         147.227
0.559                   -1.10792        -147.767         -51.8851        -19.8509         -51.8854        -19.8535       -0.0133771         147.156
0.56                    -1.08166        -148.237         -51.9791        -22.7983         -51.9794        -22.8008       -0.0134933         147.086
0.561                   -1.05624        -148.739         -52.0753        -25.6222         -52.0755        -25.6245       -0.0136098         147.015
0.562                   -1.03202        -149.273          -52.172        -28.3278         -52.1722          -28.33       -0.0137269         146.944
0.563                    -1.0093        -149.834         -52.2678        -30.9209          -52.268        -30.9229       -0.0138445         146.873
0.564                  -0.988281         -150.42         -52.3616        -33.4076         -52.3618        -33.4095        -0.013963         146.802
0.565                   -0.96908        -151.029         -52.4523        -35.7943         -52.4525        -35.7962       -0.0140823          146.73
0.566                  -0.951775        -151.658         -52.5391        -38.0875         -52.5392        -38.0892       -0.0142027         146.659
0.567                  -0.936406        -152.307         -52.6212        -40.2932         -52.6213        -40.2949       -0.0143241         146.587
0.568                  -0.922981        -152.973         -52.6981        -42.4178         -52.6982        -42.4193       -0.0144466         146.515
0.569                  -0.911493        -153.654         -52.7693        -44.4669         -52.7694        -44.4684       -0.0145704         146.443
0.57                   -0.901918        -154.351         -52.8345        -46.4464         -52.8345        -46.4478       -0.0146955         146.371
0.571                  -0.894231        -155.062         -52.8932        -48.3615         -52.8933        -48.3629        -0.014822         146.299
0.572                  -0.888398        -155.786         -52.9454        -50.2174         -52.9454        -50.2187       -0.0149499         146.227
0.573                  -0.884391        -156.522         -52.9907        -52.0188         -52.9907          -52.02       -0.0150793         146.154
0.574                  -0.882181         -157.27         -53.0291        -53.7703         -53.0291        -53.7715       -0.0152102         146.081
0.575                  -0.881744        -158.031         -53.0605        -55.4762         -53.0604        -55.4774       -0.0153427         146.009
0.576                  -0.883062        -158.802         -53.0847        -57.1407         -53.0847        -57.1418       -0.0154769         145.936
0.577                  -0.886122        -159.585         -53.1019        -58.7674         -53.1019        -58.7685       -0.0156127         145.863
0.578                  -0.890921        -160.379         -53.1119        -60.3601         -53.1119        -60.3612       -0.0157502         145.789
0.579                   -0.89746        -161.184         -53.1148        -61.9221         -53.1148        -61.9232       -0.0158895         145.716
0.58                    -0.90575        -162.001         -53.1107        -63.4568         -53.1106        -63.4579       -0.0160306         145.642
0.581                  -0.915809        -162.828         -53.0994        -64.9672         -53.0994        -64.9683       -0.0161736         145.568
0.582                  -0.927664        -163.666         -53.0812        -66.4564         -53.0812        -66.4574       -0.0163185         145.495
0.583                  -0.941352        -164.516         -53.0561        -67.9272          -53.056        -67.9282       -0.0164653         145.421
0.584                  -0.956918        -165.377          -53.024        -69.3822          -53.024        -69.3832       -0.0166142         145.346
0.585                  -0.974414        -166.249         -52.9852        -70.8242         -52.9852        -70.8252        -0.016765         145.272
0.586                  -0.993906        -167.134         -52.9396        -72.2557         -52.9396        -72.2567        -0.016918         145.197
0.587                   -1.01547         -168.03         -52.8875        -73.6792         -52.8875        -73.6801       -0.0170731         145.123
0.588                   -1.03918        -168.938         -52.8287        -75.0971         -52.8287        -75.0979       -0.0172303         145.048
0.589                   -1.06515        -169.858         -52.7636        -76.5117         -52.7636        -76.5125       -0.0173898         144.973
0.59                    -1.09347         -170.79          -52.692        -77.9254         -52.6921        -77.9262       -0.0175516         144.897
0.591                   -1.12427        -171.735         -52.6143        -79.3405         -52.6143        -79.3412       -0.0177157         144.822
0.592                   -1.15767        -172.693         -52.5303        -80.7592         -52.5304        -80.7598       -0.0178822         144.746
0.593                   -1.19382        -173.663         -52.4404        -82.1837         -52.4404        -82.1842       -0.0180511         144.671
0.594                   -1.23289        -174.647         -52.3444        -83.6163         -52.3445        -83.6166       -0.0182226         144.595
0.595                   -1.27503        -175.643         -52.2427        -85.0591         -52.2427        -85.0593       -0.0183966         144.519
0.596                   -1.32045        -176.651         -52.1352        -86.5143         -52.1352        -86.5143       -0.0185732         144.442
0.597                   -1.36934        -177.673         -52.0221         -87.984         -52.0221        -87.9837       -0.0187525         144.366
0.598                   -1.42193        -178.707         -51.9035        -89.4704         -51.9035        -89.4698       -0.0189345         144.289
0.599                   -1.47846        -179.753         -51.7795        -90.9756         -51.7795        -90.9746       -0.0191194         144.212
0.6                     -1.53919         179.189         -51.6503        -92.5014         -51.6503        -92.5001       -0.0193071         144.135
0.601                   -1.60439         178.119         -51.5158          -94.05         -51.5159        -94.0482       -0.0194977         144.058
0.602                   -1.67436         177.038         -51.3764        -95.6232         -51.3764        -95.6208       -0.0196914          143.98
0.603                   -1.74942         175.948         -51.2321        -97.2228         -51.2321        -97.2199       -0.0198882         143.903
0.604                    -1.8299         174.848          -51.083        -98.8505         -51.0831         -98.847       -0.0200881         143.825
0.605                   -1.91616         173.741         -50.9294        -100.508         -50.9295        -100.504       -0.0202913         143.747
0.606                   -2.00858         172.627         -50.7714        -102.196         -50.7715        -102.192       -0.0204978         143.669
0.607                   -2.10755         171.509         -50.6092        -103.917         -50.6094        -103.912       -0.0207076          143.59
0.608                   -2.21347         170.389          -50.443        -105.672         -50.4433        -105.666       -0.0209209         143.511
0.609                   -2.32678         169.269         -50.2732        -107.462         -50.2735        -107.455       -0.0211378         143.433
0.61                    -2.44789         168.152            -50.1        -109.287         -50.1004         -109.28       -0.0213583         143.353
0.611                   -2.57724         167.041         -49.9237        -111.149         -49.9243        -111.141       -0.0215825         143.274
0.612                   -2.71526         165.942         -49.7448        -113.048         -49.7454         -113.04       -0.0218104         143.195
0.613                   -2.86236         164.858         -49.5636        -114.985         -49.5643        -114.977       -0.0220422         143.115
0.614                   -3.01893         163.795         -49.3806        -116.961         -49.3814        -116.953        -0.022278         143.035
0.615                   -3.18531         162.758         -49.1963        -118.975         -49.1972        -118.967       -0.0225178         142.955
0.616                   -3.36178         161.756         -49.0111        -121.029         -49.0121        -121.021       -0.0227616         142.874
0.617                   -3.54856         160.795         -48.8257        -123.123         -48.8267        -123.115       -0.0230096         142.793
0.618                   -3.74574         159.885         -48.6404        -125.256         -48.6415        -125.248       -0.0232619         142.712
0.619                   -3.95326         159.035          -48.456        -127.428          -48.457        -127.421       -0.0235184         142.631
0.62                    -4.17092         158.256         -48.2728         -129.64         -48.2739        -129.633       -0.0237793          142.55
0.621                   -4.39825         157.558         -48.0916        -131.891         -48.0927        -131.884       -0.0240446         142.468
0.622                   -4.63456         156.954         -47.9128        -134.179         -47.9139        -134.173       -0.0243144         142.386
0.623                    -4.8788         156.457          -47.737        -136.504         -47.7381        -136.499       -0.0245887         142.304
0.624                   -5.12958         156.079         -47.5648        -138.864         -47.5657        -138.859       -0.0248676         142.222
0.625                   -5.38506         155.832         -47.3965        -141.258         -47.3974        -141.253       -0.0251511         142.139
0.626                   -5.64297         155.729         -47.2327        -143.683         -47.2336        -143.679       -0.0254392         142.056
0.627                   -5.90051          155.78         -47.0739        -146.138         -47.0747        -146.134       -0.0257321         141.973
0.628                   -6.15441         155.991         -46.9203        -148.618          -46.921        -148.614       -0.0260296          141.89
0.629                   -6.40094         156.368         -46.7724        -151.122         -46.7731        -151.119       -0.0263319         141.806
