! TOUCHSTONE file generated by CST MICROWAVE STUDIO
! Date and time: Sat Oct 24 10:48:09 2020
! Project name: Scenario_1_Planar_Body_Tissue_Center.cst
! Parameters = {hfat=3; hmuscle=50; hskin=1.5; hgap=25; Wtissue=700; Ltissue=700; L_HA=400; MT=2.54; Rad_Dielectric=30; Rad_Lower=7.3; Rad_Upper=30; a_HA=580; a_WG=246; b_HA=500; b_WG=121; c_HA=0; c_WG=187; d_feed=85; dx1=831.16; h_feed=15; h_lower=18; h_upper=40}
! Header version: 2018
! Port assignment regex: !\s*Touchstone port\s*([0-9]+)\s*=\s*(CST MWS port|CST DS port)\s*([0-9]+|Zmin|Zmax)\s*\(\"(.*)\"\)(\s*mode\s*([0-9]+))?.*
! Touchstone port assignment:
! Touchstone port 1 = CST MWS port 1 ("")
! Touchstone port 2 = CST MWS port 2 ("")
# GHz S DB R 50
0.5                    -0.090081        -121.944         -64.0733         123.492         -64.0737         123.496      -0.00750248         151.144
0.501                 -0.0933346        -122.399         -63.8708         122.251         -63.8711         122.255      -0.00756846         151.079
0.502                 -0.0967983        -122.858         -63.6633         120.986         -63.6636         120.992      -0.00763488         151.013
0.503                  -0.100493        -123.321         -63.4508         119.698          -63.451         119.704      -0.00770174         150.948
0.504                  -0.104443        -123.789          -63.233         118.385         -63.2332         118.391      -0.00776907         150.882
0.505                  -0.108674        -124.261           -63.01         117.045         -63.0101         117.051      -0.00783689         150.817
0.506                  -0.113215        -124.737         -62.7815         115.677         -62.7816         115.683      -0.00790524         150.751
0.507                  -0.118098        -125.218         -62.5476         114.279         -62.5476         114.286      -0.00797416         150.686
0.508                  -0.123359        -125.704         -62.3081         112.851         -62.3081         112.858      -0.00804366          150.62
0.509                  -0.129038        -126.194         -62.0628         111.389         -62.0628         111.396      -0.00811382         150.554
0.51                    -0.13518         -126.69         -61.8118         109.893         -61.8118           109.9      -0.00818466         150.488
0.511                  -0.141834         -127.19          -61.555          108.36         -61.5549         108.367      -0.00825626         150.422
0.512                  -0.149055        -127.696         -61.2923         106.787         -61.2922         106.794      -0.00832868         150.356
0.513                  -0.156907        -128.207         -61.0236         105.172         -61.0235         105.179      -0.00840199          150.29
0.514                  -0.165457        -128.723          -60.749         103.513         -60.7488          103.52       -0.0084763         150.224
0.515                  -0.174782        -129.245         -60.4683         101.806         -60.4681         101.813      -0.00855169         150.157
0.516                  -0.184969        -129.772         -60.1817         100.049         -60.1815         100.055      -0.00862828         150.091
0.517                  -0.196112        -130.304         -59.8892         98.2366          -59.889          98.243      -0.00870621         150.024
0.518                  -0.208315        -130.842         -59.5909         96.3664         -59.5907         96.3726      -0.00878561         149.958
0.519                  -0.221697        -131.385         -59.2869         94.4341         -59.2867         94.4401      -0.00886666         149.891
0.52                   -0.236383        -131.933         -58.9775         92.4352         -58.9772         92.4409      -0.00894953         149.824
0.521                  -0.252512        -132.486         -58.6627         90.3651         -58.6625         90.3704      -0.00903443         149.757
0.522                  -0.270236        -133.042         -58.3431         88.2187         -58.3429         88.2238      -0.00912156          149.69
0.523                  -0.289714        -133.603         -58.0191          85.991         -58.0188         85.9957      -0.00921115         149.623
0.524                  -0.311116        -134.166         -57.6911         83.6762         -57.6908         83.6806      -0.00930343         149.556
0.525                  -0.334616         -134.73         -57.3598         81.2689         -57.3596         81.2728      -0.00939863         149.489
0.526                   -0.36039        -135.295          -57.026         78.7631         -57.0258         78.7667      -0.00949698         149.421
0.527                  -0.388605        -135.858         -56.6907         76.1531         -56.6905         76.1562      -0.00959867         149.354
0.528                  -0.419413        -136.418          -56.355         73.4332         -56.3548         73.4359      -0.00970385         149.286
0.529                  -0.452933        -136.971         -56.0203         70.5979         -56.0201         70.6001      -0.00981262         149.218
0.53                   -0.489237        -137.516          -55.688         67.6425         -55.6878         67.6443      -0.00992499         149.151
0.531                  -0.528328        -138.048         -55.3599         64.5629         -55.3598         64.5643       -0.0100409         149.083
0.532                  -0.570113        -138.565         -55.0381         61.3563          -55.038         61.3573       -0.0101601         149.015
0.533                  -0.614377        -139.061         -54.7246         58.0214         -54.7246         58.0221       -0.0102824         148.947
0.534                  -0.660753        -139.532         -54.4219          54.559         -54.4219         54.5593       -0.0104072         148.879
0.535                  -0.708703        -139.976         -54.1326          50.972         -54.1326          50.972       -0.0105342         148.811
0.536                  -0.757502        -140.387         -53.8591         47.2663         -53.8591          47.266       -0.0106626         148.743
0.537                  -0.806241        -140.764         -53.6041         43.4507         -53.6042         43.4502       -0.0107918         148.675
0.538                  -0.853855        -141.104         -53.3701         39.5375         -53.3702         39.5368       -0.0109211         148.606
0.539                  -0.899167        -141.408         -53.1593         35.5419         -53.1594          35.541       -0.0110499         148.538
0.54                   -0.940974        -141.679         -52.9736         31.4823         -52.9738         31.4813       -0.0111777         148.469
0.541                  -0.978135         -141.92         -52.8146         27.3795         -52.8148         27.3784       -0.0113039         148.401
0.542                   -1.00967        -142.137         -52.6831         23.2562         -52.6833         23.2551       -0.0114283         148.332
0.543                   -1.03487        -142.339         -52.5793          19.136         -52.5795         19.1349       -0.0115505         148.263
0.544                   -1.05332        -142.535         -52.5029         15.0425         -52.5032         15.0414       -0.0116706         148.194
0.545                   -1.06496        -142.732          -52.453         10.9981         -52.4533         10.9971       -0.0117885         148.125
0.546                   -1.07007         -142.94          -52.428         7.02365         -52.4283         7.02266       -0.0119043         148.056
0.547                   -1.06918        -143.166          -52.426         3.13707         -52.4262         3.13612       -0.0120183         147.987
0.548                   -1.06306        -143.416         -52.4445       -0.646581         -52.4447       -0.647492       -0.0121305         147.918
0.549                   -1.05255        -143.695         -52.4812        -4.31553         -52.4814        -4.31641       -0.0122414         147.849
0.55                    -1.03859        -144.005         -52.5333        -7.86127         -52.5335        -7.86213       -0.0123511         147.779
0.551                   -1.02204        -144.349         -52.5982        -11.2784         -52.5983        -11.2792         -0.01246         147.709
0.552                   -1.00375        -144.725         -52.6734        -14.5642         -52.6735        -14.5651       -0.0125683          147.64
0.553                  -0.984443        -145.134         -52.7564        -17.7185         -52.7564        -17.7194       -0.0126762          147.57
0.554                   -0.96473        -145.574          -52.845        -20.7429          -52.845        -20.7438        -0.012784           147.5
0.555                  -0.945127        -146.043         -52.9373        -23.6408         -52.9372        -23.6417       -0.0128919          147.43
0.556                  -0.926043        -146.539         -53.0313        -26.4164         -53.0313        -26.4174       -0.0130001         147.359
0.557                  -0.907793        -147.061         -53.1256        -29.0751         -53.1255        -29.0761       -0.0131088         147.289
0.558                  -0.890618        -147.606         -53.2188        -31.6227         -53.2187        -31.6238       -0.0132181         147.218
0.559                   -0.87469        -148.173         -53.3097        -34.0654         -53.3095        -34.0666       -0.0133282         147.148
0.56                   -0.860133        -148.759         -53.3973        -36.4095         -53.3971        -36.4107       -0.0134391         147.077
0.561                  -0.847028        -149.363         -53.4808        -38.6612         -53.4806        -38.6625       -0.0135511         147.006
0.562                  -0.835427        -149.984         -53.5595        -40.8269         -53.5592        -40.8282       -0.0136641         146.935
0.563                  -0.825356        -150.621         -53.6328        -42.9125         -53.6325        -42.9138       -0.0137784         146.864
0.564                  -0.816828        -151.272         -53.7002        -44.9238         -53.6999        -44.9252       -0.0138938         146.792
0.565                  -0.809844        -151.937         -53.7614        -46.8666         -53.7611        -46.8679       -0.0140106         146.721
0.566                    -0.8044        -152.615          -53.816        -48.7459         -53.8157        -48.7473       -0.0141288         146.649
0.567                  -0.800484        -153.305         -53.8639         -50.567         -53.8635        -50.5683       -0.0142484         146.578
0.568                  -0.798089        -154.007         -53.9047        -52.3345         -53.9044        -52.3358       -0.0143695         146.506
0.569                  -0.797205        -154.721         -53.9385         -54.053         -53.9381        -54.0543       -0.0144922         146.434
0.57                   -0.797827        -155.445          -53.965        -55.7267         -53.9647         -55.728       -0.0146164         146.362
0.571                  -0.799951        -156.181         -53.9842        -57.3597         -53.9839        -57.3609       -0.0147422         146.289
0.572                   -0.80358        -156.927         -53.9961        -58.9557         -53.9958        -58.9569       -0.0148697         146.217
0.573                  -0.808721        -157.684         -54.0007        -60.5184         -54.0003        -60.5195        -0.014999         146.144
0.574                  -0.815388        -158.452         -53.9978        -62.0511         -53.9975        -62.0521       -0.0151299         146.071
0.575                    -0.8236         -159.23         -53.9877        -63.5571         -53.9873         -63.558       -0.0152626         145.999
0.576                  -0.833384        -160.019         -53.9701        -65.0395         -53.9698        -65.0403       -0.0153972         145.925
0.577                  -0.844774        -160.819         -53.9453        -66.5012          -53.945        -66.5019       -0.0155336         145.852
0.578                   -0.85781        -161.629         -53.9132        -67.9451         -53.9129        -67.9457       -0.0156719         145.779
0.579                  -0.872541        -162.451         -53.8739        -69.3738         -53.8736        -69.3743       -0.0158121         145.705
0.58                   -0.889024        -163.283         -53.8275        -70.7899         -53.8272        -70.7903       -0.0159542         145.632
0.581                  -0.907324        -164.126          -53.774         -72.196         -53.7736        -72.1962       -0.0160984         145.558
0.582                  -0.927516        -164.981         -53.7134        -73.5945         -53.7131        -73.5946       -0.0162446         145.484
0.583                  -0.949683        -165.848         -53.6459        -74.9878         -53.6456        -74.9877       -0.0163929          145.41
0.584                   -0.97392        -166.725         -53.5715        -76.3781         -53.5712        -76.3779       -0.0165433         145.336
0.585                   -1.00033        -167.615         -53.4903        -77.7678           -53.49        -77.7675       -0.0166959         145.261
0.586                   -1.02903        -168.516         -53.4024         -79.159         -53.4021        -79.1586       -0.0168507         145.186
0.587                   -1.06014         -169.43         -53.3079         -80.554         -53.3076        -80.5534       -0.0170077         145.112
0.588                   -1.09381        -170.355         -53.2068        -81.9548         -53.2066        -81.9541        -0.017167         145.037
0.589                   -1.13019        -171.292         -53.0994        -83.3637         -53.0991        -83.3629       -0.0173287         144.961
0.59                    -1.16944        -172.242         -52.9856        -84.7827         -52.9854        -84.7818       -0.0174928         144.886
0.591                   -1.21174        -173.203         -52.8657        -86.2139         -52.8655        -86.2129       -0.0176593         144.811
0.592                   -1.25729        -174.176         -52.7397        -87.6595         -52.7395        -87.6584       -0.0178284         144.735
0.593                    -1.3063        -175.161         -52.6077        -89.1215         -52.6075        -89.1203       -0.0179999         144.659
0.594                   -1.35901        -176.158           -52.47        -90.6019         -52.4698        -90.6006       -0.0181741         144.583
0.595                   -1.41565        -177.165         -52.3267        -92.1029         -52.3265        -92.1015        -0.018351         144.507
0.596                    -1.4765        -178.183         -52.1779        -93.6264         -52.1777         -93.625       -0.0185306         144.431
0.597                   -1.54182        -179.211         -52.0238        -95.1746         -52.0237        -95.1732        -0.018713         144.354
0.598                   -1.61194         179.752         -51.8646        -96.7496         -51.8645        -96.7481       -0.0188983         144.277
0.599                   -1.68716         178.708         -51.7006        -98.3532         -51.7005        -98.3517       -0.0190864           144.2
0.6                     -1.76783         177.656          -51.532        -99.9876         -51.5319         -99.986       -0.0192776         144.123
0.601                    -1.8543           176.6          -51.359        -101.655         -51.3589        -101.653       -0.0194719         144.046
0.602                   -1.94695          175.54         -51.1819        -103.356         -51.1818        -103.355       -0.0196692         143.968
0.603                   -2.04615         174.479          -51.001        -105.095          -51.001        -105.093       -0.0198698          143.89
0.604                    -2.1523         173.419         -50.8166        -106.872         -50.8166         -106.87       -0.0200737         143.813
0.605                   -2.26581         172.364         -50.6291        -108.688         -50.6291        -108.687       -0.0202809         143.734
0.606                   -2.38706         171.317         -50.4388        -110.547         -50.4388        -110.546       -0.0204916         143.656
0.607                   -2.51644         170.282         -50.2462        -112.449         -50.2462        -112.448       -0.0207058         143.577
0.608                   -2.65432         169.265         -50.0516        -114.397         -50.0517        -114.395       -0.0209237         143.499
0.609                   -2.80103         168.269         -49.8556         -116.39         -49.8556        -116.389       -0.0211452          143.42
0.61                    -2.95684         167.303         -49.6585         -118.43         -49.6586        -118.429       -0.0213704         143.341
0.611                   -3.12196         166.372          -49.461        -120.518         -49.4611        -120.517       -0.0215995         143.261
0.612                   -3.29649         165.485         -49.2635        -122.656         -49.2636        -122.655       -0.0218326         143.182
0.613                   -3.48042          164.65         -49.0666        -124.842         -49.0667        -124.841       -0.0220696         143.102
0.614                   -3.67357         163.877         -48.8709        -127.077          -48.871        -127.076       -0.0223107         143.022
0.615                   -3.87555         163.175         -48.6769         -129.36         -48.6771         -129.36        -0.022556         142.941
0.616                   -4.08573         162.557         -48.4853        -131.692         -48.4855        -131.692       -0.0228055         142.861
0.617                   -4.30319         162.033         -48.2967        -134.071         -48.2969         -134.07       -0.0230592          142.78
0.618                   -4.52668         161.615         -48.1116        -136.495         -48.1119        -136.494       -0.0233173         142.699
0.619                   -4.75455         161.314         -47.9308        -138.962          -47.931        -138.962       -0.0235798         142.618
0.62                    -4.98474         161.141         -47.7546        -141.471         -47.7548         -141.47       -0.0238467         142.536
0.621                   -5.21475         161.105         -47.5837        -144.018         -47.5839        -144.017       -0.0241181         142.455
0.622                   -5.44163         161.212         -47.4185        -146.599         -47.4188        -146.599        -0.024394         142.373
0.623                   -5.66204         161.467         -47.2595        -149.213         -47.2598        -149.212       -0.0246745          142.29
0.624                    -5.8723         161.869         -47.1072        -151.853         -47.1075        -151.853       -0.0249594         142.208
0.625                   -6.06853         162.414         -46.9617        -154.518          -46.962        -154.517       -0.0252489         142.125
0.626                   -6.24685          163.09         -46.8235          -157.2         -46.8238          -157.2        -0.025543         142.042
0.627                   -6.40356         163.882         -46.6925        -159.897         -46.6928        -159.897       -0.0258416         141.959
0.628                   -6.53542         164.767          -46.569        -162.604         -46.5693        -162.604       -0.0261447         141.876
0.629                   -6.63989         165.719          -46.453        -165.315         -46.4533        -165.315       -0.0264523         141.792
