! TOUCHSTONE file generated by CST MICROWAVE STUDIO
! Date and time: Sat Oct 24 10:48:59 2020
! Project name: Scenario_1_Planar_Body_Tissue_Center.cst
! Parameters = {hfat=3; hmuscle=50; hskin=1.5; hgap=25; Wtissue=700; Ltissue=700; L_HA=400; MT=2.54; Rad_Dielectric=30; Rad_Lower=7.3; Rad_Upper=30; a_HA=580; a_WG=246; b_HA=500; b_WG=121; c_HA=0; c_WG=187; d_feed=85; dx1=935.08; h_feed=15; h_lower=18; h_upper=40}
! Header version: 2018
! Port assignment regex: !\s*Touchstone port\s*([0-9]+)\s*=\s*(CST MWS port|CST DS port)\s*([0-9]+|Zmin|Zmax)\s*\(\"(.*)\"\)(\s*mode\s*([0-9]+))?.*
! Touchstone port assignment:
! Touchstone port 1 = CST MWS port 1 ("")
! Touchstone port 2 = CST MWS port 2 ("")
# GHz S DB R 50
0.5                    -0.177661        -122.341         -61.5642         62.9878          -61.565         62.9899       -0.0076695         151.148
0.501                  -0.189812         -122.78         -61.2873         60.1746          -61.288         60.1765      -0.00774954         151.083
0.502                  -0.202649        -123.217          -61.016         57.2734         -61.0168          57.275      -0.00783077         151.017
0.503                   -0.21613        -123.651         -60.7519         54.2852         -60.7526         54.2866      -0.00791309         150.952
0.504                  -0.230192        -124.082         -60.4961         51.2122         -60.4969         51.2134      -0.00799637         150.886
0.505                  -0.244741        -124.508         -60.2503         48.0578         -60.2511         48.0588      -0.00808041         150.821
0.506                  -0.259652        -124.929         -60.0159          44.827         -60.0167         44.8279        -0.008165         150.755
0.507                  -0.274772        -125.345         -59.7943         41.5263          -59.795         41.5271      -0.00824986          150.69
0.508                  -0.289918        -125.754         -59.5867         38.1637         -59.5875         38.1643      -0.00833472         150.624
0.509                  -0.304886        -126.157         -59.3944         34.7484         -59.3952          34.749      -0.00841929         150.558
0.51                   -0.319455        -126.553         -59.2184         31.2914         -59.2192          31.292       -0.0085033         150.493
0.511                  -0.333403        -126.944         -59.0594         27.8045         -59.0602          27.805      -0.00858654         150.427
0.512                  -0.346514         -127.33          -58.918         24.3003         -58.9188         24.3009      -0.00866882         150.361
0.513                  -0.358595        -127.711         -58.7943         20.7922         -58.7951         20.7928      -0.00875003         150.295
0.514                  -0.369484        -128.089         -58.6884         17.2934         -58.6892          17.294      -0.00883015         150.228
0.515                  -0.379063        -128.466         -58.5998         13.8171         -58.6006         13.8178      -0.00890922         150.162
0.516                   -0.38726        -128.843         -58.5279         10.3757         -58.5287         10.3765      -0.00898732         150.096
0.517                  -0.394057        -129.222         -58.4718         6.98088         -58.4727         6.98168       -0.0090646          150.03
0.518                   -0.39948        -129.603         -58.4305         3.64286         -58.4313         3.64372      -0.00914124         149.963
0.519                    -0.4036         -129.99         -58.4025        0.370647         -58.4033        0.371559      -0.00921743         149.896
0.52                   -0.406522        -130.383         -58.3866        -2.82832         -58.3874        -2.82736      -0.00929337          149.83
0.521                  -0.408375        -130.783         -58.3812        -5.94814          -58.382        -5.94713      -0.00936926         149.763
0.522                  -0.409305        -131.191         -58.3848        -8.98441         -58.3856        -8.98337      -0.00944526         149.696
0.523                  -0.409466        -131.607         -58.3959        -11.9342         -58.3967        -11.9331      -0.00952154         149.629
0.524                  -0.409011        -132.033         -58.4131        -14.7958         -58.4139        -14.7947      -0.00959824         149.562
0.525                  -0.408088        -132.467         -58.4348        -17.5688         -58.4356        -17.5677      -0.00967548         149.495
0.526                  -0.406836        -132.912         -58.4598        -20.2537         -58.4607        -20.2527      -0.00975336         149.428
0.527                  -0.405381        -133.365         -58.4869         -22.852         -58.4877        -22.8509      -0.00983197         149.361
0.528                  -0.403836        -133.828         -58.5149        -25.3656         -58.5157        -25.3646      -0.00991137         149.293
0.529                  -0.402301          -134.3         -58.5426        -27.7972         -58.5435        -27.7962      -0.00999161         149.226
0.53                   -0.400864        -134.782         -58.5693        -30.1499         -58.5702        -30.1489       -0.0100727         149.158
0.531                  -0.399598        -135.272         -58.5941         -32.427          -58.595        -32.4261       -0.0101548          149.09
0.532                  -0.398568        -135.771         -58.6162         -34.632          -58.617        -34.6312       -0.0102378         149.022
0.533                  -0.397829        -136.278         -58.6349        -36.7688         -58.6358         -36.768       -0.0103218         148.955
0.534                  -0.397428        -136.793         -58.6497         -38.841         -58.6506        -38.8402       -0.0104068         148.886
0.535                  -0.397405        -137.317         -58.6601        -40.8524          -58.661        -40.8517       -0.0104927         148.818
0.536                  -0.397797        -137.848         -58.6656        -42.8068         -58.6665        -42.8061       -0.0105797          148.75
0.537                  -0.398633        -138.387         -58.6658         -44.708         -58.6667        -44.7073       -0.0106677         148.682
0.538                  -0.399944        -138.934         -58.6605        -46.5595         -58.6614        -46.5589       -0.0107568         148.613
0.539                  -0.401755        -139.488         -58.6492        -48.3649         -58.6501        -48.3643       -0.0108469         148.545
0.54                   -0.404091         -140.05         -58.6318        -50.1277         -58.6328        -50.1272        -0.010938         148.476
0.541                  -0.406977        -140.619         -58.6081        -51.8513          -58.609        -51.8507       -0.0110302         148.407
0.542                  -0.410438        -141.196         -58.5778        -53.5387         -58.5788        -53.5382       -0.0111235         148.339
0.543                    -0.4145         -141.78         -58.5409        -55.1933         -58.5418        -55.1927       -0.0112178          148.27
0.544                  -0.419189        -142.372         -58.4971        -56.8181         -58.4981        -56.8175       -0.0113133         148.201
0.545                  -0.424535        -142.971         -58.4464        -58.4159         -58.4474        -58.4153       -0.0114098         148.131
0.546                  -0.430568        -143.578         -58.3886        -59.9898         -58.3896        -59.9891       -0.0115074         148.062
0.547                  -0.437323        -144.193         -58.3237        -61.5424         -58.3248        -61.5417       -0.0116062         147.993
0.548                  -0.444835        -144.815         -58.2517        -63.0765         -58.2527        -63.0757       -0.0117061         147.923
0.549                  -0.453146        -145.445         -58.1724        -64.5948         -58.1734        -64.5939       -0.0118072         147.853
0.55                     -0.4623        -146.083         -58.0858        -66.0998         -58.0868        -66.0989       -0.0119095         147.784
0.551                  -0.472345         -146.73         -57.9918        -67.5942         -57.9929        -67.5932       -0.0120129         147.714
0.552                  -0.483335        -147.385         -57.8905        -69.0804         -57.8916        -69.0793       -0.0121176         147.644
0.553                  -0.495328        -148.048         -57.7818         -70.561         -57.7829        -70.5599       -0.0122236         147.574
0.554                  -0.508391        -148.719         -57.6656        -72.0385         -57.6667        -72.0372       -0.0123308         147.503
0.555                  -0.522594        -149.399          -57.542        -73.5154         -57.5431         -73.514       -0.0124393         147.433
0.556                  -0.538016        -150.089          -57.411        -74.9941          -57.412        -74.9927       -0.0125491         147.363
0.557                  -0.554743        -150.787         -57.2725        -76.4773         -57.2735        -76.4757       -0.0126604         147.292
0.558                  -0.572871        -151.494         -57.1265        -77.9674         -57.1275        -77.9657        -0.012773         147.221
0.559                  -0.592504         -152.21         -56.9731         -79.467         -56.9741        -79.4652       -0.0128871          147.15
0.56                   -0.613756        -152.935         -56.8122        -80.9788         -56.8132        -80.9768       -0.0130027         147.079
0.561                  -0.636753         -153.67         -56.6439        -82.5054         -56.6449        -82.5033       -0.0131199         147.008
0.562                  -0.661634        -154.414         -56.4683        -84.0496         -56.4692        -84.0474       -0.0132387         146.937
0.563                  -0.688549        -155.167         -56.2853        -85.6142         -56.2862        -85.6119       -0.0133591         146.866
0.564                  -0.717664         -155.93          -56.095        -87.2022         -56.0959        -87.1998       -0.0134812         146.794
0.565                   -0.74916        -156.701         -55.8975        -88.8165         -55.8984         -88.814       -0.0136052         146.723
0.566                  -0.783233        -157.482         -55.6929        -90.4602         -55.6937        -90.4577        -0.013731         146.651
0.567                  -0.820098        -158.271         -55.4813        -92.1367         -55.4821        -92.1341       -0.0138588         146.579
0.568                  -0.859988        -159.067         -55.2628        -93.8492         -55.2635        -93.8465       -0.0139886         146.507
0.569                  -0.903153        -159.871         -55.0376        -95.6011         -55.0383        -95.5984       -0.0141206         146.435
0.57                   -0.949865        -160.682         -54.8058        -97.3962         -54.8065        -97.3934       -0.0142548         146.362
0.571                   -1.00041        -161.498         -54.5678         -99.238         -54.5684        -99.2353       -0.0143912          146.29
0.572                    -1.0551        -162.318         -54.3237         -101.13         -54.3243        -101.128       -0.0145302         146.217
0.573                   -1.11426         -163.14         -54.0739        -103.077         -54.0745        -103.075       -0.0146716         146.144
0.574                   -1.17821        -163.963         -53.8188        -105.083         -53.8193         -105.08       -0.0148158         146.071
0.575                   -1.24731        -164.783         -53.5588        -107.151         -53.5593        -107.149       -0.0149627         145.998
0.576                   -1.32189        -165.598         -53.2945        -109.287         -53.2948        -109.284       -0.0151125         145.925
0.577                   -1.40229        -166.404         -53.0263        -111.493         -53.0266        -111.491       -0.0152653         145.852
0.578                   -1.48881        -167.197          -52.755        -113.774         -52.7553        -113.772       -0.0154212         145.778
0.579                   -1.58171        -167.972         -52.4813        -116.134         -52.4816        -116.133       -0.0155805         145.704
0.58                    -1.68118        -168.723         -52.2062        -118.578         -52.2064        -118.576        -0.015743          145.63
0.581                   -1.78731        -169.442         -51.9305        -121.107         -51.9307        -121.106        -0.015909         145.556
0.582                   -1.90006        -170.123         -51.6554        -123.726         -51.6555        -123.725       -0.0160786         145.482
0.583                    -2.0192        -170.757         -51.3821        -126.437         -51.3821        -126.436       -0.0162517         145.408
0.584                   -2.14426        -171.335         -51.1118         -129.24         -51.1118         -129.24       -0.0164285         145.333
0.585                    -2.2745        -171.848         -50.8459        -132.138          -50.846        -132.138        -0.016609         145.259
0.586                   -2.40882        -172.285          -50.586         -135.13         -50.5861         -135.13       -0.0167931         145.184
0.587                   -2.54574        -172.636         -50.3337        -138.214         -50.3337        -138.215       -0.0169809         145.109
0.588                   -2.68336        -172.895         -50.0904        -141.388         -50.0904        -141.388       -0.0171723         145.034
0.589                   -2.81936        -173.055         -49.8578        -144.645         -49.8578        -144.646       -0.0173672         144.959
0.59                    -2.95102        -173.111         -49.6374        -147.982         -49.6374        -147.983       -0.0175655         144.883
0.591                   -3.07532        -173.065         -49.4307        -151.388         -49.4308         -151.39       -0.0177671         144.808
0.592                   -3.18911         -172.92          -49.239        -154.856         -49.2391        -154.858       -0.0179717         144.732
0.593                   -3.28925        -172.687         -49.0634        -158.374         -49.0635        -158.376       -0.0181793         144.656
0.594                   -3.37289        -172.382         -48.9048         -161.93         -48.9049        -161.932       -0.0183896          144.58
0.595                   -3.43771        -172.023         -48.7637        -165.512         -48.7639        -165.513       -0.0186025         144.504
0.596                   -3.48211        -171.635         -48.6405        -169.104         -48.6407        -169.106       -0.0188176         144.427
0.597                   -3.50542        -171.244         -48.5351        -172.694         -48.5353        -172.696       -0.0190349         144.351
0.598                   -3.50788        -170.875         -48.4472        -176.269         -48.4473         -176.27       -0.0192541         144.274
0.599                   -3.49065        -170.552          -48.376        -179.815         -48.3762        -179.816       -0.0194751         144.197
0.6                     -3.45563        -170.297         -48.3207          176.68         -48.3209         176.678       -0.0196978          144.12
0.601                    -3.4053        -170.127         -48.2802         173.224         -48.2804         173.223       -0.0199219         144.042
0.602                   -3.34244        -170.053          -48.253         169.828         -48.2532         169.828       -0.0201475         143.965
0.603                   -3.26993        -170.083         -48.2378         166.499          -48.238         166.498       -0.0203744         143.887
0.604                   -3.19057         -170.22         -48.2331         163.242         -48.2332         163.241       -0.0206026         143.809
0.605                   -3.10695        -170.464         -48.2372         160.061         -48.2373          160.06       -0.0208321         143.731
0.606                   -3.02136        -170.811         -48.2487         156.958         -48.2488         156.958       -0.0210629         143.653
0.607                   -2.93573        -171.256         -48.2661         153.935         -48.2662         153.935        -0.021295         143.575
0.608                   -2.85166        -171.793          -48.288         150.991         -48.2881         150.991       -0.0215286         143.496
0.609                   -2.77041        -172.414         -48.3131         148.125         -48.3131         148.125       -0.0217636         143.417
0.61                    -2.69297        -173.113         -48.3402         145.335         -48.3402         145.335       -0.0220003         143.338
0.611                   -2.62006        -173.883         -48.3682         142.619         -48.3681         142.619       -0.0222386         143.259
0.612                   -2.55219        -174.717         -48.3961         139.973          -48.396         139.973       -0.0224787         143.179
0.613                   -2.48973        -175.608         -48.4231         137.393          -48.423         137.393       -0.0227207         143.099
0.614                   -2.43288        -176.552         -48.4484         134.876         -48.4483         134.876       -0.0229648         143.019
0.615                   -2.38178        -177.544         -48.4715         132.418         -48.4713         132.417        -0.023211         142.939
0.616                   -2.33646        -178.578         -48.4917         130.013         -48.4915         130.013       -0.0234597         142.859
0.617                   -2.29692        -179.653         -48.5085          127.66         -48.5084         127.659       -0.0237108         142.778
0.618                   -2.26314         179.236         -48.5217         125.352         -48.5216         125.352       -0.0239645         142.697
0.619                   -2.23505         178.091         -48.5309         123.087         -48.5307         123.086       -0.0242209         142.616
0.62                    -2.21259         176.914         -48.5359         120.859         -48.5357         120.859       -0.0244803         142.534
0.621                    -2.1957         175.708         -48.5364         118.666         -48.5362         118.666       -0.0247427         142.453
0.622                   -2.18432         174.472         -48.5323         116.504         -48.5322         116.504       -0.0250083         142.371
0.623                   -2.17842          173.21         -48.5236          114.37         -48.5234         114.369       -0.0252771         142.288
0.624                   -2.17797          171.92         -48.5102         112.259           -48.51         112.259       -0.0255494         142.206
0.625                   -2.18296         170.605          -48.492         110.169         -48.4918         110.169       -0.0258253         142.123
0.626                   -2.19341         169.264         -48.4691         108.097         -48.4689         108.097       -0.0261049          142.04
0.627                   -2.20937         167.898         -48.4414         106.041         -48.4413          106.04       -0.0263884         141.957
0.628                   -2.23091         166.507         -48.4092         103.996          -48.409         103.996       -0.0266757         141.874
0.629                   -2.25811          165.09         -48.3723         101.961         -48.3721         101.961       -0.0269672          141.79
