! TOUCHSTONE file generated by CST MICROWAVE STUDIO
! Date and time: Sat Oct 24 10:41:57 2020
! Project name: Scenario_1_Planar_Body_Tissue_Center.cst
! Parameters = {hfat=3; hmuscle=50; hskin=1.5; hgap=25; Wtissue=700; Ltissue=700; L_HA=400; MT=2.54; Rad_Dielectric=30; Rad_Lower=7.3; Rad_Upper=30; a_HA=580; a_WG=246; b_HA=500; b_WG=121; c_HA=0; c_WG=187; d_feed=85; dx1=242.28; h_feed=15; h_lower=18; h_upper=40}
! Header version: 2018
! Port assignment regex: !\s*Touchstone port\s*([0-9]+)\s*=\s*(CST MWS port|CST DS port)\s*([0-9]+|Zmin|Zmax)\s*\(\"(.*)\"\)(\s*mode\s*([0-9]+))?.*
! Touchstone port assignment:
! Touchstone port 1 = CST MWS port 1 ("")
! Touchstone port 2 = CST MWS port 2 ("")
# GHz S DB R 50
0.5                   -0.0676787        -122.418         -56.6199         112.867         -56.6199         112.867      -0.00712852         151.148
0.501                 -0.0691093        -122.872          -56.351         112.039         -56.3507         112.038      -0.00727238         151.082
0.502                 -0.0706702        -123.332         -56.0775         111.191         -56.0768         111.191      -0.00742078         151.015
0.503                 -0.0723792        -123.797         -55.7992         110.324         -55.7982         110.323      -0.00757332         150.949
0.504                 -0.0742562        -124.267         -55.5161         109.436         -55.5147         109.434      -0.00772956         150.883
0.505                 -0.0763246        -124.743          -55.228         108.524         -55.2262         108.522      -0.00788909         150.817
0.506                  -0.078611        -125.225         -54.9347         107.588         -54.9327         107.586      -0.00805148          150.75
0.507                  -0.081146        -125.713         -54.6362         106.626         -54.6338         106.623      -0.00821634         150.684
0.508                 -0.0839651        -126.208         -54.3323         105.635         -54.3297         105.632      -0.00838326         150.618
0.509                 -0.0871096         -126.71         -54.0229         104.615           -54.02         104.611      -0.00855184         150.552
0.51                  -0.0906272        -127.219         -53.7079         103.562         -53.7046         103.557      -0.00872172         150.485
0.511                 -0.0945735        -127.736          -53.387         102.474         -53.3836         102.468      -0.00889251         150.419
0.512                 -0.0990133        -128.261         -53.0603         101.348         -53.0566         101.342      -0.00906387         150.352
0.513                  -0.104023        -128.796         -52.7276         100.181         -52.7237         100.175      -0.00923547         150.286
0.514                   -0.10969        -129.339         -52.3887          98.971         -52.3846         98.9634      -0.00940697         150.219
0.515                  -0.116121        -129.893         -52.0437         97.7131         -52.0394         97.7047      -0.00957808         150.153
0.516                  -0.123439        -130.457         -51.6923         96.4039         -51.6878         96.3946      -0.00974851         150.086
0.517                  -0.131788        -131.032         -51.3347         95.0391           -51.33         95.0288      -0.00991799          150.02
0.518                  -0.141342        -131.619         -50.9706         93.6138         -50.9659         93.6027       -0.0100863         149.953
0.519                  -0.152305        -132.219         -50.6003         92.1231         -50.5954         92.1109       -0.0102531         149.887
0.52                   -0.164921        -132.832         -50.2237         90.5613         -50.2187         90.5481       -0.0104183          149.82
0.521                  -0.179479        -133.458         -49.8409         88.9223         -49.8359          88.908       -0.0105817         149.753
0.522                  -0.196324          -134.1         -49.4523         87.1994         -49.4472         87.1839       -0.0107431         149.686
0.523                  -0.215867        -134.756          -49.058         85.3854         -49.0529         85.3688       -0.0109023         149.619
0.524                  -0.238598        -135.428         -48.6586         83.4725         -48.6535         83.4547       -0.0110593         149.552
0.525                  -0.265099        -136.116         -48.2545         81.4523         -48.2495         81.4333       -0.0112138         149.485
0.526                  -0.296057        -136.818         -47.8467         79.3161         -47.8417         79.2959       -0.0113658         149.418
0.527                  -0.332279        -137.535         -47.4359         77.0544          -47.431         77.0331       -0.0115152         149.351
0.528                  -0.374702        -138.263         -47.0234         74.6577         -47.0187         74.6353        -0.011662         149.284
0.529                  -0.424394            -139         -46.6108         72.1163         -46.6062         72.0929       -0.0118061         149.217
0.53                   -0.482542         -139.74         -46.1998         69.4208         -46.1955         69.3964       -0.0119474         149.149
0.531                  -0.550409        -140.474         -45.7927         66.5621         -45.7886          66.537       -0.0120859         149.082
0.532                  -0.629251        -141.193          -45.392         63.5327         -45.3882         63.5069       -0.0122216         149.014
0.533                  -0.720163        -141.879         -45.0008         60.3266         -44.9973         60.3004       -0.0123546         148.947
0.534                  -0.823836        -142.513         -44.6225         56.9404         -44.6194         56.9141       -0.0124848         148.879
0.535                  -0.940203         -143.07          -44.261         53.3744         -44.2583         53.3484       -0.0126123         148.811
0.536                   -1.06799        -143.519         -43.9204         49.6332         -43.9181         49.6078        -0.012737         148.744
0.537                   -1.20423         -143.83         -43.6048         45.7268         -43.6029         45.7025       -0.0128591         148.676
0.538                    -1.3439        -143.975         -43.3185         41.6711          -43.317         41.6482       -0.0129786         148.608
0.539                    -1.4799        -143.936         -43.0654         37.4882         -43.0643         37.4673       -0.0130956          148.54
0.54                     -1.6037        -143.713         -42.8488         33.2062         -42.8481         33.1876       -0.0132101         148.471
0.541                   -1.70658        -143.327         -42.6713         28.8582         -42.6709         28.8423       -0.0133222         148.403
0.542                    -1.7814        -142.825         -42.5343          24.481         -42.5341         24.4681        -0.013432         148.335
0.543                   -1.82415        -142.267         -42.4382         20.1129         -42.4381         20.1032       -0.0135396         148.266
0.544                    -1.8347        -141.716         -42.3819         15.7917         -42.3819         15.7853        -0.013645         148.198
0.545                   -1.81639         -141.23         -42.3635         11.5527         -42.3636         11.5495       -0.0137485         148.129
0.546                   -1.77489        -140.848         -42.3801         7.42657         -42.3801         7.42642       -0.0138501          148.06
0.547                   -1.71673        -140.593         -42.4279          3.4385         -42.4279         3.44124       -0.0139499         147.991
0.548                   -1.64813         -140.47         -42.5029       -0.392457         -42.5027       -0.387095        -0.014048         147.922
0.549                   -1.57431        -140.474         -42.6009        -4.05342         -42.6005        -4.04573       -0.0141446         147.853
0.55                    -1.49926        -140.592         -42.7175        -7.53715         -42.7169        -7.52746       -0.0142397         147.784
0.551                   -1.42574        -140.808         -42.8489        -10.8413          -42.848        -10.8299       -0.0143334         147.714
0.552                   -1.35556        -141.109         -42.9913        -13.9676         -42.9903        -13.9549       -0.0144259         147.645
0.553                   -1.28973        -141.478         -43.1416        -16.9207         -43.1403        -16.9069       -0.0145173         147.575
0.554                   -1.22876        -141.904         -43.2969        -19.7076         -43.2954        -19.6929       -0.0146077         147.505
0.555                   -1.17279        -142.375         -43.4547        -22.3366          -43.453        -22.3214       -0.0146971         147.435
0.556                   -1.12172        -142.883         -43.6131        -24.8172         -43.6112        -24.8015       -0.0147858         147.365
0.557                   -1.07532        -143.422         -43.7704        -27.1588         -43.7682         -27.143       -0.0148738         147.295
0.558                    -1.0333        -143.984         -43.9252        -29.3713         -43.9228        -29.3554       -0.0149613         147.225
0.559                   -0.99532        -144.567         -44.0763        -31.4642         -44.0738        -31.4484       -0.0150483         147.154
0.56                   -0.961049        -145.165          -44.223        -33.4467         -44.2204         -33.431        -0.015135         147.084
0.561                  -0.930163        -145.778         -44.3646        -35.3274         -44.3619         -35.312       -0.0152215         147.013
0.562                  -0.902357        -146.402         -44.5005        -37.1145         -44.4977        -37.0995       -0.0153079         146.942
0.563                   -0.87735        -147.036         -44.6305        -38.8157         -44.6275         -38.801       -0.0153943         146.872
0.564                  -0.854889        -147.678         -44.7541        -40.4378          -44.751        -40.4236       -0.0154808           146.8
0.565                  -0.834744        -148.328         -44.8712        -41.9875         -44.8681        -41.9738       -0.0155675         146.729
0.566                   -0.81671        -148.986         -44.9817        -43.4707         -44.9786        -43.4575       -0.0156546         146.658
0.567                  -0.800604        -149.649         -45.0856        -44.8928         -45.0824        -44.8802       -0.0157421         146.586
0.568                  -0.786264        -150.319         -45.1827        -46.2589         -45.1795        -46.2468       -0.0158301         146.515
0.569                  -0.773546        -150.995         -45.2733        -47.5736         -45.2701        -47.5621       -0.0159187         146.443
0.57                   -0.762323        -151.676         -45.3572         -48.841          -45.354        -48.8301       -0.0160081         146.371
0.571                  -0.752484        -152.363         -45.4346        -50.0651         -45.4314        -50.0548       -0.0160984         146.299
0.572                  -0.743929        -153.055         -45.5056        -51.2494         -45.5024        -51.2397       -0.0161895         146.227
0.573                  -0.736572        -153.753         -45.5702        -52.3971          -45.567         -52.388       -0.0162817         146.154
0.574                  -0.730337        -154.457         -45.6285        -53.5112         -45.6254        -53.5026        -0.016375         146.082
0.575                  -0.725158        -155.166         -45.6808        -54.5945         -45.6777        -54.5864       -0.0164696         146.009
0.576                  -0.720975        -155.881          -45.727        -55.6494         -45.7239        -55.6419       -0.0165654         145.936
0.577                   -0.71774        -156.602         -45.7673        -56.6783         -45.7643        -56.6713       -0.0166626         145.863
0.578                  -0.715408        -157.329         -45.8018        -57.6833         -45.7989        -57.6768       -0.0167613          145.79
0.579                  -0.713941        -158.063         -45.8307        -58.6664         -45.8278        -58.6605       -0.0168616         145.717
0.58                   -0.713309        -158.803          -45.854        -59.6295         -45.8511        -59.6241       -0.0169635         145.643
0.581                  -0.713483         -159.55         -45.8718        -60.5743         -45.8691        -60.5693       -0.0170671         145.569
0.582                  -0.714443        -160.304         -45.8844        -61.5024         -45.8817        -61.4979       -0.0171726         145.496
0.583                   -0.71617        -161.065         -45.8917        -62.4152         -45.8891        -62.4111         -0.01728         145.422
0.584                  -0.718651        -161.833         -45.8939        -63.3143         -45.8914        -63.3106       -0.0173893         145.347
0.585                  -0.721875        -162.609         -45.8911        -64.2008         -45.8886        -64.1975       -0.0175007         145.273
0.586                  -0.725836        -163.393         -45.8833         -65.076          -45.881        -65.0731       -0.0176142         145.198
0.587                   -0.73053        -164.185         -45.8708        -65.9411         -45.8685        -65.9386         -0.01773         145.124
0.588                  -0.735958        -164.986         -45.8535        -66.7972         -45.8513        -66.7951        -0.017848         145.049
0.589                  -0.742122        -165.795         -45.8316        -67.6454         -45.8295        -67.6435       -0.0179684         144.974
0.59                   -0.749028        -166.613         -45.8051        -68.4865         -45.8031         -68.485       -0.0180912         144.899
0.591                  -0.756685        -167.441         -45.7742        -69.3216         -45.7723        -69.3203       -0.0182165         144.823
0.592                  -0.765103        -168.278         -45.7389        -70.1516         -45.7371        -70.1506       -0.0183444         144.748
0.593                  -0.774298        -169.124         -45.6992        -70.9773         -45.6975        -70.9765       -0.0184749         144.672
0.594                  -0.784286        -169.981         -45.6554        -71.7995         -45.6537        -71.7989       -0.0186081         144.596
0.595                  -0.795087        -170.849         -45.6073        -72.6191         -45.6058        -72.6188       -0.0187441          144.52
0.596                  -0.806722        -171.727         -45.5552        -73.4368         -45.5537        -73.4367        -0.018883         144.444
0.597                  -0.819219        -172.617          -45.499        -74.2535         -45.4976        -74.2535       -0.0190248         144.367
0.598                  -0.832605        -173.518         -45.4388        -75.0697         -45.4376        -75.0698       -0.0191696          144.29
0.599                  -0.846911        -174.431         -45.3748        -75.8863         -45.3736        -75.8865       -0.0193174         144.213
0.6                    -0.862173        -175.356         -45.3069        -76.7038         -45.3058        -76.7042       -0.0194684         144.136
0.601                  -0.878427        -176.294         -45.2352        -77.5231         -45.2342        -77.5236       -0.0196226         144.059
0.602                  -0.895714        -177.245         -45.1598        -78.3448         -45.1589        -78.3453         -0.01978         143.982
0.603                  -0.914081        -178.209         -45.0807        -79.1695         -45.0799        -79.1701       -0.0199407         143.904
0.604                  -0.933574        -179.187          -44.998        -79.9979         -44.9973        -79.9985       -0.0201048         143.826
0.605                  -0.954246          179.82         -44.9118        -80.8306         -44.9111        -80.8313       -0.0202724         143.748
0.606                  -0.976154         178.812          -44.822        -81.6684         -44.8215         -81.669       -0.0204435          143.67
0.607                  -0.999359         177.789         -44.7288        -82.5117         -44.7283        -82.5123       -0.0206181         143.591
0.608                   -1.02393         176.751         -44.6322        -83.3613         -44.6318        -83.3619       -0.0207965         143.512
0.609                   -1.04992         175.696         -44.5322        -84.2177         -44.5319        -84.2183       -0.0209785         143.433
0.61                    -1.07743         174.624          -44.429        -85.0818         -44.4287        -85.0823       -0.0211643         143.354
0.611                   -1.10653         173.535         -44.3225        -85.9539         -44.3223        -85.9544        -0.021354         143.275
0.612                    -1.1373         172.428         -44.2128        -86.8349         -44.2127        -86.8353       -0.0215476         143.195
0.613                   -1.16985         171.303         -44.1001        -87.7253            -44.1        -87.7256       -0.0217451         143.115
0.614                   -1.20426         170.159         -43.9842        -88.6258         -43.9842         -88.626       -0.0219467         143.035
0.615                   -1.24065         168.994         -43.8653        -89.5371         -43.8653        -89.5371       -0.0221525         142.955
0.616                   -1.27914          167.81         -43.7435        -90.4597         -43.7436        -90.4597       -0.0223624         142.874
0.617                   -1.31984         166.605         -43.6187        -91.3944         -43.6189        -91.3942       -0.0225765         142.794
0.618                    -1.3629         165.378         -43.4912        -92.3418         -43.4914        -92.3415        -0.022795         142.713
0.619                   -1.40845         164.128         -43.3609        -93.3026         -43.3611        -93.3022       -0.0230179         142.631
0.62                    -1.45664         162.856         -43.2279        -94.2775         -43.2281        -94.2769       -0.0232453          142.55
0.621                   -1.50764          161.56         -43.0922        -95.2671         -43.0925        -95.2664       -0.0234771         142.468
0.622                   -1.56162         160.239         -42.9541        -96.2722         -42.9544        -96.2713       -0.0237136         142.386
0.623                   -1.61878         158.894         -42.8134        -97.2934         -42.8138        -97.2924       -0.0239548         142.304
0.624                   -1.67931         157.522         -42.6704        -98.3314         -42.6708        -98.3302       -0.0242007         142.221
0.625                   -1.74343         156.123         -42.5251        -99.3869         -42.5255        -99.3856       -0.0244514         142.138
0.626                   -1.81137         154.697         -42.3776        -100.461          -42.378        -100.459        -0.024707         142.055
0.627                   -1.88338         153.242          -42.228        -101.553         -42.2284        -101.552       -0.0249676         141.972
0.628                   -1.95972         151.758         -42.0764        -102.665         -42.0768        -102.664       -0.0252333         141.889
0.629                   -2.04068         150.243         -41.9229        -103.798         -41.9234        -103.796       -0.0255041         141.805
