! TOUCHSTONE file generated by CST MICROWAVE STUDIO
! Date and time: Sat Oct 24 10:42:13 2020
! Project name: Scenario_1_Planar_Body_Tissue_Center.cst
! Parameters = {hfat=3; hmuscle=50; hskin=1.5; hgap=25; Wtissue=700; Ltissue=700; L_HA=400; MT=2.54; Rad_Dielectric=30; Rad_Lower=7.3; Rad_Upper=30; a_HA=580; a_WG=246; b_HA=500; b_WG=121; c_HA=0; c_WG=187; d_feed=85; dx1=276.92; h_feed=15; h_lower=18; h_upper=40}
! Header version: 2018
! Port assignment regex: !\s*Touchstone port\s*([0-9]+)\s*=\s*(CST MWS port|CST DS port)\s*([0-9]+|Zmin|Zmax)\s*\(\"(.*)\"\)(\s*mode\s*([0-9]+))?.*
! Touchstone port assignment:
! Touchstone port 1 = CST MWS port 1 ("")
! Touchstone port 2 = CST MWS port 2 ("")
# GHz S DB R 50
0.5                    -0.131073        -122.772         -55.5661         96.7583         -55.5662         96.7583       -0.0073289         151.146
0.501                  -0.133491        -123.134         -55.7213         95.4593         -55.7214         95.4595      -0.00739919         151.081
0.502                  -0.135942        -123.498         -55.8775         94.1205         -55.8775         94.1209      -0.00747028         151.015
0.503                  -0.138428        -123.865         -56.0345         92.7401         -56.0344         92.7408      -0.00754217          150.95
0.504                  -0.140949        -124.234          -56.192         91.3162         -56.1919         91.3171      -0.00761485         150.885
0.505                  -0.143506        -124.606           -56.35         89.8469         -56.3497         89.8481      -0.00768834         150.819
0.506                  -0.146099        -124.979          -56.508         88.3302         -56.5077         88.3318      -0.00776262         150.754
0.507                   -0.14873        -125.356         -56.6659         86.7643         -56.6656         86.7661      -0.00783772         150.688
0.508                    -0.1514        -125.735         -56.8234          85.147          -56.823         85.1492      -0.00791362         150.622
0.509                  -0.154109        -126.116         -56.9801         83.4764         -56.9796          83.479      -0.00799033         150.557
0.51                   -0.156859          -126.5         -57.1356         81.7506          -57.135         81.7537      -0.00806786         150.491
0.511                   -0.15965        -126.887         -57.2895         79.9678         -57.2888         79.9713       -0.0081462         150.425
0.512                  -0.162483        -127.276         -57.4413         78.1261         -57.4405         78.1301      -0.00822537         150.359
0.513                  -0.165359        -127.668         -57.5904         76.2241         -57.5896         76.2286      -0.00830535         150.293
0.514                  -0.168281        -128.063         -57.7363         74.2602         -57.7355         74.2653      -0.00838616         150.227
0.515                  -0.171248        -128.461         -57.8784         72.2334         -57.8775          72.239      -0.00846779         150.161
0.516                  -0.174262        -128.861          -58.016         70.1427         -58.0151         70.1489      -0.00855025         150.094
0.517                  -0.177324        -129.264         -58.1483         67.9877         -58.1473         67.9945      -0.00863354         150.028
0.518                  -0.180435         -129.67         -58.2747         65.7682         -58.2736         65.7757      -0.00871767         149.961
0.519                  -0.183598        -130.079         -58.3941         63.4847         -58.3931         63.4929      -0.00880263         149.895
0.52                   -0.186812        -130.491          -58.506         61.1382         -58.5049         61.1471      -0.00888843         149.828
0.521                  -0.190081        -130.906         -58.6093         58.7303         -58.6082         58.7399      -0.00897508         149.761
0.522                  -0.193404        -131.323         -58.7032         56.2632         -58.7021         56.2735      -0.00906257         149.695
0.523                  -0.196784        -131.744         -58.7868         53.7399         -58.7857         53.7509       -0.0091509         149.628
0.524                  -0.200222        -132.168         -58.8593         51.1641         -58.8583         51.1758      -0.00924009         149.561
0.525                  -0.203721        -132.596           -58.92         48.5403         -58.9189         48.5527      -0.00933013         149.494
0.526                  -0.207281        -133.026          -58.968         45.8737          -58.967         45.8867      -0.00942102         149.427
0.527                  -0.210904         -133.46         -59.0027           43.17         -59.0017         43.1837      -0.00951277         149.359
0.528                  -0.214594        -133.897         -59.0236         40.4359         -59.0226         40.4502      -0.00960538         149.292
0.529                  -0.218351        -134.337         -59.0301         37.6782         -59.0292         37.6931      -0.00969885         149.224
0.53                   -0.222177        -134.781          -59.022         34.9044         -59.0212         34.9198      -0.00979318         149.157
0.531                  -0.226076        -135.228         -58.9991         32.1222         -58.9984          32.138      -0.00988839         149.089
0.532                  -0.230048        -135.679         -58.9613         29.3392         -58.9607         29.3554      -0.00998446         149.022
0.533                  -0.234097        -136.133         -58.9088         26.5633         -58.9083         26.5798       -0.0100814         148.954
0.534                  -0.238224        -136.591         -58.8418         23.8019         -58.8414         23.8187       -0.0101792         148.886
0.535                  -0.242433        -137.053         -58.7607         21.0623         -58.7603         21.0793       -0.0102779         148.818
0.536                  -0.246726        -137.519         -58.6659         18.3512         -58.6656         18.3683       -0.0103775          148.75
0.537                  -0.251107        -137.988         -58.5581         15.6746         -58.5579         15.6918        -0.010478         148.682
0.538                  -0.255577        -138.461         -58.4379         13.0382         -58.4378         13.0554       -0.0105793         148.613
0.539                  -0.260139        -138.938         -58.3062         10.4467         -58.3062         10.4638       -0.0106815         148.545
0.54                   -0.264798        -139.419         -58.1637         7.90413         -58.1638         7.92106       -0.0107847         148.476
0.541                  -0.269557        -139.904         -58.0112          5.4138         -58.0114         5.43055       -0.0108887         148.408
0.542                  -0.274418        -140.394         -57.8497         2.97829           -57.85         2.99481       -0.0109936         148.339
0.543                  -0.279386        -140.887           -57.68        0.599478         -57.6803         0.61573       -0.0110994          148.27
0.544                  -0.284464        -141.385         -57.5029         -1.7214         -57.5033        -1.70546       -0.0112061         148.201
0.545                  -0.289656        -141.887         -57.3192        -3.98371         -57.3196         -3.9681       -0.0113137         148.132
0.546                  -0.294967        -142.394         -57.1297        -6.18732         -57.1302        -6.17206       -0.0114222         148.063
0.547                  -0.300402        -142.905         -56.9351        -8.33257         -56.9357        -8.31769       -0.0115316         147.994
0.548                  -0.305963        -143.421         -56.7362        -10.4202         -56.7368        -10.4057       -0.0116419         147.925
0.549                  -0.311657        -143.942         -56.5335        -12.4513         -56.5341        -12.4372       -0.0117531         147.855
0.55                   -0.317489        -144.467         -56.3276        -14.4271         -56.3283        -14.4135       -0.0118653         147.786
0.551                  -0.323463        -144.997         -56.1192        -16.3493         -56.1199        -16.3361       -0.0119783         147.716
0.552                  -0.329585        -145.533         -55.9086        -18.2196         -55.9093        -18.2068       -0.0120923         147.646
0.553                  -0.335862        -146.073         -55.6963        -20.0398          -55.697        -20.0274       -0.0122072         147.576
0.554                  -0.342298        -146.618         -55.4827        -21.8118         -55.4835        -21.7998        -0.012323         147.506
0.555                  -0.348902        -147.169         -55.2682        -23.5377          -55.269        -23.5262       -0.0124397         147.436
0.556                  -0.355679        -147.725          -55.053        -25.2195         -55.0538        -25.2084       -0.0125573         147.366
0.557                  -0.362636        -148.287         -54.8375        -26.8592         -54.8383        -26.8485       -0.0126759         147.296
0.558                  -0.369781        -148.854         -54.6219        -28.4589         -54.6227        -28.4485       -0.0127954         147.225
0.559                  -0.377122        -149.427         -54.4064        -30.0205         -54.4072        -30.0105       -0.0129159         147.155
0.56                   -0.384668        -150.005         -54.1911        -31.5459         -54.1919        -31.5363       -0.0130372         147.084
0.561                  -0.392426         -150.59         -53.9763        -33.0372         -53.9771         -33.028       -0.0131595         147.013
0.562                  -0.400406        -151.181          -53.762        -34.4962         -53.7628        -34.4873       -0.0132828         146.942
0.563                  -0.408617        -151.778         -53.5484        -35.9246         -53.5492         -35.916        -0.013407         146.871
0.564                  -0.417071        -152.381         -53.3356        -37.3241         -53.3363         -37.316       -0.0135321           146.8
0.565                  -0.425777        -152.991         -53.1236        -38.6966         -53.1243        -38.6887       -0.0136582         146.728
0.566                  -0.434747        -153.607         -52.9124        -40.0435         -52.9131         -40.036       -0.0137853         146.657
0.567                  -0.443992         -154.23         -52.7023        -41.3665          -52.703        -41.3592       -0.0139133         146.585
0.568                  -0.453526         -154.86         -52.4931        -42.6669         -52.4937          -42.66       -0.0140422         146.513
0.569                  -0.463362        -155.497         -52.2849        -43.9463         -52.2855        -43.9397       -0.0141722         146.441
0.57                   -0.473513        -156.142         -52.0777         -45.206         -52.0783        -45.1996       -0.0143031         146.369
0.571                  -0.483995        -156.793         -51.8715        -46.4472         -51.8721        -46.4411        -0.014435         146.297
0.572                  -0.494823        -157.453         -51.6663        -47.6713         -51.6669        -47.6655       -0.0145678         146.225
0.573                  -0.506015         -158.12         -51.4622        -48.8794         -51.4628        -48.8738       -0.0147017         146.153
0.574                  -0.517586        -158.795          -51.259        -50.0727         -51.2596        -50.0674       -0.0148366          146.08
0.575                  -0.529557        -159.478         -51.0569        -51.2522         -51.0574        -51.2471       -0.0149725         146.007
0.576                  -0.541947         -160.17         -50.8556        -52.4191         -50.8562        -52.4143       -0.0151094         145.934
0.577                  -0.554776         -160.87         -50.6554        -53.5743         -50.6559        -53.5697       -0.0152473         145.861
0.578                  -0.568067        -161.579          -50.456        -54.7188         -50.4565        -54.7144       -0.0153863         145.788
0.579                  -0.581844        -162.297         -50.2575        -55.8536         -50.2579        -55.8494       -0.0155264         145.715
0.58                   -0.596131        -163.024         -50.0598        -56.9795         -50.0602        -56.9755       -0.0156675         145.641
0.581                  -0.610955         -163.76         -49.8629        -58.0974         -49.8633        -58.0936       -0.0158097         145.568
0.582                  -0.626344        -164.506         -49.6668        -59.2081         -49.6672        -59.2045        -0.015953         145.494
0.583                  -0.642328        -165.263         -49.4715        -60.3125         -49.4718        -60.3091       -0.0160975          145.42
0.584                  -0.658939        -166.029         -49.2768        -61.4113         -49.2771        -61.4081        -0.016243         145.346
0.585                   -0.67621        -166.806         -49.0827        -62.5053         -49.0831        -62.5023       -0.0163898         145.271
0.586                  -0.694178        -167.594         -48.8893        -63.5953         -48.8896        -63.5924       -0.0165378         145.197
0.587                  -0.712881        -168.392         -48.6964        -64.6819         -48.6967        -64.6792        -0.016687         145.122
0.588                  -0.732359        -169.202          -48.504        -65.7658         -48.5043        -65.7633       -0.0168374         145.048
0.589                  -0.752657        -170.024         -48.3121        -66.8478         -48.3124        -66.8454       -0.0169892         144.973
0.59                   -0.773821        -170.858         -48.1207        -67.9286         -48.1209        -67.9263       -0.0171422         144.898
0.591                    -0.7959        -171.704         -47.9296        -69.0087         -47.9299        -69.0066       -0.0172967         144.822
0.592                  -0.818947        -172.563         -47.7389        -70.0888         -47.7391        -70.0868       -0.0174526         144.747
0.593                  -0.843019        -173.435         -47.5485        -71.1696         -47.5487        -71.1678       -0.0176099         144.671
0.594                  -0.868176         -174.32         -47.3584        -72.2517         -47.3586          -72.25       -0.0177687         144.595
0.595                  -0.894483        -175.219         -47.1685        -73.3358         -47.1686        -73.3342       -0.0179291         144.519
0.596                  -0.922009        -176.132         -46.9788        -74.4224         -46.9789        -74.4209       -0.0180912         144.443
0.597                  -0.950828         -177.06         -46.7892        -75.5122         -46.7893        -75.5108       -0.0182549         144.367
0.598                  -0.981018        -178.003         -46.5997        -76.6058         -46.5998        -76.6045       -0.0184204          144.29
0.599                   -1.01267        -178.962         -46.4103        -77.7038         -46.4104        -77.7026       -0.0185877         144.213
0.6                     -1.04586        -179.936         -46.2209        -78.8068          -46.221        -78.8058        -0.018757         144.136
0.601                    -1.0807         179.073         -46.0316        -79.9155         -46.0317        -79.9146       -0.0189283         144.059
0.602                   -1.11729         178.065         -45.8422        -81.0304         -45.8423        -81.0296       -0.0191016         143.982
0.603                   -1.15574          177.04         -45.6527        -82.1523         -45.6528        -82.1516       -0.0192771         143.904
0.604                   -1.19617         175.997         -45.4632        -83.2817         -45.4632        -83.2811       -0.0194549         143.826
0.605                   -1.23872         174.935         -45.2736        -84.4193         -45.2736        -84.4187       -0.0196351         143.748
0.606                   -1.28352         173.855         -45.0838        -85.5657         -45.0838        -85.5652       -0.0198178          143.67
0.607                   -1.33072         172.755         -44.8938        -86.7215         -44.8938        -86.7211       -0.0200032         143.592
0.608                   -1.38048         171.634         -44.7037        -87.8875         -44.7037        -87.8872       -0.0201912         143.513
0.609                   -1.43298         170.494         -44.5133        -89.0643         -44.5133         -89.064       -0.0203822         143.434
0.61                    -1.48839         169.332         -44.3228        -90.2525         -44.3228        -90.2523       -0.0205761         143.355
0.611                   -1.54694         168.148          -44.132        -91.4529          -44.132        -91.4528       -0.0207732         143.276
0.612                   -1.60882         166.942          -43.941        -92.6662          -43.941        -92.6661       -0.0209735         143.196
0.613                   -1.67428         165.712         -43.7498        -93.8931         -43.7498         -93.893       -0.0211773         143.116
0.614                   -1.74356          164.46         -43.5584        -95.1342         -43.5584        -95.1342       -0.0213846         143.036
0.615                   -1.81694         163.183         -43.3668        -96.3904         -43.3667        -96.3904       -0.0215957         142.956
0.616                   -1.89472         161.881         -43.1749        -97.6623         -43.1749        -97.6624       -0.0218106         142.876
0.617                    -1.9772         160.554         -42.9829        -98.9507         -42.9829        -98.9509       -0.0220296         142.795
0.618                   -2.06473         159.201         -42.7908        -100.256         -42.7907        -100.257       -0.0222528         142.714
0.619                   -2.15768         157.822         -42.5985         -101.58         -42.5985         -101.58       -0.0224803         142.633
0.62                    -2.25644         156.416         -42.4062        -102.923         -42.4061        -102.923       -0.0227124         142.551
0.621                   -2.36146         154.983         -42.2138        -104.285         -42.2138        -104.285       -0.0229491          142.47
0.622                   -2.47319         153.522         -42.0215        -105.668         -42.0215        -105.668       -0.0231906         142.388
0.623                   -2.59214         152.033         -41.8293        -107.071         -41.8293        -107.071       -0.0234371         142.305
0.624                   -2.71885         150.517         -41.6373        -108.497         -41.6372        -108.497       -0.0236888         142.223
0.625                   -2.85391         148.972         -41.4455        -109.945         -41.4455        -109.945       -0.0239457          142.14
0.626                   -2.99796         147.398         -41.2541        -111.417         -41.2541        -111.417       -0.0242081         142.057
0.627                   -3.15169         145.797         -41.0632        -112.913         -41.0632        -112.913        -0.024476         141.974
0.628                   -3.31584         144.168         -40.8729        -114.433         -40.8728        -114.434       -0.0247497          141.89
0.629                   -3.49124         142.512         -40.6833         -115.98         -40.6833         -115.98       -0.0250292         141.807
