! TOUCHSTONE file generated by CST MICROWAVE STUDIO
! Date and time: Sat Oct 24 10:42:22 2020
! Project name: Scenario_1_Planar_Body_Tissue_Center.cst
! Parameters = {hfat=3; hmuscle=50; hskin=1.5; hgap=25; Wtissue=700; Ltissue=700; L_HA=400; MT=2.54; Rad_Dielectric=30; Rad_Lower=7.3; Rad_Upper=30; a_HA=580; a_WG=246; b_HA=500; b_WG=121; c_HA=0; c_WG=187; d_feed=85; dx1=294.24; h_feed=15; h_lower=18; h_upper=40}
! Header version: 2018
! Port assignment regex: !\s*Touchstone port\s*([0-9]+)\s*=\s*(CST MWS port|CST DS port)\s*([0-9]+|Zmin|Zmax)\s*\(\"(.*)\"\)(\s*mode\s*([0-9]+))?.*
! Touchstone port assignment:
! Touchstone port 1 = CST MWS port 1 ("")
! Touchstone port 2 = CST MWS port 2 ("")
# GHz S DB R 50
0.5                    -0.189241        -122.851         -54.8696         85.0409         -54.8695         85.0402      -0.00748739         151.146
0.501                  -0.194346        -123.209         -54.8359         84.3491         -54.8365         84.3508      -0.00757202         151.081
0.502                  -0.199412        -123.569         -54.7997         83.6484         -54.8011         83.6526      -0.00765684         151.016
0.503                   -0.20444        -123.932         -54.7611         82.9386         -54.7632         82.9454      -0.00774184         150.951
0.504                  -0.209431        -124.297         -54.7198         82.2195         -54.7227          82.229      -0.00782704         150.885
0.505                  -0.214386        -124.664         -54.6758         81.4909         -54.6794         81.5032      -0.00791244          150.82
0.506                  -0.219305        -125.034         -54.6288         80.7526         -54.6332         80.7677      -0.00799804         150.755
0.507                  -0.224191        -125.407         -54.5787         80.0043          -54.584         80.0225      -0.00808384         150.689
0.508                  -0.229043        -125.782         -54.5255         79.2459         -54.5316         79.2673      -0.00816985         150.623
0.509                  -0.233862         -126.16         -54.4688          78.477         -54.4759         78.5017      -0.00825608         150.558
0.51                   -0.238651         -126.54         -54.4086         77.6974         -54.4166         77.7256      -0.00834252         150.492
0.511                  -0.243409        -126.923         -54.3447         76.9068         -54.3536         76.9387      -0.00842918         150.426
0.512                  -0.248138        -127.309         -54.2768         76.1047         -54.2867         76.1405      -0.00851606          150.36
0.513                  -0.252839        -127.697         -54.2048          75.291         -54.2157         75.3308      -0.00860318         150.294
0.514                  -0.257514        -128.088         -54.1285          74.465         -54.1404         74.5091      -0.00869053         150.228
0.515                  -0.262163        -128.482         -54.0476         73.6264         -54.0606          73.675      -0.00877812         150.162
0.516                  -0.266788        -128.879          -53.962         72.7746          -53.976          72.828      -0.00886595         150.096
0.517                  -0.271391        -129.279         -53.8713          71.909         -53.8864         71.9675      -0.00895403          150.03
0.518                  -0.275973        -129.682         -53.7753          71.029         -53.7916         71.0928      -0.00904236         149.963
0.519                  -0.280535        -130.088         -53.6737         70.1338         -53.6912         70.2033      -0.00913095         149.897
0.52                   -0.285079        -130.497         -53.5663         69.2225          -53.585          69.298      -0.00921981          149.83
0.521                  -0.289607        -130.909         -53.4528         68.2942         -53.4727         68.3761      -0.00930894         149.764
0.522                  -0.294121        -131.324         -53.3328         67.3477         -53.3539         67.4365      -0.00939835         149.697
0.523                  -0.298622        -131.742          -53.206         66.3817         -53.2284         66.4779      -0.00948803          149.63
0.524                  -0.303112        -132.164          -53.072         65.3949         -53.0957         65.4989      -0.00957801         149.563
0.525                  -0.307593        -132.589         -52.9305         64.3855         -52.9556          64.498      -0.00966828         149.496
0.526                  -0.312068        -133.017         -52.7812         63.3516         -52.8075         63.4731      -0.00975885         149.429
0.527                  -0.316539        -133.448         -52.6235          62.291         -52.6512         62.4223      -0.00984973         149.362
0.528                  -0.321008        -133.884         -52.4572         61.2013         -52.4862         61.3431      -0.00994092         149.295
0.529                  -0.325476        -134.322         -52.2817         60.0795         -52.3121         60.2326       -0.0100324         149.227
0.53                   -0.329948        -134.764         -52.0967         58.9222         -52.1284         59.0875       -0.0101243          149.16
0.531                  -0.334425         -135.21         -51.9017         57.7257         -51.9347         57.9042       -0.0102165         149.092
0.532                  -0.338911         -135.66         -51.6963         56.4856         -51.7305         56.6783        -0.010309         149.025
0.533                  -0.343407        -136.113           -51.48         55.1967         -51.5154         55.4048       -0.0104019         148.957
0.534                  -0.347918         -136.57         -51.2525         53.8533          -51.289          54.078       -0.0104952         148.889
0.535                  -0.352446        -137.031         -51.0132         52.4486         -51.0507         52.6913       -0.0105888         148.821
0.536                  -0.356995        -137.496          -50.762         50.9749         -50.8004         51.2371       -0.0106828         148.753
0.537                  -0.361568        -137.965         -50.4984         49.4236         -50.5375         49.7068       -0.0107772         148.685
0.538                  -0.366168        -138.439         -50.2223         47.7844          -50.262         48.0902        -0.010872         148.617
0.539                    -0.3708        -138.916         -49.9338          46.046         -49.9737         46.3762       -0.0109672         148.548
0.54                   -0.375468        -139.398         -49.6328         44.1954         -49.6727         44.5517       -0.0110628          148.48
0.541                  -0.380176        -139.884         -49.3199         42.2182         -49.3593         42.6022       -0.0111589         148.411
0.542                  -0.384928        -140.374         -48.9957         40.0982         -49.0342         40.5116       -0.0112554         148.343
0.543                  -0.389729        -140.869         -48.6615         37.8177         -48.6984         38.2619       -0.0113523         148.274
0.544                  -0.394584        -141.369         -48.3188         35.3578         -48.3536         35.8338       -0.0114497         148.205
0.545                  -0.399498        -141.873         -47.9702         32.6985          -48.002         33.2068       -0.0115476         148.136
0.546                  -0.404476        -142.382         -47.6188         29.8199         -47.6468         30.3603        -0.011646         148.067
0.547                  -0.409524        -142.896         -47.2689         26.7035          -47.292         27.2745       -0.0117449         147.998
0.548                  -0.414648        -143.415         -46.9257         23.3333         -46.9429         23.9321       -0.0118443         147.928
0.549                  -0.419854        -143.939         -46.5956         19.6993         -46.6058         20.3211       -0.0119443         147.859
0.55                   -0.425149        -144.468         -46.2863         15.7993         -46.2884         16.4373       -0.0120447         147.789
0.551                   -0.43054        -145.003         -46.0059          11.643         -45.9991         12.2883       -0.0121458          147.72
0.552                  -0.436034        -145.542         -45.7631         7.25462         -45.7468         7.89597       -0.0122474          147.65
0.553                  -0.441638        -146.088          -45.566         2.67455         -45.5401         3.29937       -0.0123496          147.58
0.554                  -0.447361        -146.639         -45.4216        -2.04049         -45.3864        -1.44538       -0.0124525          147.51
0.555                  -0.453212        -147.196         -45.3345        -6.82042          -45.291         -6.2675       -0.0125559          147.44
0.556                  -0.459199        -147.758         -45.3064        -11.5872         -45.2559         -11.087       -0.0126601          147.37
0.557                  -0.465332        -148.327         -45.3358        -16.2621         -45.2802        -15.8219       -0.0127649         147.299
0.558                  -0.471622        -148.902          -45.418        -20.7732         -45.3592        -20.3968       -0.0128705         147.229
0.559                  -0.478078        -149.483         -45.5461        -25.0611          -45.486        -24.7487       -0.0129767         147.158
0.56                   -0.484712         -150.07         -45.7115        -29.0828         -45.6519        -28.8314       -0.0130837         147.088
0.561                  -0.491536        -150.664          -45.905        -32.8124         -45.8475        -32.6168       -0.0131915         147.017
0.562                  -0.498563        -151.265         -46.1178        -36.2393         -46.0633        -36.0929       -0.0133001         146.946
0.563                  -0.505805        -151.873         -46.3415        -39.3658         -46.2909        -39.2614       -0.0134094         146.875
0.564                  -0.513277        -152.487         -46.5692        -42.2036         -46.5228        -42.1341       -0.0135196         146.803
0.565                  -0.520994        -153.109         -46.7948        -44.7708          -46.753        -44.7293       -0.0136306         146.732
0.566                  -0.528971        -153.738         -47.0135        -47.0892         -46.9763        -47.0696       -0.0137426          146.66
0.567                  -0.537225        -154.375         -47.2218        -49.1824          -47.189        -49.1794       -0.0138554         146.589
0.568                  -0.545774         -155.02         -47.4167        -51.0741         -47.3882        -51.0832       -0.0139692         146.517
0.569                  -0.554636        -155.672         -47.5965        -52.7875          -47.572        -52.8048       -0.0140839         146.445
0.57                   -0.563831        -156.332         -47.7597        -54.3444         -47.7388        -54.3669       -0.0141997         146.373
0.571                  -0.573381        -157.001         -47.9054        -55.7651          -47.888        -55.7902       -0.0143165         146.301
0.572                  -0.583308        -157.679         -48.0334        -57.0681          -48.019        -57.0938       -0.0144344         146.228
0.573                  -0.593636        -158.365         -48.1434        -58.2701         -48.1317        -58.2949       -0.0145533         146.156
0.574                   -0.60439         -159.06         -48.2357         -59.386         -48.2264        -59.4088       -0.0146735         146.083
0.575                  -0.615596        -159.764         -48.3104        -60.4294         -48.3033        -60.4493       -0.0147948          146.01
0.576                  -0.627284        -160.478         -48.3681        -61.4121         -48.3628        -61.4285       -0.0149173         145.937
0.577                  -0.639485        -161.202         -48.4093        -62.3446         -48.4056        -62.3571       -0.0150412         145.864
0.578                   -0.65223        -161.935         -48.4345        -63.2362         -48.4323        -63.2446       -0.0151663         145.791
0.579                  -0.665554        -162.679         -48.4445        -64.0951         -48.4434        -64.0993       -0.0152928         145.717
0.58                   -0.679494        -163.433         -48.4398        -64.9285         -48.4398        -64.9285       -0.0154207         145.644
0.581                  -0.694091        -164.198         -48.4212        -65.7426          -48.422        -65.7386       -0.0155501          145.57
0.582                  -0.709384        -164.974         -48.3893        -66.5429         -48.3908         -66.535        -0.015681         145.496
0.583                  -0.725421        -165.762         -48.3447        -67.3343         -48.3468        -67.3227       -0.0158134         145.422
0.584                  -0.742248        -166.561         -48.2881        -68.1209         -48.2908        -68.1059       -0.0159475         145.348
0.585                  -0.759917        -167.372         -48.2202        -68.9065         -48.2232        -68.8884       -0.0160832         145.273
0.586                  -0.778482        -168.196         -48.1415        -69.6942         -48.1448        -69.6732       -0.0162207         145.199
0.587                  -0.798003        -169.032         -48.0526        -70.4869         -48.0561        -70.4633         -0.01636         145.124
0.588                  -0.818543        -169.882          -47.954         -71.287         -47.9577        -71.2611       -0.0165011         145.049
0.589                  -0.840168        -170.745         -47.8463        -72.0967           -47.85        -72.0688       -0.0166442         144.974
0.59                   -0.862951        -171.622         -47.7299        -72.9178         -47.7337        -72.8882       -0.0167892         144.899
0.591                  -0.886969        -172.513         -47.6054        -73.7521         -47.6092         -73.721       -0.0169364         144.823
0.592                  -0.912306        -173.419         -47.4731        -74.6011         -47.4768        -74.5687       -0.0170857         144.748
0.593                  -0.939051         -174.34         -47.3335         -75.466         -47.3372        -75.4327       -0.0172372         144.672
0.594                  -0.967299        -175.277         -47.1869        -76.3482         -47.1905         -76.314        -0.017391         144.596
0.595                  -0.997153        -176.229         -47.0338        -77.2486         -47.0373        -77.2138       -0.0175471          144.52
0.596                   -1.02872        -177.198         -46.8745        -78.1683         -46.8778        -78.1331       -0.0177058         144.443
0.597                   -1.06213        -178.184         -46.7092        -79.1082         -46.7124        -79.0728        -0.017867         144.367
0.598                    -1.0975        -179.187         -46.5384        -80.0692         -46.5415        -80.0338       -0.0180308          144.29
0.599                   -1.13498         179.791         -46.3623        -81.0521         -46.3652        -81.0168       -0.0181974         144.213
0.6                      -1.1747         178.752         -46.1813        -82.0578          -46.184        -82.0227       -0.0183668         144.136
0.601                   -1.21683         177.693         -45.9954        -83.0869          -45.998        -83.0522       -0.0185391         144.058
0.602                   -1.26155         176.615         -45.8052        -84.1403         -45.8076        -84.1061       -0.0187144         143.981
0.603                   -1.30904         175.518         -45.6107        -85.2187         -45.6129        -85.1851       -0.0188929         143.903
0.604                   -1.35949         174.399         -45.4122        -86.3229         -45.4142          -86.29       -0.0190746         143.825
0.605                   -1.41313          173.26           -45.21        -87.4536         -45.2119        -87.4214       -0.0192596         143.747
0.606                   -1.47019           172.1         -45.0042        -88.6116          -45.006        -88.5803       -0.0194481         143.669
0.607                   -1.53093         170.918         -44.7952        -89.7976         -44.7968        -89.7672       -0.0196401          143.59
0.608                    -1.5956         169.713         -44.5831        -91.0124         -44.5845         -90.983       -0.0198357         143.511
0.609                   -1.66452         168.486         -44.3682        -92.2569         -44.3694        -92.2285       -0.0200352         143.432
0.61                    -1.73799         167.236         -44.1506        -93.5318         -44.1518        -93.5045       -0.0202385         143.353
0.611                   -1.81637         165.962         -43.9307         -94.838         -43.9317        -94.8117       -0.0204458         143.273
0.612                   -1.90001         164.665         -43.7086        -96.1762         -43.7094        -96.1511       -0.0206572         143.194
0.613                   -1.98933         163.343         -43.4846        -97.5473         -43.4853        -97.5233       -0.0208729         143.114
0.614                   -2.08475         161.997         -43.2588        -98.9521         -43.2595        -98.9293       -0.0210929         143.034
0.615                   -2.18674         160.628         -43.0317        -100.391         -43.0322         -100.37       -0.0213174         142.953
0.616                   -2.29581         159.234         -42.8034        -101.866         -42.8038        -101.846       -0.0215465         142.873
0.617                   -2.41251         157.816         -42.5742        -103.377         -42.5745        -103.357       -0.0217803         142.792
0.618                   -2.53742         156.375         -42.3443        -104.924         -42.3446        -104.906       -0.0220189         142.711
0.619                   -2.67119         154.911         -42.1142        -106.509         -42.1143        -106.492       -0.0222624         142.629
0.62                    -2.81449         153.425          -41.884        -108.133         -41.8841        -108.117        -0.022511         142.548
0.621                   -2.96807         151.917         -41.6541        -109.795         -41.6542         -109.78       -0.0227647         142.466
0.622                   -3.13274          150.39         -41.4249        -111.496         -41.4249        -111.483       -0.0230237         142.384
0.623                   -3.30935         148.846         -41.1967        -113.237         -41.1966        -113.225        -0.023288         142.302
0.624                   -3.49884         147.285         -40.9698        -115.018         -40.9697        -115.007       -0.0235578         142.219
0.625                   -3.70222         145.711         -40.7447        -116.839         -40.7446        -116.829       -0.0238332         142.136
0.626                   -3.92056         144.128         -40.5217          -118.7         -40.5215        -118.691       -0.0241143         142.053
0.627                   -4.15504         142.539         -40.3012        -120.601         -40.3011        -120.593       -0.0244011          141.97
0.628                   -4.40692         140.949         -40.0837        -122.542         -40.0836        -122.535       -0.0246937         141.886
0.629                   -4.67756         139.363         -39.8696        -124.522         -39.8694        -124.516       -0.0249923         141.802
