! TOUCHSTONE file generated by CST MICROWAVE STUDIO
! Date and time: Sat Oct 24 10:42:33 2020
! Project name: Scenario_1_Planar_Body_Tissue_Center.cst
! Parameters = {hfat=3; hmuscle=50; hskin=1.5; hgap=25; Wtissue=700; Ltissue=700; L_HA=400; MT=2.54; Rad_Dielectric=30; Rad_Lower=7.3; Rad_Upper=30; a_HA=580; a_WG=246; b_HA=500; b_WG=121; c_HA=0; c_WG=187; d_feed=85; dx1=311.56; h_feed=15; h_lower=18; h_upper=40}
! Header version: 2018
! Port assignment regex: !\s*Touchstone port\s*([0-9]+)\s*=\s*(CST MWS port|CST DS port)\s*([0-9]+|Zmin|Zmax)\s*\(\"(.*)\"\)(\s*mode\s*([0-9]+))?.*
! Touchstone port assignment:
! Touchstone port 1 = CST MWS port 1 ("")
! Touchstone port 2 = CST MWS port 2 ("")
# GHz S DB R 50
0.5                    -0.257072         -122.68         -54.3544           70.01         -54.3546         70.0101      -0.00771192         151.135
0.501                  -0.260207        -123.005         -53.9818         66.9519         -53.9683         66.7669      -0.00778544          151.07
0.502                  -0.263364        -123.334         -53.6281         63.8089         -53.6047         63.4443      -0.00785939         151.005
0.503                  -0.266541        -123.666          -53.295         60.5895         -53.2653         60.0534      -0.00793377          150.94
0.504                  -0.269737        -124.003         -52.9837         57.3043         -52.9513         56.6074      -0.00800859         150.875
0.505                  -0.272951        -124.343         -52.6956         53.9657         -52.6638         53.1212      -0.00808384         150.809
0.506                  -0.276181        -124.687         -52.4315         50.5875         -52.4033         49.6111      -0.00815953         150.744
0.507                  -0.279426        -125.034         -52.1923         47.1851         -52.1701          46.094      -0.00823567         150.679
0.508                  -0.282685        -125.386          -51.978         43.7741         -51.9639         42.5874      -0.00831225         150.613
0.509                  -0.285957        -125.741         -51.7887          40.371         -51.7842         39.1081      -0.00838928         150.547
0.51                   -0.289242        -126.101         -51.6238         36.9914           -51.63         35.6722      -0.00846677         150.482
0.511                  -0.292538        -126.464         -51.4825         33.6506            -51.5         32.2945      -0.00854471         150.416
0.512                  -0.295846        -126.831         -51.3637         30.3626         -51.3926         28.9877      -0.00862312          150.35
0.513                  -0.299164        -127.202          -51.266         27.1395         -51.3059         25.7628      -0.00870199         150.284
0.514                  -0.302494        -127.577         -51.1877          23.992         -51.2381         22.6284      -0.00878134         150.218
0.515                  -0.305834        -127.956          -51.127         20.9286          -51.187         19.5912      -0.00886116         150.152
0.516                  -0.309184         -128.34         -51.0822          17.956         -51.1507         16.6557      -0.00894146         150.086
0.517                  -0.312546        -128.727         -51.0513         15.0789         -51.1272         13.8244      -0.00902224         150.019
0.518                  -0.315919        -129.119         -51.0325         12.3001         -51.1146         11.0985      -0.00910351         149.953
0.519                  -0.319304        -129.514          -51.024          9.6211         -51.1111          8.4773      -0.00918527         149.887
0.52                   -0.322702        -129.914         -51.0243         7.04187         -51.1151         5.95932      -0.00926753          149.82
0.521                  -0.326113        -130.318         -51.0316         4.56127         -51.1251         3.54198      -0.00935029         149.753
0.522                  -0.329538        -130.726         -51.0447         2.17721         -51.1397         1.22202      -0.00943355         149.687
0.523                   -0.33298        -131.139         -51.0621       -0.113087         -51.1578        -1.00434      -0.00951733          149.62
0.524                  -0.336438        -131.556         -51.0828        -2.31296         -51.1782        -3.14121      -0.00960162         149.553
0.525                  -0.339914        -131.978         -51.1057        -4.42611         -51.2001        -5.19295      -0.00968644         149.486
0.526                  -0.343411        -132.404           -51.13        -6.45651         -51.2227        -7.16398      -0.00977178         149.419
0.527                   -0.34693        -132.834         -51.1548        -8.40826         -51.2453        -9.05875      -0.00985765         149.352
0.528                  -0.350474        -133.269         -51.1795        -10.2855         -51.2672        -10.8817      -0.00994406         149.285
0.529                  -0.354044        -133.708         -51.2034        -12.0924          -51.288         -12.637        -0.010031         149.217
0.53                   -0.357643        -134.153         -51.2261         -13.833         -51.3073        -14.3289       -0.0101185          149.15
0.531                  -0.361274        -134.602         -51.2471        -15.5112         -51.3246        -15.9613       -0.0102066         149.082
0.532                   -0.36494        -135.055         -51.2661        -17.1308         -51.3398         -17.538       -0.0102952         149.014
0.533                  -0.368644        -135.514         -51.2827        -18.6955         -51.3524        -19.0627       -0.0103844         148.947
0.534                  -0.372389        -135.977         -51.2968        -20.2088         -51.3624        -20.5387       -0.0104741         148.879
0.535                  -0.376179        -136.445          -51.308        -21.6739         -51.3695        -21.9692       -0.0105644         148.811
0.536                  -0.380018        -136.918         -51.3163         -23.094         -51.3736        -23.3572       -0.0106554         148.743
0.537                   -0.38391        -137.396         -51.3215         -24.472         -51.3746        -24.7057       -0.0107469         148.675
0.538                   -0.38786         -137.88         -51.3234        -25.8108         -51.3724        -26.0171        -0.010839         148.606
0.539                  -0.391873        -138.368          -51.322        -27.1128         -51.3669        -27.2941       -0.0109317         148.538
0.54                   -0.395953        -138.862         -51.3172        -28.3807         -51.3581         -28.539        -0.011025          148.47
0.541                  -0.400105        -139.361         -51.3089        -29.6166         -51.3459        -29.7539        -0.011119         148.401
0.542                  -0.404336        -139.865         -51.2972        -30.8227         -51.3303        -30.9408       -0.0112136         148.332
0.543                  -0.408652        -140.375         -51.2819        -32.0012         -51.3114        -32.1018       -0.0113088         148.264
0.544                  -0.413059        -140.891          -51.263        -33.1538          -51.289        -33.2386       -0.0114047         148.195
0.545                  -0.417563        -141.412         -51.2406        -34.2824         -51.2631        -34.3529       -0.0115012         148.126
0.546                  -0.422173        -141.939         -51.2147        -35.3886         -51.2339        -35.4463       -0.0115984         148.057
0.547                  -0.426895        -142.472         -51.1851        -36.4741         -51.2012        -36.5202       -0.0116962         147.987
0.548                  -0.431737         -143.01         -51.1521        -37.5403         -51.1651        -37.5761       -0.0117948         147.918
0.549                  -0.436709        -143.555         -51.1154        -38.5887         -51.1256        -38.6153        -0.011894         147.848
0.55                   -0.441819        -144.106         -51.0753        -39.6205         -51.0827        -39.6391        -0.011994         147.779
0.551                  -0.447076        -144.663         -51.0316        -40.6371         -51.0364        -40.6485       -0.0120947         147.709
0.552                  -0.452492        -145.226         -50.9844        -41.6395         -50.9868        -41.6447        -0.012196         147.639
0.553                  -0.458076        -145.796         -50.9337         -42.629         -50.9338        -42.6288       -0.0122982         147.569
0.554                  -0.463839        -146.372         -50.8796        -43.6065         -50.8775        -43.6018       -0.0124011         147.499
0.555                  -0.469795        -146.955          -50.822        -44.5732         -50.8179        -44.5646       -0.0125047         147.429
0.556                  -0.475954        -147.545          -50.761        -45.5299          -50.755        -45.5181       -0.0126091         147.359
0.557                  -0.482331        -148.142         -50.6966        -46.4776         -50.6888        -46.4632       -0.0127143         147.288
0.558                   -0.48894        -148.746         -50.6288        -47.4172         -50.6193        -47.4007       -0.0128203         147.218
0.559                  -0.495796        -149.357         -50.5576        -48.3495         -50.5466        -48.3315       -0.0129272         147.147
0.56                   -0.502914        -149.975          -50.483        -49.2752         -50.4707        -49.2562       -0.0130348         147.076
0.561                  -0.510312        -150.601         -50.4051        -50.1953         -50.3915        -50.1756       -0.0131433         147.005
0.562                  -0.518007        -151.234         -50.3239        -51.1105         -50.3091        -51.0905       -0.0132527         146.934
0.563                  -0.526018        -151.876         -50.2394        -52.0214         -50.2235        -52.0015        -0.013363         146.863
0.564                  -0.534365        -152.525         -50.1516        -52.9288         -50.1348        -52.9093       -0.0134741         146.792
0.565                  -0.543069        -153.183         -50.0605        -53.8333         -50.0428        -53.8145       -0.0135862          146.72
0.566                  -0.552153        -153.849         -49.9662        -54.7357         -49.9477        -54.7178       -0.0136992         146.649
0.567                   -0.56164        -154.523         -49.8685        -55.6366         -49.8495        -55.6199       -0.0138132         146.577
0.568                  -0.571557        -155.206         -49.7677        -56.5367         -49.7481        -56.5212       -0.0139281         146.505
0.569                   -0.58193        -155.899         -49.6636        -57.4365         -49.6435        -57.4225       -0.0140441         146.433
0.57                   -0.592787          -156.6         -49.5563        -58.3366         -49.5359        -58.3243        -0.014161         146.361
0.571                  -0.604159         -157.31         -49.4458        -59.2378         -49.4251        -59.2272       -0.0142791         146.289
0.572                   -0.61608        -158.031         -49.3322        -60.1406         -49.3111        -60.1318       -0.0143982         146.216
0.573                  -0.628582        -158.761         -49.2153        -61.0456         -49.1941        -61.0387       -0.0145184         146.144
0.574                  -0.641704        -159.501         -49.0952        -61.9534         -49.0739        -61.9485       -0.0146397         146.071
0.575                  -0.655484        -160.251          -48.972        -62.8646         -48.9507        -62.8617       -0.0147622         145.998
0.576                  -0.669965        -161.012         -48.8456        -63.7799         -48.8243         -63.779       -0.0148859         145.925
0.577                  -0.685191        -161.784          -48.716        -64.6997         -48.6948        -64.7009       -0.0150109         145.852
0.578                   -0.70121        -162.567         -48.5833        -65.6248         -48.5623         -65.628       -0.0151371         145.778
0.579                  -0.718073        -163.361         -48.4474        -66.5558         -48.4266         -66.561       -0.0152646         145.705
0.58                   -0.735835        -164.167         -48.3084        -67.4932         -48.2879        -67.5003       -0.0153934         145.631
0.581                  -0.754554        -164.985         -48.1663        -68.4377          -48.146        -68.4468       -0.0155237         145.557
0.582                  -0.774292        -165.816          -48.021          -69.39         -48.0011        -69.4009       -0.0156554         145.483
0.583                  -0.795118        -166.659         -47.8727        -70.3506         -47.8531        -70.3634       -0.0157885         145.409
0.584                  -0.817102        -167.515         -47.7212        -71.3203         -47.7021        -71.3348       -0.0159232         145.335
0.585                  -0.840321        -168.384         -47.5666        -72.2997          -47.548        -72.3159       -0.0160595          145.26
0.586                  -0.864859        -169.267          -47.409        -73.2896         -47.3908        -73.3072       -0.0161974         145.186
0.587                  -0.890804        -170.164         -47.2482        -74.2905         -47.2306        -74.3097        -0.016337         145.111
0.588                  -0.918251        -171.075         -47.0845        -75.3033         -47.0673        -75.3239       -0.0164784         145.036
0.589                  -0.947303        -172.001         -46.9176        -76.3288          -46.901        -76.3505       -0.0166216          144.96
0.59                    -0.97807        -172.943         -46.7478        -77.3675         -46.7317        -77.3905       -0.0167667         144.885
0.591                   -1.01067          -173.9         -46.5749        -78.4205         -46.5595        -78.4444       -0.0169138          144.81
0.592                   -1.04523        -174.873         -46.3991        -79.4884         -46.3842        -79.5132       -0.0170629         144.734
0.593                   -1.08189        -175.862         -46.2203        -80.5721         -46.2061        -80.5977       -0.0172142         144.658
0.594                    -1.1208        -176.868         -46.0386        -81.6724          -46.025        -81.6988       -0.0173678         144.582
0.595                   -1.16212        -177.892          -45.854        -82.7903          -45.841        -82.8172       -0.0175236         144.505
0.596                   -1.20602        -178.932         -45.6665        -83.9266         -45.6542         -83.954       -0.0176819         144.429
0.597                   -1.25268        -179.991         -45.4763        -85.0824         -45.4645          -85.11       -0.0178427         144.352
0.598                   -1.30231         178.931         -45.2833        -86.2585         -45.2721        -86.2863       -0.0180062         144.275
0.599                   -1.35512         177.835         -45.0875        -87.4559         -45.0771        -87.4838       -0.0181725         144.198
0.6                     -1.41136          176.72         -44.8892        -88.6758         -44.8793        -88.7036       -0.0183416         144.121
0.601                   -1.47126         175.585         -44.6883         -89.919          -44.679        -89.9467       -0.0185138         144.043
0.602                   -1.53512         174.431         -44.4849        -91.1868         -44.4762        -91.2141       -0.0186891         143.966
0.603                   -1.60322         173.256         -44.2791        -92.4802          -44.271        -92.5071       -0.0188677         143.888
0.604                   -1.67588         172.062          -44.071        -93.8004         -44.0635        -93.8267       -0.0190498          143.81
0.605                   -1.75346         170.847         -43.8607        -95.1484         -43.8538        -95.1741       -0.0192355         143.731
0.606                   -1.83632         169.611         -43.6484        -96.5255          -43.642        -96.5505        -0.019425         143.653
0.607                   -1.92487         168.355         -43.4341        -97.9328         -43.4283         -97.957       -0.0196185         143.574
0.608                   -2.01956         167.079         -43.2181        -99.3716         -43.2128        -99.3949       -0.0198161         143.495
0.609                   -2.12085         165.784         -43.0005        -100.843         -42.9957        -100.865       -0.0200179         143.416
0.61                    -2.22926         164.468         -42.7814        -102.348         -42.7771        -102.369       -0.0202243         143.336
0.611                   -2.34534         163.134         -42.5612        -103.889         -42.5573        -103.909       -0.0204354         143.257
0.612                   -2.46969         161.782         -42.3399        -105.465         -42.3365        -105.484       -0.0206514         143.177
0.613                   -2.60295         160.413         -42.1179        -107.079         -42.1149        -107.096       -0.0208724         143.097
0.614                   -2.74581         159.028         -41.8954        -108.731         -41.8928        -108.747       -0.0210987         143.016
0.615                   -2.89904          157.63         -41.6727        -110.422         -41.6704        -110.437       -0.0213305         142.936
0.616                   -3.06342         156.221         -41.4502        -112.154         -41.4482        -112.168        -0.021568         142.855
0.617                   -3.23982         154.803          -41.228        -113.927         -41.2264        -113.939       -0.0218113         142.774
0.618                   -3.42917          153.38         -41.0067        -115.742         -41.0053        -115.753       -0.0220607         142.693
0.619                   -3.63245         151.956         -40.7865          -117.6         -40.7854        -117.609       -0.0223163         142.611
0.62                    -3.85073         150.536         -40.5679          -119.5          -40.567        -119.508       -0.0225783         142.529
0.621                   -4.08512         149.126         -40.3513        -121.444         -40.3506         -121.45       -0.0228469         142.447
0.622                   -4.33681         147.732         -40.1372        -123.431         -40.1366        -123.436       -0.0231222         142.365
0.623                   -4.60706         146.363         -39.9259        -125.461         -39.9255        -125.465       -0.0234043         142.283
0.624                   -4.89719          145.03          -39.718        -127.533         -39.7177        -127.536       -0.0236934           142.2
0.625                   -5.20855         143.742         -39.5139        -129.647         -39.5137        -129.649       -0.0239895         142.117
0.626                   -5.54256         142.516         -39.3142        -131.803         -39.3141        -131.803       -0.0242928         142.033
0.627                   -5.90062         141.366         -39.1193        -133.997         -39.1193        -133.997       -0.0246032          141.95
0.628                   -6.28414         140.314         -38.9297        -136.229         -38.9297        -136.229       -0.0249209         141.866
0.629                   -6.69442         139.381         -38.7459        -138.497         -38.7459        -138.496       -0.0252457         141.782
