! TOUCHSTONE file generated by CST MICROWAVE STUDIO
! Date and time: Sat Nov 14 20:33:38 2020
! Project name: Scenario_1_Planar_Body_Tissue_Out_of_Line_v2.cst
! Parameters = {dy1=190.3; L_HA=400; Ltissue=700; MT=2.54; Rad_Dielectric=30; Rad_Lower=7.3; Rad_Upper=30; Wtissue=700; a_HA=580; a_WG=246; b_HA=500; b_WG=121; c_HA=0; c_WG=187; d_feed=85; dx1=173; h_feed=15; h_lower=18; h_upper=40; hfat=3; hgap=25; hmuscle=50; hskin=1.5}
! Header version: 2018
! Port assignment regex: !\s*Touchstone port\s*([0-9]+)\s*=\s*(CST MWS port|CST DS port)\s*([0-9]+|Zmin|Zmax)\s*\(\"(.*)\"\)(\s*mode\s*([0-9]+))?.*
! Touchstone port assignment:
! Touchstone port 1 = CST MWS port 1 ("")
! Touchstone port 2 = CST MWS port 2 ("")
# GHz S DB R 50
0.5                   -0.0496843         -121.76         -61.3456         125.772          -61.346         125.772      -0.00688265         151.146
0.501                 -0.0498206        -122.204         -61.1723         125.268         -61.1727         125.268      -0.00686683         151.081
0.502                 -0.0500397        -122.652         -60.9962         124.758         -60.9967         124.758      -0.00685472         151.016
0.503                 -0.0503467        -123.103         -60.8174         124.243         -60.8178         124.243      -0.00684629          150.95
0.504                 -0.0507468        -123.559         -60.6357         123.721         -60.6362         123.721      -0.00684152         150.884
0.505                 -0.0512457        -124.018         -60.4512         123.192         -60.4517         123.193      -0.00684039         150.819
0.506                 -0.0518494        -124.481         -60.2638         122.657         -60.2643         122.658      -0.00684287         150.753
0.507                 -0.0525645        -124.949         -60.0735         122.116          -60.074         122.116      -0.00684894         150.687
0.508                 -0.0533978         -125.42         -59.8802         121.567         -59.8807         121.567      -0.00685859         150.621
0.509                 -0.0543567        -125.896         -59.6839         121.011         -59.6844         121.012      -0.00687179         150.555
0.51                  -0.0554494        -126.376         -59.4845         120.447          -59.485         120.448      -0.00688852         150.489
0.511                 -0.0566844        -126.861          -59.282         119.876         -59.2825         119.877      -0.00690876         150.422
0.512                 -0.0580709         -127.35         -59.0763         119.296         -59.0768         119.297       -0.0069325         150.356
0.513                 -0.0596189        -127.844         -58.8675         118.709         -58.8679          118.71      -0.00695971          150.29
0.514                 -0.0613392        -128.344         -58.6553         118.112         -58.6558         118.113      -0.00699039         150.223
0.515                 -0.0632433        -128.848         -58.4399         117.507         -58.4404         117.508      -0.00702451         150.156
0.516                 -0.0653439        -129.357         -58.2211         116.892         -58.2215         116.893      -0.00706206          150.09
0.517                 -0.0676546        -129.872         -57.9989         116.267         -57.9993         116.269      -0.00710302         150.023
0.518                   -0.07019        -130.392         -57.7732         115.632         -57.7736         115.634      -0.00714738         149.956
0.519                 -0.0729662        -130.918          -57.544         114.987         -57.5444         114.989      -0.00719513         149.889
0.52                  -0.0760005        -131.449         -57.3112         114.331         -57.3116         114.333      -0.00724625         149.822
0.521                 -0.0793118        -131.987         -57.0747         113.663         -57.0751         113.665      -0.00730073         149.755
0.522                 -0.0829207        -132.531         -56.8346         112.983          -56.835         112.985      -0.00735857         149.688
0.523                 -0.0868497        -133.082         -56.5906         112.291          -56.591         112.293      -0.00741974         149.621
0.524                 -0.0911232        -133.639         -56.3428         111.586         -56.3432         111.588      -0.00748425         149.553
0.525                  -0.095768        -134.203         -56.0911         110.867         -56.0915         110.869      -0.00755208         149.486
0.526                  -0.100813        -134.774         -55.8354         110.134         -55.8358         110.136      -0.00762322         149.418
0.527                  -0.106292        -135.353         -55.5757         109.385          -55.576         109.387      -0.00769767         149.351
0.528                  -0.112238        -135.939         -55.3118         108.621         -55.3121         108.623      -0.00777542         149.283
0.529                  -0.118692        -136.534         -55.0437         107.841          -55.044         107.843      -0.00785646         149.215
0.53                   -0.125695        -137.137         -54.7713         107.042         -54.7716         107.044       -0.0079408         149.147
0.531                  -0.133295        -137.748         -54.4946         106.226         -54.4949         106.228      -0.00802842         149.079
0.532                  -0.141544        -138.368         -54.2133          105.39         -54.2136         105.392      -0.00811934         149.011
0.533                  -0.150499        -138.998         -53.9276         104.534         -53.9279         104.536      -0.00821353         148.943
0.534                  -0.160225        -139.637         -53.6372         103.657         -53.6375         103.659      -0.00831102         148.874
0.535                  -0.170792        -140.287         -53.3421         102.756         -53.3424         102.758      -0.00841179         148.806
0.536                  -0.182278        -140.946         -53.0422         101.832         -53.0425         101.834      -0.00851584         148.737
0.537                  -0.194772        -141.617         -52.7374         100.882         -52.7377         100.884      -0.00862319         148.669
0.538                  -0.208371          -142.3         -52.4277         99.9054         -52.4279         99.9074      -0.00873384           148.6
0.539                  -0.223184        -142.994         -52.1128            98.9          -52.113          98.902      -0.00884778         148.531
0.54                   -0.239332          -143.7         -51.7928         97.8641          -51.793         97.8661      -0.00896504         148.462
0.541                  -0.256952         -144.42         -51.4675         96.7959         -51.4677         96.7979      -0.00908562         148.393
0.542                  -0.276198        -145.153         -51.1369         95.6933          -51.137         95.6952      -0.00920952         148.324
0.543                  -0.297241          -145.9         -50.8009         94.5539          -50.801         94.5557      -0.00933676         148.255
0.544                  -0.320275        -146.662         -50.4593         93.3753         -50.4595         93.3771      -0.00946736         148.186
0.545                  -0.345517        -147.438         -50.1123         92.1548         -50.1124         92.1566      -0.00960133         148.116
0.546                  -0.373214        -148.231         -49.7596         90.8895         -49.7597         90.8912      -0.00973868         148.047
0.547                  -0.403643        -149.039         -49.4013         89.5763         -49.4014          89.578      -0.00987943         147.977
0.548                  -0.437118        -149.865         -49.0374         88.2117         -49.0375         88.2134       -0.0100236         147.907
0.549                  -0.473995        -150.707         -48.6678         86.7921         -48.6678         86.7936       -0.0101712         147.837
0.55                   -0.514676        -151.567         -48.2926         85.3133         -48.2926         85.3148       -0.0103223         147.767
0.551                  -0.559616        -152.445         -47.9118         83.7711         -47.9119         83.7725       -0.0104769         147.697
0.552                  -0.609332        -153.341         -47.5257         82.1607         -47.5257         82.1621        -0.010635         147.627
0.553                  -0.664406        -154.254         -47.1343         80.4771         -47.1343         80.4783       -0.0107967         147.557
0.554                  -0.725499        -155.184         -46.7379         78.7147         -46.7379         78.7158       -0.0109619         147.486
0.555                  -0.793354        -156.131         -46.3368         76.8677         -46.3368         76.8688       -0.0111307         147.416
0.556                  -0.868807        -157.092         -45.9315         74.9299         -45.9315         74.9309       -0.0113032         147.345
0.557                  -0.952792        -158.066         -45.5224         72.8946         -45.5224         72.8955       -0.0114794         147.274
0.558                   -1.04635        -159.049         -45.1103          70.755         -45.1103         70.7559       -0.0116593         147.203
0.559                   -1.15062        -160.037          -44.696          68.504         -44.6959         68.5047       -0.0118429         147.132
0.56                    -1.26685        -161.025         -44.2804         66.1341         -44.2803         66.1347       -0.0120303         147.061
0.561                   -1.39636        -162.004         -43.8648          63.638         -43.8647         63.6386       -0.0122216          146.99
0.562                   -1.54053        -162.964         -43.4506         61.0088         -43.4506         61.0092       -0.0124167         146.919
0.563                   -1.70074        -163.893         -43.0396         58.2398         -43.0396         58.2401       -0.0126156         146.847
0.564                   -1.87828        -164.773         -42.6337         55.3251         -42.6337         55.3253       -0.0128184         146.776
0.565                   -2.07422        -165.584         -42.2353         52.2603         -42.2352         52.2605       -0.0130252         146.704
0.566                   -2.28924          -166.3         -41.8468         49.0426         -41.8468         49.0427       -0.0132358         146.632
0.567                   -2.52336        -166.891         -41.4711         45.6715         -41.4711         45.6715       -0.0134503          146.56
0.568                   -2.77566        -167.321         -41.1113         42.1493         -41.1112         42.1492       -0.0136687         146.488
0.569                   -3.04379        -167.552         -40.7704         38.4819         -40.7704         38.4817       -0.0138908         146.416
0.57                    -3.32362        -167.543         -40.4517         34.6789         -40.4517         34.6786       -0.0141166         146.344
0.571                   -3.60875        -167.253         -40.1583         30.7542         -40.1583         30.7539        -0.014346         146.272
0.572                   -3.89033        -166.651          -39.893         26.7259          -39.893         26.7256       -0.0145787         146.199
0.573                   -4.15704        -165.719         -39.6582         22.6161         -39.6582         22.6157       -0.0148146         146.127
0.574                   -4.39582        -164.464         -39.4556         18.4499         -39.4556         18.4496       -0.0150532         146.054
0.575                   -4.59318        -162.918         -39.2863         14.2552         -39.2863         14.2548       -0.0152942         145.981
0.576                    -4.7371         -161.15         -39.1505         10.0604         -39.1506         10.0601       -0.0155371         145.908
0.577                   -4.81923        -159.251         -39.0478         5.89412         -39.0479         5.89382       -0.0157812         145.835
0.578                   -4.83646        -157.332         -38.9767         1.78309         -38.9768         1.78282       -0.0160257         145.762
0.579                   -4.79144        -155.499         -38.9352        -2.24861         -38.9353        -2.24885       -0.0162696         145.689
0.58                    -4.69181        -153.843         -38.9208        -6.18054         -38.9209        -6.18073       -0.0165118         145.616
0.581                    -4.5484         -152.43         -38.9305        -9.99632         -38.9305        -9.99648        -0.016751         145.542
0.582                   -4.37324        -151.293         -38.9612        -13.6838         -38.9612         -13.684       -0.0169856         145.469
0.583                   -4.17785        -150.443         -39.0097        -17.2351         -39.0097        -17.2352       -0.0172142         145.395
0.584                   -3.97219        -149.869         -39.0728        -20.6458         -39.0729        -20.6458       -0.0174351         145.322
0.585                   -3.76415        -149.548         -39.1478        -23.9148         -39.1478        -23.9149       -0.0176468         145.248
0.586                   -3.55959        -149.451         -39.2318        -27.0439         -39.2318        -27.0439        -0.017848         145.174
0.587                   -3.36253        -149.549         -39.3224        -30.0365         -39.3224        -30.0366       -0.0180377           145.1
0.588                   -3.17555        -149.809         -39.4175         -32.898         -39.4175         -32.898       -0.0182155         145.025
0.589                   -3.00009        -150.206         -39.5152        -35.6346         -39.5152        -35.6346       -0.0183815         144.951
0.59                     -2.8368        -150.716          -39.614        -38.2533          -39.614        -38.2534       -0.0185367         144.876
0.591                   -2.68574        -151.318         -39.7125        -40.7615         -39.7125        -40.7615       -0.0186828         144.801
0.592                   -2.54662        -151.995         -39.8095        -43.1666         -39.8096        -43.1666       -0.0188222         144.726
0.593                   -2.41891        -152.733         -39.9043         -45.476         -39.9043         -45.476       -0.0189575          144.65
0.594                   -2.30195         -153.52         -39.9961         -47.697          -39.996         -47.697        -0.019092         144.574
0.595                   -2.19502        -154.347         -40.0842        -49.8366         -40.0842        -49.8367       -0.0192287         144.498
0.596                   -2.09737        -155.206         -40.1682        -51.9015         -40.1682        -51.9015       -0.0193705         144.422
0.597                    -2.0083        -156.091         -40.2478        -53.8979         -40.2478         -53.898       -0.0195199         144.345
0.598                   -1.92709        -156.996         -40.3227        -55.8317         -40.3227        -55.8318       -0.0196788         144.268
0.599                   -1.85311         -157.92         -40.3928        -57.7086         -40.3928        -57.7086       -0.0198486         144.191
0.6                     -1.78575        -158.857         -40.4579        -59.5335         -40.4579        -59.5336       -0.0200301         144.114
0.601                   -1.72445        -159.806         -40.5181        -61.3115          -40.518        -61.3115       -0.0202239         144.036
0.602                   -1.66872        -160.765         -40.5731        -63.0468         -40.5731        -63.0469       -0.0204297         143.959
0.603                   -1.61809        -161.732         -40.6232        -64.7437         -40.6232        -64.7437       -0.0206474         143.881
0.604                   -1.57216        -162.707         -40.6684        -66.4059         -40.6684         -66.406       -0.0208764         143.802
0.605                   -1.53055        -163.688         -40.7087        -68.0371         -40.7087        -68.0372       -0.0211161         143.724
0.606                   -1.49293        -164.675         -40.7443        -69.6406         -40.7443        -69.6406       -0.0213658         143.646
0.607                   -1.45899        -165.668         -40.7752        -71.2192         -40.7752        -71.2193       -0.0216248         143.567
0.608                   -1.42847        -166.667         -40.8017         -72.776         -40.8017         -72.776       -0.0218924         143.488
0.609                   -1.40112         -167.67         -40.8239        -74.3134         -40.8239        -74.3134       -0.0221678         143.409
0.61                    -1.37674        -168.679         -40.8419        -75.8338         -40.8419        -75.8338       -0.0224506         143.329
0.611                   -1.35512        -169.693          -40.856        -77.3394          -40.856        -77.3394       -0.0227401          143.25
0.612                    -1.3361        -170.713         -40.8663        -78.8322         -40.8663        -78.8321       -0.0230358          143.17
0.613                   -1.31952        -171.738          -40.873        -80.3139          -40.873        -80.3138       -0.0233372          143.09
0.614                   -1.30525        -172.769         -40.8764        -81.7862         -40.8764        -81.7861       -0.0236439          143.01
0.615                   -1.29316        -173.807         -40.8766        -83.2506         -40.8766        -83.2505       -0.0239556          142.93
0.616                   -1.28314        -174.851         -40.8739        -84.7082         -40.8739        -84.7081        -0.024272         142.849
0.617                   -1.27511        -175.902         -40.8684        -86.1601         -40.8684          -86.16       -0.0245927         142.769
0.618                   -1.26897         -176.96         -40.8605        -87.6073         -40.8605        -87.6072       -0.0249176         142.688
0.619                   -1.26466        -178.025         -40.8503        -89.0505         -40.8503        -89.0503       -0.0252464         142.607
0.62                    -1.26211        -179.099          -40.838        -90.4901          -40.838        -90.4899       -0.0255789         142.525
0.621                   -1.26126         179.819         -40.8239        -91.9265         -40.8239        -91.9263        -0.025915         142.444
0.622                   -1.26207         178.729         -40.8082        -93.3599         -40.8082        -93.3597       -0.0262546         142.362
0.623                    -1.2645         177.629          -40.791        -94.7902          -40.791        -94.7899       -0.0265974          142.28
0.624                   -1.26851         176.519         -40.7726        -96.2171         -40.7726        -96.2169       -0.0269434         142.198
0.625                   -1.27408           175.4          -40.753        -97.6403          -40.753        -97.6401       -0.0272926         142.115
0.626                   -1.28119          174.27         -40.7326        -99.0592         -40.7326         -99.059       -0.0276448         142.032
0.627                   -1.28983         173.129         -40.7113        -100.473         -40.7113        -100.473           -0.028          141.95
0.628                   -1.29998         171.977         -40.6892        -101.881         -40.6892        -101.881        -0.028358         141.866
0.629                   -1.31164         170.813         -40.6665        -103.283         -40.6665        -103.282       -0.0287189         141.783
