! TOUCHSTONE file generated by CST MICROWAVE STUDIO
! Date and time: Thu Feb 11 19:32:05 2021
! Project name: Scenario_1_Planar_Body_Tissue_Out_of_Line.cst
! Parameters = {L_HA=400; Ltissue=1000; MT=2.54; Rad_Dielectric=30; Rad_Lower=7.3; Rad_Upper=30; Wtissue=1000; a_HA=580; a_WG=246; b_HA=500; b_WG=121; c_HA=0; c_WG=187; d_feed=85; dx1=346; dy1=-190.3; h_feed=15; h_lower=18; h_upper=40; hfat=3; hgap=25; hmuscle=50; hskin=1.5}
! Header version: 2018
! Port assignment regex: !\s*Touchstone port\s*([0-9]+)\s*=\s*(CST MWS port|CST DS port)\s*([0-9]+|Zmin|Zmax)\s*\(\"(.*)\"\)(\s*mode\s*([0-9]+))?.*
! Touchstone port assignment:
! Touchstone port 1 = CST MWS port 1 ("")
! Touchstone port 2 = CST MWS port 2 ("")
# GHz S DB R 50
0.5                    -0.273876        -121.603         -56.7813         19.6545         -56.7812         19.6552      -0.00824905         151.144
0.501                  -0.274848        -121.994         -56.7195         17.6786         -56.7193         17.6777      -0.00831022         151.079
0.502                  -0.275832        -122.387         -56.6592         15.7076         -56.6589         15.7052      -0.00837188         151.013
0.503                  -0.276831        -122.784         -56.6004         13.7428            -56.6         13.7389      -0.00843403         150.948
0.504                  -0.277846        -123.183         -56.5429         11.7851         -56.5425         11.7798      -0.00849668         150.883
0.505                  -0.278879        -123.585         -56.4868         9.83547         -56.4863         9.82878      -0.00855983         150.817
0.506                  -0.279934         -123.99         -56.4319         7.89496         -56.4313         7.88697      -0.00862349         150.752
0.507                   -0.28101        -124.398         -56.3782         5.96447         -56.3776         5.95525      -0.00868767         150.686
0.508                  -0.282113        -124.809         -56.3255         4.04488         -56.3249         4.03451      -0.00875237         150.621
0.509                  -0.283242        -125.224         -56.2739         2.13705         -56.2733          2.1256       -0.0088176         150.555
0.51                   -0.284402        -125.641         -56.2232        0.241767         -56.2226        0.229305      -0.00888337         150.489
0.511                  -0.285595        -126.061         -56.1734        -1.64023         -56.1728        -1.65363      -0.00894968         150.423
0.512                  -0.286823        -126.485         -56.1242        -3.50826         -56.1236        -3.52251      -0.00901655         150.357
0.513                  -0.288089        -126.911         -56.0757        -5.36168         -56.0751        -5.37672      -0.00908397         150.291
0.514                  -0.289397        -127.341         -56.0277        -7.19991         -56.0271        -7.21566      -0.00915196         150.225
0.515                  -0.290749        -127.774           -55.98        -9.02242         -55.9795        -9.03881      -0.00922053         150.159
0.516                  -0.292148        -128.211         -55.9327        -10.8287         -55.9322        -10.8457      -0.00928968         150.092
0.517                  -0.293598        -128.651         -55.8855        -12.6185          -55.885        -12.6359      -0.00935942         150.026
0.518                  -0.295102        -129.095         -55.8385        -14.3912          -55.838        -14.4091      -0.00942976          149.96
0.519                  -0.296664        -129.542         -55.7913        -16.1467         -55.7909        -16.1649      -0.00950071         149.893
0.52                   -0.298287        -129.992         -55.7441        -17.8846         -55.7437        -17.9032      -0.00957228         149.826
0.521                  -0.299975        -130.446         -55.6965        -19.6048         -55.6962        -19.6236      -0.00964447          149.76
0.522                  -0.301733        -130.904         -55.6486        -21.3071         -55.6483         -21.326      -0.00971731         149.693
0.523                  -0.303564        -131.366         -55.6003        -22.9914            -55.6        -23.0104      -0.00979079         149.626
0.524                  -0.305473        -131.831         -55.5513        -24.6575         -55.5511        -24.6766      -0.00986493         149.559
0.525                  -0.307464        -132.301         -55.5017        -26.3056         -55.5015        -26.3247      -0.00993973         149.492
0.526                  -0.309543        -132.774         -55.4512        -27.9355         -55.4511        -27.9546       -0.0100152         149.425
0.527                  -0.311715        -133.251         -55.3999        -29.5474         -55.3998        -29.5664       -0.0100914         149.357
0.528                  -0.313984        -133.733         -55.3476        -31.1413         -55.3475        -31.1602       -0.0101683          149.29
0.529                  -0.316356        -134.218         -55.2942        -32.7174         -55.2942        -32.7361       -0.0102458         149.222
0.53                   -0.318837        -134.708         -55.2396        -34.2758         -55.2397        -34.2943       -0.0103242         149.155
0.531                  -0.321433        -135.202         -55.1838        -35.8168         -55.1839         -35.835       -0.0104032         149.087
0.532                   -0.32415          -135.7         -55.1266        -37.3405         -55.1268        -37.3584        -0.010483         149.019
0.533                  -0.326995        -136.203         -55.0681        -38.8471         -55.0682        -38.8648       -0.0105635         148.951
0.534                  -0.329975        -136.711         -55.0079         -40.337         -55.0081        -40.3543       -0.0106449         148.883
0.535                  -0.333098        -137.223         -54.9462        -41.8105         -54.9465        -41.8274        -0.010727         148.815
0.536                  -0.336371        -137.739         -54.8829        -43.2678         -54.8832        -43.2844       -0.0108099         148.747
0.537                  -0.339802        -138.261         -54.8178        -44.7094         -54.8181        -44.7256       -0.0108936         148.679
0.538                    -0.3434        -138.787         -54.7509        -46.1355         -54.7512        -46.1513       -0.0109782         148.611
0.539                  -0.347174        -139.319         -54.6821        -47.5466         -54.6825        -47.5619       -0.0110636         148.542
0.54                   -0.351133        -139.855         -54.6114         -48.943         -54.6118        -48.9579       -0.0111499         148.474
0.541                  -0.355287        -140.397         -54.5387        -50.3253         -54.5391        -50.3397        -0.011237         148.405
0.542                  -0.359647        -140.944         -54.4639        -51.6937         -54.4643        -51.7076        -0.011325         148.336
0.543                  -0.364225        -141.497          -54.387        -53.0487         -54.3874        -53.0622        -0.011414         148.267
0.544                  -0.369031        -142.055         -54.3079        -54.3909         -54.3084        -54.4039       -0.0115039         148.198
0.545                  -0.374078        -142.618         -54.2266        -55.7207         -54.2271        -55.7332       -0.0115947         148.129
0.546                   -0.37938        -143.188          -54.143        -57.0385         -54.1435        -57.0505       -0.0116865          148.06
0.547                  -0.384951        -143.763         -54.0571        -58.3449         -54.0576        -58.3564       -0.0117793          147.99
0.548                  -0.390804        -144.344         -53.9687        -59.6403         -53.9693        -59.6513        -0.011873         147.921
0.549                  -0.396957        -144.932          -53.878        -60.9254         -53.8785        -60.9359       -0.0119678         147.851
0.55                   -0.403425        -145.526         -53.7848        -62.2006         -53.7853        -62.2106       -0.0120637         147.782
0.551                  -0.410225        -146.126         -53.6891        -63.4664         -53.6896         -63.476       -0.0121606         147.712
0.552                  -0.417378        -146.733         -53.5908        -64.7235         -53.5913        -64.7326       -0.0122586         147.642
0.553                  -0.424902        -147.346         -53.4899        -65.9724         -53.4904         -65.981       -0.0123577         147.572
0.554                  -0.432819        -147.967         -53.3864        -67.2137         -53.3869        -67.2218        -0.012458         147.502
0.555                   -0.44115        -148.594         -53.2802        -68.4479         -53.2807        -68.4556       -0.0125594         147.431
0.556                   -0.44992        -149.229         -53.1713        -69.6757         -53.1718         -69.683        -0.012662         147.361
0.557                  -0.459155        -149.871         -53.0597        -70.8977         -53.0602        -70.9045       -0.0127659          147.29
0.558                  -0.468881        -150.521         -52.9452        -72.1145         -52.9458        -72.1209       -0.0128709          147.22
0.559                  -0.479127        -151.178          -52.828        -73.3268         -52.8285        -73.3327       -0.0129773         147.149
0.56                   -0.489924        -151.844         -52.7079        -74.5351         -52.7085        -74.5406       -0.0130849         147.078
0.561                  -0.501305        -152.517          -52.585        -75.7402         -52.5855        -75.7453       -0.0131939         147.007
0.562                  -0.513305        -153.199         -52.4592        -76.9428         -52.4597        -76.9475       -0.0133042         146.936
0.563                  -0.525962         -153.89         -52.3304        -78.1434         -52.3309        -78.1478       -0.0134159         146.865
0.564                  -0.539315        -154.589         -52.1987         -79.343         -52.1992         -79.347       -0.0135291         146.793
0.565                  -0.553408        -155.297          -52.064         -80.542         -52.0645        -80.5457       -0.0136437         146.722
0.566                  -0.568287        -156.015         -51.9263        -81.7414         -51.9268        -81.7448       -0.0137598          146.65
0.567                  -0.584001        -156.742         -51.7856        -82.9419          -51.786        -82.9449       -0.0138775         146.578
0.568                  -0.600603        -157.479         -51.6419        -84.1443         -51.6423         -84.147       -0.0139967         146.506
0.569                   -0.61815        -158.226         -51.4951        -85.3492         -51.4955        -85.3516       -0.0141176         146.434
0.57                   -0.636703        -158.983         -51.3452        -86.5577         -51.3456        -86.5598       -0.0142401         146.362
0.571                  -0.656328         -159.75         -51.1922        -87.7704         -51.1926        -87.7723       -0.0143643         146.289
0.572                  -0.677095        -160.528         -51.0362        -88.9884         -51.0365          -88.99       -0.0144903         146.217
0.573                   -0.69908        -161.318          -50.877        -90.2124         -50.8774        -90.2138       -0.0146181         146.144
0.574                  -0.722364        -162.118         -50.7147        -91.4434         -50.7151        -91.4445       -0.0147478         146.071
0.575                  -0.747036         -162.93         -50.5494        -92.6823         -50.5497        -92.6832       -0.0148793         145.998
0.576                  -0.773191        -163.754         -50.3808        -93.9301         -50.3811        -93.9308       -0.0150128         145.925
0.577                   -0.80093         -164.59         -50.2092        -95.1877         -50.2095        -95.1883       -0.0151483         145.852
0.578                  -0.830364        -165.439         -50.0345        -96.4563         -50.0348        -96.4567       -0.0152859         145.778
0.579                  -0.861612          -166.3         -49.8567        -97.7369         -49.8569        -97.7371       -0.0154256         145.705
0.58                   -0.894802        -167.174         -49.6758        -99.0305          -49.676        -99.0306       -0.0155675         145.631
0.581                  -0.930073        -168.061         -49.4919        -100.338         -49.4921        -100.338       -0.0157116         145.557
0.582                  -0.967574        -168.962         -49.3049        -101.661         -49.3051        -101.661       -0.0158581         145.483
0.583                   -1.00747        -169.876          -49.115        -103.001         -49.1152        -103.001        -0.016007         145.408
0.584                   -1.04993        -170.804         -48.9221        -104.358         -48.9223        -104.358       -0.0161583         145.334
0.585                   -1.09515        -171.746         -48.7263        -105.735         -48.7264        -105.734       -0.0163122         145.259
0.586                   -1.14333        -172.702         -48.5277        -107.132         -48.5278        -107.131       -0.0164687         145.185
0.587                   -1.19469        -173.673         -48.3263         -108.55         -48.3264        -108.549       -0.0166279          145.11
0.588                   -1.24947        -174.657         -48.1222        -109.991         -48.1223        -109.991       -0.0167898         145.035
0.589                   -1.30793        -175.656         -47.9155        -111.457         -47.9156        -111.456       -0.0169547         144.959
0.59                    -1.37035        -176.669         -47.7064        -112.949         -47.7064        -112.948       -0.0171224         144.884
0.591                   -1.43702        -177.696         -47.4948        -114.468         -47.4949        -114.467       -0.0172933         144.808
0.592                   -1.50828        -178.736         -47.2811        -116.015         -47.2811        -116.015       -0.0174672         144.733
0.593                   -1.58446        -179.789         -47.0652        -117.593         -47.0652        -117.593       -0.0176443         144.657
0.594                   -1.66595         179.145         -46.8474        -119.203         -46.8475        -119.203       -0.0178248          144.58
0.595                   -1.75315         178.067         -46.6279        -120.846          -46.628        -120.846       -0.0180086         144.504
0.596                   -1.84648         176.979         -46.4069        -122.524         -46.4069        -122.524       -0.0181959         144.428
0.597                   -1.94641         175.882         -46.1846        -124.239         -46.1846        -124.238       -0.0183868         144.351
0.598                   -2.05344         174.777         -45.9613        -125.991         -45.9613         -125.99       -0.0185813         144.274
0.599                   -2.16807         173.666         -45.7372        -127.782         -45.7372        -127.782       -0.0187795         144.197
0.6                     -2.29086         172.553         -45.5127        -129.615         -45.5127        -129.614       -0.0189816          144.12
0.601                   -2.42239         171.438         -45.2882        -131.489         -45.2881        -131.488       -0.0191875         144.042
0.602                   -2.56327         170.327         -45.0638        -133.406         -45.0638        -133.405       -0.0193974         143.964
0.603                    -2.7141         169.223         -44.8402        -135.367         -44.8402        -135.367       -0.0196112         143.887
0.604                   -2.87553         168.131         -44.6176        -137.374         -44.6176        -137.373       -0.0198291         143.809
0.605                    -3.0482         167.057         -44.3966        -139.426         -44.3966        -139.426       -0.0200511          143.73
0.606                   -3.23274         166.007         -44.1776        -141.525         -44.1776        -141.525       -0.0202771         143.652
0.607                   -3.42977         164.989         -43.9612        -143.671         -43.9611         -143.67       -0.0205072         143.573
0.608                   -3.63984         164.012         -43.7478        -145.863         -43.7478        -145.863       -0.0207414         143.494
0.609                   -3.86345         163.086          -43.538        -148.102          -43.538        -148.101       -0.0209796         143.415
0.61                    -4.10097         162.223         -43.3324        -150.386         -43.3324        -150.386       -0.0212219         143.336
0.611                   -4.35263         161.436         -43.1316        -152.716         -43.1316        -152.715        -0.021468         143.257
0.612                   -4.61843         160.741         -42.9361        -155.088         -42.9361        -155.088        -0.021718         143.177
0.613                   -4.89811         160.154         -42.7465        -157.502         -42.7465        -157.502       -0.0219717         143.097
0.614                   -5.19103         159.694         -42.5634        -159.956         -42.5634        -159.956       -0.0222289         143.017
0.615                   -5.49606         159.381         -42.3874        -162.446         -42.3874        -162.446       -0.0224896         142.937
0.616                   -5.81151         159.236         -42.2188        -164.969         -42.2188        -164.969       -0.0227536         142.856
0.617                   -6.13496         159.281         -42.0583        -167.522         -42.0583        -167.522       -0.0230206         142.775
0.618                   -6.46313         159.539         -41.9061        -170.101         -41.9061        -170.101       -0.0232905         142.694
0.619                   -6.79179         160.029         -41.7628        -172.702         -41.7628        -172.702       -0.0235632         142.613
0.62                    -7.11562         160.768         -41.6285         -175.32         -41.6285         -175.32       -0.0238384         142.532
0.621                   -7.42827         161.768         -41.5035        -177.951         -41.5035        -177.951       -0.0241159          142.45
0.622                   -7.72243         163.031         -41.3879         179.411         -41.3879         179.411       -0.0243955         142.368
0.623                   -7.99014         164.549         -41.2818         176.771         -41.2818         176.771       -0.0246771         142.286
0.624                   -8.22326         166.301         -41.1851         174.134         -41.1852         174.134       -0.0249606         142.204
0.625                   -8.41413         168.249         -41.0978         171.504         -41.0978         171.504       -0.0252457         142.121
0.626                    -8.5564         170.342         -41.0196         168.887         -41.0196         168.887       -0.0255326         142.038
0.627                   -8.64574         172.519         -40.9503         166.287         -40.9503         166.287       -0.0258209         141.955
0.628                   -8.68043         174.711         -40.8895         163.709         -40.8895         163.709       -0.0261109         141.872
0.629                   -8.66153         176.849         -40.8369         161.156         -40.8369         161.156       -0.0264024         141.788
