! TOUCHSTONE file generated by CST MICROWAVE STUDIO
! Date and time: Mon Nov 30 08:39:03 2020
! Project name: Scenario_1_Planar_Body_Tissue_Out_of_Line.cst
! Parameters = {dy1=-190.3; L_HA=400; Ltissue=700; MT=2.54; Rad_Dielectric=30; Rad_Lower=7.3; Rad_Upper=30; Wtissue=700; a_HA=580; a_WG=246; b_HA=500; b_WG=121; c_HA=0; c_WG=187; d_feed=85; dx1=866; h_feed=15; h_lower=18; h_upper=40; hfat=3; hgap=25; hmuscle=50; hskin=1.5}
! Header version: 2018
! Port assignment regex: !\s*Touchstone port\s*([0-9]+)\s*=\s*(CST MWS port|CST DS port)\s*([0-9]+|Zmin|Zmax)\s*\(\"(.*)\"\)(\s*mode\s*([0-9]+))?.*
! Touchstone port assignment:
! Touchstone port 1 = CST MWS port 1 ("")
! Touchstone port 2 = CST MWS port 2 ("")
# GHz S DB R 50
0.5                    -0.112552        -122.128         -64.2651         99.0364         -64.2648         99.0388      -0.00751484         151.149
0.501                  -0.118336        -122.586         -64.0115         97.3021         -64.0112         97.3044      -0.00758583         151.084
0.502                  -0.124536        -123.048         -63.7543         95.5266          -63.754         95.5288       -0.0076577         151.019
0.503                  -0.131189        -123.513         -63.4937         93.7078         -63.4933         93.7099      -0.00773049         150.953
0.504                  -0.138337        -123.981         -63.2297         91.8435         -63.2294         91.8455      -0.00780422         150.888
0.505                  -0.146026        -124.453         -62.9626         89.9315         -62.9623         89.9334      -0.00787892         150.822
0.506                  -0.154303        -124.928         -62.6927         87.9694         -62.6924         87.9712       -0.0079546         150.757
0.507                  -0.163217        -125.406           -62.42         85.9548         -62.4197         85.9565      -0.00803131         150.691
0.508                  -0.172824        -125.887          -62.145         83.8852         -62.1447         83.8868      -0.00810908         150.625
0.509                  -0.183176         -126.37          -61.868         81.7582         -61.8678         81.7597      -0.00818795         150.559
0.51                   -0.194331        -126.856         -61.5894         79.5712         -61.5891         79.5726      -0.00826794         150.494
0.511                  -0.206345        -127.344         -61.3096         77.3218         -61.3094         77.3231      -0.00834911         150.428
0.512                  -0.219271        -127.834         -61.0292         75.0076          -61.029         75.0087      -0.00843148         150.361
0.513                  -0.233162        -128.325         -60.7487         72.6263         -60.7485         72.6273      -0.00851511         150.295
0.514                  -0.248063        -128.816         -60.4688         70.1758         -60.4686         70.1768      -0.00860004         150.229
0.515                   -0.26401        -129.307         -60.1901         67.6543           -60.19         67.6553      -0.00868631         150.163
0.516                  -0.281027        -129.797         -59.9136         65.0604         -59.9136         65.0612      -0.00877397         150.096
0.517                  -0.299122        -130.284         -59.6401         62.3929           -59.64         62.3937      -0.00886304          150.03
0.518                   -0.31828        -130.769         -59.3704         59.6512         -59.3704          59.652      -0.00895357         149.963
0.519                  -0.338462         -131.25         -59.1056         56.8355         -59.1056         56.8363      -0.00904557         149.897
0.52                   -0.359599        -131.725         -58.8467         53.9465         -58.8468         53.9473      -0.00913906          149.83
0.521                  -0.381584        -132.194         -58.5949         50.9858          -58.595         50.9866      -0.00923402         149.763
0.522                  -0.404277        -132.656         -58.3511         47.9559         -58.3513         47.9568      -0.00933044         149.696
0.523                  -0.427494        -133.109         -58.1166         44.8604         -58.1168         44.8614      -0.00942825         149.629
0.524                  -0.451018        -133.553         -57.8924         41.7037         -57.8926         41.7047      -0.00952737         149.562
0.525                  -0.474593        -133.988         -57.6795         38.4914         -57.6797         38.4926      -0.00962768         149.495
0.526                  -0.497941        -134.412         -57.4788         35.2301         -57.4791         35.2314      -0.00972901         149.428
0.527                  -0.520764        -134.827         -57.2914         31.9275         -57.2916          31.929      -0.00983116         149.361
0.528                  -0.542762        -135.232         -57.1177          28.592          -57.118         28.5936      -0.00993389         149.293
0.529                  -0.563645        -135.629         -56.9584         25.2328         -56.9587         25.2345       -0.0100369         149.226
0.53                    -0.58315        -136.018         -56.8139         21.8596         -56.8142         21.8615         -0.01014         149.158
0.531                  -0.601054        -136.402         -56.6842         18.4824         -56.6845         18.4844       -0.0102428         149.091
0.532                  -0.617188        -136.783         -56.5694         15.1114         -56.5696         15.1135        -0.010345         149.023
0.533                   -0.63144        -137.162         -56.4691         11.7565         -56.4694         11.7587       -0.0104464         148.955
0.534                  -0.643762        -137.542         -56.3829         8.42715         -56.3832         8.42945       -0.0105468         148.887
0.535                  -0.654169        -137.924         -56.3102         5.13241         -56.3105         5.13477       -0.0106461         148.819
0.536                  -0.662729        -138.312         -56.2502         1.88038         -56.2505         1.88276       -0.0107442         148.751
0.537                  -0.669562        -138.706          -56.202        -1.32173         -56.2022        -1.31935       -0.0108411         148.683
0.538                  -0.674822        -139.108         -56.1646        -4.46773         -56.1647        -4.46537        -0.010937         148.615
0.539                  -0.678692        -139.519         -56.1367        -7.55247         -56.1369        -7.55016        -0.011032         148.547
0.54                   -0.681371        -139.941         -56.1174        -10.5719         -56.1176        -10.5697       -0.0111264         148.478
0.541                  -0.683062        -140.374         -56.1055         -13.523         -56.1056        -13.5209       -0.0112203         148.409
0.542                  -0.683969        -140.819         -56.0998        -16.4038         -56.0998        -16.4018        -0.011314         148.341
0.543                  -0.684285        -141.276         -56.0992         -19.213         -56.0992        -19.2112       -0.0114078         148.272
0.544                  -0.684196        -141.745         -56.1026        -21.9505         -56.1026        -21.9488        -0.011502         148.203
0.545                  -0.683867        -142.226          -56.109        -24.6165          -56.109         -24.615       -0.0115967         148.134
0.546                  -0.683451        -142.719         -56.1175        -27.2121         -56.1174        -27.2108       -0.0116921         148.065
0.547                  -0.683083        -143.224         -56.1271        -29.7388          -56.127        -29.7378       -0.0117885         147.995
0.548                  -0.682882         -143.74         -56.1371        -32.1986          -56.137        -32.1977       -0.0118859         147.926
0.549                  -0.682952        -144.268         -56.1467        -34.5936         -56.1466         -34.593       -0.0119845         147.857
0.55                   -0.683383        -144.807         -56.1552        -36.9265         -56.1551         -36.926       -0.0120844         147.787
0.551                  -0.684253        -145.356         -56.1621        -39.1998          -56.162        -39.1996       -0.0121857         147.717
0.552                  -0.685631        -145.916         -56.1667        -41.4165         -56.1666        -41.4165       -0.0122883         147.647
0.553                  -0.687575        -146.486         -56.1687        -43.5794         -56.1685        -43.5796       -0.0123925         147.577
0.554                  -0.690137        -147.065         -56.1675        -45.6915         -56.1673        -45.6919       -0.0124981         147.507
0.555                  -0.693364        -147.654         -56.1628        -47.7558         -56.1627        -47.7564       -0.0126052         147.437
0.556                  -0.697296        -148.253         -56.1543        -49.7752         -56.1542         -49.776        -0.012714         147.367
0.557                  -0.701972         -148.86         -56.1417        -51.7527         -56.1415        -51.7537       -0.0128242         147.296
0.558                  -0.707427        -149.477         -56.1247        -53.6911         -56.1245        -53.6923       -0.0129361         147.225
0.559                  -0.713696        -150.102         -56.1031        -55.5933          -56.103        -55.5947       -0.0130495         147.155
0.56                   -0.720812        -150.737         -56.0768         -57.462         -56.0767        -57.4635       -0.0131645         147.084
0.561                  -0.728808        -151.379         -56.0455        -59.2999         -56.0454        -59.3016       -0.0132812         147.013
0.562                   -0.73772        -152.031         -56.0092        -61.1097         -56.0091        -61.1115       -0.0133994         146.942
0.563                  -0.747581        -152.691         -55.9678        -62.8938         -55.9677        -62.8957       -0.0135193          146.87
0.564                   -0.75843        -153.359         -55.9211        -64.6548          -55.921        -64.6568       -0.0136408         146.799
0.565                  -0.770306        -154.036          -55.869        -66.3951          -55.869        -66.3972       -0.0137639         146.728
0.566                   -0.78325        -154.721         -55.8116         -68.117         -55.8116        -68.1191       -0.0138887         146.656
0.567                  -0.797308        -155.415         -55.7488        -69.8228         -55.7487         -69.825       -0.0140152         146.584
0.568                  -0.812528        -156.117         -55.6805        -71.5147         -55.6804         -71.517       -0.0141434         146.512
0.569                  -0.828962        -156.828         -55.6067         -73.195         -55.6067        -73.1973       -0.0142732          146.44
0.57                   -0.846665        -157.547         -55.5274        -74.8658         -55.5274        -74.8681       -0.0144048         146.368
0.571                  -0.865699        -158.275         -55.4426        -76.5292         -55.4426        -76.5314       -0.0145382         146.296
0.572                  -0.886128        -159.011         -55.3524        -78.1871         -55.3524        -78.1894       -0.0146733         146.223
0.573                  -0.908024        -159.756         -55.2567        -79.8418         -55.2567         -79.844       -0.0148103          146.15
0.574                  -0.931461        -160.509         -55.1555        -81.4951         -55.1556        -81.4973        -0.014949         146.078
0.575                   -0.95652        -161.271          -55.049         -83.149          -55.049        -83.1512       -0.0150897         146.005
0.576                  -0.983291        -162.041         -54.9371        -84.8055         -54.9372        -84.8076       -0.0152322         145.932
0.577                   -1.01187         -162.82         -54.8199        -86.4666           -54.82        -86.4686       -0.0153767         145.859
0.578                   -1.04235        -163.606         -54.6975        -88.1341         -54.6976        -88.1361       -0.0155231         145.785
0.579                   -1.07484        -164.401           -54.57          -89.81           -54.57        -89.8119       -0.0156716         145.712
0.58                    -1.10946        -165.204         -54.4373        -91.4962         -54.4374         -91.498       -0.0158221         145.638
0.581                   -1.14633        -166.014         -54.2997        -93.1947         -54.2997        -93.1964       -0.0159747         145.564
0.582                   -1.18558        -166.832         -54.1571        -94.9072         -54.1572        -94.9088       -0.0161295          145.49
0.583                   -1.22735        -167.657         -54.0099        -96.6357         -54.0099        -96.6372       -0.0162864         145.416
0.584                   -1.27179        -168.489         -53.8579        -98.3822          -53.858        -98.3836       -0.0164457         145.342
0.585                   -1.31904        -169.327         -53.7015        -100.148         -53.7016         -100.15       -0.0166072         145.267
0.586                   -1.36926        -170.171         -53.5408        -101.936         -53.5408        -101.938       -0.0167711         145.193
0.587                   -1.42264        -171.019         -53.3758        -103.748         -53.3759        -103.749       -0.0169375         145.118
0.588                   -1.47933        -171.871         -53.2069        -105.585          -53.207        -105.586       -0.0171063         145.043
0.589                   -1.53952        -172.727         -53.0343        -107.449         -53.0343         -107.45       -0.0172776         144.968
0.59                    -1.60339        -173.584         -52.8581        -109.342         -52.8581        -109.343       -0.0174516         144.892
0.591                   -1.67112        -174.442         -52.6785        -111.266         -52.6786        -111.267       -0.0176283         144.817
0.592                    -1.7429        -175.299          -52.496        -113.223         -52.4961        -113.224       -0.0178077         144.741
0.593                   -1.81891        -176.153         -52.3107        -115.214         -52.3108        -115.215       -0.0179899         144.666
0.594                   -1.89931        -177.002          -52.123        -117.241         -52.1231        -117.241        -0.018175          144.59
0.595                   -1.98428        -177.844         -51.9333        -119.305         -51.9333        -119.305        -0.018363         144.513
0.596                   -2.07394        -178.676         -51.7418        -121.408         -51.7418        -121.408       -0.0185541         144.437
0.597                   -2.16843        -179.496          -51.549        -123.551          -51.549        -123.551       -0.0187482          144.36
0.598                   -2.26781           179.7         -51.3553        -125.736         -51.3553        -125.736       -0.0189454         144.284
0.599                   -2.37214         178.915         -51.1612        -127.962         -51.1612        -127.962       -0.0191458         144.207
0.6                      -2.4814         178.153          -50.967        -130.231          -50.967        -130.231       -0.0193495          144.13
0.601                   -2.59552         177.418         -50.7734        -132.544         -50.7733        -132.544       -0.0195564         144.052
0.602                   -2.71433         176.715         -50.5807          -134.9         -50.5807          -134.9       -0.0197667         143.975
0.603                   -2.83761         176.048         -50.3896          -137.3         -50.3895        -137.299       -0.0199803         143.897
0.604                   -2.96498         175.422         -50.2005        -139.742         -50.2005        -139.742       -0.0201973         143.819
0.605                   -3.09598         174.842         -50.0141        -142.228          -50.014        -142.227       -0.0204177         143.741
0.606                   -3.22999         174.313         -49.8307        -144.754         -49.8307        -144.754       -0.0206415         143.663
0.607                   -3.36625         173.839         -49.6511        -147.321          -49.651        -147.321       -0.0208687         143.585
0.608                   -3.50386         173.425         -49.4757        -149.926         -49.4756        -149.926       -0.0210993         143.506
0.609                   -3.64175         173.075          -49.305        -152.567         -49.3049        -152.566       -0.0213333         143.427
0.61                     -3.7787          172.79         -49.1395        -155.241         -49.1394         -155.24       -0.0215707         143.348
0.611                   -3.91334         172.573         -48.9797        -157.945         -48.9796        -157.945       -0.0218114         143.269
0.612                   -4.04421         172.424         -48.8259        -160.677         -48.8258        -160.676       -0.0220554         143.189
0.613                   -4.16976         172.342         -48.6785        -163.432         -48.6784        -163.431       -0.0223027         143.109
0.614                   -4.28839         172.324         -48.5378        -166.206         -48.5377        -166.206       -0.0225532         143.029
0.615                   -4.39857         172.364         -48.4039        -168.997         -48.4038        -168.996       -0.0228068         142.949
0.616                   -4.49881         172.456         -48.2771        -171.798         -48.2771        -171.798       -0.0230636         142.869
0.617                   -4.58781         172.592         -48.1575        -174.607         -48.1574        -174.607       -0.0233235         142.788
0.618                   -4.66448          172.76         -48.0449        -177.418         -48.0449        -177.418       -0.0235864         142.707
0.619                     -4.728         172.949         -47.9395         179.772         -47.9394         179.773       -0.0238523         142.626
0.62                    -4.77787         173.146         -47.8409         176.969         -47.8409         176.969       -0.0241213         142.545
0.621                   -4.81395         173.339          -47.749         174.175          -47.749         174.175       -0.0243932         142.463
0.622                   -4.83644         173.514         -47.6636         171.394         -47.6636         171.394       -0.0246681         142.382
0.623                   -4.84584          173.66         -47.5843         168.631         -47.5842         168.631        -0.024946           142.3
0.624                   -4.84298         173.764         -47.5106         165.887         -47.5106         165.887       -0.0252269         142.217
0.625                   -4.82891         173.817         -47.4423         163.167         -47.4423         163.167       -0.0255109         142.135
0.626                   -4.80486          173.81         -47.3788         160.472         -47.3788         160.472        -0.025798         142.052
0.627                   -4.77219         173.737         -47.3197         157.804         -47.3197         157.804       -0.0260882         141.969
0.628                   -4.73232         173.594         -47.2644         155.165         -47.2644         155.165       -0.0263817         141.886
0.629                   -4.68666         173.375         -47.2125         152.556         -47.2125         152.556       -0.0266785         141.802
