! TOUCHSTONE file generated by CST MICROWAVE STUDIO
! Date and time: Sat Nov 14 20:33:51 2020
! Project name: Scenario_1_Planar_Body_Tissue_Out_of_Line_v2.cst
! Parameters = {dy1=173; L_HA=400; Ltissue=700; MT=2.54; Rad_Dielectric=30; Rad_Lower=7.3; Rad_Upper=30; Wtissue=700; a_HA=580; a_WG=246; b_HA=500; b_WG=121; c_HA=0; c_WG=187; d_feed=85; dx1=173; h_feed=15; h_lower=18; h_upper=40; hfat=3; hgap=25; hmuscle=50; hskin=1.5}
! Header version: 2018
! Port assignment regex: !\s*Touchstone port\s*([0-9]+)\s*=\s*(CST MWS port|CST DS port)\s*([0-9]+|Zmin|Zmax)\s*\(\"(.*)\"\)(\s*mode\s*([0-9]+))?.*
! Touchstone port assignment:
! Touchstone port 1 = CST MWS port 1 ("")
! Touchstone port 2 = CST MWS port 2 ("")
# GHz S DB R 50
0.5                   -0.0482011        -121.747          -60.589         126.937         -60.5892         126.939      -0.00686967         151.152
0.501                 -0.0489335        -122.198         -60.4211         126.505         -60.4216         126.506      -0.00691285         151.086
0.502                 -0.0497589        -122.652         -60.2501         126.062         -60.2508         126.063      -0.00695718         151.021
0.503                 -0.0506817         -123.11          -60.076          125.61         -60.0769          125.61      -0.00700268         150.955
0.504                 -0.0517063        -123.572         -59.8987         125.147         -59.8997         125.146      -0.00704934          150.89
0.505                 -0.0528377        -124.037         -59.7181         124.674         -59.7194         124.673      -0.00709717         150.824
0.506                 -0.0540813        -124.506         -59.5344          124.19         -59.5358         124.188      -0.00714619         150.758
0.507                 -0.0554428        -124.978         -59.3473         123.696         -59.3489         123.693       -0.0071964         150.693
0.508                 -0.0569283        -125.455          -59.157          123.19         -59.1587         123.187      -0.00724782         150.627
0.509                 -0.0585443        -125.936         -58.9634         122.674         -58.9652          122.67      -0.00730044         150.561
0.51                   -0.060298         -126.42         -58.7663         122.146         -58.7683         122.142      -0.00735427         150.495
0.511                  -0.062197        -126.909         -58.5659         121.607          -58.568         121.602      -0.00740934         150.429
0.512                 -0.0642496        -127.403         -58.3621         121.055         -58.3643         121.051      -0.00746563         150.362
0.513                 -0.0664646          -127.9         -58.1548         120.492         -58.1571         120.487      -0.00752317         150.296
0.514                 -0.0688517        -128.403          -57.944         119.916         -57.9464         119.911      -0.00758196          150.23
0.515                 -0.0714213         -128.91         -57.7297         119.328         -57.7322         119.323      -0.00764201         150.163
0.516                 -0.0741847        -129.422         -57.5118         118.727         -57.5144         118.722      -0.00770333         150.097
0.517                 -0.0771542        -129.939         -57.2903         118.113         -57.2929         118.108      -0.00776593          150.03
0.518                 -0.0803429        -130.462         -57.0652         117.485         -57.0678          117.48      -0.00782981         149.963
0.519                 -0.0837655         -130.99         -56.8363         116.844          -56.839         116.839        -0.007895         149.897
0.52                  -0.0874375        -131.523         -56.6037         116.189         -56.6064         116.183      -0.00796149          149.83
0.521                 -0.0913762        -132.062         -56.3673         115.519           -56.37         115.513      -0.00802929         149.763
0.522                 -0.0956002        -132.607         -56.1271         114.834         -56.1298         114.828      -0.00809842         149.696
0.523                   -0.10013        -133.159          -55.883         114.133         -55.8857         114.128      -0.00816889         149.629
0.524                  -0.104988        -133.716         -55.6349         113.417         -55.6376         113.412       -0.0082407         149.561
0.525                  -0.110198        -134.281         -55.3828         112.685         -55.3856          112.68      -0.00831387         149.494
0.526                  -0.115788        -134.852         -55.1267         111.935         -55.1294         111.931       -0.0083884         149.427
0.527                  -0.121787         -135.43         -54.8664         111.169         -54.8691         111.164      -0.00846431         149.359
0.528                  -0.128227        -136.016          -54.602         110.384         -54.6047         110.379      -0.00854161         149.291
0.529                  -0.135144        -136.609         -54.3333          109.58          -54.336         109.576       -0.0086203         149.224
0.53                   -0.142578        -137.211         -54.0604         108.757         -54.0629         108.753      -0.00870041         149.156
0.531                  -0.150571         -137.82          -53.783         107.913         -53.7855          107.91      -0.00878193         149.088
0.532                  -0.159173        -138.439         -53.5012         107.049         -53.5037         107.045      -0.00886488          149.02
0.533                  -0.168436        -139.067         -53.2148         106.162         -53.2172         106.159      -0.00894928         148.952
0.534                   -0.17842        -139.704         -52.9239         105.253         -52.9262         105.249      -0.00903513         148.884
0.535                   -0.18919         -140.35         -52.6282         104.319         -52.6305         104.316      -0.00912245         148.815
0.536                  -0.200821        -141.008         -52.3278         103.359           -52.33         103.357      -0.00921126         148.747
0.537                  -0.213393        -141.675         -52.0226         102.374         -52.0247         102.371      -0.00930155         148.678
0.538                  -0.226998        -142.355         -51.7124          101.36         -51.7145         101.358      -0.00939336          148.61
0.539                  -0.241739        -143.046         -51.3973         100.317         -51.3992         100.315      -0.00948669         148.541
0.54                   -0.257731        -143.749          -51.077         99.2426         -51.0789          99.241      -0.00958157         148.472
0.541                  -0.275102        -144.465         -50.7516         98.1355         -50.7533         98.1341        -0.009678         148.403
0.542                  -0.293998        -145.195         -50.4209         96.9935         -50.4226         96.9924      -0.00977602         148.334
0.543                  -0.314582        -145.938         -50.0849         95.8147         -50.0864         95.8138      -0.00987564         148.265
0.544                  -0.337039        -146.697         -49.7435         94.5967         -49.7449          94.596      -0.00997688         148.196
0.545                  -0.361579         -147.47         -49.3966         93.3371          -49.398         93.3366       -0.0100798         148.126
0.546                  -0.388439         -148.26         -49.0442          92.033         -49.0455         92.0327       -0.0101844         148.057
0.547                  -0.417886        -149.067         -48.6863         90.6816         -48.6875         90.6814       -0.0102907         147.987
0.548                  -0.450229        -149.891         -48.3228         89.2796         -48.3238         89.2795       -0.0103988         147.918
0.549                  -0.485813        -150.733         -47.9537         87.8234         -47.9546         87.8236       -0.0105087         147.848
0.55                   -0.525037        -151.593         -47.5791         86.3094         -47.5799         86.3096       -0.0106205         147.778
0.551                  -0.568353        -152.473         -47.1989         84.7333         -47.1996         84.7336       -0.0107343         147.708
0.552                  -0.616278        -153.372         -46.8134         83.0905          -46.814         83.0909       -0.0108501         147.637
0.553                  -0.669401        -154.291         -46.4226         81.3763          -46.423         81.3766       -0.0109681         147.567
0.554                  -0.728396        -155.229         -46.0267         79.5852          -46.027         79.5856       -0.0110885         147.496
0.555                   -0.79403        -156.186          -45.626         77.7117         -45.6263          77.712       -0.0112114         147.426
0.556                  -0.867179        -157.162         -45.2209         75.7495         -45.2211         75.7498       -0.0113371         147.355
0.557                  -0.948834        -158.154         -44.8119         73.6922          -44.812         73.6924       -0.0114659         147.284
0.558                   -1.04012        -159.161         -44.3996          71.533         -44.3995          71.533       -0.0115982         147.213
0.559                   -1.14229        -160.178         -43.9846         69.2645         -43.9845         69.2643       -0.0117346         147.142
0.56                    -1.25674        -161.201          -43.568         66.8794         -43.5678          66.879       -0.0118757          147.07
0.561                   -1.38502        -162.222         -43.1509         64.3701         -43.1506         64.3696       -0.0120224         146.999
0.562                   -1.52877        -163.232         -42.7345         61.7292         -42.7342         61.7284       -0.0121761         146.927
0.563                   -1.68973        -164.219         -42.3206         58.9496         -42.3203         58.9485       -0.0123383         146.855
0.564                   -1.86963        -165.164         -41.9111         56.0246         -41.9106         56.0233       -0.0125111         146.783
0.565                   -2.07009        -166.048          -41.508         52.9489         -41.5076         52.9473       -0.0126974         146.711
0.566                   -2.29241        -166.843          -41.114         49.7185         -41.1135         49.7166       -0.0129007         146.639
0.567                   -2.53731        -167.515         -40.7317         46.3314         -40.7313         46.3293       -0.0131257         146.566
0.568                   -2.80453        -168.023         -40.3644         42.7885         -40.3639         42.7861       -0.0133779         146.493
0.569                    -3.0923         -168.32         -40.0151         39.0938         -40.0146         39.0913       -0.0136634          146.42
0.57                    -3.39674        -168.355         -39.6872         35.2553         -39.6868         35.2527       -0.0139878         146.347
0.571                   -3.71117        -168.075          -39.384         31.2852         -39.3837         31.2825       -0.0143544         146.274
0.572                   -4.02553        -167.432         -39.1087         27.2002         -39.1084         27.1975       -0.0147602         146.202
0.573                   -4.32625        -166.396         -38.8639         23.0212         -38.8636         23.0188       -0.0151927         146.129
0.574                   -4.59684        -164.964         -38.6518         18.7733         -38.6516         18.7711       -0.0156276         146.057
0.575                   -4.81958        -163.174          -38.474         14.4842         -38.4739         14.4825       -0.0160337         145.985
0.576                   -4.97832        -161.105          -38.331         10.1837         -38.3309         10.1824        -0.016382         145.914
0.577                    -5.0618        -158.882         -38.2227         5.90177         -38.2227         5.90104       -0.0166572         145.842
0.578                   -5.06624        -156.645         -38.1481         1.66728         -38.1481          1.6672       -0.0168612          145.77
0.579                   -4.99606        -154.537         -38.1052        -2.49321         -38.1052         -2.4926       -0.0170085         145.698
0.58                    -4.86248         -152.67         -38.0916        -6.55665         -38.0916        -6.55532       -0.0171186         145.626
0.581                   -4.68061        -151.119         -38.1044        -10.5041         -38.1044        -10.5021        -0.017209         145.553
0.582                   -4.46641        -149.915         -38.1405        -14.3213         -38.1405        -14.3185       -0.0172929          145.48
0.583                   -4.23432        -149.058         -38.1964         -17.998         -38.1963        -17.9945       -0.0173791         145.406
0.584                   -3.99608        -148.523         -38.2689        -21.5284         -38.2688        -21.5243       -0.0174726         145.332
0.585                   -3.76041        -148.273         -38.3549        -24.9101         -38.3548        -24.9055        -0.017576         145.258
0.586                   -3.53327        -148.267         -38.4515        -28.1439         -38.4513        -28.1387       -0.0176902         145.183
0.587                   -3.31838        -148.465          -38.556        -31.2327         -38.5557        -31.2271       -0.0178155         145.109
0.588                   -3.11775         -148.83         -38.6661        -34.1814         -38.6658        -34.1754       -0.0179514         145.034
0.589                   -2.93222         -149.33         -38.7798        -36.9962         -38.7794        -36.9898       -0.0180975         144.959
0.59                    -2.76182        -149.938         -38.8954        -39.6838         -38.8949        -39.6772        -0.018253         144.883
0.591                   -2.60606        -150.632         -39.0113        -42.2519         -39.0108        -42.2451       -0.0184174         144.808
0.592                   -2.46415        -151.394         -39.1264         -44.708         -39.1258         -44.701         -0.01859         144.732
0.593                   -2.33515        -152.208         -39.2397        -47.0596          -39.239        -47.0525       -0.0187703         144.656
0.594                   -2.21807        -153.064         -39.3503        -49.3142         -39.3496        -49.3071       -0.0189578          144.58
0.595                   -2.11189        -153.953         -39.4576        -51.4789         -39.4569        -51.4718       -0.0191521         144.504
0.596                   -2.01566        -154.866         -39.5611        -53.5606         -39.5603        -53.5535       -0.0193528         144.428
0.597                   -1.92848          -155.8         -39.6604        -55.5656         -39.6595        -55.5587       -0.0195597         144.351
0.598                    -1.8495        -156.748         -39.7551        -57.5001         -39.7542        -57.4932       -0.0197724         144.274
0.599                   -1.77797        -157.709         -39.8451        -59.3695         -39.8442        -59.3628       -0.0199908         144.197
0.6                     -1.71319        -158.678         -39.9303        -61.1792         -39.9293        -61.1727       -0.0202146          144.12
0.601                   -1.65455        -159.656         -40.0104        -62.9339         -40.0094        -62.9276       -0.0204437         144.043
0.602                   -1.60148        -160.639         -40.0855        -64.6382         -40.0845        -64.6322        -0.020678         143.965
0.603                    -1.5535        -161.627         -40.1555        -66.2962         -40.1545        -66.2904       -0.0209173         143.888
0.604                   -1.51014        -162.619         -40.2204        -67.9117         -40.2194        -67.9062       -0.0211616          143.81
0.605                   -1.47103        -163.616         -40.2804        -69.4882         -40.2794         -69.483       -0.0214108         143.732
0.606                   -1.43581        -164.615         -40.3354         -71.029         -40.3344         -71.024       -0.0216648         143.653
0.607                   -1.40416        -165.619         -40.3855        -72.5371         -40.3845        -72.5324       -0.0219236         143.575
0.608                    -1.3758        -166.625         -40.4308        -74.0152         -40.4298        -74.0109        -0.022187         143.496
0.609                   -1.35049        -167.636         -40.4714         -75.466         -40.4704        -75.4619       -0.0224552         143.417
0.61                    -1.32801        -168.649         -40.5073        -76.8917         -40.5064         -76.888        -0.022728         143.338
0.611                   -1.30816        -169.667         -40.5388        -78.2946         -40.5379        -78.2912       -0.0230054         143.259
0.612                   -1.29077         -170.69         -40.5658        -79.6766          -40.565        -79.6736       -0.0232874         143.179
0.613                   -1.27568        -171.716         -40.5886        -81.0398         -40.5878        -81.0371       -0.0235739           143.1
0.614                   -1.26276        -172.748         -40.6071        -82.3858         -40.6063        -82.3834       -0.0238651          143.02
0.615                   -1.25189        -173.785         -40.6216        -83.7163         -40.6209        -83.7142       -0.0241608          142.94
0.616                   -1.24296        -174.828          -40.632        -85.0328         -40.6314         -85.031        -0.024461         142.859
0.617                   -1.23587        -175.877         -40.6386        -86.3367         -40.6381        -86.3352       -0.0247657         142.779
0.618                   -1.23055        -176.933         -40.6415        -87.6293          -40.641        -87.6281       -0.0250749         142.698
0.619                   -1.22693        -177.995         -40.6407        -88.9119         -40.6403         -88.911       -0.0253886         142.617
0.62                    -1.22493        -179.066         -40.6363        -90.1857          -40.636         -90.185       -0.0257067         142.536
0.621                   -1.22452         179.856         -40.6285        -91.4517         -40.6283        -91.4513       -0.0260292         142.454
0.622                   -1.22564          178.77         -40.6174         -92.711         -40.6172        -92.7108       -0.0263562         142.372
0.623                   -1.22825         177.674          -40.603        -93.9645         -40.6029        -93.9645       -0.0266874         142.291
0.624                   -1.23233         176.569         -40.5854        -95.2132         -40.5855        -95.2134        -0.027023         142.208
0.625                   -1.23784         175.454         -40.5648        -96.4579          -40.565        -96.4583       -0.0273629         142.126
0.626                   -1.24478         174.329         -40.5413        -97.6994         -40.5415        -97.6999        -0.027707         142.043
0.627                   -1.25313         173.193         -40.5149        -98.9386         -40.5152        -98.9392       -0.0280552          141.96
0.628                   -1.26288         172.045         -40.4857        -100.176         -40.4862        -100.177       -0.0284076         141.877
0.629                   -1.27403         170.885         -40.4538        -101.413         -40.4544        -101.413       -0.0287639         141.794
