! TOUCHSTONE file generated by CST MICROWAVE STUDIO
! Date and time: Thu Feb 11 19:32:13 2021
! Project name: Scenario_1_Planar_Body_Tissue_Out_of_Line.cst
! Parameters = {L_HA=400; Ltissue=1000; MT=2.54; Rad_Dielectric=30; Rad_Lower=7.3; Rad_Upper=30; Wtissue=1000; a_HA=580; a_WG=246; b_HA=500; b_WG=121; c_HA=0; c_WG=187; d_feed=85; dx1=346; dy1=-173; h_feed=15; h_lower=18; h_upper=40; hfat=3; hgap=25; hmuscle=50; hskin=1.5}
! Header version: 2018
! Port assignment regex: !\s*Touchstone port\s*([0-9]+)\s*=\s*(CST MWS port|CST DS port)\s*([0-9]+|Zmin|Zmax)\s*\(\"(.*)\"\)(\s*mode\s*([0-9]+))?.*
! Touchstone port assignment:
! Touchstone port 1 = CST MWS port 1 ("")
! Touchstone port 2 = CST MWS port 2 ("")
# GHz S DB R 50
0.5                    -0.274238        -121.589         -56.5388         22.3325         -56.5387         22.3324      -0.00822923         151.142
0.501                  -0.274092        -122.005          -56.528         21.4545         -56.5279         21.4544      -0.00825398         151.078
0.502                  -0.274019        -122.424         -56.5163          20.565         -56.5162         20.5649      -0.00827996         151.013
0.503                  -0.274021        -122.845          -56.504         19.6638         -56.5038         19.6638      -0.00830716         150.947
0.504                  -0.274098        -123.268         -56.4907         18.7509         -56.4906         18.7509      -0.00833561         150.882
0.505                  -0.274253        -123.694         -56.4767          17.826         -56.4766          17.826       -0.0083653         150.817
0.506                  -0.274486        -124.123         -56.4617          16.889         -56.4616          16.889      -0.00839625         150.752
0.507                  -0.274801        -124.554         -56.4458         15.9398         -56.4457         15.9398      -0.00842847         150.686
0.508                  -0.275198        -124.988          -56.429         14.9782         -56.4288         14.9783      -0.00846196         150.621
0.509                   -0.27568        -125.424         -56.4111          14.004         -56.4109         14.0041      -0.00849673         150.555
0.51                   -0.276248        -125.863         -56.3921         13.0172          -56.392         13.0174       -0.0085328          150.49
0.511                  -0.276905        -126.304         -56.3721         12.0177         -56.3719         12.0178      -0.00857017         150.424
0.512                  -0.277652        -126.748         -56.3508         11.0052         -56.3507         11.0054      -0.00860886         150.358
0.513                  -0.278493        -127.195         -56.3284         9.97965         -56.3282         9.97989      -0.00864887         150.292
0.514                  -0.279428        -127.645         -56.3047         8.94099         -56.3045         8.94126      -0.00869021         150.226
0.515                  -0.280462        -128.098         -56.2797         7.88909         -56.2795         7.88938      -0.00873289          150.16
0.516                  -0.281595        -128.554         -56.2533         6.82384         -56.2531         6.82416      -0.00877693         150.094
0.517                  -0.282832        -129.012         -56.2255         5.74516         -56.2253          5.7455      -0.00882233         150.027
0.518                  -0.284175        -129.474         -56.1962         4.65296          -56.196         4.65333       -0.0088691         149.961
0.519                  -0.285626        -129.938         -56.1654         3.54717         -56.1652         3.54757      -0.00891726         149.894
0.52                   -0.287189        -130.406          -56.133         2.42773         -56.1328         2.42816      -0.00896682         149.828
0.521                  -0.288867        -130.877         -56.0989         1.29458         -56.0987         1.29504      -0.00901779         149.761
0.522                  -0.290664        -131.351         -56.0631        0.147687         -56.0629         0.14818      -0.00907017         149.694
0.523                  -0.292583        -131.829         -56.0256        -1.01298         -56.0254        -1.01246      -0.00912398         149.627
0.524                  -0.294628         -132.31         -55.9862        -2.18744          -55.986        -2.18689      -0.00917924          149.56
0.525                  -0.296802        -132.794         -55.9449        -3.37571         -55.9447        -3.37513      -0.00923595         149.493
0.526                   -0.29911        -133.282         -55.9017        -4.57777         -55.9015        -4.57716      -0.00929413         149.426
0.527                  -0.301557        -133.773         -55.8564        -5.79361         -55.8562        -5.79297      -0.00935379         149.359
0.528                  -0.304146        -134.268         -55.8091        -7.02319         -55.8089        -7.02252      -0.00941494         149.291
0.529                  -0.306882        -134.766         -55.7596        -8.26646         -55.7593        -8.26576      -0.00947759         149.224
0.53                   -0.309771        -135.269         -55.7078        -9.52337         -55.7076        -9.52264      -0.00954177         149.156
0.531                  -0.312818        -135.775         -55.6538        -10.7938         -55.6536        -10.7931      -0.00960747         149.089
0.532                  -0.316029        -136.285         -55.5975        -12.0778         -55.5973         -12.077      -0.00967472         149.021
0.533                  -0.319408        -136.799         -55.5387        -13.3751         -55.5385        -13.3743      -0.00974352         148.953
0.534                  -0.322963        -137.317         -55.4775        -14.6856         -55.4772        -14.6848       -0.0098139         148.885
0.535                    -0.3267        -137.839         -55.4137        -16.0093         -55.4135        -16.0084      -0.00988587         148.817
0.536                  -0.330626        -138.366         -55.3473        -17.3459         -55.3471         -17.345      -0.00995943         148.749
0.537                  -0.334748        -138.896         -55.2783        -18.6953         -55.2781        -18.6944       -0.0100346          148.68
0.538                  -0.339074        -139.431         -55.2065        -20.0574         -55.2063        -20.0565       -0.0101114         148.612
0.539                  -0.343612        -139.971          -55.132        -21.4319         -55.1318         -21.431       -0.0101899         148.543
0.54                    -0.34837        -140.515         -55.0546        -22.8186         -55.0544        -22.8177         -0.01027         148.475
0.541                  -0.353358        -141.064         -54.9744        -24.2174         -54.9742        -24.2164       -0.0103518         148.406
0.542                  -0.358585        -141.618         -54.8912         -25.628          -54.891         -25.627       -0.0104352         148.337
0.543                  -0.364061        -142.176          -54.805        -27.0501         -54.8048        -27.0491       -0.0105204         148.268
0.544                  -0.369796         -142.74         -54.7158        -28.4836         -54.7156        -28.4826       -0.0106073         148.199
0.545                  -0.375803        -143.309         -54.6235        -29.9282         -54.6233        -29.9271        -0.010696          148.13
0.546                  -0.382094        -143.883         -54.5281        -31.3836         -54.5279        -31.3825       -0.0107864         148.061
0.547                   -0.38868        -144.462         -54.4295        -32.8496         -54.4293        -32.8485       -0.0108785         147.991
0.548                  -0.395577        -145.047         -54.3277        -34.3259         -54.3275        -34.3248       -0.0109725         147.922
0.549                  -0.402797        -145.637         -54.2227        -35.8122         -54.2225        -35.8111       -0.0110683         147.852
0.55                   -0.410356        -146.233         -54.1145        -37.3083         -54.1143        -37.3072       -0.0111659         147.782
0.551                  -0.418271        -146.836         -54.0029        -38.8139         -54.0027        -38.8128       -0.0112653         147.712
0.552                  -0.426559        -147.444          -53.888        -40.3288         -53.8879        -40.3277       -0.0113666         147.642
0.553                  -0.435238        -148.058         -53.7699        -41.8527         -53.7697        -41.8516       -0.0114698         147.572
0.554                  -0.444328        -148.679         -53.6483        -43.3854         -53.6481        -43.3843       -0.0115748         147.502
0.555                   -0.45385        -149.306         -53.5234        -44.9266         -53.5233        -44.9254       -0.0116818         147.432
0.556                  -0.463825         -149.94         -53.3952         -46.476          -53.395        -46.4749       -0.0117907         147.361
0.557                  -0.474278         -150.58         -53.2636        -48.0336         -53.2634        -48.0325       -0.0119016          147.29
0.558                  -0.485234        -151.228         -53.1286         -49.599         -53.1284         -49.598       -0.0120144          147.22
0.559                   -0.49672        -151.883         -52.9903        -51.1722         -52.9901        -51.1711       -0.0121293         147.149
0.56                   -0.508764        -152.545         -52.8486        -52.7529         -52.8484        -52.7518       -0.0122461         147.078
0.561                  -0.521399        -153.215         -52.7035         -54.341         -52.7034          -54.34        -0.012365         147.007
0.562                  -0.534656        -153.893         -52.5551        -55.9364          -52.555        -55.9354       -0.0124859         146.935
0.563                   -0.54857        -154.578         -52.4035         -57.539         -52.4033         -57.538        -0.012609         146.864
0.564                  -0.563181        -155.272         -52.2485        -59.1487         -52.2484        -59.1477       -0.0127341         146.792
0.565                  -0.578528        -155.974         -52.0903        -60.7655         -52.0901        -60.7645       -0.0128613         146.721
0.566                  -0.594656        -156.685         -51.9288        -62.3894         -51.9287        -62.3884       -0.0129907         146.649
0.567                  -0.611609        -157.405         -51.7642        -64.0204          -51.764        -64.0194       -0.0131222         146.577
0.568                   -0.62944        -158.133         -51.5963        -65.6585         -51.5962        -65.6576       -0.0132559         146.505
0.569                  -0.648202        -158.872         -51.4254        -67.3038         -51.4253         -67.303       -0.0133918         146.433
0.57                   -0.667952        -159.619         -51.2514        -68.9566         -51.2513        -68.9557         -0.01353          146.36
0.571                  -0.688753        -160.377         -51.0743        -70.6168         -51.0742        -70.6159       -0.0136704         146.288
0.572                  -0.710673        -161.145         -50.8943        -72.2847         -50.8942        -72.2839       -0.0138131         146.215
0.573                  -0.733783        -161.923         -50.7113        -73.9605         -50.7112        -73.9598        -0.013958         146.142
0.574                  -0.758161        -162.712         -50.5255        -75.6446         -50.5254        -75.6439       -0.0141053         146.069
0.575                  -0.783892        -163.512         -50.3368        -77.3372         -50.3367        -77.3365        -0.014255         145.996
0.576                  -0.811066        -164.323         -50.1454        -79.0386         -50.1453        -79.0379        -0.014407         145.923
0.577                  -0.839781        -165.145         -49.9514        -80.7492         -49.9513        -80.7486       -0.0145614          145.85
0.578                  -0.870142        -165.979         -49.7547        -82.4695         -49.7546        -82.4689       -0.0147182         145.776
0.579                  -0.902265        -166.826         -49.5554           -84.2         -49.5554        -84.1994       -0.0148775         145.703
0.58                   -0.936272        -167.685         -49.3538        -85.9411         -49.3537        -85.9405       -0.0150393         145.629
0.581                  -0.972297        -168.556         -49.1497        -87.6933         -49.1496        -87.6928       -0.0152035         145.555
0.582                   -1.01048         -169.44         -48.9434        -89.4573         -48.9433        -89.4569       -0.0153703         145.481
0.583                   -1.05099        -170.337         -48.7349        -91.2337         -48.7348        -91.2333       -0.0155396         145.406
0.584                   -1.09399        -171.248         -48.5243        -93.0231         -48.5242        -93.0227       -0.0157114         145.332
0.585                   -1.13965        -172.172         -48.3117        -94.8263         -48.3116        -94.8259       -0.0158859         145.257
0.586                   -1.18819        -173.109         -48.0973        -96.6439         -48.0972        -96.6436        -0.016063         145.182
0.587                   -1.23981        -174.061         -47.8811        -98.4767          -47.881        -98.4764       -0.0162427         145.107
0.588                   -1.29475        -175.026         -47.6633        -100.326         -47.6632        -100.325       -0.0164251         145.032
0.589                   -1.35326        -176.005          -47.444        -102.191         -47.4439        -102.191       -0.0166102         144.957
0.59                    -1.41562        -176.997         -47.2233        -104.074         -47.2233        -104.074        -0.016798         144.882
0.591                   -1.48211        -178.004         -47.0015        -105.976         -47.0014        -105.976       -0.0169886         144.806
0.592                   -1.55305        -179.023         -46.7786        -107.897         -46.7786        -107.897       -0.0171819          144.73
0.593                    -1.6288         179.944         -46.5549        -109.839         -46.5549        -109.839       -0.0173781         144.654
0.594                   -1.70972         178.899         -46.3305        -111.801         -46.3305        -111.801        -0.017577         144.578
0.595                   -1.79621         177.843         -46.1057        -113.786         -46.1056        -113.786       -0.0177789         144.502
0.596                   -1.88871         176.776         -45.8806        -115.793         -45.8805        -115.793       -0.0179835         144.425
0.597                   -1.98766           175.7         -45.6554        -117.825         -45.6554        -117.825       -0.0181911         144.349
0.598                   -2.09356         174.615         -45.4305         -119.88         -45.4305         -119.88       -0.0184016         144.272
0.599                   -2.20695         173.525          -45.206        -121.962          -45.206        -121.962        -0.018615         144.195
0.6                     -2.32836         172.431         -44.9823        -124.069         -44.9822        -124.069       -0.0188314         144.117
0.601                    -2.4584         171.336         -44.7595        -126.203         -44.7595        -126.203       -0.0190508          144.04
0.602                   -2.59767         170.243          -44.538        -128.364          -44.538        -128.364       -0.0192732         143.962
0.603                   -2.74682         169.157         -44.3182        -130.553         -44.3182        -130.553       -0.0194986         143.885
0.604                   -2.90649         168.082         -44.1003        -132.771         -44.1003        -132.771       -0.0197271         143.807
0.605                   -3.07736         167.024         -43.8846        -135.016         -43.8846        -135.016       -0.0199586         143.728
0.606                   -3.26009         165.989         -43.6716        -137.291         -43.6716        -137.291       -0.0201932          143.65
0.607                   -3.45532         164.985         -43.4616        -139.594         -43.4616        -139.594       -0.0204309         143.571
0.608                   -3.66365         164.021          -43.255        -141.925          -43.255        -141.925       -0.0206717         143.493
0.609                   -3.88562         163.107         -43.0521        -144.284         -43.0521        -144.284       -0.0209156         143.414
0.61                    -4.12165         162.255         -42.8534        -146.671         -42.8534        -146.671       -0.0211626         143.334
0.611                   -4.37201          161.48         -42.6592        -149.084         -42.6591        -149.084       -0.0214129         143.255
0.612                   -4.63675         160.796         -42.4698        -151.522         -42.4698        -151.522       -0.0216662         143.175
0.613                   -4.91564          160.22         -42.2858        -153.985         -42.2858        -153.985       -0.0219227         143.095
0.614                   -5.20806         159.772         -42.1075         -156.47         -42.1074         -156.47       -0.0221824         143.015
0.615                   -5.51289         159.473         -41.9351        -158.976         -41.9351        -158.976       -0.0224453         142.935
0.616                   -5.82841         159.345         -41.7691        -161.501         -41.7691        -161.501       -0.0227113         142.854
0.617                   -6.15212         159.412         -41.6097        -164.042         -41.6097        -164.042       -0.0229805         142.774
0.618                   -6.48063         159.694         -41.4573        -166.597         -41.4573        -166.597       -0.0232528         142.693
0.619                    -6.8095         160.215         -41.3121        -169.163          -41.312        -169.164       -0.0235284         142.611
0.62                    -7.13317         160.992         -41.1742        -171.738         -41.1742        -171.738        -0.023807          142.53
0.621                   -7.44496         162.035         -41.0439        -174.319         -41.0439        -174.319       -0.0240889         142.448
0.622                   -7.73718         163.348         -40.9213        -176.901         -40.9213        -176.901       -0.0243738         142.366
0.623                   -8.00146         164.921         -40.8065        -179.483         -40.8064        -179.483       -0.0246619         142.284
0.624                   -8.22932         166.729         -40.6994          177.94         -40.6993          177.94        -0.024953         142.202
0.625                   -8.41289         168.731         -40.6001          175.37            -40.6          175.37       -0.0252473         142.119
0.626                   -8.54577         170.874         -40.5085         172.811         -40.5084         172.811       -0.0255446         142.036
0.627                   -8.62385          173.09         -40.4245         170.266         -40.4244         170.266        -0.025845         141.953
0.628                   -8.64582         175.307         -40.3479         167.738         -40.3478         167.738       -0.0261483         141.869
0.629                   -8.61338         177.455         -40.2784          165.23         -40.2784          165.23       -0.0264547         141.786
