! TOUCHSTONE file generated by CST MICROWAVE STUDIO
! Date and time: Fri Dec 11 13:54:57 2020
! Project name: Scenario_1_Planar_Body_Tissue_Out_of_Line_v2.cst
! Parameters = {dy1=-173; L_HA=400; Ltissue=700; MT=2.54; Rad_Dielectric=30; Rad_Lower=7.3; Rad_Upper=30; Wtissue=700; a_HA=580; a_WG=246; b_HA=500; b_WG=121; c_HA=0; c_WG=187; d_feed=85; dx1=520; h_feed=15; h_lower=18; h_upper=40; hfat=3; hgap=25; hmuscle=50; hskin=1.5}
! Header version: 2018
! Port assignment regex: !\s*Touchstone port\s*([0-9]+)\s*=\s*(CST MWS port|CST DS port)\s*([0-9]+|Zmin|Zmax)\s*\(\"(.*)\"\)(\s*mode\s*([0-9]+))?.*
! Touchstone port assignment:
! Touchstone port 1 = CST MWS port 1 ("")
! Touchstone port 2 = CST MWS port 2 ("")
# GHz S DB R 50
0.5                   -0.0841469        -121.942         -62.3921        -56.7286         -62.3927        -56.7243       -0.0073841         151.158
0.501                 -0.0872989        -122.399         -62.1865        -57.7182          -62.187        -57.7142      -0.00744436         151.093
0.502                 -0.0906544        -122.859         -61.9763        -58.7252         -61.9768        -58.7215      -0.00750545         151.027
0.503                 -0.0942292        -123.324         -61.7614        -59.7504         -61.7618        -59.7469      -0.00756739         150.962
0.504                 -0.0980409        -123.792         -61.5418        -60.7945         -61.5422        -60.7914      -0.00763021         150.897
0.505                  -0.102109        -124.264         -61.3174        -61.8586         -61.3178        -61.8557      -0.00769392         150.831
0.506                  -0.106453        -124.741         -61.0882        -62.9435         -61.0885        -62.9408      -0.00775856         150.765
0.507                  -0.111099        -125.221         -60.8542        -64.0504         -60.8545        -64.0479      -0.00782413           150.7
0.508                  -0.116069        -125.706         -60.6153        -65.1802         -60.6156        -65.1779      -0.00789068         150.634
0.509                  -0.121394        -126.196         -60.3715        -66.3341         -60.3718        -66.3321      -0.00795823         150.568
0.51                   -0.127103         -126.69         -60.1228        -67.5135          -60.123        -67.5117       -0.0080268         150.502
0.511                   -0.13323        -127.189         -59.8691        -68.7197         -59.8693        -68.7181      -0.00809644         150.436
0.512                  -0.139813        -127.692         -59.6104        -69.9541         -59.6105        -69.9527      -0.00816719          150.37
0.513                  -0.146893        -128.201         -59.3467        -71.2184         -59.3468         -71.217      -0.00823907         150.304
0.514                  -0.154515        -128.714          -59.078         -72.514         -59.0781        -72.5128      -0.00831215         150.237
0.515                  -0.162729        -129.233         -58.8043        -73.8429         -58.8044        -73.8419      -0.00838646         150.171
0.516                   -0.17159        -129.756         -58.5256         -75.207         -58.5257        -75.2061      -0.00846206         150.104
0.517                   -0.18116        -130.286          -58.242        -76.6082          -58.242        -76.6074      -0.00853901         150.038
0.518                  -0.191505         -130.82         -57.9534        -78.0488         -57.9535        -78.0481      -0.00861738         149.971
0.519                  -0.202698         -131.36           -57.66         -79.531           -57.66        -79.5304      -0.00869722         149.904
0.52                   -0.214822        -131.905         -57.3618        -81.0574         -57.3618        -81.0569      -0.00877863         149.838
0.521                  -0.227963        -132.455         -57.0589        -82.6306         -57.0589        -82.6302      -0.00886169         149.771
0.522                  -0.242221        -133.011         -56.7515        -84.2534         -56.7515         -84.253      -0.00894648         149.704
0.523                  -0.257699        -133.572         -56.4398        -85.9288         -56.4397        -85.9284      -0.00903311         149.637
0.524                  -0.274515        -134.138         -56.1238        -87.6598         -56.1238        -87.6594      -0.00912169         149.569
0.525                  -0.292792        -134.708         -55.8039        -89.4497         -55.8039        -89.4494      -0.00921233         149.502
0.526                  -0.312664        -135.283         -55.4804        -91.3021         -55.4804        -91.3018      -0.00930517         149.435
0.527                  -0.334274        -135.862         -55.1536        -93.2204         -55.1536        -93.2201      -0.00940033         149.367
0.528                  -0.357771        -136.444          -54.824        -95.2083         -54.8239        -95.2081      -0.00949797           149.3
0.529                  -0.383314        -137.028          -54.492        -97.2698         -54.4919        -97.2695      -0.00959824         149.232
0.53                    -0.41106        -137.613         -54.1581        -99.4084          -54.158        -99.4081      -0.00970131         149.164
0.531                  -0.441171        -138.198         -53.8231        -101.628          -53.823        -101.628      -0.00980733         149.096
0.532                  -0.473798        -138.782         -53.4877        -103.933         -53.4876        -103.932      -0.00991647         149.028
0.533                  -0.509084        -139.362         -53.1527        -106.326         -53.1526        -106.325       -0.0100289          148.96
0.534                  -0.547146        -139.937         -52.8192         -108.81         -52.8191         -108.81       -0.0101448         148.892
0.535                  -0.588068        -140.503         -52.4883        -111.389         -52.4881        -111.389       -0.0102643         148.824
0.536                  -0.631887        -141.059          -52.161        -114.065         -52.1608        -114.065       -0.0103875         148.756
0.537                  -0.678574          -141.6         -51.8388        -116.839         -51.8386        -116.839       -0.0105145         148.687
0.538                  -0.728017        -142.124         -51.5232        -119.713          -51.523        -119.713       -0.0106453         148.619
0.539                      -0.78        -142.626         -51.2156        -122.685         -51.2154        -122.685         -0.01078          148.55
0.54                   -0.834185        -143.103         -50.9178        -125.754         -50.9175        -125.754       -0.0109185         148.481
0.541                  -0.890098        -143.552         -50.6312        -128.917          -50.631        -128.917       -0.0110605         148.412
0.542                  -0.947113        -143.968         -50.3578        -132.169         -50.3575        -132.169       -0.0112058         148.344
0.543                   -1.00446        -144.349          -50.099        -135.504         -50.0987        -135.504       -0.0113542         148.275
0.544                   -1.06123        -144.693         -49.8565        -138.912         -49.8562        -138.912        -0.011505         148.206
0.545                   -1.11641        -144.999         -49.6318        -142.385         -49.6314        -142.385       -0.0116578         148.137
0.546                   -1.16893        -145.269         -49.4259        -145.909         -49.4255         -145.91       -0.0118119         148.067
0.547                    -1.2177        -145.505         -49.2399        -149.473         -49.2396        -149.473       -0.0119666         147.998
0.548                   -1.26171         -145.71         -49.0745        -153.062         -49.0741        -153.062       -0.0121211         147.929
0.549                   -1.30008         -145.89           -48.93        -156.661         -48.9296        -156.661       -0.0122748         147.859
0.55                    -1.33212        -146.052         -48.8064        -160.254         -48.8061        -160.255       -0.0124268          147.79
0.551                   -1.35741        -146.204         -48.7034        -163.829          -48.703        -163.829       -0.0125766          147.72
0.552                   -1.37578        -146.354         -48.6202        -167.369         -48.6199         -167.37       -0.0127235         147.651
0.553                   -1.38732        -146.509          -48.556        -170.863         -48.5556        -170.864       -0.0128673         147.581
0.554                   -1.39238        -146.677         -48.5094        -174.298          -48.509        -174.299       -0.0130076         147.511
0.555                   -1.39151        -146.865         -48.4791        -177.665         -48.4787        -177.666       -0.0131443         147.441
0.556                   -1.38538        -147.076         -48.4635         179.044         -48.4632         179.043       -0.0132775         147.371
0.557                   -1.37478        -147.316          -48.461         175.836         -48.4607         175.834       -0.0134073         147.301
0.558                   -1.36051        -147.587         -48.4699         172.715         -48.4696         172.714        -0.013534          147.23
0.559                   -1.34336         -147.89         -48.4886         169.685         -48.4883         169.683       -0.0136579          147.16
0.56                    -1.32409        -148.226         -48.5155         166.746         -48.5153         166.745       -0.0137795         147.089
0.561                   -1.30338        -148.594         -48.5491           163.9         -48.5488         163.898       -0.0138992         147.019
0.562                   -1.28183        -148.995         -48.5879         161.145         -48.5877         161.143       -0.0140174         146.948
0.563                   -1.25995        -149.425         -48.6307         158.479         -48.6305         158.477       -0.0141346         146.877
0.564                   -1.23818        -149.885         -48.6763           155.9         -48.6762         155.899       -0.0142512         146.805
0.565                   -1.21688        -150.371         -48.7237         153.406         -48.7236         153.404       -0.0143676         146.734
0.566                   -1.19631        -150.883         -48.7718         150.992         -48.7717          150.99       -0.0144843         146.663
0.567                   -1.17671        -151.419           -48.82         148.655         -48.8199         148.654       -0.0146014         146.591
0.568                   -1.15825        -151.976         -48.8673         146.392         -48.8673          146.39       -0.0147194         146.519
0.569                   -1.14103        -152.553         -48.9133         144.197         -48.9133         144.196       -0.0148385         146.447
0.57                    -1.12516        -153.149         -48.9574         142.069         -48.9574         142.067       -0.0149588         146.375
0.571                   -1.11069        -153.763         -48.9992         140.001         -48.9991             140       -0.0150807         146.303
0.572                   -1.09766        -154.393         -49.0381         137.992         -49.0381          137.99       -0.0152042         146.231
0.573                   -1.08608        -155.038          -49.074         136.036          -49.074         136.035       -0.0153295         146.158
0.574                   -1.07598        -155.698         -49.1065         134.131         -49.1066          134.13       -0.0154567         146.085
0.575                   -1.06733        -156.371         -49.1355         132.273         -49.1355         132.272        -0.015586         146.013
0.576                   -1.06015        -157.056         -49.1607         130.459         -49.1608         130.458       -0.0157174          145.94
0.577                    -1.0544        -157.755          -49.182         128.686         -49.1821         128.685        -0.015851         145.866
0.578                   -1.05009        -158.464         -49.1993          126.95         -49.1994         126.949       -0.0159868         145.793
0.579                   -1.04719        -159.186         -49.2125          125.25         -49.2126         125.249        -0.016125          145.72
0.58                    -1.04569        -159.918         -49.2216         123.582         -49.2216         123.581       -0.0162655         145.646
0.581                   -1.04559        -160.661         -49.2264         121.944         -49.2265         121.943       -0.0164083         145.572
0.582                   -1.04685        -161.415          -49.227         120.333         -49.2271         120.333       -0.0165536         145.498
0.583                   -1.04949        -162.179         -49.2233         118.748         -49.2234         118.748       -0.0167014         145.424
0.584                   -1.05349        -162.953         -49.2154         117.186         -49.2155         117.186       -0.0168516          145.35
0.585                   -1.05885        -163.738         -49.2032         115.646         -49.2033         115.645       -0.0170043         145.275
0.586                   -1.06558        -164.533         -49.1868         114.125         -49.1869         114.124       -0.0171596         145.201
0.587                   -1.07368        -165.338         -49.1662         112.621         -49.1663         112.621       -0.0173174         145.126
0.588                   -1.08317        -166.154         -49.1414         111.134         -49.1415         111.133       -0.0174778         145.051
0.589                   -1.09405         -166.98         -49.1125          109.66         -49.1126          109.66       -0.0176408         144.976
0.59                    -1.10635        -167.817         -49.0795           108.2         -49.0795         108.199       -0.0178064         144.901
0.591                   -1.12008        -168.664         -49.0423          106.75         -49.0424          106.75       -0.0179746         144.825
0.592                   -1.13529        -169.522         -49.0012         105.311         -49.0013         105.311       -0.0181455          144.75
0.593                     -1.152         -170.39         -48.9561          103.88         -48.9561          103.88       -0.0183191         144.674
0.594                   -1.17026         -171.27          -48.907         102.456         -48.9071         102.456       -0.0184954         144.598
0.595                   -1.19009        -172.161          -48.854         101.039         -48.8541         101.039       -0.0186745         144.522
0.596                   -1.21157        -173.064         -48.7973         99.6262         -48.7973         99.6263       -0.0188563         144.445
0.597                   -1.23473        -173.978         -48.7367         98.2172         -48.7368         98.2173       -0.0190409         144.369
0.598                   -1.25964        -174.904         -48.6724         96.8108         -48.6725         96.8109       -0.0192284         144.292
0.599                   -1.28637        -175.842         -48.6044         95.4058         -48.6045          95.406       -0.0194187         144.215
0.6                       -1.315        -176.793         -48.5328         94.0013         -48.5329         94.0015       -0.0196119         144.138
0.601                   -1.34559        -177.756         -48.4577         92.5962         -48.4577         92.5963        -0.019808         144.061
0.602                   -1.37824        -178.731          -48.379         91.1894         -48.3791         91.1896       -0.0200071         143.983
0.603                   -1.41305         -179.72         -48.2969         89.7801          -48.297         89.7803       -0.0202091         143.905
0.604                   -1.45011         179.278         -48.2114         88.3672         -48.2115         88.3674       -0.0204143         143.827
0.605                   -1.48953         178.263         -48.1226         86.9498         -48.1227         86.9499       -0.0206225         143.749
0.606                   -1.53144         177.234         -48.0306         85.5268         -48.0306          85.527       -0.0208338         143.671
0.607                   -1.57597         176.192         -47.9353         84.0975         -47.9354         84.0976       -0.0210483         143.592
0.608                   -1.62324         175.135          -47.837         82.6608          -47.837          82.661       -0.0212659         143.514
0.609                   -1.67341         174.065         -47.7356         81.2159         -47.7356          81.216       -0.0214869         143.435
0.61                    -1.72664          172.98         -47.6312         79.7618         -47.6312         79.7619       -0.0217111         143.356
0.611                    -1.7831         171.881          -47.524         78.2977          -47.524         78.2977       -0.0219387         143.276
0.612                   -1.84297         170.767         -47.4139         76.8225         -47.4139         76.8226       -0.0221697         143.197
0.613                   -1.90644         169.639         -47.3011         75.3356         -47.3012         75.3356       -0.0224042         143.117
0.614                   -1.97372         168.497         -47.1858         73.8358         -47.1858         73.8358       -0.0226422         143.037
0.615                   -2.04504          167.34         -47.0679         72.3225         -47.0679         72.3225       -0.0228837         142.957
0.616                   -2.12063         166.168         -46.9476         70.7947         -46.9476         70.7947       -0.0231289         142.876
0.617                   -2.20074         164.983          -46.825         69.2516          -46.825         69.2515       -0.0233778         142.795
0.618                   -2.28564         163.784         -46.7002         67.6922         -46.7002         67.6921       -0.0236305         142.714
0.619                   -2.37562         162.572         -46.5734         66.1159         -46.5734         66.1158       -0.0238869         142.633
0.62                    -2.47098         161.346         -46.4447         64.5217         -46.4447         64.5216       -0.0241473         142.552
0.621                   -2.57204         160.109         -46.3142         62.9089         -46.3142         62.9088       -0.0244116          142.47
0.622                   -2.67913         158.859          -46.182         61.2768         -46.1821         61.2766         -0.02468         142.388
0.623                   -2.79263         157.599         -46.0484         59.6245         -46.0485         59.6243       -0.0249524         142.306
0.624                    -2.9129          156.33         -45.9135         57.9513         -45.9136         57.9511       -0.0252291         142.224
0.625                   -3.04035         155.052         -45.7776         56.2567         -45.7776         56.2565         -0.02551         142.141
0.626                    -3.1754         153.767         -45.6406           54.54         -45.6407         54.5398       -0.0257952         142.058
0.627                   -3.31848         152.477          -45.503         52.8006         -45.5031         52.8004       -0.0260849         141.975
0.628                   -3.47005         151.184         -45.3649         51.0381         -45.3649         51.0379        -0.026379         141.891
0.629                    -3.6306          149.89         -45.2264          49.252         -45.2265         49.2518       -0.0266778         141.807
