! TOUCHSTONE file generated by CST MICROWAVE STUDIO
! Date and time: Thu Feb 11 19:32:22 2021
! Project name: Scenario_1_Planar_Body_Tissue_Out_of_Line.cst
! Parameters = {L_HA=400; Ltissue=1000; MT=2.54; Rad_Dielectric=30; Rad_Lower=7.3; Rad_Upper=30; Wtissue=1000; a_HA=580; a_WG=246; b_HA=500; b_WG=121; c_HA=0; c_WG=187; d_feed=85; dx1=346; dy1=-155.7; h_feed=15; h_lower=18; h_upper=40; hfat=3; hgap=25; hmuscle=50; hskin=1.5}
! Header version: 2018
! Port assignment regex: !\s*Touchstone port\s*([0-9]+)\s*=\s*(CST MWS port|CST DS port)\s*([0-9]+|Zmin|Zmax)\s*\(\"(.*)\"\)(\s*mode\s*([0-9]+))?.*
! Touchstone port assignment:
! Touchstone port 1 = CST MWS port 1 ("")
! Touchstone port 2 = CST MWS port 2 ("")
# GHz S DB R 50
0.5                     -0.27414         -121.57         -56.3237         24.7698         -56.3234           24.77      -0.00818522         151.103
0.501                  -0.275234        -121.959         -55.9735         28.6133         -55.9776         28.6062      -0.00825122         151.038
0.502                  -0.276327         -122.35         -55.5128         33.5719         -55.5235         33.5563      -0.00831746         150.973
0.503                  -0.277422        -122.744         -54.8843         40.0914         -54.9055         40.0662      -0.00838395         150.907
0.504                  -0.278522        -123.141         -53.9937         48.8843          -54.032         48.8489      -0.00845071         150.842
0.505                  -0.279629        -123.541         -52.6877         61.1959         -52.7553         61.1463      -0.00851774         150.777
0.506                  -0.280744        -123.944         -50.7484         79.5363         -50.8679         79.4353      -0.00858506         150.711
0.507                  -0.281871         -124.35         -48.1333         109.699         -48.3384         109.301      -0.00865259         150.645
0.508                  -0.283016        -124.759         -46.5437         159.023         -46.7736         157.678      -0.00872016          150.58
0.509                  -0.284179        -125.172         -48.4898        -152.366         -48.5993        -153.957      -0.00878855         150.514
0.51                    -0.28536        -125.587         -51.1698         -122.25         -51.2249        -123.438      -0.00885713         150.448
0.511                  -0.286565        -126.006         -53.0576        -103.192         -53.0985        -104.044      -0.00892593         150.382
0.512                  -0.287797        -126.428         -54.2525        -90.0144         -54.2878         -90.638      -0.00899507         150.316
0.513                  -0.289059        -126.854         -54.9983        -80.4572         -55.0293        -80.9255      -0.00906458          150.25
0.514                  -0.290354        -127.283         -55.4655        -73.3351         -55.4928        -73.6958      -0.00913444         150.184
0.515                  -0.291686        -127.715          -55.759        -67.9266         -55.7829         -68.211      -0.00920469         150.118
0.516                  -0.293058        -128.151         -55.9414        -63.7596         -55.9623        -63.9886      -0.00927533         150.051
0.517                  -0.294474         -128.59         -56.0507        -60.5134         -56.0691        -60.7012      -0.00934637         149.985
0.518                  -0.295938        -129.033         -56.1107        -57.9647         -56.1268        -58.1211      -0.00941782         149.918
0.519                  -0.297453        -129.479         -56.1362        -55.9544         -56.1504        -56.0864      -0.00948971         149.852
0.52                   -0.299024        -129.929          -56.137        -54.3672         -56.1495          -54.48      -0.00956203         149.785
0.521                  -0.300654        -130.383         -56.1196        -53.1178         -56.1307        -53.2151       -0.0096348         149.718
0.522                  -0.302349        -130.841         -56.0884        -52.1421         -56.0984        -52.2268      -0.00970804         149.651
0.523                  -0.304114        -131.302         -56.0467        -51.3911         -56.0556        -51.4653      -0.00978176         149.584
0.524                  -0.305951        -131.768         -55.9965        -50.8269         -56.0045        -50.8924      -0.00985597         149.517
0.525                  -0.307868        -132.237         -55.9395        -50.4198         -55.9467        -50.4778      -0.00993069          149.45
0.526                  -0.309869         -132.71         -55.8769        -50.1459         -55.8834        -50.1977       -0.0100059         149.383
0.527                  -0.311958        -133.188         -55.8095        -49.9865         -55.8154        -50.0328       -0.0100817         149.316
0.528                  -0.314143        -133.669         -55.7381         -49.926         -55.7433        -49.9676       -0.0101581         149.248
0.529                  -0.316429        -134.155          -55.663        -49.9517         -55.6677        -49.9892        -0.010235         149.181
0.53                   -0.318822        -134.646         -55.5847        -50.0532          -55.589        -50.0871       -0.0103125         149.113
0.531                  -0.321328         -135.14         -55.5034        -50.2219         -55.5073        -50.2525       -0.0103906         149.045
0.532                  -0.323955        -135.639         -55.4195        -50.4503          -55.423        -50.4782       -0.0104693         148.978
0.533                  -0.326709        -136.143          -55.333        -50.7324         -55.3362        -50.7577       -0.0105486          148.91
0.534                  -0.329597        -136.651         -55.2442        -51.0629         -55.2471         -51.086       -0.0106286         148.842
0.535                  -0.332629        -137.164          -55.153        -51.4374         -55.1557        -51.4584       -0.0107093         148.774
0.536                   -0.33581        -137.682         -55.0597        -51.8519         -55.0621        -51.8711       -0.0107906         148.705
0.537                  -0.339151        -138.204         -54.9643        -52.3033         -54.9664        -52.3207       -0.0108727         148.637
0.538                  -0.342661        -138.732         -54.8667        -52.7885         -54.8687        -52.8045       -0.0109555         148.569
0.539                  -0.346347        -139.264         -54.7672        -53.3051          -54.769        -53.3197        -0.011039           148.5
0.54                   -0.350221        -139.802         -54.6656         -53.851         -54.6672        -53.8644       -0.0111233         148.431
0.541                  -0.354294        -140.345          -54.562        -54.4242         -54.5634        -54.4364       -0.0112083         148.363
0.542                  -0.358575        -140.894         -54.4564        -55.0231         -54.4577        -55.0342       -0.0112942         148.294
0.543                  -0.363076        -141.448         -54.3488        -55.6462           -54.35        -55.6563       -0.0113809         148.225
0.544                  -0.367811        -142.007         -54.2393        -56.2921         -54.2403        -56.3014       -0.0114685         148.156
0.545                  -0.372791        -142.573         -54.1277        -56.9599         -54.1287        -56.9683       -0.0115569         148.087
0.546                   -0.37803        -143.144         -54.0142        -57.6483          -54.015         -57.656       -0.0116462         148.017
0.547                  -0.383543        -143.721         -53.8987        -58.3567         -53.8994        -58.3637       -0.0117364         147.948
0.548                  -0.389345        -144.304         -53.7811        -59.0841         -53.7818        -59.0905       -0.0118275         147.878
0.549                  -0.395452        -144.893         -53.6615        -59.8299         -53.6621        -59.8357       -0.0119197         147.809
0.55                   -0.401882        -145.489         -53.5399        -60.5935         -53.5404        -60.5987       -0.0120128         147.739
0.551                  -0.408651        -146.091         -53.4162        -61.3743         -53.4166        -61.3791       -0.0121069         147.669
0.552                   -0.41578          -146.7         -53.2904         -62.172         -53.2908        -62.1763        -0.012202         147.599
0.553                  -0.423288        -147.316         -53.1625         -62.986         -53.1628        -62.9899       -0.0122982         147.529
0.554                  -0.431198        -147.938         -53.0325        -63.8161         -53.0328        -63.8196       -0.0123955         147.459
0.555                  -0.439533        -148.568         -52.9004         -64.662         -52.9006        -64.6651        -0.012494         147.389
0.556                  -0.448316        -149.205         -52.7661        -65.5234         -52.7662        -65.5261       -0.0125935         147.318
0.557                  -0.457574         -149.85         -52.6296        -66.4001         -52.6297        -66.4025       -0.0126943         147.248
0.558                  -0.467334        -150.502         -52.4909         -67.292          -52.491        -67.2941       -0.0127963         147.177
0.559                  -0.477626        -151.162           -52.35        -68.1989           -52.35        -68.2008       -0.0128995         147.106
0.56                   -0.488482         -151.83         -52.2068        -69.1208         -52.2069        -69.1225       -0.0130039         147.035
0.561                  -0.499935        -152.506         -52.0614        -70.0577         -52.0614        -70.0591       -0.0131097         146.964
0.562                   -0.51202         -153.19         -51.9137        -71.0095         -51.9137        -71.0107       -0.0132169         146.893
0.563                  -0.524777        -153.883         -51.7637        -71.9763         -51.7636        -71.9774       -0.0133254         146.821
0.564                  -0.538246        -154.585         -51.6113        -72.9582         -51.6112         -72.959       -0.0134353          146.75
0.565                  -0.552471        -155.296         -51.4566        -73.9551         -51.4565        -73.9558       -0.0135467         146.678
0.566                  -0.567499        -156.017         -51.2995        -74.9674         -51.2994        -74.9679       -0.0136595         146.606
0.567                   -0.58338        -156.747           -51.14        -75.9951         -51.1399        -75.9955       -0.0137739         146.535
0.568                  -0.600169        -157.486         -50.9782        -77.0384          -50.978        -77.0387       -0.0138899         146.463
0.569                  -0.617922        -158.236         -50.8139        -78.0975         -50.8137        -78.0978       -0.0140075          146.39
0.57                   -0.636703        -158.996         -50.6471        -79.1728          -50.647        -79.1729       -0.0141267         146.318
0.571                  -0.656578        -159.766         -50.4779        -80.2645         -50.4778        -80.2646       -0.0142477         146.246
0.572                  -0.677618        -160.547         -50.3063        -81.3729         -50.3061        -81.3729       -0.0143704         146.173
0.573                  -0.699901        -161.339         -50.1321        -82.4985          -50.132        -82.4984       -0.0144949           146.1
0.574                  -0.723511        -162.142         -49.9555        -83.6415         -49.9553        -83.6414       -0.0146212         146.027
0.575                  -0.748535        -162.957         -49.7764        -84.8025         -49.7762        -84.8023       -0.0147495         145.954
0.576                  -0.775072        -163.784         -49.5948        -85.9818         -49.5946        -85.9816       -0.0148797         145.881
0.577                  -0.803225        -164.623         -49.4108        -87.1801         -49.4106        -87.1798        -0.015012         145.808
0.578                  -0.833106        -165.475         -49.2242        -88.3977          -49.224        -88.3975       -0.0151463         145.734
0.579                  -0.864835        -166.339         -49.0351        -89.6354          -49.035        -89.6352       -0.0152827          145.66
0.58                   -0.898545        -167.215         -48.8436        -90.8938         -48.8434        -90.8935       -0.0154214         145.587
0.581                  -0.934375        -168.105         -48.6497        -92.1734         -48.6495        -92.1731       -0.0155623         145.513
0.582                  -0.972479        -169.009         -48.4533         -93.475         -48.4531        -93.4747       -0.0157055         145.439
0.583                   -1.01302        -169.926         -48.2545        -94.7993         -48.2543         -94.799       -0.0158512         145.364
0.584                   -1.05618        -170.857         -48.0533        -96.1472         -48.0531        -96.1469       -0.0159993          145.29
0.585                   -1.10214        -171.801         -47.8498        -97.5193         -47.8496         -97.519       -0.0161499         145.215
0.586                   -1.15113         -172.76          -47.644        -98.9167         -47.6439        -98.9164       -0.0163032          145.14
0.587                   -1.20335        -173.733         -47.4361         -100.34         -47.4359         -100.34       -0.0164592         145.065
0.588                   -1.25906         -174.72         -47.2259        -101.791         -47.2257         -101.79        -0.016618          144.99
0.589                   -1.31851        -175.721         -47.0137        -103.269         -47.0135        -103.269       -0.0167797         144.915
0.59                      -1.382        -176.735         -46.7995        -104.777         -46.7993        -104.776       -0.0169443         144.839
0.591                   -1.44982        -177.764         -46.5834        -106.314         -46.5832        -106.314        -0.017112         144.764
0.592                   -1.52231        -178.806         -46.3655        -107.883         -46.3654        -107.883       -0.0172828         144.688
0.593                   -1.59982         -179.86          -46.146        -109.484         -46.1459        -109.484       -0.0174569         144.612
0.594                   -1.68273         179.073         -45.9251        -111.119         -45.9249        -111.119       -0.0176343         144.536
0.595                   -1.77146         177.995         -45.7027        -112.788         -45.7026        -112.788       -0.0178151         144.459
0.596                   -1.86643         176.907         -45.4793        -114.493         -45.4792        -114.493       -0.0179995         144.383
0.597                   -1.96813          175.81         -45.2549        -116.235         -45.2548        -116.235       -0.0181876         144.306
0.598                   -2.07704         174.707         -45.0298        -118.015         -45.0297        -118.014       -0.0183794         144.229
0.599                   -2.19371         173.598         -44.8043        -119.834         -44.8042        -119.833       -0.0185751         144.152
0.6                     -2.31867         172.487         -44.5785        -121.693         -44.5785        -121.693       -0.0187747         144.074
0.601                   -2.45253         171.377         -44.3529        -123.593         -44.3529        -123.593       -0.0189784         143.997
0.602                    -2.5959         170.271         -44.1277        -125.536         -44.1277        -125.536       -0.0191863         143.919
0.603                   -2.74939         169.174         -43.9034        -127.522         -43.9033        -127.522       -0.0193984         143.841
0.604                   -2.91365          168.09         -43.6801        -129.551         -43.6801        -129.551       -0.0196149         143.763
0.605                   -3.08932         167.026         -43.4585        -131.625         -43.4585        -131.625       -0.0198358         143.685
0.606                   -3.27703         165.989         -43.2389        -133.744         -43.2388        -133.744       -0.0200613         143.606
0.607                   -3.47739         164.986         -43.0217        -135.908         -43.0217        -135.908       -0.0202913         143.528
0.608                   -3.69093         164.027         -42.8075        -138.116         -42.8074        -138.116        -0.020526         143.449
0.609                   -3.91813         163.123         -42.5967         -140.37         -42.5967         -140.37       -0.0207654          143.37
0.61                    -4.15931         162.286         -42.3899        -142.667         -42.3899        -142.667       -0.0210096          143.29
0.611                   -4.41465         161.531         -42.1876        -145.008         -42.1875        -145.008       -0.0212584         143.211
0.612                   -4.68407         160.872         -41.9903         -147.39         -41.9903         -147.39        -0.021512         143.131
0.613                   -4.96719         160.327         -41.7985        -149.813         -41.7985        -149.813       -0.0217702         143.051
0.614                   -5.26321         159.916         -41.6129        -152.274         -41.6129        -152.274       -0.0220331         142.971
0.615                   -5.57085         159.658         -41.4339         -154.77         -41.4339         -154.77       -0.0223005         142.891
0.616                   -5.88816         159.577          -41.262          -157.3          -41.262          -157.3       -0.0225724          142.81
0.617                   -6.21242         159.694         -41.0976         -159.86         -41.0976         -159.86       -0.0228485         142.729
0.618                   -6.54002         160.031         -40.9412        -162.446         -40.9412        -162.446       -0.0231288         142.648
0.619                   -6.86633         160.607         -40.7932        -165.054         -40.7932        -165.054        -0.023413         142.567
0.62                    -7.18563         161.437         -40.6539         -167.68         -40.6539         -167.68       -0.0237009         142.485
0.621                   -7.49117          162.53         -40.5234         -170.32         -40.5234         -170.32       -0.0239922         142.404
0.622                   -7.77531         163.886         -40.4021        -172.969         -40.4021        -172.969       -0.0242867         142.322
0.623                    -8.0299          165.49         -40.2899        -175.622         -40.2899        -175.622       -0.0245841          142.24
0.624                   -8.24687         167.316          -40.187        -178.274          -40.187        -178.274       -0.0248841         142.157
0.625                    -8.4189          169.32         -40.0932         179.079         -40.0932         179.079       -0.0251865         142.075
0.626                   -8.54028         171.448         -40.0085         176.442         -40.0084         176.442       -0.0254908         141.992
0.627                   -8.60762         173.634         -39.9326         173.821         -39.9325         173.821        -0.025797         141.909
0.628                   -8.62025         175.807         -39.8652         171.218         -39.8651         171.218       -0.0261046         141.825
0.629                   -8.58032         177.899          -39.806         168.639          -39.806         168.639       -0.0264135         141.742
