! TOUCHSTONE file generated by CST MICROWAVE STUDIO
! Date and time: Mon Nov 30 08:36:52 2020
! Project name: Scenario_1_Planar_Body_Tissue_Out_of_Line.cst
! Parameters = {dy1=-155.7; L_HA=400; Ltissue=700; MT=2.54; Rad_Dielectric=30; Rad_Lower=7.3; Rad_Upper=30; Wtissue=700; a_HA=580; a_WG=246; b_HA=500; b_WG=121; c_HA=0; c_WG=187; d_feed=85; dx1=866; h_feed=15; h_lower=18; h_upper=40; hfat=3; hgap=25; hmuscle=50; hskin=1.5}
! Header version: 2018
! Port assignment regex: !\s*Touchstone port\s*([0-9]+)\s*=\s*(CST MWS port|CST DS port)\s*([0-9]+|Zmin|Zmax)\s*\(\"(.*)\"\)(\s*mode\s*([0-9]+))?.*
! Touchstone port assignment:
! Touchstone port 1 = CST MWS port 1 ("")
! Touchstone port 2 = CST MWS port 2 ("")
# GHz S DB R 50
0.5                    -0.108587         -122.12         -64.0402         101.919         -64.0392         101.923      -0.00751438         151.154
0.501                  -0.113982        -122.582         -63.7797         100.219         -63.7788         100.222      -0.00758327         151.089
0.502                  -0.119838        -123.048         -63.5156         98.4775         -63.5147         98.4808       -0.0076532         151.023
0.503                  -0.126196        -123.517         -63.2477         96.6937         -63.2469         96.6966      -0.00772421         150.958
0.504                    -0.1331         -123.99         -62.9764         94.8648         -62.9756         94.8674      -0.00779636         150.893
0.505                    -0.1406        -124.467         -62.7016         92.9883         -62.7009         92.9906      -0.00786968         150.827
0.506                  -0.148745        -124.947         -62.4237         91.0616          -62.423         91.0637      -0.00794423         150.761
0.507                  -0.157591         -125.43         -62.1429         89.0821         -62.1422         89.0839      -0.00802007         150.696
0.508                  -0.167195        -125.916         -61.8593         87.0469         -61.8587         87.0485      -0.00809725          150.63
0.509                  -0.177617        -126.405         -61.5733         84.9532         -61.5728         84.9545      -0.00817583         150.564
0.51                   -0.188918        -126.896         -61.2854          82.798         -61.2849         82.7991      -0.00825586         150.498
0.511                  -0.201161         -127.39         -60.9959         80.5784         -60.9954         80.5793       -0.0083374         150.432
0.512                  -0.214404        -127.885         -60.7053         78.2914         -60.7049         78.2921      -0.00842049         150.366
0.513                  -0.228708        -128.381         -60.4142         75.9343         -60.4138         75.9349      -0.00850519           150.3
0.514                  -0.244122        -128.877         -60.1233         73.5043          -60.123         73.5047      -0.00859152         150.234
0.515                   -0.26069        -129.373         -59.8333         70.9989          -59.833         70.9991      -0.00867952         150.167
0.516                  -0.278444        -129.867          -59.545         68.4158         -59.5447         68.4159      -0.00876919         150.101
0.517                  -0.297395         -130.36         -59.2593         65.7532          -59.259         65.7533      -0.00886054         150.035
0.518                  -0.317535        -130.849         -58.9772         63.0098          -58.977         63.0099      -0.00895353         149.968
0.519                  -0.338828        -131.333         -58.6998          60.185         -58.6997          60.185      -0.00904813         149.901
0.52                   -0.361203        -131.811         -58.4283         57.2787         -58.4282         57.2787      -0.00914425         149.835
0.521                  -0.384553        -132.282         -58.1638         54.2919         -58.1637         54.2919      -0.00924179         149.768
0.522                  -0.408728        -132.745         -57.9077         51.2265         -57.9076         51.2266      -0.00934062         149.701
0.523                  -0.433534        -133.198         -57.6612         48.0857         -57.6611         48.0858      -0.00944058         149.634
0.524                  -0.458731        -133.641         -57.4255         44.8738         -57.4256          44.874      -0.00954148         149.567
0.525                  -0.484039        -134.072         -57.2021         41.5964         -57.2021         41.5966      -0.00964312           149.5
0.526                  -0.509143        -134.492         -56.9919         38.2603          -56.992         38.2607      -0.00974526         149.433
0.527                  -0.533706          -134.9         -56.7962         34.8738         -56.7963         34.8743      -0.00984768         149.365
0.528                  -0.557381        -135.297         -56.6158         31.4461         -56.6159         31.4468      -0.00995015         149.298
0.529                  -0.579828        -135.683         -56.4514         27.9876         -56.4515         27.9884       -0.0100524         149.231
0.53                   -0.600734        -136.061         -56.3035         24.5094         -56.3037         24.5104       -0.0101544         149.163
0.531                  -0.619828        -136.432         -56.1725         21.0231         -56.1727         21.0242       -0.0102558         149.096
0.532                  -0.636897        -136.798         -56.0584         17.5404         -56.0585         17.5417       -0.0103566         149.028
0.533                  -0.651796        -137.161         -55.9609         14.0732          -55.961         14.0746       -0.0104566          148.96
0.534                  -0.664455        -137.525         -55.8795         10.6328         -55.8796         10.6343       -0.0105558         148.892
0.535                  -0.674875        -137.891         -55.8136         7.22973         -55.8137         7.23139       -0.0106543         148.824
0.536                  -0.683127        -138.261         -55.7622         3.87378         -55.7623         3.87555       -0.0107521         148.756
0.537                  -0.689343        -138.639         -55.7243        0.573525         -55.7244        0.575387       -0.0108491         148.688
0.538                  -0.693697        -139.025         -55.6987        -2.66368         -55.6988        -2.66174       -0.0109457          148.62
0.539                  -0.696401        -139.422         -55.6841         -5.8318         -55.6842        -5.82979       -0.0110418         148.551
0.54                   -0.697687         -139.83         -55.6792        -8.92608         -55.6793        -8.92402       -0.0111375         148.483
0.541                  -0.697794        -140.251         -55.6826        -11.9431         -55.6826         -11.941       -0.0112332         148.414
0.542                  -0.696962        -140.685          -55.693        -14.8805          -55.693        -14.8784       -0.0113289         148.345
0.543                   -0.69542        -141.133         -55.7091        -17.7373         -55.7091        -17.7351       -0.0114247         148.277
0.544                  -0.693383        -141.594         -55.7296        -20.5131         -55.7295        -20.5109       -0.0115208         148.208
0.545                   -0.69105        -142.068         -55.7533        -23.2086         -55.7533        -23.2064       -0.0116174         148.139
0.546                  -0.688596        -142.556         -55.7792        -25.8252         -55.7791         -25.823       -0.0117145          148.07
0.547                   -0.68618        -143.057         -55.8063        -28.3647         -55.8062        -28.3625       -0.0118123             148
0.548                  -0.683939        -143.571         -55.8335        -30.8295         -55.8335        -30.8274        -0.011911         147.931
0.549                  -0.681992        -144.097         -55.8602        -33.2223         -55.8601        -33.2203       -0.0120105         147.861
0.55                    -0.68044        -144.635         -55.8856        -35.5463         -55.8855        -35.5442        -0.012111         147.792
0.551                  -0.679371        -145.185         -55.9089        -37.8044         -55.9088        -37.8024       -0.0122126         147.722
0.552                  -0.678861        -145.746         -55.9296             -40         -55.9295         -39.998       -0.0123153         147.652
0.553                  -0.678972        -146.318         -55.9472        -42.1365          -55.947        -42.1346       -0.0124192         147.582
0.554                  -0.679761          -146.9         -55.9611        -44.2173          -55.961        -44.2154       -0.0125244         147.512
0.555                  -0.681275        -147.493         -55.9711        -46.2456          -55.971        -46.2438       -0.0126309         147.442
0.556                  -0.683557        -148.096         -55.9768        -48.2249         -55.9766        -48.2231       -0.0127388         147.371
0.557                  -0.686644        -148.708         -55.9778        -50.1585         -55.9776        -50.1567        -0.012848         147.301
0.558                  -0.690572         -149.33         -55.9739        -52.0494         -55.9737        -52.0476       -0.0129587          147.23
0.559                  -0.695375        -149.961         -55.9649        -53.9008         -55.9647        -53.8991       -0.0130708          147.16
0.56                   -0.701084        -150.601         -55.9505        -55.7158         -55.9504        -55.7141       -0.0131845         147.089
0.561                  -0.707733        -151.251         -55.9307        -57.4973         -55.9305        -57.4956       -0.0132996         147.018
0.562                  -0.715353        -151.909         -55.9053         -59.248         -55.9051        -59.2464       -0.0134164         146.947
0.563                  -0.723979        -152.577         -55.8741        -60.9709         -55.8739        -60.9693       -0.0135347         146.875
0.564                  -0.733647        -153.253         -55.8371        -62.6685          -55.837        -62.6669       -0.0136546         146.804
0.565                  -0.744395        -153.938         -55.7943        -64.3434         -55.7941        -64.3419       -0.0137761         146.732
0.566                  -0.756264        -154.632         -55.7455        -65.9981         -55.7453        -65.9967       -0.0138994         146.661
0.567                  -0.769298        -155.335         -55.6906        -67.6351         -55.6904        -67.6337       -0.0140243         146.589
0.568                  -0.783546        -156.046         -55.6298        -69.2568         -55.6296        -69.2554       -0.0141509         146.517
0.569                  -0.799059        -156.767         -55.5629        -70.8655         -55.5627        -70.8641       -0.0142792         146.445
0.57                   -0.815894        -157.496         -55.4899        -72.4634         -55.4897        -72.4621       -0.0144093         146.373
0.571                  -0.834111        -158.235         -55.4109        -74.0527         -55.4107        -74.0515       -0.0145413           146.3
0.572                  -0.853779        -158.982         -55.3259        -75.6357         -55.3257        -75.6345        -0.014675         146.228
0.573                  -0.874968        -159.738         -55.2348        -77.2145         -55.2346        -77.2134       -0.0148106         146.155
0.574                  -0.897757        -160.504         -55.1377        -78.7912         -55.1375        -78.7901       -0.0149481         146.082
0.575                  -0.922231        -161.278         -55.0346        -80.3679         -55.0344        -80.3669       -0.0150875         146.009
0.576                   -0.94848        -162.061         -54.9256        -81.9466         -54.9254        -81.9457       -0.0152289         145.936
0.577                  -0.976604        -162.853         -54.8107        -83.5295         -54.8105        -83.5286       -0.0153722         145.863
0.578                   -1.00671        -163.654         -54.6899        -85.1186         -54.6897        -85.1177       -0.0155176          145.79
0.579                   -1.03891        -164.463         -54.5635        -86.7158         -54.5633        -86.7151       -0.0156651         145.716
0.58                    -1.07333        -165.282         -54.4313        -88.3234         -54.4311        -88.3227       -0.0158146         145.643
0.581                   -1.11009        -166.108         -54.2936        -89.9432         -54.2934        -89.9426       -0.0159664         145.569
0.582                   -1.14935        -166.943         -54.1504        -91.5774         -54.1502        -91.5768       -0.0161203         145.495
0.583                   -1.19124        -167.785         -54.0018         -93.228         -54.0016        -93.2275       -0.0162765         145.421
0.584                   -1.23594        -168.635         -53.8479         -94.897         -53.8477        -94.8966       -0.0164349         145.346
0.585                    -1.2836        -169.492          -53.689        -96.5865         -53.6888        -96.5861       -0.0165957         145.272
0.586                    -1.3344        -170.355         -53.5251        -98.2985         -53.5249        -98.2983        -0.016759         145.197
0.587                   -1.38854        -171.224         -53.3564        -100.035         -53.3562        -100.035       -0.0169246         145.122
0.588                   -1.44621        -172.098         -53.1831        -101.799         -53.1829        -101.798       -0.0170928         145.047
0.589                   -1.50761        -172.976         -53.0054        -103.591         -53.0053        -103.591       -0.0172636         144.972
0.59                    -1.57295        -173.856         -52.8236        -105.413         -52.8234        -105.413        -0.017437         144.897
0.591                   -1.64244        -174.737         -52.6378        -107.269         -52.6377        -107.269       -0.0176132         144.821
0.592                    -1.7163        -175.618         -52.4485        -109.159         -52.4483        -109.159       -0.0177921         144.746
0.593                   -1.79476        -176.497         -52.2557        -111.086         -52.2556        -111.086       -0.0179738          144.67
0.594                   -1.87801        -177.371           -52.06        -113.052         -52.0599        -113.052       -0.0181584         144.594
0.595                   -1.96625        -178.238         -51.8617        -115.057         -51.8616        -115.058       -0.0183461         144.517
0.596                   -2.05968        -179.096          -51.661        -117.105          -51.661        -117.106       -0.0185367         144.441
0.597                   -2.15845        -179.941         -51.4586        -119.196         -51.4585        -119.197       -0.0187305         144.364
0.598                    -2.2627          179.23         -51.2547        -121.333         -51.2546        -121.333       -0.0189275         144.288
0.599                   -2.37249         178.422         -51.0498        -123.515         -51.0498        -123.516       -0.0191277         144.211
0.6                     -2.48787         177.638         -50.8446        -125.745         -50.8445        -125.746       -0.0193313         144.134
0.601                   -2.60878         176.884         -50.6394        -128.023         -50.6394        -128.024       -0.0195382         144.056
0.602                   -2.73511         176.164         -50.4349         -130.35         -50.4349        -130.351       -0.0197486         143.979
0.603                   -2.86659         175.484         -50.2317        -132.725         -50.2317        -132.726       -0.0199625         143.901
0.604                   -3.00289          174.85         -50.0303         -135.15         -50.0303         -135.15       -0.0201799         143.823
0.605                   -3.14349         174.267         -49.8314        -137.622         -49.8314        -137.623       -0.0204009         143.745
0.606                   -3.28773         173.741         -49.6355        -140.142         -49.6355        -140.142       -0.0206255         143.667
0.607                   -3.43475         173.279         -49.4433        -142.707         -49.4434        -142.708       -0.0208538         143.588
0.608                   -3.58352         172.885         -49.2555        -145.317         -49.2556        -145.318       -0.0210857         143.509
0.609                   -3.73279         172.564         -49.0726        -147.969         -49.0727         -147.97       -0.0213212          143.43
0.61                    -3.88114          172.32         -48.8952         -150.66         -48.8953        -150.661       -0.0215603         143.351
0.611                   -4.02693         172.155         -48.7238        -153.388         -48.7239        -153.388       -0.0218031         143.272
0.612                   -4.16842         172.069         -48.5589        -156.147         -48.5591        -156.148       -0.0220495         143.192
0.613                    -4.3037         172.063          -48.401        -158.936         -48.4012        -158.937       -0.0222994         143.113
0.614                   -4.43086         172.131         -48.2504        -161.749         -48.2506         -161.75       -0.0225528         143.033
0.615                   -4.54799         172.268         -48.1074        -164.582         -48.1076        -164.582       -0.0228097         142.952
0.616                   -4.65332         172.466         -47.9723         -167.43         -47.9724         -167.43       -0.0230699         142.872
0.617                   -4.74525         172.713          -47.845        -170.288         -47.8452        -170.288       -0.0233335         142.791
0.618                    -4.8225         172.997         -47.7258        -173.151          -47.726        -173.151       -0.0236003          142.71
0.619                   -4.88414         173.303         -47.6145        -176.014         -47.6147        -176.015       -0.0238703         142.629
0.62                    -4.92968         173.616          -47.511        -178.873         -47.5112        -178.874       -0.0241435         142.548
0.621                   -4.95906         173.919         -47.4151         178.277         -47.4153         178.277       -0.0244198         142.466
0.622                   -4.97265         174.198         -47.3265         175.441         -47.3267         175.441       -0.0246991         142.385
0.623                   -4.97126         174.436         -47.2448         172.622          -47.245         172.622       -0.0249815         142.302
0.624                   -4.95602         174.623         -47.1697         169.825         -47.1698         169.825       -0.0252669          142.22
0.625                   -4.92834         174.746         -47.1006         167.052         -47.1007         167.052       -0.0255553         142.138
0.626                   -4.88981         174.796          -47.037         164.307         -47.0371         164.307       -0.0258469         142.055
0.627                   -4.84216         174.768         -46.9784         161.591         -46.9785         161.591       -0.0261415         141.972
0.628                   -4.78711         174.655         -46.9243         158.907         -46.9244         158.907       -0.0264392         141.888
0.629                   -4.72637         174.456         -46.8741         156.256         -46.8742         156.256       -0.0267402         141.805
