! TOUCHSTONE file generated by CST MICROWAVE STUDIO
! Date and time: Tue Nov 17 07:11:31 2020
! Project name: Scenario_1_Planar_Body_Tissue_Out_of_Line.cst
! Header version: 2018
! Port assignment regex: !\s*Touchstone port\s*([0-9]+)\s*=\s*(CST MWS port|CST DS port)\s*([0-9]+|Zmin|Zmax)\s*\(\"(.*)\"\)(\s*mode\s*([0-9]+))?.*
! Touchstone port assignment:
! Touchstone port 1 = CST MWS port 1 ("")
! Touchstone port 2 = CST MWS port 2 ("")
# GHz S DB R 50
0.5                    -0.153863        -121.618         -64.3718        -20.2159         -64.3715        -20.2136      -0.00762962         151.152
0.501                   -0.15548        -122.044          -64.349        -21.6824         -64.3487        -21.6785      -0.00769356         151.087
0.502                  -0.157173        -122.474         -64.3214        -23.1763         -64.3212        -23.1711      -0.00775805         151.022
0.503                  -0.158949        -122.906          -64.289        -24.6976         -64.2888        -24.6909      -0.00782311         150.956
0.504                  -0.160816        -123.343         -64.2516        -26.2456         -64.2514        -26.2377      -0.00788873         150.891
0.505                  -0.162781        -123.783         -64.2089        -27.8201         -64.2088        -27.8111      -0.00795495         150.825
0.506                  -0.164852        -124.226         -64.1608        -29.4207         -64.1608        -29.4106      -0.00802176          150.76
0.507                   -0.16704        -124.673         -64.1072        -31.0468         -64.1073        -31.0358      -0.00808919         150.694
0.508                  -0.169352        -125.124         -64.0479        -32.6979          -64.048        -32.6861      -0.00815723         150.629
0.509                  -0.171801        -125.579         -63.9826        -34.3736         -63.9829         -34.361      -0.00822592         150.563
0.51                   -0.174397        -126.038         -63.9114        -36.0731         -63.9117          -36.06      -0.00829526         150.497
0.511                  -0.177152        -126.501         -63.8341         -37.796         -63.8344        -37.7824      -0.00836526         150.431
0.512                   -0.18008        -126.968         -63.7504        -39.5417         -63.7509        -39.5277      -0.00843595         150.365
0.513                  -0.183195        -127.439         -63.6604        -41.3095         -63.6609        -41.2953      -0.00850733         150.299
0.514                  -0.186512        -127.915         -63.5639        -43.0989         -63.5645        -43.0845      -0.00857944         150.232
0.515                  -0.190048        -128.395         -63.4608        -44.9093         -63.4614        -44.8949      -0.00865228         150.166
0.516                  -0.193821        -128.879          -63.351        -46.7402         -63.3517        -46.7258      -0.00872587           150.1
0.517                  -0.197852        -129.369         -63.2345        -48.5911         -63.2353        -48.5768      -0.00880024         150.033
0.518                   -0.20216        -129.862         -63.1112        -50.4615          -63.112        -50.4473       -0.0088754         149.967
0.519                  -0.206771        -130.361          -62.981         -52.351         -62.9819        -52.3371      -0.00895139           149.9
0.52                   -0.211708        -130.865          -62.844        -54.2593         -62.8449        -54.2457      -0.00902821         149.833
0.521                  -0.217001        -131.374         -62.7001         -56.186          -62.701        -56.1729      -0.00910591         149.766
0.522                  -0.222678        -131.888         -62.5493        -58.1311         -62.5503        -58.1184      -0.00918451         149.699
0.523                  -0.228773        -132.407         -62.3916        -60.0945         -62.3926        -60.0823      -0.00926404         149.632
0.524                  -0.235322        -132.932          -62.227        -62.0762          -62.228        -62.0645      -0.00934452         149.565
0.525                  -0.242365        -133.462         -62.0556        -64.0763         -62.0565        -64.0652        -0.009426         149.498
0.526                  -0.249944        -133.998         -61.8773        -66.0951         -61.8783        -66.0847      -0.00950851         149.431
0.527                  -0.258106        -134.539         -61.6923        -68.1331         -61.6932        -68.1233      -0.00959209         149.363
0.528                  -0.266904        -135.086         -61.5006        -70.1908         -61.5015        -70.1817      -0.00967678         149.296
0.529                  -0.276393         -135.64         -61.3023        -72.2688         -61.3031        -72.2605      -0.00976263         149.228
0.53                   -0.286636        -136.199         -61.0974        -74.3682         -61.0982        -74.3606      -0.00984968         149.161
0.531                  -0.297699        -136.764         -60.8861        -76.4899         -60.8869         -76.483      -0.00993798         149.093
0.532                  -0.309656        -137.335         -60.6685        -78.6352         -60.6693         -78.629       -0.0100276         149.025
0.533                  -0.322588        -137.912         -60.4447        -80.8054         -60.4454           -80.8       -0.0101186         148.957
0.534                  -0.336583        -138.495         -60.2149        -83.0021         -60.2156        -82.9974        -0.010211         148.889
0.535                  -0.351736        -139.084         -59.9793        -85.2272         -59.9799        -85.2232       -0.0103049         148.821
0.536                   -0.36815        -139.679          -59.738        -87.4825         -59.7385        -87.4792       -0.0104003         148.753
0.537                  -0.385937        -140.279         -59.4912        -89.7701         -59.4916        -89.7675       -0.0104974         148.684
0.538                  -0.405216        -140.885         -59.2392        -92.0926         -59.2396        -92.0906       -0.0105962         148.616
0.539                  -0.426118        -141.495         -58.9822        -94.4522         -58.9825         -94.451       -0.0106967         148.547
0.54                   -0.448777         -142.11         -58.7207        -96.8519         -58.7209        -96.8513       -0.0107991         148.478
0.541                  -0.473338        -142.729         -58.4548        -99.2944         -58.4549        -99.2944       -0.0109035          148.41
0.542                  -0.499949        -143.351          -58.185        -101.783         -58.1851        -101.783       -0.0110098         148.341
0.543                  -0.528762        -143.974         -57.9117         -104.32         -57.9117        -104.321       -0.0111182         148.272
0.544                   -0.55993        -144.599         -57.6354         -106.91         -57.6354        -106.911       -0.0112288         148.203
0.545                  -0.593599        -145.223         -57.3567        -109.555         -57.3566        -109.557       -0.0113416         148.133
0.546                  -0.629908        -145.845         -57.0762        -112.259          -57.076        -112.262       -0.0114566         148.064
0.547                  -0.668975        -146.462         -56.7945        -115.025         -56.7944        -115.029       -0.0115739         147.995
0.548                  -0.710888        -147.073         -56.5126        -117.857         -56.5124        -117.861       -0.0116934         147.925
0.549                  -0.755698        -147.674         -56.2312        -120.757         -56.2309        -120.761       -0.0118153         147.855
0.55                   -0.803396        -148.263         -55.9512        -123.728          -55.951        -123.732       -0.0119395         147.786
0.551                  -0.853904        -148.837         -55.6739        -126.772         -55.6736        -126.777       -0.0120659         147.716
0.552                  -0.907053        -149.392         -55.4002        -129.892         -55.3999        -129.897       -0.0121945         147.646
0.553                  -0.962563        -149.923         -55.1315        -133.087         -55.1312        -133.092       -0.0123252         147.576
0.554                   -1.02003        -150.429          -54.869        -136.358         -54.8686        -136.363       -0.0124577         147.505
0.555                    -1.0789        -150.904         -54.6141        -139.705         -54.6138         -139.71       -0.0125921         147.435
0.556                    -1.1385        -151.347         -54.3682        -143.125         -54.3679         -143.13       -0.0127281         147.365
0.557                   -1.19797        -151.754         -54.1328        -146.614         -54.1325         -146.62       -0.0128655         147.294
0.558                   -1.25637        -152.125         -53.9093        -150.169          -53.909        -150.175       -0.0130041         147.224
0.559                   -1.31263        -152.459          -53.699        -153.784         -53.6988        -153.789       -0.0131437         147.153
0.56                    -1.36566        -152.757         -53.5033         -157.45          -53.503        -157.455       -0.0132841         147.082
0.561                   -1.41438        -153.024         -53.3232        -161.159         -53.3229        -161.163       -0.0134251         147.011
0.562                   -1.45779        -153.264         -53.1596          -164.9         -53.1594        -164.904       -0.0135665          146.94
0.563                   -1.49505        -153.482         -53.0134        -168.664         -53.0132        -168.667       -0.0137082         146.869
0.564                   -1.52554        -153.688          -52.885        -172.436         -52.8848         -172.44         -0.01385         146.797
0.565                   -1.54892        -153.888         -52.7745        -176.206         -52.7743        -176.209       -0.0139919         146.726
0.566                   -1.56511        -154.092         -52.6819        -179.961         -52.6817        -179.963       -0.0141338         146.654
0.567                   -1.57432        -154.307         -52.6067         176.312         -52.6065          176.31       -0.0142757         146.583
0.568                     -1.577        -154.541         -52.5484         172.623         -52.5482         172.622       -0.0144175         146.511
0.569                   -1.57381        -154.802          -52.506         168.984         -52.5058         168.984       -0.0145593         146.439
0.57                    -1.56553        -155.093         -52.4785         165.405         -52.4782         165.405       -0.0147012         146.367
0.571                   -1.55304        -155.419         -52.4645         161.892         -52.4642         161.893       -0.0148433         146.294
0.572                   -1.53726        -155.782         -52.4628         158.454         -52.4625         158.455       -0.0149857         146.222
0.573                   -1.51905        -156.184         -52.4718         155.095         -52.4715         155.096       -0.0151284         146.149
0.574                   -1.49924        -156.624         -52.4901         151.818         -52.4897          151.82       -0.0152716         146.077
0.575                   -1.47858        -157.103         -52.5162         148.628         -52.5158         148.629       -0.0154155         146.004
0.576                   -1.45773        -157.619         -52.5487         145.524         -52.5482         145.525       -0.0155602         145.931
0.577                   -1.43725         -158.17         -52.5861         142.506         -52.5856         142.508       -0.0157058         145.858
0.578                   -1.41761        -158.756         -52.6272         139.575         -52.6267         139.577       -0.0158524         145.784
0.579                   -1.39922        -159.372         -52.6707         136.727         -52.6702         136.729       -0.0160002         145.711
0.58                    -1.38237        -160.019         -52.7155         133.961          -52.715         133.963       -0.0161492         145.637
0.581                   -1.36732        -160.693         -52.7606         131.274         -52.7601         131.276       -0.0162997         145.564
0.582                   -1.35428        -161.393         -52.8051         128.662         -52.8046         128.664       -0.0164518          145.49
0.583                   -1.34338        -162.118         -52.8481         126.121         -52.8475         126.124       -0.0166054         145.415
0.584                   -1.33476        -162.865         -52.8888         123.649         -52.8883         123.651       -0.0167608         145.341
0.585                   -1.32849        -163.633         -52.9267          121.24         -52.9262         121.242        -0.016918         145.267
0.586                   -1.32467        -164.421         -52.9611         118.891         -52.9606         118.893       -0.0170771         145.192
0.587                   -1.32334        -165.228         -52.9916         116.598         -52.9911           116.6       -0.0172382         145.117
0.588                   -1.32455        -166.052         -53.0177         114.356         -53.0172         114.358       -0.0174013         145.042
0.589                   -1.32836        -166.894          -53.039         112.161         -53.0385         112.163       -0.0175667         144.967
0.59                     -1.3348        -167.752         -53.0553          110.01         -53.0548         110.012       -0.0177342         144.892
0.591                   -1.34392        -168.626         -53.0662         107.898         -53.0658           107.9        -0.017904         144.817
0.592                   -1.35576        -169.514         -53.0716         105.822         -53.0712         105.824       -0.0180761         144.741
0.593                   -1.37039        -170.418         -53.0712         103.778         -53.0709          103.78       -0.0182507         144.665
0.594                   -1.38786        -171.335          -53.065         101.763         -53.0647         101.764       -0.0184277         144.589
0.595                   -1.40824        -172.266         -53.0528          99.772         -53.0525          99.773       -0.0186073         144.513
0.596                    -1.4316        -173.211         -53.0346         97.8027         -53.0343         97.8036       -0.0187894         144.436
0.597                   -1.45805        -174.169         -53.0103         95.8516           -53.01         95.8523       -0.0189742          144.36
0.598                   -1.48767         -175.14         -52.9798         93.9154         -52.9796         93.9161       -0.0191617         144.283
0.599                   -1.52057        -176.123         -52.9433         91.9911         -52.9431         91.9917       -0.0193519         144.206
0.6                     -1.55688        -177.119         -52.9006         90.0757         -52.9005         90.0762       -0.0195449         144.129
0.601                   -1.59674        -178.127          -52.852         88.1663         -52.8519         88.1667       -0.0197408         144.052
0.602                   -1.64028        -179.146         -52.7974         86.2601         -52.7973         86.2605       -0.0199396         143.974
0.603                   -1.68768         179.824         -52.7369         84.3543         -52.7369         84.3547       -0.0201413         143.896
0.604                    -1.7391         178.783         -52.6706         82.4464         -52.6707         82.4468       -0.0203461         143.818
0.605                   -1.79473         177.732         -52.5988         80.5339         -52.5988         80.5342        -0.020554          143.74
0.606                   -1.85478         176.671         -52.5215         78.6141         -52.5216         78.6144       -0.0207649         143.662
0.607                   -1.91947         175.602         -52.4388          76.685          -52.439         76.6853       -0.0209791         143.583
0.608                   -1.98901         174.525         -52.3511         74.7441         -52.3513         74.7444       -0.0211965         143.505
0.609                   -2.06366         173.442         -52.2585         72.7893         -52.2587         72.7896       -0.0214172         143.426
0.61                    -2.14366         172.353         -52.1612         70.8186         -52.1614          70.819       -0.0216413         143.346
0.611                   -2.22928         171.261         -52.0595           68.83         -52.0597         68.8304       -0.0218687         143.267
0.612                   -2.32079         170.166         -51.9536         66.8218         -51.9539         66.8223       -0.0220997         143.187
0.613                   -2.41847         169.071         -51.8439         64.7922         -51.8441         64.7927       -0.0223342         143.108
0.614                   -2.52261         167.978         -51.7305         62.7397         -51.7308         62.7403       -0.0225723         143.027
0.615                   -2.63347          166.89         -51.6139         60.6628         -51.6142         60.6635       -0.0228141         142.947
0.616                   -2.75135         165.809         -51.4944         58.5604         -51.4946         58.5611       -0.0230596         142.867
0.617                   -2.87649         164.739         -51.3722         56.4313         -51.3725          56.432        -0.023309         142.786
0.618                   -3.00914         163.684         -51.2479         54.2745         -51.2481         54.2753       -0.0235622         142.705
0.619                   -3.14953         162.647         -51.1217         52.0895         -51.1219         52.0903       -0.0238193         142.624
0.62                    -3.29782         161.635          -50.994         49.8755         -50.9942         49.8764       -0.0240804         142.542
0.621                   -3.45414          160.65         -50.8652         47.6324         -50.8654         47.6333       -0.0243457          142.46
0.622                   -3.61856         159.701         -50.7357         45.3601          -50.736          45.361        -0.024615         142.378
0.623                   -3.79104         158.792          -50.606         43.0585         -50.6062         43.0594       -0.0248886         142.296
0.624                   -3.97146          157.93         -50.4763         40.7282         -50.4765         40.7291       -0.0251665         142.214
0.625                   -4.15956         157.124         -50.3472         38.3697         -50.3473         38.3706       -0.0254487         142.131
0.626                   -4.35494          156.38         -50.2189         35.9838          -50.219         35.9847       -0.0257354         142.048
0.627                   -4.55703         155.706         -50.0918         33.5717         -50.0919         33.5725       -0.0260266         141.965
0.628                   -4.76504         155.111         -49.9663         31.1345         -49.9664         31.1353       -0.0263223         141.881
0.629                   -4.97798         154.602         -49.8428         28.6739         -49.8429         28.6746       -0.0266227         141.797
0.63                    -5.19459         154.189         -49.7215         26.1916         -49.7215         26.1922       -0.0269279         141.713
0.631                   -5.41333         153.877         -49.6027         23.6894         -49.6027         23.6899       -0.0272378         141.629
