! TOUCHSTONE file generated by CST MICROWAVE STUDIO
! Date and time: Sat Nov 14 20:35:53 2020
! Project name: Scenario_1_Planar_Body_Tissue_Out_of_Line_v2.cst
! Parameters = {dy1=138.4; L_HA=400; Ltissue=700; MT=2.54; Rad_Dielectric=30; Rad_Lower=7.3; Rad_Upper=30; Wtissue=700; a_HA=580; a_WG=246; b_HA=500; b_WG=121; c_HA=0; c_WG=187; d_feed=85; dx1=173; h_feed=15; h_lower=18; h_upper=40; hfat=3; hgap=25; hmuscle=50; hskin=1.5}
! Header version: 2018
! Port assignment regex: !\s*Touchstone port\s*([0-9]+)\s*=\s*(CST MWS port|CST DS port)\s*([0-9]+|Zmin|Zmax)\s*\(\"(.*)\"\)(\s*mode\s*([0-9]+))?.*
! Touchstone port assignment:
! Touchstone port 1 = CST MWS port 1 ("")
! Touchstone port 2 = CST MWS port 2 ("")
# GHz S DB R 50
0.5                   -0.0460566        -121.755         -59.2604         128.726           -59.26         128.723      -0.00693432         151.148
0.501                 -0.0473298        -122.203          -59.086         128.152         -59.0856          128.15      -0.00698743         151.083
0.502                 -0.0486683        -122.655         -58.9092         127.575         -58.9088         127.573      -0.00704118         151.017
0.503                 -0.0500761        -123.111         -58.7298         126.993         -58.7295         126.991      -0.00709556         150.952
0.504                 -0.0515574         -123.57         -58.5479         126.407         -58.5476         126.406      -0.00715059         150.887
0.505                 -0.0531167        -124.033         -58.3634         125.817         -58.3631         125.816      -0.00720628         150.821
0.506                 -0.0547589        -124.499         -58.1763         125.223          -58.176         125.221      -0.00726263         150.755
0.507                 -0.0564893         -124.97         -57.9865         124.624         -57.9863         124.622      -0.00731965         150.689
0.508                 -0.0583134        -125.444          -57.794         124.019         -57.7938         124.018      -0.00737734         150.624
0.509                 -0.0602373        -125.923         -57.5987          123.41         -57.5985         123.409      -0.00743572         150.558
0.51                  -0.0622676        -126.405         -57.4006         122.795         -57.4005         122.794      -0.00749478         150.492
0.511                 -0.0644113        -126.892         -57.1997         122.174         -57.1996         122.174      -0.00755454         150.426
0.512                 -0.0666761        -127.383         -56.9958         121.548         -56.9957         121.547        -0.007615         150.359
0.513                 -0.0690701        -127.879         -56.7891         120.915          -56.789         120.915      -0.00767617         150.293
0.514                 -0.0716024        -128.379         -56.5792         120.276         -56.5792         120.275      -0.00773807         150.227
0.515                 -0.0742825        -128.884         -56.3664          119.63         -56.3663         119.629      -0.00780068          150.16
0.516                  -0.077121        -129.395         -56.1504         118.977         -56.1503         118.976      -0.00786403         150.094
0.517                 -0.0801293         -129.91         -55.9312         118.316         -55.9312         118.315      -0.00792812         150.027
0.518                 -0.0833197        -130.431         -55.7087         117.647         -55.7087         117.647      -0.00799296         149.961
0.519                 -0.0867057        -130.957          -55.483          116.97          -55.483          116.97      -0.00805856         149.894
0.52                  -0.0903021        -131.489         -55.2539         116.284         -55.2539         116.284      -0.00812492         149.827
0.521                 -0.0941248        -132.026         -55.0213         115.589         -55.0213         115.589      -0.00819206          149.76
0.522                 -0.0981915         -132.57         -54.7852         114.885         -54.7852         114.885      -0.00825999         149.693
0.523                  -0.102521         -133.12         -54.5455          114.17         -54.5456          114.17      -0.00832871         149.626
0.524                  -0.107135        -133.677         -54.3022         113.444         -54.3022         113.444      -0.00839824         149.559
0.525                  -0.112056         -134.24         -54.0551         112.707         -54.0551         112.707      -0.00846859         149.491
0.526                   -0.11731        -134.811         -53.8042         111.958         -53.8042         111.959      -0.00853976         149.424
0.527                  -0.122925        -135.389         -53.5493         111.197         -53.5494         111.197      -0.00861178         149.356
0.528                   -0.12893        -135.974         -53.2905         110.422         -53.2906         110.422      -0.00868466         149.289
0.529                  -0.135361        -136.567         -53.0276         109.633         -53.0277         109.633      -0.00875842         149.221
0.53                   -0.142255        -137.169         -52.7604         108.829         -52.7606          108.83      -0.00883307         149.153
0.531                  -0.149654        -137.779         -52.4891         108.009         -52.4892          108.01      -0.00890863         149.085
0.532                  -0.157603        -138.398         -52.2133         107.173         -52.2134         107.173      -0.00898513         149.017
0.533                  -0.166154        -139.027          -51.933         106.319         -51.9331         106.319      -0.00906259         148.949
0.534                  -0.175364        -139.666         -51.6481         105.445         -51.6483         105.446      -0.00914105         148.881
0.535                  -0.185298        -140.314         -51.3586         104.552         -51.3587         104.553      -0.00922052         148.812
0.536                  -0.196025        -140.974         -51.0642         103.637         -51.0643         103.638      -0.00930107         148.744
0.537                  -0.207626        -141.645         -50.7649           102.7          -50.765           102.7      -0.00938272         148.675
0.538                  -0.220191        -142.328         -50.4605         101.738         -50.4606         101.739      -0.00946553         148.606
0.539                  -0.233819        -143.023         -50.1509          100.75          -50.151         100.751      -0.00954956         148.538
0.54                   -0.248624        -143.731         -49.8361          99.735         -49.8362         99.7354      -0.00963489         148.469
0.541                  -0.264734        -144.453         -49.5158         98.6899         -49.5159         98.6904      -0.00972159           148.4
0.542                  -0.282293         -145.19         -49.1899         97.6132           -49.19         97.6136      -0.00980976          148.33
0.543                  -0.301464        -145.941         -48.8584         96.5025         -48.8585         96.5029      -0.00989953         148.261
0.544                  -0.322433        -146.709         -48.5211         95.3553         -48.5212         95.3557      -0.00999102         148.192
0.545                   -0.34541        -147.493         -48.1779         94.1689          -48.178         94.1693       -0.0100844         148.122
0.546                  -0.370638        -148.295         -47.8286         92.9404         -47.8287         92.9407       -0.0101799         148.052
0.547                   -0.39839        -149.116         -47.4732         91.6665         -47.4733         91.6668       -0.0102777         147.983
0.548                  -0.428981        -149.955         -47.1117         90.3436         -47.1117         90.3439       -0.0103781         147.913
0.549                  -0.462771        -150.815         -46.7438          88.968         -46.7439         88.9682       -0.0104814         147.843
0.55                   -0.500175        -151.696         -46.3696         87.5352         -46.3696         87.5354        -0.010588         147.772
0.551                  -0.541669        -152.599          -45.989         86.0408         -45.9891          86.041       -0.0106985         147.702
0.552                  -0.587802        -153.525         -45.6021         84.4796         -45.6021         84.4797       -0.0108134         147.631
0.553                  -0.639206        -154.474         -45.2088         82.8461         -45.2089         82.8462       -0.0109333         147.561
0.554                  -0.696611        -155.447         -44.8095         81.1342         -44.8096         81.1343        -0.011059          147.49
0.555                   -0.76086        -156.444         -44.4042         79.3374         -44.4042         79.3374       -0.0111917         147.419
0.556                  -0.832924        -157.464         -43.9932         77.4485         -43.9933         77.4484       -0.0113323         147.348
0.557                  -0.913921        -158.506         -43.5769         75.4598          -43.577         75.4597       -0.0114822         147.276
0.558                   -1.00513         -159.57          -43.156          73.363          -43.156         73.3628       -0.0116431         147.205
0.559                   -1.10803        -160.651          -42.731         71.1494          -42.731         71.1492       -0.0118167         147.133
0.56                    -1.22428        -161.745         -42.3028         68.8096         -42.3029         68.8093       -0.0120051         147.061
0.561                   -1.35575        -162.846         -41.8728         66.3341         -41.8728         66.3338       -0.0122104         146.989
0.562                   -1.50451        -163.944         -41.4422          63.713         -41.4422         63.7127       -0.0124352         146.917
0.563                   -1.67281        -165.026         -41.0127         60.9368         -41.0128         60.9365       -0.0126818         146.845
0.564                   -1.86301        -166.073         -40.5866         57.9963         -40.5867         57.9959       -0.0129523         146.773
0.565                   -2.07742        -167.063         -40.1664         54.8832         -40.1665         54.8828       -0.0132485           146.7
0.566                   -2.31816        -167.964         -39.7549          51.591         -39.7549         51.5906       -0.0135714         146.628
0.567                   -2.58676        -168.736         -39.3554         48.1154         -39.3555         48.1151       -0.0139203         146.555
0.568                    -2.8837        -169.328         -38.9719         44.4556         -38.9719         44.4553        -0.014293         146.483
0.569                   -3.20768        -169.682         -38.6082         40.6148         -38.6083         40.6145       -0.0146853          146.41
0.57                    -3.55467        -169.727         -38.2686         36.6013         -38.2687          36.601       -0.0150905         146.338
0.571                   -3.91688        -169.391         -37.9574         32.4293         -37.9575         32.4291       -0.0155001         146.266
0.572                   -4.28168        -168.607         -37.6787         28.1193         -37.6788         28.1191       -0.0159045         146.194
0.573                   -4.63114        -167.327         -37.4359         23.6976          -37.436         23.6974        -0.016294         146.122
0.574                   -4.94275        -165.546         -37.2319         19.1962          -37.232         19.1961       -0.0166597          146.05
0.575                     -5.192        -163.313         -37.0685          14.651         -37.0685          14.651       -0.0169952         145.978
0.576                   -5.35711         -160.75         -36.9462         10.1004         -36.9463         10.1003       -0.0172967         145.906
0.577                   -5.42435        -158.034         -36.8647          5.5824         -36.8647         5.58242       -0.0175633         145.834
0.578                   -5.39194        -155.366          -36.822         1.13333          -36.822         1.13337       -0.0177967         145.762
0.579                   -5.27015        -152.929         -36.8156        -3.21469         -36.8156        -3.21464       -0.0180002          145.69
0.58                    -5.07779        -150.855         -36.8419        -7.43483         -36.8419        -7.43478       -0.0181783         145.618
0.581                   -4.83698        -149.212         -36.8969        -11.5063         -36.8968        -11.5063       -0.0183359         145.545
0.582                   -4.56869        -148.012         -36.9764        -15.4147         -36.9763        -15.4147        -0.018478         145.472
0.583                   -4.29012        -147.226         -37.0761        -19.1513          -37.076        -19.1513       -0.0186088         145.399
0.584                   -4.01388        -146.804          -37.192        -22.7125          -37.192        -22.7126       -0.0187322         145.325
0.585                   -3.74833        -146.691         -37.3205        -26.0991         -37.3204        -26.0993       -0.0188515         145.251
0.586                   -3.49848         -146.83          -37.458        -29.3152         -37.4579        -29.3154       -0.0189692         145.177
0.587                   -3.26686        -147.171         -37.6017        -32.3671         -37.6016        -32.3674       -0.0190874         145.103
0.588                   -3.05431        -147.672         -37.7491        -35.2631         -37.7489        -35.2634       -0.0192076         145.028
0.589                   -2.86063        -148.298          -37.898        -38.0122         -37.8978        -38.0126        -0.019331         144.953
0.59                    -2.68494         -149.02         -38.0467        -40.6241         -38.0466        -40.6246       -0.0194585         144.878
0.591                   -2.52604        -149.816         -38.1938        -43.1086         -38.1937        -43.1092       -0.0195908         144.803
0.592                   -2.38259        -150.668         -38.3382        -45.4753          -38.338         -45.476       -0.0197283         144.728
0.593                   -2.25321        -151.563         -38.4789        -47.7335         -38.4787        -47.7342       -0.0198714         144.652
0.594                   -2.13655        -152.489         -38.6152         -49.892          -38.615        -49.8928       -0.0200202         144.576
0.595                   -2.03135         -153.44         -38.7466        -51.9592         -38.7464        -51.9601       -0.0201748           144.5
0.596                   -1.93647        -154.408         -38.8727        -53.9427         -38.8726        -53.9437       -0.0203354         144.424
0.597                   -1.85086        -155.389         -38.9933        -55.8498         -38.9932        -55.8508        -0.020502         144.347
0.598                   -1.77357        -156.379         -39.1082        -57.6871          -39.108        -57.6882       -0.0206747          144.27
0.599                   -1.70377        -157.377         -39.2172        -59.4606          -39.217        -59.4617       -0.0208533         144.193
0.6                      -1.6407        -158.379         -39.3203        -61.1759         -39.3201        -61.1771       -0.0210379         144.116
0.601                   -1.58372        -159.385         -39.4175        -62.8382         -39.4173        -62.8394       -0.0212285         144.039
0.602                   -1.53223        -160.394         -39.5089         -64.452         -39.5087        -64.4533       -0.0214251         143.961
0.603                   -1.48571        -161.405         -39.5944        -66.0217         -39.5943         -66.023       -0.0216276         143.883
0.604                   -1.44371        -162.418         -39.6743        -67.5511         -39.6742        -67.5524       -0.0218361         143.805
0.605                   -1.40584        -163.432         -39.7487        -69.0438         -39.7485        -69.0451       -0.0220505         143.727
0.606                   -1.37172        -164.448         -39.8175        -70.5029         -39.8174        -70.5043       -0.0222709         143.648
0.607                   -1.34104        -165.466         -39.8811        -71.9316          -39.881        -71.9329       -0.0224973          143.57
0.608                   -1.31354        -166.486         -39.9395        -73.3324         -39.9394        -73.3337       -0.0227296         143.491
0.609                   -1.28896        -167.509         -39.9928        -74.7078         -39.9927        -74.7092        -0.022968         143.412
0.61                    -1.26708        -168.534         -40.0412        -76.0602         -40.0411        -76.0615       -0.0232124         143.333
0.611                   -1.24771        -169.562         -40.0849        -77.3915         -40.0849        -77.3928        -0.023463         143.253
0.612                   -1.23069        -170.594          -40.124        -78.7037          -40.124         -78.705       -0.0237197         143.173
0.613                   -1.21585         -171.63         -40.1587        -79.9985         -40.1586        -79.9998       -0.0239826         143.093
0.614                   -1.20308         -172.67          -40.189        -81.2775          -40.189        -81.2787       -0.0242518         143.013
0.615                   -1.19225        -173.715         -40.2152        -82.5422         -40.2152        -82.5433       -0.0245274         142.933
0.616                   -1.18326        -174.766         -40.2374        -83.7938         -40.2373        -83.7949       -0.0248095         142.852
0.617                   -1.17602        -175.822         -40.2556        -85.0336         -40.2556        -85.0347       -0.0250981         142.771
0.618                   -1.17045        -176.885         -40.2701        -86.2628         -40.2701        -86.2638       -0.0253933          142.69
0.619                   -1.16648        -177.954          -40.281        -87.4823          -40.281        -87.4832       -0.0256953         142.609
0.62                    -1.16406        -179.031         -40.2884        -88.6932         -40.2884         -88.694       -0.0260041         142.527
0.621                   -1.16312         179.884         -40.2924        -89.8962         -40.2923        -89.8969       -0.0263198         142.446
0.622                   -1.16364          178.79         -40.2931        -91.0921         -40.2931        -91.0927       -0.0266424         142.363
0.623                   -1.16557         177.688         -40.2906        -92.2817         -40.2906        -92.2823       -0.0269722         142.281
0.624                   -1.16888         176.577         -40.2851        -93.4657         -40.2851        -93.4661       -0.0273091         142.199
0.625                   -1.17356         175.455         -40.2767        -94.6445         -40.2767        -94.6449       -0.0276533         142.116
0.626                   -1.17958         174.323         -40.2654        -95.8188         -40.2654        -95.8191       -0.0280047         142.033
0.627                   -1.18693         173.179         -40.2514        -96.9891         -40.2514        -96.9893       -0.0283634          141.95
0.628                   -1.19561         172.025         -40.2347        -98.1558         -40.2347        -98.1559       -0.0287294         141.866
0.629                   -1.20562         170.858         -40.2154        -99.3193         -40.2154        -99.3193       -0.0291026         141.783
