! TOUCHSTONE file generated by CST MICROWAVE STUDIO
! Date and time: Thu Feb 11 19:32:31 2021
! Project name: Scenario_1_Planar_Body_Tissue_Out_of_Line.cst
! Parameters = {L_HA=400; Ltissue=1000; MT=2.54; Rad_Dielectric=30; Rad_Lower=7.3; Rad_Upper=30; Wtissue=1000; a_HA=580; a_WG=246; b_HA=500; b_WG=121; c_HA=0; c_WG=187; d_feed=85; dx1=346; dy1=-138.4; h_feed=15; h_lower=18; h_upper=40; hfat=3; hgap=25; hmuscle=50; hskin=1.5}
! Header version: 2018
! Port assignment regex: !\s*Touchstone port\s*([0-9]+)\s*=\s*(CST MWS port|CST DS port)\s*([0-9]+|Zmin|Zmax)\s*\(\"(.*)\"\)(\s*mode\s*([0-9]+))?.*
! Touchstone port assignment:
! Touchstone port 1 = CST MWS port 1 ("")
! Touchstone port 2 = CST MWS port 2 ("")
# GHz S DB R 50
0.5                    -0.273771        -121.559         -56.1223         26.9538         -56.1223         26.9539      -0.00821247         151.097
0.501                  -0.279787        -121.934         -56.0111         24.5015         -56.0111         24.5013      -0.00829234         151.031
0.502                  -0.285286        -122.311         -55.9092         22.0709         -55.9091         22.0704      -0.00837098         150.966
0.503                  -0.290257        -122.688         -55.8162         19.6667          -55.816         19.6661      -0.00844835         150.901
0.504                    -0.2947        -123.068         -55.7315         17.2933         -55.7313         17.2926      -0.00852444         150.836
0.505                  -0.298625         -123.45         -55.6547         14.9546         -55.6545         14.9538      -0.00859929          150.77
0.506                  -0.302048        -123.834         -55.5852          12.654          -55.585         12.6533      -0.00867294         150.705
0.507                  -0.304993        -124.222         -55.5223         10.3944         -55.5221         10.3937      -0.00874547         150.639
0.508                  -0.307489        -124.613         -55.4655         8.17822         -55.4653          8.1776      -0.00881698         150.573
0.509                  -0.309573        -125.008          -55.414         6.00719         -55.4139          6.0067      -0.00888756         150.508
0.51                    -0.31128        -125.407         -55.3673         3.88272         -55.3672         3.88238      -0.00895735         150.442
0.511                  -0.312652        -125.811         -55.3247         1.80571         -55.3246         1.80552      -0.00902647         150.376
0.512                  -0.313729        -126.218         -55.2856       -0.223377         -55.2855       -0.223406      -0.00909504          150.31
0.513                  -0.314554        -126.631         -55.2494        -2.20446         -55.2492        -2.20432       -0.0091632         150.244
0.514                  -0.315167        -127.048         -55.2154        -4.13778         -55.2153         -4.1375      -0.00923108         150.178
0.515                  -0.315608         -127.47         -55.1832        -6.02392         -55.1831         -6.0235      -0.00929878         150.111
0.516                  -0.315915        -127.897         -55.1523        -7.86368         -55.1522        -7.86315      -0.00936643         150.045
0.517                  -0.316123        -128.329         -55.1221        -9.65811         -55.1221        -9.65749      -0.00943413         149.979
0.518                  -0.316267        -128.766         -55.0923        -11.4084         -55.0922        -11.4077      -0.00950197         149.912
0.519                  -0.316378        -129.208         -55.0624         -13.116         -55.0624        -13.1153      -0.00957006         149.846
0.52                   -0.316483        -129.655         -55.0321        -14.7823         -55.0321        -14.7816      -0.00963846         149.779
0.521                  -0.316611        -130.107          -55.001        -16.4089          -55.001        -16.4082      -0.00970724         149.712
0.522                  -0.316783        -130.564         -54.9688        -17.9974         -54.9688        -17.9968      -0.00977649         149.645
0.523                  -0.317023        -131.027         -54.9353        -19.5496         -54.9353         -19.549      -0.00984624         149.578
0.524                   -0.31735        -131.494         -54.9002         -21.067         -54.9002        -21.0666      -0.00991656         149.511
0.525                  -0.317781        -131.966         -54.8632        -22.5515         -54.8632        -22.5512      -0.00998749         149.444
0.526                  -0.318333        -132.442         -54.8242        -24.0046         -54.8243        -24.0045       -0.0100591         149.377
0.527                   -0.31902        -132.924         -54.7831        -25.4281         -54.7832        -25.4282       -0.0101313         149.309
0.528                  -0.319856        -133.411         -54.7396        -26.8236         -54.7397        -26.8239       -0.0102043         149.242
0.529                  -0.320852        -133.903         -54.6937        -28.1927         -54.6938        -28.1933        -0.010278         149.174
0.53                    -0.32202        -134.399         -54.6451        -29.5371         -54.6453        -29.5379       -0.0103525         149.107
0.531                  -0.323369        -134.901         -54.5939        -30.8582         -54.5941        -30.8592       -0.0104278         149.039
0.532                  -0.324911        -135.407         -54.5399        -32.1575         -54.5401        -32.1589       -0.0105039         148.971
0.533                  -0.326652        -135.918         -54.4831        -33.4366         -54.4833        -33.4382       -0.0105808         148.903
0.534                  -0.328603        -136.435         -54.4234        -34.6967         -54.4236        -34.6986       -0.0106586         148.835
0.535                  -0.330772        -136.956         -54.3607        -35.9393          -54.361        -35.9415       -0.0107372         148.767
0.536                  -0.333167        -137.482          -54.295        -37.1657         -54.2953        -37.1681       -0.0108167         148.699
0.537                  -0.335795        -138.013         -54.2263         -38.377         -54.2267        -38.3797       -0.0108971          148.63
0.538                  -0.338666         -138.55         -54.1546        -39.5746         -54.1549        -39.5775       -0.0109784         148.562
0.539                  -0.341787        -139.091         -54.0797        -40.7596         -54.0801        -40.7627       -0.0110606         148.493
0.54                   -0.345168        -139.638         -54.0018        -41.9331         -54.0022        -41.9364       -0.0111438         148.425
0.541                  -0.348816         -140.19         -53.9207        -43.0961         -53.9212        -43.0997       -0.0112279         148.356
0.542                  -0.352741        -140.747         -53.8366        -44.2498          -53.837        -44.2535        -0.011313         148.287
0.543                  -0.356952         -141.31         -53.7493        -45.3952         -53.7498         -45.399       -0.0113991         148.218
0.544                   -0.36146        -141.879         -53.6589        -46.5332         -53.6594        -46.5371       -0.0114861         148.149
0.545                  -0.366275        -142.453         -53.5654        -47.6647         -53.5658        -47.6686       -0.0115741          148.08
0.546                  -0.371409        -143.032         -53.4688        -48.7907         -53.4692        -48.7946       -0.0116632          148.01
0.547                  -0.376873        -143.618          -53.369        -49.9121         -53.3695        -49.9159       -0.0117533         147.941
0.548                   -0.38268        -144.209         -53.2662        -51.0296         -53.2666        -51.0333       -0.0118445         147.871
0.549                  -0.388844        -144.806         -53.1603        -52.1442         -53.1607        -52.1477       -0.0119367         147.802
0.55                    -0.39538         -145.41         -53.0512        -53.2565         -53.0516        -53.2598         -0.01203         147.732
0.551                  -0.402302         -146.02         -52.9391        -54.3675         -52.9395        -54.3705       -0.0121245         147.662
0.552                  -0.409628        -146.636          -52.824        -55.4779         -52.8243        -55.4804         -0.01222         147.592
0.553                  -0.417375        -147.259         -52.7058        -56.5884          -52.706        -56.5904       -0.0123167         147.522
0.554                  -0.425563        -147.888         -52.5845        -57.6997         -52.5847        -57.7011       -0.0124146         147.452
0.555                  -0.434211        -148.525         -52.4603        -58.8126         -52.4604        -58.8133       -0.0125136         147.381
0.556                  -0.443343        -149.168         -52.3329        -59.9277          -52.333        -59.9277       -0.0126138         147.311
0.557                   -0.45298        -149.818         -52.2026        -61.0459         -52.2025        -61.0449       -0.0127153          147.24
0.558                  -0.463149        -150.476         -52.0693        -62.1677         -52.0691        -62.1657        -0.012818         147.169
0.559                  -0.473877        -151.142          -51.933        -63.2939         -51.9326        -63.2906        -0.012922         147.098
0.56                   -0.485191        -151.815         -51.7937        -64.4251         -51.7932        -64.4205       -0.0130273         147.027
0.561                  -0.497125        -152.496         -51.6514        -65.5621         -51.6507        -65.5559        -0.013134         146.956
0.562                  -0.509711        -153.185         -51.5061        -66.7055         -51.5053        -66.6975       -0.0132419         146.885
0.563                  -0.522984        -153.882         -51.3578        -67.8559         -51.3568        -67.8461       -0.0133513         146.814
0.564                  -0.536985        -154.588         -51.2066        -69.0142         -51.2054        -69.0022       -0.0134621         146.742
0.565                  -0.551753        -155.302         -51.0525        -70.1809          -51.051        -70.1665       -0.0135743          146.67
0.566                  -0.567334        -156.026         -50.8953        -71.3569         -50.8936        -71.3397        -0.013688         146.599
0.567                  -0.583776        -156.759         -50.7352        -72.5427         -50.7332        -72.5225       -0.0138032         146.527
0.568                   -0.60113        -157.501         -50.5721        -73.7391         -50.5698        -73.7155         -0.01392         146.455
0.569                  -0.619453        -158.253         -50.4061        -74.9468         -50.4035        -74.9195       -0.0140383         146.382
0.57                   -0.638803        -159.015         -50.2371        -76.1666         -50.2341        -76.1352       -0.0141583          146.31
0.571                  -0.659247        -159.787          -50.065        -77.3993         -50.0618        -77.3632       -0.0142799         146.237
0.572                  -0.680852        -160.569           -49.89        -78.6455         -49.8864        -78.6043       -0.0144032         146.165
0.573                  -0.703696        -161.363          -49.712         -79.906          -49.708        -79.8591       -0.0145282         146.092
0.574                  -0.727858        -162.167         -49.5309        -81.1817         -49.5265        -81.1285        -0.014655         146.019
0.575                  -0.753426        -162.983         -49.3467        -82.4733          -49.342         -82.413       -0.0147837         145.946
0.576                  -0.780494         -163.81         -49.1594        -83.7817         -49.1543        -83.7135       -0.0149142         145.873
0.577                  -0.809166        -164.649          -48.969        -85.1075         -48.9636        -85.0305       -0.0150466         145.799
0.578                  -0.839551          -165.5         -48.7753        -86.4515         -48.7696        -86.3647       -0.0151811         145.726
0.579                   -0.87177        -166.364         -48.5784        -87.8145         -48.5725        -87.7169       -0.0153175         145.652
0.58                    -0.90595         -167.24         -48.3782        -89.1972         -48.3721        -89.0875       -0.0154561         145.578
0.581                  -0.942232         -168.13         -48.1745        -90.6001         -48.1685         -90.477       -0.0155967         145.504
0.582                  -0.980768        -169.032         -47.9674        -92.0237         -47.9614        -91.8859       -0.0157397          145.43
0.583                   -1.02172        -169.948         -47.7566        -93.4684          -47.751        -93.3144       -0.0158848         145.356
0.584                   -1.06527        -170.878          -47.542        -94.9342         -47.5371        -94.7626       -0.0160323         145.281
0.585                    -1.1116        -171.821         -47.3236         -96.421         -47.3196        -96.2304       -0.0161823         145.206
0.586                   -1.16093        -172.778         -47.1011        -97.9281         -47.0986        -97.7173       -0.0163347         145.132
0.587                   -1.21348         -173.75         -46.8745        -99.4545          -46.874        -99.2227       -0.0164897         145.057
0.588                    -1.2695        -174.735         -46.6437        -100.998         -46.6459        -100.745       -0.0166473         144.981
0.589                   -1.32924        -175.735         -46.4086        -102.557         -46.4142        -102.284       -0.0168077         144.906
0.59                    -1.39299        -176.748         -46.1694        -104.128         -46.1793        -103.837       -0.0169709         144.831
0.591                   -1.46107        -177.775         -45.9262        -105.707         -45.9413        -105.401       -0.0171371         144.755
0.592                    -1.5338        -178.815         -45.6795        -107.288         -45.7007        -106.974       -0.0173062         144.679
0.593                   -1.61155        -179.869         -45.4301        -108.868         -45.4582        -108.555       -0.0174785         144.603
0.594                    -1.6947         179.066         -45.1794        -110.442         -45.2146         -110.14        -0.017654         144.527
0.595                   -1.78366         177.989         -44.9287        -112.007          -44.971        -111.729       -0.0178328          144.45
0.596                   -1.87889         176.902           -44.68        -113.564         -44.7286        -113.323       -0.0180152         144.374
0.597                   -1.98086         175.806         -44.4354        -115.118         -44.4887        -114.925       -0.0182011         144.297
0.598                   -2.09008         174.703         -44.1968        -116.677         -44.2527        -116.541       -0.0183907          144.22
0.599                    -2.2071         173.595         -43.9655        -118.253         -44.0216        -118.177       -0.0185842         144.142
0.6                     -2.33247         172.485         -43.7424        -119.863         -43.7961        -119.843       -0.0187816         144.065
0.601                   -2.46681         171.375         -43.5274         -121.52         -43.5768        -121.548       -0.0189832         143.987
0.602                   -2.61073         170.269         -43.3198        -123.237         -43.3634        -123.303       -0.0191891          143.91
0.603                   -2.76489         169.172         -43.1186        -125.023         -43.1556        -125.113       -0.0193993         143.832
0.604                   -2.92994         168.088         -42.9226        -126.883         -42.9529        -126.985       -0.0196142         143.754
0.605                   -3.10654         167.025         -42.7306        -128.817         -42.7547        -128.922       -0.0198337         143.675
0.606                   -3.29534         165.988         -42.5418        -130.824         -42.5605        -130.924       -0.0200581         143.597
0.607                   -3.49697         164.987         -42.3556        -132.901         -42.3696        -132.991       -0.0202874         143.518
0.608                   -3.71197         164.031         -42.1719        -135.043         -42.1821         -135.12       -0.0205219         143.439
0.609                   -3.94084         163.131         -41.9905        -137.245         -41.9976        -137.308       -0.0207616          143.36
0.61                    -4.18389         162.299         -41.8116        -139.504         -41.8165        -139.552       -0.0210066          143.28
0.611                   -4.44131         161.551         -41.6357        -141.814         -41.6388        -141.848        -0.021257           143.2
0.612                   -4.71299         160.901         -41.4631        -144.172         -41.4649        -144.193       -0.0215129         143.121
0.613                   -4.99851          160.37         -41.2944        -146.572         -41.2951        -146.582       -0.0217743         143.041
0.614                   -5.29703         159.976           -41.13        -149.012           -41.13        -149.013       -0.0220411          142.96
0.615                   -5.60714          159.74         -40.9705        -151.488           -40.97         -151.48       -0.0223135          142.88
0.616                   -5.92678         159.685         -40.8164        -153.995         -40.8155         -153.98       -0.0225911         142.799
0.617                   -6.25305         159.834         -40.6682         -156.53         -40.6669         -156.51        -0.022874         142.718
0.618                   -6.58212         160.209         -40.5262        -159.089         -40.5247        -159.065        -0.023162         142.637
0.619                   -6.90908         160.828         -40.3909        -161.669         -40.3893        -161.641       -0.0234547         142.556
0.62                    -7.22791         161.708         -40.2627        -164.264         -40.2609        -164.234       -0.0237519         142.474
0.621                   -7.53155         162.854         -40.1417        -166.871         -40.1399        -166.839       -0.0240533         142.392
0.622                   -7.81206         164.264         -40.0282        -169.486         -40.0263        -169.453       -0.0243583          142.31
0.623                    -8.0611         165.923         -39.9224        -172.104         -39.9205        -172.071       -0.0246667         142.228
0.624                   -8.27051         167.798         -39.8243        -174.722         -39.8223        -174.689        -0.024978         142.146
0.625                   -8.43311         169.843         -39.7339        -177.334         -39.7319        -177.302       -0.0252916         142.063
0.626                   -8.54353             172         -39.6511        -179.937         -39.6492        -179.907        -0.025607          141.98
0.627                    -8.5989         174.199         -39.5759         177.472         -39.5739         177.501       -0.0259239         141.897
0.628                   -8.59922         176.369          -39.508         174.898         -39.5061         174.926       -0.0262418         141.814
0.629                   -8.54731         178.442         -39.4472         172.345         -39.4454          172.37       -0.0265602          141.73
