! TOUCHSTONE file generated by CST MICROWAVE STUDIO
! Date and time: Sat Nov 14 20:36:06 2020
! Project name: Scenario_1_Planar_Body_Tissue_Out_of_Line_v2.cst
! Parameters = {dy1=121.1; L_HA=400; Ltissue=700; MT=2.54; Rad_Dielectric=30; Rad_Lower=7.3; Rad_Upper=30; Wtissue=700; a_HA=580; a_WG=246; b_HA=500; b_WG=121; c_HA=0; c_WG=187; d_feed=85; dx1=173; h_feed=15; h_lower=18; h_upper=40; hfat=3; hgap=25; hmuscle=50; hskin=1.5}
! Header version: 2018
! Port assignment regex: !\s*Touchstone port\s*([0-9]+)\s*=\s*(CST MWS port|CST DS port)\s*([0-9]+|Zmin|Zmax)\s*\(\"(.*)\"\)(\s*mode\s*([0-9]+))?.*
! Touchstone port assignment:
! Touchstone port 1 = CST MWS port 1 ("")
! Touchstone port 2 = CST MWS port 2 ("")
# GHz S DB R 50
0.5                   -0.0453042        -121.752         -58.7138         129.457         -58.7137         129.456      -0.00694931         151.152
0.501                  -0.046538        -122.201         -58.5405         128.886         -58.5404         128.887      -0.00700136         151.086
0.502                 -0.0478362        -122.654         -58.3647         128.311         -58.3646         128.313      -0.00705403         151.021
0.503                 -0.0492027        -123.109         -58.1864         127.732         -58.1863         127.734      -0.00710733         150.956
0.504                 -0.0506416        -123.569         -58.0056         127.147         -58.0054          127.15      -0.00716125          150.89
0.505                 -0.0521571        -124.032         -57.8222         126.557          -57.822         126.561      -0.00721582         150.824
0.506                  -0.053754        -124.498         -57.6362         125.962         -57.6359         125.966      -0.00727105         150.759
0.507                 -0.0554374        -124.969         -57.4475         125.362         -57.4472         125.366      -0.00732693         150.693
0.508                 -0.0572126        -125.443         -57.2561         124.756         -57.2558          124.76      -0.00738349         150.627
0.509                 -0.0590856        -125.922          -57.062         124.144         -57.0617         124.149      -0.00744074         150.561
0.51                  -0.0610627        -126.404          -56.865         123.527         -56.8648         123.532      -0.00749867         150.495
0.511                 -0.0631508        -126.891         -56.6653         122.903          -56.665         122.908      -0.00755731         150.429
0.512                 -0.0653571        -127.382         -56.4626         122.273         -56.4624         122.278      -0.00761666         150.363
0.513                 -0.0676898        -127.878         -56.2571         121.637         -56.2568         121.642      -0.00767674         150.297
0.514                 -0.0701575        -128.379         -56.0485         120.994         -56.0483         120.999      -0.00773755         150.231
0.515                 -0.0727695        -128.884          -55.837         120.343         -55.8367         120.348      -0.00779911         150.164
0.516                 -0.0755362        -129.394         -55.6223         119.686         -55.6221         119.691      -0.00786143         150.098
0.517                 -0.0784685         -129.91         -55.4045         119.021         -55.4043         119.025      -0.00792452         150.031
0.518                 -0.0815787        -130.431         -55.1836         118.347         -55.1834         118.352       -0.0079884         149.964
0.519                 -0.0848797        -130.957         -54.9593         117.666         -54.9591          117.67      -0.00805307         149.898
0.52                   -0.088386        -131.489         -54.7317         116.976         -54.7316          116.98      -0.00811856         149.831
0.521                 -0.0921133        -132.027         -54.5008         116.277         -54.5006         116.281      -0.00818487         149.764
0.522                 -0.0960788        -132.571         -54.2663         115.568         -54.2662         115.572      -0.00825202         149.697
0.523                  -0.100301        -133.121         -54.0284         114.849         -54.0283         114.853      -0.00832003          149.63
0.524                  -0.104801        -133.678         -53.7868          114.12         -53.7867         114.123      -0.00838892         149.562
0.525                  -0.109601        -134.241         -53.5415          113.38         -53.5415         113.383      -0.00845869         149.495
0.526                  -0.114726        -134.812         -53.2925         112.628         -53.2925         112.631      -0.00852938         149.428
0.527                  -0.120203         -135.39         -53.0396         111.864         -53.0396         111.866        -0.008601          149.36
0.528                  -0.126063        -135.976         -52.7827         111.087         -52.7828         111.089      -0.00867357         149.292
0.529                  -0.132339         -136.57         -52.5219         110.297         -52.5219         110.299      -0.00874713         149.225
0.53                   -0.139069        -137.172         -52.2568         109.492         -52.2569         109.493      -0.00882168         149.157
0.531                  -0.146292        -137.783         -51.9876         108.672         -51.9877         108.673      -0.00889727         149.089
0.532                  -0.154055        -138.403          -51.714         107.836         -51.7141         107.837      -0.00897392         149.021
0.533                  -0.162408        -139.032         -51.4359         106.982          -51.436         106.983      -0.00905168         148.953
0.534                  -0.171408        -139.671         -51.1533         106.111         -51.1534         106.112      -0.00913057         148.884
0.535                  -0.181117        -140.321          -50.866          105.22         -50.8662         105.221      -0.00921065         148.816
0.536                  -0.191606        -140.982         -50.5739         104.309         -50.5741         104.309      -0.00929196         148.748
0.537                  -0.202955        -141.654         -50.2769         103.376         -50.2771         103.376      -0.00937456         148.679
0.538                  -0.215251        -142.338         -49.9748          102.42          -49.975          102.42       -0.0094585          148.61
0.539                  -0.228595        -143.035         -49.6675         101.438         -49.6677         101.438      -0.00954388         148.541
0.54                   -0.243099        -143.745         -49.3549          100.43         -49.3551          100.43      -0.00963075         148.473
0.541                   -0.25889         -144.47         -49.0368         99.3936          -49.037          99.393      -0.00971923         148.403
0.542                  -0.276111        -145.208         -48.7132         98.3263         -48.7134         98.3257      -0.00980942         148.334
0.543                  -0.294927        -145.963         -48.3838         97.2261          -48.384         97.2254      -0.00990144         148.265
0.544                  -0.315522        -146.733         -48.0484         96.0905         -48.0487         96.0898      -0.00999545         148.196
0.545                  -0.338108        -147.521         -47.7071         94.9168         -47.7073         94.9161       -0.0100916         148.126
0.546                  -0.362927        -148.327         -47.3596         93.7021         -47.3598         93.7014       -0.0101901         148.056
0.547                  -0.390255        -149.152         -47.0059          92.443          -47.006         92.4423       -0.0102913         147.986
0.548                  -0.420409        -149.997         -46.6457         91.1361         -46.6458         91.1354       -0.0103952         147.917
0.549                  -0.453752        -150.863          -46.279         89.7772         -46.2791         89.7767       -0.0105024         147.846
0.55                   -0.490705        -151.751         -45.9057         88.3623         -45.9058         88.3618       -0.0106132         147.776
0.551                   -0.53175        -152.661         -45.5258         86.8864         -45.5259         86.8861        -0.010728         147.706
0.552                  -0.577447        -153.596         -45.1392         85.3444         -45.1393         85.3442       -0.0108474         147.635
0.553                  -0.628442        -154.555          -44.746         83.7306          -44.746         83.7305        -0.010972         147.565
0.554                  -0.685483        -155.539         -44.3461         82.0386         -44.3461         82.0387       -0.0111026         147.494
0.555                  -0.749438        -156.549         -43.9399         80.2616         -43.9399         80.2618       -0.0112402         147.423
0.556                   -0.82131        -157.584         -43.5275         78.3921         -43.5274         78.3924       -0.0113856         147.352
0.557                  -0.902261        -158.644         -43.1093         76.4219         -43.1091         76.4224       -0.0115403          147.28
0.558                  -0.993631        -159.726         -42.6857         74.3421         -42.6855         74.3428       -0.0117057         147.209
0.559                   -1.09696        -160.829         -42.2575         72.1434         -42.2572         72.1442       -0.0118835         147.137
0.56                    -1.21402        -161.948         -41.8254         69.8157         -41.8251         69.8166       -0.0120757         147.065
0.561                    -1.3468        -163.077         -41.3907         67.3484         -41.3904         67.3494       -0.0122844         146.993
0.562                   -1.49753        -164.206         -40.9548         64.7306         -40.9544         64.7316       -0.0125122         146.921
0.563                   -1.66867        -165.322         -40.5194         61.9515         -40.5189         61.9525       -0.0127617         146.849
0.564                    -1.8628        -166.407         -40.0868         59.0005         -40.0862         59.0015       -0.0130354         146.777
0.565                   -2.08256        -167.436         -39.6595          55.868         -39.6588         55.8688       -0.0133359         146.704
0.566                   -2.33041        -168.377         -39.2406         52.5458         -39.2399         52.5465       -0.0136652         146.632
0.567                   -2.60825        -169.187         -38.8337         49.0285          -38.833         49.0289       -0.0140242         146.559
0.568                   -2.91692        -169.812          -38.443         45.3138         -38.4422         45.3139       -0.0144124         146.486
0.569                   -3.25539        -170.187         -38.0728         41.4042          -38.072          41.404       -0.0148274         146.414
0.57                    -3.61967        -170.235         -37.7279         37.3079         -37.7271         37.3074       -0.0152638         146.342
0.571                   -4.00157        -169.875         -37.4131         33.0398         -37.4123         33.0388       -0.0157138         146.269
0.572                    -4.3874         -169.03         -37.1328         28.6217          -37.132         28.6205       -0.0161668         146.197
0.573                   -4.75727        -167.644         -36.8911         24.0829         -36.8904         24.0814       -0.0166103         146.125
0.574                   -5.08581        -165.707         -36.6912         19.4588         -36.6906         19.4572       -0.0170319         146.054
0.575                   -5.34529        -163.279          -36.535         14.7897         -36.5345          14.788       -0.0174202         145.982
0.576                   -5.51121        -160.499         -36.4233         10.1184          -36.423         10.1168       -0.0177668         145.911
0.577                   -5.56892        -157.571         -36.3553         5.48752         -36.3551          5.4863       -0.0180673         145.839
0.578                   -5.51797        -154.725         -36.3289        0.937179         -36.3288        0.936496       -0.0183211         145.768
0.579                   -5.37177        -152.161         -36.3409        -3.49746          -36.341        -3.49741       -0.0185314         145.696
0.58                    -5.15285        -150.017         -36.3873        -7.78763         -36.3875        -7.78668       -0.0187036         145.624
0.581                   -4.88648        -148.354         -36.4635        -11.9117         -36.4637        -11.9097       -0.0188446         145.551
0.582                   -4.59558        -147.171         -36.5647        -15.8553          -36.565        -15.8521       -0.0189617         145.479
0.583                   -4.29823        -146.429         -36.6862        -19.6106         -36.6866        -19.6061       -0.0190615         145.406
0.584                   -4.00709        -146.066         -36.8236        -23.1754          -36.824        -23.1695       -0.0191502         145.333
0.585                   -3.73018        -146.017         -36.9728         -26.552         -36.9733        -26.5448       -0.0192328         145.259
0.586                   -3.47196        -146.221         -37.1303        -29.7464         -37.1308        -29.7378       -0.0193132         145.185
0.587                   -3.23436        -146.625          -37.293        -32.7667         -37.2935        -32.7567       -0.0193946         145.111
0.588                   -3.01771        -147.184         -37.4583        -35.6227         -37.4587        -35.6113       -0.0194792         145.037
0.589                   -2.82135        -147.863          -37.624        -38.3252         -37.6244        -38.3124       -0.0195688         144.962
0.59                    -2.64407        -148.633         -37.7884         -40.885         -37.7887        -40.8709       -0.0196646         144.887
0.591                   -2.48437        -149.471         -37.9501        -43.3131         -37.9503        -43.2979       -0.0197672         144.812
0.592                   -2.34069        -150.361         -38.1079        -45.6202         -38.1081        -45.6038       -0.0198772         144.736
0.593                   -2.21148        -151.289         -38.2611        -47.8165         -38.2611         -47.799       -0.0199949          144.66
0.594                   -2.09529        -152.244         -38.4089        -49.9114         -38.4088        -49.8929       -0.0201204         144.585
0.595                   -1.99075        -153.221         -38.5508        -51.9139         -38.5506        -51.8945       -0.0202537         144.508
0.596                   -1.89665        -154.211         -38.6867        -53.8322         -38.6863         -53.812       -0.0203948         144.432
0.597                   -1.81189        -155.212         -38.8161         -55.674         -38.8156        -55.6531       -0.0205436         144.355
0.598                   -1.73548        -156.221          -38.939        -57.4463         -38.9384        -57.4247          -0.0207         144.279
0.599                   -1.66657        -157.234         -39.0554        -59.1554         -39.0546        -59.1334       -0.0208638         144.202
0.6                     -1.60439         -158.25         -39.1651        -60.8072         -39.1642        -60.7848        -0.021035         144.125
0.601                   -1.54826        -159.269         -39.2683        -62.4071         -39.2673        -62.3844       -0.0212134         144.047
0.602                   -1.49758        -160.289         -39.3651          -63.96         -39.3639        -63.9371       -0.0213988          143.97
0.603                   -1.45184         -161.31         -39.4555        -65.4702         -39.4542        -65.4473       -0.0215913         143.892
0.604                   -1.41058        -162.331         -39.5397         -66.942         -39.5383        -66.9192       -0.0217905         143.814
0.605                   -1.37338        -163.354         -39.6179         -68.379         -39.6163        -68.3564       -0.0219966         143.735
0.606                   -1.33989        -164.378         -39.6901        -69.7846         -39.6884        -69.7623       -0.0222094         143.657
0.607                    -1.3098        -165.402         -39.7566        -71.1619         -39.7547        -71.1401       -0.0224289         143.578
0.608                   -1.28283        -166.429         -39.8175        -72.5139         -39.8156        -72.4927       -0.0226549           143.5
0.609                   -1.25873        -167.457          -39.873         -73.843          -39.871        -73.8225       -0.0228876          143.42
0.61                    -1.23729        -168.488         -39.9234        -75.1518         -39.9212        -75.1321       -0.0231268         143.341
0.611                   -1.21831        -169.521         -39.9687        -76.4423         -39.9665        -76.4237       -0.0233725         143.262
0.612                   -1.20163        -170.557         -40.0092        -77.7167          -40.007        -77.6991       -0.0236248         143.182
0.613                    -1.1871        -171.598         -40.0451        -78.9766         -40.0428        -78.9603       -0.0238837         143.102
0.614                   -1.17459        -172.642         -40.0765        -80.2239         -40.0742        -80.2088       -0.0241492         143.022
0.615                   -1.16397        -173.691         -40.1037          -81.46         -40.1015        -81.4463       -0.0244212         142.941
0.616                   -1.15516        -174.746         -40.1268        -82.6863         -40.1246         -82.674       -0.0246999         142.861
0.617                   -1.14806        -175.806         -40.1461         -83.904          -40.144        -83.8933       -0.0249853          142.78
0.618                   -1.14259        -176.872         -40.1616        -85.1143         -40.1597         -85.105       -0.0252774         142.699
0.619                   -1.13869        -177.945         -40.1737         -86.318          -40.172        -86.3103       -0.0255762         142.618
0.62                    -1.13629        -179.026         -40.1825        -87.5161          -40.181        -87.5099       -0.0258819         142.536
0.621                   -1.13535         179.886         -40.1882        -88.7092         -40.1869        -88.7046       -0.0261944         142.454
0.622                   -1.13582         178.789          -40.191         -89.898         -40.1899        -89.8948       -0.0265138         142.373
0.623                   -1.13768         177.683          -40.191        -91.0829         -40.1902         -91.081       -0.0268401          142.29
0.624                   -1.14089         176.568         -40.1884        -92.2643          -40.188        -92.2635       -0.0271734         142.208
0.625                   -1.14542         175.442         -40.1834        -93.4424         -40.1833        -93.4425       -0.0275136         142.125
0.626                   -1.15127         174.307         -40.1761        -94.6172         -40.1765        -94.6181       -0.0278608         142.042
0.627                   -1.15842          173.16         -40.1667        -95.7889         -40.1676        -95.7901       -0.0282149         141.959
0.628                   -1.16686         172.001         -40.1554        -96.9571         -40.1567        -96.9584       -0.0285759         141.876
0.629                    -1.1766          170.83         -40.1422        -98.1217          -40.144        -98.1227       -0.0289437         141.792
