! TOUCHSTONE file generated by CST MICROWAVE STUDIO
! Date and time: Sat Nov 14 20:00:06 2020
! Project name: Scenario_1_Planar_Body_Tissue_Out_of_Line.cst
! Parameters = {dy1=121.1; L_HA=400; Ltissue=700; MT=2.54; Rad_Dielectric=30; Rad_Lower=7.3; Rad_Upper=30; Wtissue=700; a_HA=580; a_WG=246; b_HA=500; b_WG=121; c_HA=0; c_WG=187; d_feed=85; dx1=693; h_feed=15; h_lower=18; h_upper=40; hfat=3; hgap=25; hmuscle=50; hskin=1.5}
! Header version: 2018
! Port assignment regex: !\s*Touchstone port\s*([0-9]+)\s*=\s*(CST MWS port|CST DS port)\s*([0-9]+|Zmin|Zmax)\s*\(\"(.*)\"\)(\s*mode\s*([0-9]+))?.*
! Touchstone port assignment:
! Touchstone port 1 = CST MWS port 1 ("")
! Touchstone port 2 = CST MWS port 2 ("")
# GHz S DB R 50
0.5                    -0.198897         -121.58         -61.4463        -174.147         -61.4466        -174.145      -0.00776509         151.154
0.501                   -0.20075        -121.987         -61.4074        -176.112         -61.4078        -176.111      -0.00782839         151.088
0.502                  -0.202627        -122.398         -61.3659        -178.093         -61.3663        -178.091      -0.00789215         151.023
0.503                  -0.204531        -122.811         -61.3216         179.911          -61.322         179.914      -0.00795637         150.958
0.504                  -0.206465        -123.227         -61.2745         177.903         -61.2749         177.906      -0.00802105         150.893
0.505                  -0.208431        -123.647         -61.2248         175.881         -61.2252         175.885       -0.0080862         150.827
0.506                  -0.210432        -124.069         -61.1723         173.849         -61.1727         173.852      -0.00815181         150.762
0.507                  -0.212472        -124.494         -61.1172         171.806         -61.1175         171.809       -0.0082179         150.696
0.508                  -0.214554        -124.923         -61.0594         169.753         -61.0598         169.757      -0.00828445          150.63
0.509                  -0.216682        -125.354         -60.9991         167.692         -60.9994         167.696      -0.00835148         150.565
0.51                   -0.218859        -125.789         -60.9363         165.624         -60.9366         165.628      -0.00841898         150.499
0.511                  -0.221091        -126.228          -60.871         163.551         -60.8712         163.553      -0.00848696         150.433
0.512                  -0.223381         -126.67         -60.8034         161.472         -60.8036         161.474      -0.00855542         150.367
0.513                  -0.225734        -127.115         -60.7334         159.389         -60.7336         159.391      -0.00862436         150.301
0.514                  -0.228154        -127.564         -60.6613         157.305         -60.6614         157.306       -0.0086938         150.235
0.515                  -0.230649        -128.016         -60.5871         155.219         -60.5872         155.219      -0.00876372         150.169
0.516                  -0.233223        -128.473          -60.511         153.133          -60.511         153.133      -0.00883415         150.102
0.517                  -0.235882        -128.933         -60.4329         151.049         -60.4329         151.047      -0.00890508         150.036
0.518                  -0.238633        -129.396         -60.3532         148.967          -60.353         148.965      -0.00897651         149.969
0.519                  -0.241484        -129.864         -60.2718          146.89         -60.2716         146.886      -0.00904846         149.903
0.52                   -0.244441        -130.336         -60.1889         144.818         -60.1886         144.813      -0.00912092         149.836
0.521                  -0.247513        -130.812         -60.1046         142.753         -60.1042         142.747      -0.00919392         149.769
0.522                  -0.250708        -131.293          -60.019         140.697         -60.0186         140.689      -0.00926745         149.702
0.523                  -0.254036        -131.778         -59.9324          138.65         -59.9319          138.64      -0.00934152         149.636
0.524                  -0.257507        -132.267         -59.8447         136.614         -59.8442         136.603      -0.00941615         149.568
0.525                  -0.261132         -132.76         -59.7561         134.591         -59.7555         134.578      -0.00949134         149.501
0.526                  -0.264922        -133.259         -59.6667         132.583         -59.6661         132.567      -0.00956711         149.434
0.527                   -0.26889        -133.762         -59.5766          130.59         -59.5761         130.572      -0.00964346         149.367
0.528                  -0.273049         -134.27          -59.486         128.614         -59.4854         128.595      -0.00972042         149.299
0.529                  -0.277414        -134.783         -59.3948         126.658         -59.3942         126.636        -0.009798         149.232
0.53                   -0.282001        -135.302         -59.3031         124.722         -59.3026         124.699      -0.00987621         149.164
0.531                  -0.286826        -135.825         -59.2111         122.809         -59.2105         122.783      -0.00995507         149.097
0.532                  -0.291909        -136.355         -59.1186          120.92         -59.1181         120.892       -0.0100346         149.029
0.533                  -0.297268        -136.889         -59.0258         119.058         -59.0254         119.026       -0.0101148         148.961
0.534                  -0.302925         -137.43         -58.9326         117.222         -58.9322         117.189       -0.0101958         148.893
0.535                  -0.308905        -137.976         -58.8389         115.417         -58.8386         115.381       -0.0102775         148.825
0.536                  -0.315231        -138.528         -58.7446         113.643         -58.7446         113.604         -0.01036         148.757
0.537                  -0.321933        -139.087         -58.6498         111.902         -58.6499         111.861       -0.0104433         148.688
0.538                  -0.329039        -139.652         -58.5541         110.197         -58.5544         110.153       -0.0105274          148.62
0.539                  -0.336583        -140.224         -58.4574         108.528          -58.458         108.482       -0.0106124         148.552
0.54                   -0.344599        -140.802         -58.3595         106.899         -58.3604          106.85       -0.0106984         148.483
0.541                  -0.353127        -141.387         -58.2601          105.31         -58.2613         105.259       -0.0107853         148.414
0.542                  -0.362209         -141.98         -58.1589         103.763         -58.1604          103.71       -0.0108732         148.345
0.543                  -0.371891        -142.579         -58.0554          102.26         -58.0573         102.205       -0.0109622         148.276
0.544                  -0.382224        -143.186         -57.9492         100.802         -57.9515         100.746       -0.0110524         148.207
0.545                  -0.393262        -143.801         -57.8399         99.3907         -57.8426         99.3333       -0.0111437         148.138
0.546                  -0.405066        -144.424         -57.7267         98.0264           -57.73          97.968       -0.0112363         148.069
0.547                  -0.417702        -145.055         -57.6092         96.7099         -57.6129         96.6508       -0.0113302         147.999
0.548                  -0.431242        -145.694         -57.4866         95.4414         -57.4908         95.3819       -0.0114255          147.93
0.549                  -0.445766        -146.342         -57.3581         94.2204         -57.3629          94.161       -0.0115223          147.86
0.55                   -0.461361        -146.999          -57.223         93.0462         -57.2283         92.9873       -0.0116207         147.791
0.551                  -0.478121        -147.664         -57.0804         91.9172         -57.0862         91.8593       -0.0117208         147.721
0.552                  -0.496151        -148.338         -56.9293         90.8312         -56.9357         90.7747       -0.0118226         147.651
0.553                  -0.515567        -149.021         -56.7688          89.785         -56.7758         89.7306       -0.0119263         147.581
0.554                  -0.536493        -149.714          -56.598         88.7748         -56.6055         88.7228        -0.012032          147.51
0.555                  -0.559069        -150.416          -56.416         87.7956         -56.4239         87.7465       -0.0121398          147.44
0.556                  -0.583443        -151.127         -56.2217         86.8412         -56.2301         86.7957       -0.0122498         147.369
0.557                  -0.609783        -151.848         -56.0144         85.9048         -56.0231         85.8632       -0.0123622         147.299
0.558                  -0.638268        -152.578         -55.7931         84.9781         -55.8021         84.9407        -0.012477         147.228
0.559                  -0.669095        -153.316         -55.5572         84.0518         -55.5664          84.019       -0.0125944         147.157
0.56                   -0.702478        -154.064         -55.3062         83.1156         -55.3155         83.0878       -0.0127145         147.086
0.561                  -0.738648        -154.819         -55.0395         82.1583         -55.0488         82.1355       -0.0128375         147.015
0.562                  -0.777856        -155.582         -54.7569         81.1678         -54.7661           81.15       -0.0129635         146.944
0.563                   -0.82037        -156.352         -54.4585         80.1313         -54.4675         80.1185       -0.0130925         146.872
0.564                  -0.866475        -157.128         -54.1443         79.0354         -54.1531         79.0275       -0.0132248         146.801
0.565                  -0.916475        -157.908          -53.815         77.8666         -53.8233         77.8632       -0.0133604         146.729
0.566                  -0.970684        -158.691         -53.4712         76.6111         -53.4791         76.6119       -0.0134994         146.657
0.567                   -1.02943        -159.474         -53.1139         75.2554         -53.1212           75.26       -0.0136419         146.585
0.568                   -1.09303        -160.256         -52.7445         73.7864         -52.7512         73.7941        -0.013788         146.513
0.569                   -1.16182        -161.033         -52.3645         72.1917         -52.3705         72.2019       -0.0139377         146.441
0.57                     -1.2361        -161.801         -51.9758         70.4596          -51.981         70.4717       -0.0140911         146.369
0.571                   -1.31613        -162.556         -51.5804         68.5799         -51.5849         68.5932       -0.0142482         146.296
0.572                   -1.40212        -163.294         -51.1809         66.5438         -51.1847         66.5576       -0.0144089         146.223
0.573                   -1.49422        -164.008         -50.7798         64.3444         -50.7829          64.358       -0.0145734         146.151
0.574                   -1.59245        -164.693         -50.3799         61.9768         -50.3824         61.9896       -0.0147414         146.078
0.575                   -1.69667         -165.34         -49.9844         59.4386         -49.9863         59.4501       -0.0149129         146.005
0.576                   -1.80657        -165.942         -49.5963         56.7304         -49.5976           56.74       -0.0150879         145.932
0.577                   -1.92161        -166.491         -49.2189         53.8555         -49.2198          53.863       -0.0152662         145.858
0.578                   -2.04095        -166.978         -48.8553         50.8208         -48.8558         50.8258       -0.0154476         145.785
0.579                   -2.16346        -167.395         -48.5087         47.6364         -48.5089         47.6388        -0.015632         145.711
0.58                    -2.28766        -167.735         -48.1819         44.3158         -48.1819         44.3156       -0.0158192         145.638
0.581                   -2.41174        -167.992         -47.8773         40.8757         -47.8772          40.873        -0.016009         145.564
0.582                   -2.53356        -168.161         -47.5972         37.3354         -47.5971         37.3304       -0.0162012          145.49
0.583                   -2.65074        -168.242         -47.3431         33.7165          -47.343         33.7095       -0.0163956         145.416
0.584                   -2.76072        -168.238         -47.1159         30.0418          -47.116         30.0333        -0.016592         145.341
0.585                   -2.86097        -168.153         -46.9162         26.3349         -46.9163         26.3251       -0.0167901         145.267
0.586                   -2.94909        -167.999         -46.7435         22.6186         -46.7438         22.6079       -0.0169897         145.193
0.587                   -3.02302        -167.789         -46.5972         18.9146         -46.5977         18.9036       -0.0171907         145.118
0.588                    -3.0812         -167.54         -46.4759         15.2428         -46.4766         15.2317       -0.0173928         145.043
0.589                   -3.12269        -167.272          -46.378         11.6205         -46.3787         11.6096        -0.017596         144.968
0.59                    -3.14725        -167.005         -46.3013           8.062         -46.3022         8.05166       -0.0177999         144.893
0.591                   -3.15531        -166.757         -46.2438         4.57886         -46.2448         4.56921       -0.0180045         144.817
0.592                   -3.14791        -166.548         -46.2032         1.17962         -46.2042         1.17082       -0.0182098         144.742
0.593                   -3.12658         -166.39         -46.1772        -2.12984         -46.1782        -2.13772       -0.0184155         144.666
0.594                   -3.09321        -166.298         -46.1636        -5.34611         -46.1646        -5.35303       -0.0186216          144.59
0.595                   -3.04985        -166.278         -46.1603        -8.46782         -46.1613        -8.47378       -0.0188281         144.515
0.596                   -2.99859        -166.337         -46.1654        -11.4953         -46.1664        -11.5004       -0.0190349         144.438
0.597                   -2.94147        -166.477         -46.1772        -14.4304         -46.1781        -14.4346       -0.0192421         144.362
0.598                   -2.88035        -166.697         -46.1942        -17.2758          -46.195        -17.2792       -0.0194496         144.285
0.599                   -2.81691        -166.995         -46.2148         -20.035         -46.2155        -20.0378       -0.0196576         144.209
0.6                     -2.75256        -167.369          -46.238        -22.7123         -46.2386        -22.7144        -0.019866         144.132
0.601                   -2.68852        -167.814         -46.2627        -25.3118         -46.2632        -25.3134       -0.0200749         144.055
0.602                   -2.62575        -168.325          -46.288        -27.8383         -46.2884        -27.8395       -0.0202845         143.977
0.603                   -2.56502        -168.897         -46.3132        -30.2963         -46.3134        -30.2972       -0.0204948           143.9
0.604                   -2.50694        -169.526         -46.3375        -32.6905         -46.3376        -32.6911       -0.0207059         143.822
0.605                   -2.45194        -170.207         -46.3605        -35.0252         -46.3605        -35.0257        -0.020918         143.744
0.606                   -2.40035        -170.935         -46.3817        -37.3049         -46.3816        -37.3052       -0.0211312         143.666
0.607                    -2.3524        -171.707         -46.4008        -39.5337         -46.4006         -39.534       -0.0213456         143.588
0.608                   -2.30822        -172.518         -46.4174        -41.7155         -46.4171        -41.7158       -0.0215614         143.509
0.609                   -2.26791        -173.366         -46.4313         -43.854         -46.4309        -43.8544       -0.0217788         143.431
0.61                    -2.23149        -174.248         -46.4423        -45.9528         -46.4418        -45.9533       -0.0219979         143.352
0.611                   -2.19898        -175.161         -46.4502        -48.0152         -46.4496        -48.0158       -0.0222189         143.273
0.612                   -2.17035        -176.103         -46.4549        -50.0443         -46.4542         -50.045       -0.0224419         143.193
0.613                   -2.14558        -177.072         -46.4563        -52.0429         -46.4556        -52.0438       -0.0226671         143.113
0.614                   -2.12463        -178.067         -46.4544        -54.0139         -46.4536        -54.0149       -0.0228947         143.034
0.615                   -2.10745        -179.087          -46.449        -55.9597         -46.4482         -55.961       -0.0231249         142.953
0.616                   -2.09401          179.87         -46.4402        -57.8829         -46.4394        -57.8844       -0.0233577         142.873
0.617                   -2.08427         178.805          -46.428        -59.7856         -46.4271        -59.7873       -0.0235935         142.793
0.618                   -2.07819         177.717         -46.4122        -61.6701         -46.4113         -61.672       -0.0238324         142.712
0.619                   -2.07577         176.608          -46.393        -63.5382         -46.3921        -63.5403       -0.0240744         142.631
0.62                    -2.07699         175.479         -46.3704        -65.3919         -46.3694        -65.3942       -0.0243199         142.549
0.621                   -2.08186         174.328         -46.3443        -67.2329         -46.3433        -67.2354        -0.024569         142.468
0.622                   -2.09039         173.157         -46.3147         -69.063         -46.3138        -69.0658       -0.0248218         142.386
0.623                    -2.1026         171.965         -46.2819        -70.8838         -46.2809        -70.8867       -0.0250784         142.304
0.624                   -2.11854         170.753         -46.2456        -72.6968         -46.2447        -72.6998       -0.0253392         142.221
0.625                   -2.13827          169.52         -46.2061        -74.5034         -46.2052        -74.5066       -0.0256041         142.139
0.626                   -2.16186         168.267         -46.1633        -76.3051         -46.1624        -76.3084       -0.0258734         142.056
0.627                    -2.1894         166.993         -46.1173        -78.1031         -46.1164        -78.1066       -0.0261472         141.973
0.628                   -2.22099         165.697         -46.0682        -79.8988         -46.0673        -79.9024       -0.0264256         141.889
0.629                   -2.25675          164.38          -46.016        -81.6935         -46.0152        -81.6971       -0.0267088         141.806
