! TOUCHSTONE file generated by CST MICROWAVE STUDIO
! Date and time: Thu Feb 11 19:32:45 2021
! Project name: Scenario_1_Planar_Body_Tissue_Out_of_Line.cst
! Parameters = {L_HA=400; Ltissue=1000; MT=2.54; Rad_Dielectric=30; Rad_Lower=7.3; Rad_Upper=30; Wtissue=1000; a_HA=580; a_WG=246; b_HA=500; b_WG=121; c_HA=0; c_WG=187; d_feed=85; dx1=346; dy1=-103.8; h_feed=15; h_lower=18; h_upper=40; hfat=3; hgap=25; hmuscle=50; hskin=1.5}
! Header version: 2018
! Port assignment regex: !\s*Touchstone port\s*([0-9]+)\s*=\s*(CST MWS port|CST DS port)\s*([0-9]+|Zmin|Zmax)\s*\(\"(.*)\"\)(\s*mode\s*([0-9]+))?.*
! Touchstone port assignment:
! Touchstone port 1 = CST MWS port 1 ("")
! Touchstone port 2 = CST MWS port 2 ("")
# GHz S DB R 50
0.5                    -0.272492        -121.529         -55.8118         30.6023         -55.8117         30.6025      -0.00811419         151.144
0.501                  -0.279934         -121.94         -55.7085         28.0605         -55.7085         28.0607      -0.00818714         151.079
0.502                  -0.288091        -122.346         -55.6148         25.5711         -55.6148         25.5713      -0.00825992         151.014
0.503                  -0.296624        -122.744         -55.5299          23.136         -55.5299         23.1361      -0.00833257         150.949
0.504                  -0.305043        -123.133         -55.4527         20.7566         -55.4528         20.7567       -0.0084051         150.883
0.505                  -0.312771        -123.513         -55.3826         18.4336         -55.3826         18.4337      -0.00847753         150.818
0.506                  -0.319269        -123.887         -55.3185         16.1675         -55.3186         16.1675      -0.00854987         150.753
0.507                   -0.32416        -124.257         -55.2599         13.9579         -55.2599          13.958      -0.00862216         150.687
0.508                  -0.327313        -124.628         -55.2058         11.8044         -55.2059         11.8045       -0.0086944         150.622
0.509                  -0.328835        -125.003         -55.1556         9.70613         -55.1557         9.70626      -0.00876661         150.556
0.51                      -0.329        -125.384         -55.1087         7.66193         -55.1088         7.66208      -0.00883881          150.49
0.511                  -0.328159        -125.774         -55.0645         5.67044         -55.0646          5.6706      -0.00891103         150.424
0.512                  -0.326658        -126.174         -55.0224         3.73011         -55.0224         3.73028      -0.00898328         150.359
0.513                  -0.324793        -126.582         -54.9818         1.83929         -54.9819         1.83947      -0.00905558         150.293
0.514                  -0.322791        -126.999         -54.9424     -0.00379319         -54.9424     -0.00361751      -0.00912796         150.226
0.515                  -0.320816        -127.424         -54.9037        -1.80097         -54.9037         -1.8008      -0.00920042          150.16
0.516                  -0.318977        -127.856         -54.8653        -3.55411         -54.8654        -3.55394      -0.00927299         150.094
0.517                  -0.317341        -128.295          -54.827         -5.2651          -54.827        -5.26494      -0.00934569         150.028
0.518                  -0.315946         -128.74         -54.7883        -6.93581         -54.7883        -6.93566      -0.00941854         149.961
0.519                  -0.314813         -129.19          -54.749         -8.5681          -54.749        -8.56797      -0.00949156         149.895
0.52                   -0.313948        -129.646          -54.709        -10.1638         -54.7089        -10.1637      -0.00956478         149.828
0.521                  -0.313349        -130.106         -54.6678        -11.7247         -54.6678        -11.7246       -0.0096382         149.762
0.522                  -0.313011        -130.571         -54.6254        -13.2526         -54.6253        -13.2526      -0.00971186         149.695
0.523                  -0.312927        -131.041         -54.5815        -14.7491         -54.5815        -14.7491      -0.00978577         149.628
0.524                  -0.313088        -131.515         -54.5361         -16.216          -54.536         -16.216      -0.00985995         149.561
0.525                  -0.313487        -131.994          -54.489        -17.6546         -54.4889        -17.6547      -0.00993443         149.494
0.526                  -0.314115        -132.476           -54.44        -19.0667         -54.4399        -19.0668       -0.0100092         149.427
0.527                  -0.314967        -132.963          -54.389        -20.4536         -54.3889        -20.4537       -0.0100844         149.359
0.528                  -0.316037        -133.454          -54.336        -21.8168         -54.3359        -21.8169       -0.0101599         149.292
0.529                  -0.317321        -133.949         -54.2808        -23.1576         -54.2807        -23.1577       -0.0102358         149.225
0.53                   -0.318816        -134.449         -54.2234        -24.4772         -54.2233        -24.4774        -0.010312         149.157
0.531                   -0.32052        -134.953         -54.1638        -25.7769         -54.1636        -25.7771       -0.0103888          149.09
0.532                  -0.322433        -135.461         -54.1018         -27.058         -54.1016        -27.0582       -0.0104659         149.022
0.533                  -0.324554        -135.974         -54.0373        -28.3214         -54.0372        -28.3217       -0.0105436         148.954
0.534                  -0.326885        -136.491         -53.9705        -29.5684         -53.9703        -29.5687       -0.0106218         148.886
0.535                  -0.329428        -137.012         -53.9011        -30.7999          -53.901        -30.8002       -0.0107004         148.818
0.536                  -0.332187        -137.538         -53.8293        -32.0169         -53.8291        -32.0172       -0.0107797          148.75
0.537                  -0.335165        -138.069         -53.7548        -33.2204         -53.7547        -33.2207       -0.0108595         148.682
0.538                  -0.338367        -138.605         -53.6778        -34.4113         -53.6777        -34.4116       -0.0109399         148.613
0.539                  -0.341798        -139.146         -53.5982        -35.5904          -53.598        -35.5908       -0.0110209         148.545
0.54                   -0.345467        -139.691         -53.5159        -36.7586         -53.5158         -36.759       -0.0111026         148.476
0.541                  -0.349378        -140.242          -53.431        -37.9167         -53.4309        -37.9171       -0.0111849         148.408
0.542                  -0.353542        -140.798         -53.3434        -39.0656         -53.3433         -39.066        -0.011268         148.339
0.543                  -0.357967        -141.359         -53.2531        -40.2058          -53.253        -40.2063       -0.0113518          148.27
0.544                  -0.362663        -141.925         -53.1601        -41.3383           -53.16        -41.3387       -0.0114363         148.201
0.545                   -0.36764        -142.497         -53.0644        -42.4636         -53.0642         -42.464       -0.0115217         148.132
0.546                   -0.37291        -143.075         -52.9659        -43.5825         -52.9658        -43.5829       -0.0116078         148.063
0.547                  -0.378486        -143.658         -52.8647        -44.6956         -52.8645         -44.696       -0.0116948         147.993
0.548                  -0.384381        -144.247         -52.7607        -45.8036         -52.7605         -45.804       -0.0117827         147.924
0.549                   -0.39061        -144.842         -52.6539        -46.9071         -52.6538        -46.9075       -0.0118715         147.854
0.55                   -0.397189        -145.444         -52.5444        -48.0067         -52.5442        -48.0072       -0.0119613         147.785
0.551                  -0.404133        -146.051          -52.432        -49.1031         -52.4319        -49.1036        -0.012052         147.715
0.552                  -0.411462        -146.665         -52.3168        -50.1969         -52.3167        -50.1973       -0.0121437         147.645
0.553                  -0.419194        -147.286         -52.1988        -51.2886         -52.1987         -51.289       -0.0122364         147.575
0.554                   -0.42735        -147.914          -52.078        -52.3788         -52.0779        -52.3792       -0.0123303         147.505
0.555                  -0.435952        -148.548         -51.9544        -53.4681         -51.9542        -53.4685       -0.0124252         147.434
0.556                  -0.445023         -149.19         -51.8278        -54.5572         -51.8277        -54.5576       -0.0125213         147.364
0.557                  -0.454588        -149.838         -51.6985        -55.6465         -51.6983        -55.6468       -0.0126186         147.293
0.558                  -0.464675        -150.495         -51.5662        -56.7366         -51.5661         -56.737       -0.0127171         147.223
0.559                  -0.475312        -151.159         -51.4311        -57.8281          -51.431        -57.8285       -0.0128168         147.152
0.56                   -0.486531         -151.83         -51.2931        -58.9217          -51.293         -58.922       -0.0129179         147.081
0.561                  -0.498363         -152.51         -51.1522        -60.0178         -51.1521        -60.0181       -0.0130203          147.01
0.562                  -0.510845        -153.198         -51.0083        -61.1171         -51.0082        -61.1174       -0.0131241         146.939
0.563                  -0.524014        -153.895         -50.8616        -62.2202         -50.8615        -62.2205       -0.0132294         146.867
0.564                  -0.537911          -154.6         -50.7119        -63.3277         -50.7118        -63.3279       -0.0133361         146.796
0.565                   -0.55258        -155.314         -50.5593        -64.4401         -50.5592        -64.4403       -0.0134443         146.724
0.566                  -0.568067        -156.037         -50.4038        -65.5582         -50.4037        -65.5584       -0.0135541         146.653
0.567                  -0.584422        -156.769         -50.2453        -66.6825         -50.2452        -66.6827       -0.0136656         146.581
0.568                    -0.6017        -157.512         -50.0838        -67.8137         -50.0838        -67.8139       -0.0137787         146.509
0.569                  -0.619958        -158.264         -49.9194        -68.9526         -49.9193        -68.9527       -0.0138935         146.437
0.57                   -0.639259        -159.026          -49.752        -70.0997          -49.752        -70.0997       -0.0140102         146.365
0.571                  -0.659669        -159.798         -49.5817        -71.2557         -49.5816        -71.2558       -0.0141286         146.292
0.572                   -0.68126        -160.582         -49.4084        -72.4215         -49.4083        -72.4216        -0.014249          146.22
0.573                  -0.704111        -161.376         -49.2321        -73.5978         -49.2321        -73.5978       -0.0143713         146.147
0.574                  -0.728306        -162.181         -49.0528        -74.7853         -49.0528        -74.7853       -0.0144957         146.074
0.575                  -0.753933        -162.998         -48.8706        -75.9849         -48.8706        -75.9848       -0.0146221         146.001
0.576                  -0.781092        -163.826         -48.6855        -77.1973         -48.6854        -77.1972       -0.0147506         145.928
0.577                  -0.809886        -164.667         -48.4974        -78.4235         -48.4973        -78.4234       -0.0148814         145.855
0.578                   -0.84043        -165.519         -48.3063        -79.6643         -48.3063        -79.6641       -0.0150144         145.781
0.579                  -0.872846        -166.385         -48.1124        -80.9207         -48.1123        -80.9205       -0.0151497         145.708
0.58                   -0.907267        -167.263         -47.9155        -82.1935         -47.9155        -82.1933       -0.0152875         145.634
0.581                  -0.943836        -168.154         -47.7158        -83.4839         -47.7158        -83.4836       -0.0154277          145.56
0.582                  -0.982708        -169.059         -47.5132        -84.7928         -47.5132        -84.7925       -0.0155705         145.486
0.583                   -1.02405        -169.977         -47.3079        -86.1213         -47.3079         -86.121       -0.0157159         145.412
0.584                   -1.06804        -170.909         -47.0998        -87.4705         -47.0997        -87.4701       -0.0158639         145.337
0.585                   -1.11489        -171.854         -46.8889        -88.8415         -46.8889        -88.8411       -0.0160147         145.263
0.586                   -1.16479        -172.814         -46.6755        -90.2356         -46.6755        -90.2352       -0.0161684         145.188
0.587                   -1.21798        -173.787         -46.4594        -91.6539         -46.4594        -91.6534       -0.0163249         145.113
0.588                   -1.27472        -174.775         -46.2409        -93.0977         -46.2409        -93.0972       -0.0164844         145.038
0.589                   -1.33526        -175.777           -46.02        -94.5682           -46.02        -94.5678       -0.0166469         144.963
0.59                     -1.3999        -176.792         -45.7968         -96.067         -45.7968        -96.0665       -0.0168126         144.887
0.591                   -1.46895        -177.821         -45.5714        -97.5952         -45.5714        -97.5946       -0.0169814         144.812
0.592                   -1.54275        -178.863          -45.344        -99.1543          -45.344        -99.1537       -0.0171535         144.736
0.593                   -1.62166        -179.918         -45.1147        -100.746         -45.1147        -100.745       -0.0173289          144.66
0.594                   -1.70609         179.015         -44.8837        -102.371         -44.8836         -102.37       -0.0175077         144.584
0.595                   -1.79645         177.938         -44.6511        -104.031         -44.6511        -104.031       -0.0176899         144.508
0.596                   -1.89318          176.85         -44.4172        -105.728         -44.4172        -105.727       -0.0178757         144.431
0.597                   -1.99678         175.754         -44.1823        -107.463         -44.1823        -107.462       -0.0180651         144.354
0.598                   -2.10777         174.652         -43.9465        -109.238         -43.9465        -109.237       -0.0182582         144.278
0.599                   -2.22667         173.545         -43.7102        -111.053         -43.7102        -111.052       -0.0184551           144.2
0.6                     -2.35408         172.437         -43.4737         -112.91         -43.4737         -112.91       -0.0186557         144.123
0.601                    -2.4906         171.331         -43.2373        -114.811         -43.2373        -114.811       -0.0188603         144.046
0.602                   -2.63685         170.229         -43.0014        -116.757         -43.0013        -116.756       -0.0190688         143.968
0.603                   -2.79347         169.138         -42.7663        -118.748         -42.7663        -118.748       -0.0192814          143.89
0.604                   -2.96114         168.062         -42.5327        -120.786         -42.5326        -120.785       -0.0194981         143.812
0.605                    -3.1405         167.008         -42.3008         -122.87         -42.3007         -122.87       -0.0197191         143.734
0.606                    -3.3322         165.982         -42.0711        -125.003         -42.0711        -125.002       -0.0199443         143.655
0.607                   -3.53683         164.995         -41.8443        -127.183         -41.8443        -127.183        -0.020174         143.577
0.608                   -3.75495         164.055         -41.6208        -129.411         -41.6208        -129.411       -0.0204082         143.498
0.609                     -3.987         163.174         -41.4012        -131.686         -41.4012        -131.686        -0.020647         143.419
0.61                    -4.23328         162.366         -41.1862        -134.008         -41.1861        -134.008       -0.0208905         143.339
0.611                   -4.49389         161.644         -40.9761        -136.376         -40.9761        -136.375       -0.0211388          143.26
0.612                   -4.76868         161.027         -40.7718        -138.787         -40.7717        -138.787        -0.021392          143.18
0.613                   -5.05713         160.531         -40.5737         -141.24         -40.5736         -141.24       -0.0216502           143.1
0.614                   -5.35826         160.179         -40.3824        -143.733         -40.3823        -143.733       -0.0219136          143.02
0.615                   -5.67053          159.99         -40.1984        -146.263         -40.1984        -146.263       -0.0221823         142.939
0.616                   -5.99167         159.989         -40.0224        -148.826         -40.0224        -148.826       -0.0224563         142.858
0.617                   -6.31858         160.197         -39.8547        -151.418         -39.8547        -151.418       -0.0227358         142.778
0.618                   -6.64713         160.637         -39.6958        -154.036         -39.6958        -154.036       -0.0230209         142.696
0.619                   -6.97213         161.327         -39.5461        -156.675          -39.546        -156.675       -0.0233117         142.615
0.62                    -7.28725          162.28         -39.4057         -159.33         -39.4057         -159.33       -0.0236082         142.533
0.621                   -7.58514         163.501          -39.275        -161.997          -39.275        -161.997       -0.0239105         142.452
0.622                   -7.85765         164.984          -39.154        -164.669          -39.154        -164.669       -0.0242188          142.37
0.623                   -8.09636          166.71         -39.0427        -167.342         -39.0427        -167.342       -0.0245328         142.287
0.624                   -8.29319         168.643         -38.9412        -170.011         -38.9412        -170.011       -0.0248528         142.205
0.625                   -8.44129         170.732         -38.8492         -172.67         -38.8492         -172.67       -0.0251786         142.122
0.626                   -8.53583         172.916         -38.7666        -175.315         -38.7666        -175.315         -0.02551         142.039
0.627                   -8.57465         175.123          -38.693         -177.94          -38.693         -177.94       -0.0258471         141.956
0.628                   -8.55851         177.281         -38.6281         179.458         -38.6281         179.458       -0.0261894         141.872
0.629                   -8.49098         179.325         -38.5714         176.885         -38.5714         176.884       -0.0265369         141.788
