! TOUCHSTONE file generated by CST MICROWAVE STUDIO
! Date and time: Fri Dec 11 14:10:45 2020
! Project name: Scenario_1_Planar_Body_Tissue_Out_of_Line_v2.cst
! Parameters = {dy1=-103.8; L_HA=400; Ltissue=700; MT=2.54; Rad_Dielectric=30; Rad_Lower=7.3; Rad_Upper=30; Wtissue=700; a_HA=580; a_WG=246; b_HA=500; b_WG=121; c_HA=0; c_WG=187; d_feed=85; dx1=520; h_feed=15; h_lower=18; h_upper=40; hfat=3; hgap=25; hmuscle=50; hskin=1.5}
! Header version: 2018
! Port assignment regex: !\s*Touchstone port\s*([0-9]+)\s*=\s*(CST MWS port|CST DS port)\s*([0-9]+|Zmin|Zmax)\s*\(\"(.*)\"\)(\s*mode\s*([0-9]+))?.*
! Touchstone port assignment:
! Touchstone port 1 = CST MWS port 1 ("")
! Touchstone port 2 = CST MWS port 2 ("")
# GHz S DB R 50
0.5                   -0.0782201        -121.955         -61.6882        -50.6092         -61.6885        -50.6066      -0.00743035         151.146
0.501                  -0.084404        -122.449         -61.4623        -51.6846         -61.4627        -51.6818      -0.00751722         151.081
0.502                 -0.0910117        -122.946         -61.2329         -52.773         -61.2333          -52.77      -0.00760446         151.016
0.503                 -0.0980632        -123.445         -60.9999        -53.8752         -61.0002         -53.872      -0.00769208          150.95
0.504                   -0.10558        -123.947         -60.7631         -54.992         -60.7634        -54.9887      -0.00778009         150.885
0.505                  -0.113585        -124.453         -60.5225        -56.1243         -60.5228        -56.1208      -0.00786849         150.819
0.506                  -0.122103        -124.961          -60.278         -57.273         -60.2783        -57.2693      -0.00795728         150.754
0.507                  -0.131159        -125.472         -60.0296         -58.439         -60.0299        -58.4353      -0.00804649         150.688
0.508                  -0.140783        -125.987         -59.7773        -59.6236         -59.7775        -59.6197       -0.0081361         150.622
0.509                  -0.151005        -126.504         -59.5208        -60.8278          -59.521        -60.8238      -0.00822613         150.556
0.51                   -0.161856        -127.024         -59.2602         -62.053         -59.2604        -62.0489      -0.00831658          150.49
0.511                  -0.173372        -127.547         -58.9953        -63.3003         -58.9956        -63.2961      -0.00840747         150.424
0.512                  -0.185589        -128.073         -58.7262        -64.5714         -58.7264         -64.567      -0.00849879         150.358
0.513                  -0.198547        -128.602         -58.4528        -65.8676          -58.453        -65.8633      -0.00859056         150.292
0.514                  -0.212288        -129.134          -58.175        -67.1909         -58.1751        -67.1864      -0.00868279         150.226
0.515                  -0.226857        -129.668         -57.8927        -68.5429         -57.8928        -68.5383      -0.00877548         150.159
0.516                  -0.242301        -130.205         -57.6059        -69.9256          -57.606         -69.921      -0.00886865         150.093
0.517                  -0.258672        -130.744         -57.3146        -71.3411         -57.3147        -71.3364       -0.0089623         150.026
0.518                  -0.276023        -131.286         -57.0187        -72.7917         -57.0188         -72.787      -0.00905644          149.96
0.519                  -0.294411         -131.83         -56.7182        -74.2798         -56.7183        -74.2751      -0.00915107         149.893
0.52                   -0.313895        -132.376         -56.4132        -75.8081         -56.4133        -75.8033      -0.00924623         149.826
0.521                  -0.334537        -132.923         -56.1036        -77.3794         -56.1037        -77.3746       -0.0093419         149.759
0.522                  -0.356401        -133.471         -55.7895        -78.9968         -55.7896         -78.992      -0.00943811         149.693
0.523                  -0.379555        -134.021          -55.471        -80.6634         -55.4711        -80.6586      -0.00953486         149.626
0.524                  -0.404066         -134.57         -55.1482        -82.3829         -55.1482        -82.3781      -0.00963217         149.558
0.525                  -0.430001         -135.12         -54.8212        -84.1589         -54.8212        -84.1541      -0.00973005         149.491
0.526                   -0.45743        -135.668         -54.4902        -85.9954         -54.4902        -85.9907      -0.00982851         149.424
0.527                  -0.486417        -136.215         -54.1556        -87.8966         -54.1555         -87.892      -0.00992758         149.357
0.528                  -0.517025        -136.759         -53.8175         -89.867         -53.8174        -89.8624       -0.0100273         149.289
0.529                   -0.54931          -137.3         -53.4763        -91.9112         -53.4763        -91.9067       -0.0101276         149.222
0.53                   -0.583317        -137.837         -53.1327        -94.0341         -53.1326        -94.0296       -0.0102285         149.154
0.531                  -0.619082        -138.368         -52.7871        -96.2406          -52.787        -96.2362       -0.0103301         149.086
0.532                  -0.656622        -138.891         -52.4403        -98.5357         -52.4402        -98.5315       -0.0104325         149.018
0.533                  -0.695935        -139.406          -52.093        -100.925         -52.0929         -100.92       -0.0105355          148.95
0.534                  -0.736989        -139.911         -51.7463        -103.412         -51.7462        -103.408       -0.0106393         148.882
0.535                   -0.77972        -140.404         -51.4013        -106.003         -51.4011        -105.999       -0.0107438         148.814
0.536                  -0.824026        -140.883         -51.0592        -108.702          -51.059        -108.698       -0.0108491         148.746
0.537                  -0.869755        -141.345         -50.7215        -111.512         -50.7213        -111.508       -0.0109553         148.678
0.538                    -0.9167         -141.79         -50.3899        -114.435         -50.3897        -114.432       -0.0110623         148.609
0.539                  -0.964596        -142.215         -50.0663        -117.475          -50.066        -117.472       -0.0111703         148.541
0.54                    -1.01311        -142.618         -49.7524        -120.629         -49.7522        -120.627       -0.0112793         148.472
0.541                   -1.06183        -142.998         -49.4505        -123.898         -49.4503        -123.895       -0.0113892         148.403
0.542                   -1.11029        -143.352         -49.1628        -127.276         -49.1626        -127.274       -0.0115004         148.334
0.543                   -1.15794        -143.681         -48.8914        -130.758         -48.8912        -130.756       -0.0116127         148.265
0.544                   -1.20417        -143.983         -48.6385        -134.335         -48.6383        -134.333       -0.0117264         148.196
0.545                   -1.24835        -144.259         -48.4062        -137.995          -48.406        -137.994       -0.0118416         148.127
0.546                   -1.28978         -144.51         -48.1962        -141.725          -48.196        -141.723       -0.0119585         148.058
0.547                   -1.32781        -144.738         -48.0101        -145.508         -48.0099        -145.506       -0.0120773         147.988
0.548                   -1.36178        -144.945         -47.8489        -149.326         -47.8487        -149.325       -0.0121985         147.919
0.549                   -1.39111        -145.135         -47.7133        -153.159         -47.7131        -153.159       -0.0123224         147.849
0.55                    -1.41532        -145.313         -47.6034        -156.989         -47.6033        -156.988       -0.0124498         147.779
0.551                   -1.43404        -145.483          -47.519        -160.794         -47.5189        -160.794       -0.0125816          147.71
0.552                   -1.44705        -145.652          -47.459        -164.556         -47.4589        -164.556       -0.0127191          147.64
0.553                    -1.4543        -145.824         -47.4222        -168.258         -47.4222        -168.258       -0.0128644         147.569
0.554                    -1.4559        -146.006          -47.407        -171.884          -47.407        -171.884       -0.0130206         147.499
0.555                   -1.45209        -146.202         -47.4115        -175.421         -47.4115        -175.421       -0.0131924         147.429
0.556                   -1.44329        -146.418         -47.4334        -178.858         -47.4334        -178.858       -0.0133871         147.358
0.557                   -1.42998        -146.658         -47.4706         177.811         -47.4706         177.811       -0.0136142         147.287
0.558                   -1.41275        -146.925         -47.5208         174.592         -47.5208         174.592       -0.0138817         147.217
0.559                   -1.39223        -147.221         -47.5818         171.489         -47.5819         171.489       -0.0141763         147.147
0.56                    -1.36909        -147.549         -47.6516         168.502         -47.6517         168.502       -0.0144244         147.077
0.561                   -1.34395         -147.91         -47.7282          165.63         -47.7283          165.63       -0.0145164         147.008
0.562                   -1.31743        -148.302         -47.8098         162.872           -47.81         162.872       -0.0144653         146.939
0.563                   -1.29009        -148.727         -47.8949         160.223          -47.895         160.223       -0.0143935         146.868
0.564                   -1.26245        -149.183         -47.9819         157.681          -47.982         157.681       -0.0143689         146.796
0.565                   -1.23496        -149.669         -48.0696          155.24         -48.0697          155.24       -0.0143949         146.724
0.566                   -1.20799        -150.183         -48.1569         152.896         -48.1571         152.896       -0.0144573         146.652
0.567                   -1.18186        -150.725         -48.2429         150.643         -48.2431         150.643       -0.0145435          146.58
0.568                   -1.15684        -151.292         -48.3268         148.476         -48.3269         148.477       -0.0146453         146.508
0.569                   -1.13314        -151.882         -48.4078          146.39          -48.408         146.391       -0.0147576         146.436
0.57                    -1.11091        -152.495         -48.4855          144.38         -48.4857         144.381       -0.0148771         146.364
0.571                   -1.09028        -153.128         -48.5593         142.441         -48.5595         142.442        -0.015002         146.291
0.572                   -1.07133         -153.78         -48.6289         140.568          -48.629         140.569        -0.015131         146.218
0.573                   -1.05413         -154.45         -48.6938         138.756         -48.6939         138.757       -0.0152634         146.146
0.574                    -1.0387        -155.136         -48.7539         137.002          -48.754         137.003       -0.0153986         146.073
0.575                   -1.02506        -155.837          -48.809           135.3         -48.8091         135.301       -0.0155362             146
0.576                   -1.01321        -156.552         -48.8589         133.648          -48.859         133.649        -0.015676         145.927
0.577                   -1.00315        -157.282         -48.9034         132.041         -48.9035         132.042       -0.0158179         145.853
0.578                  -0.994854        -158.023         -48.9425         130.476         -48.9426         130.477       -0.0159618          145.78
0.579                  -0.988309        -158.777         -48.9761          128.95         -48.9762          128.95       -0.0161075         145.706
0.58                   -0.983489        -159.542         -49.0042         127.459         -49.0043         127.459       -0.0162551         145.633
0.581                  -0.980368        -160.319         -49.0267         126.001         -49.0268         126.001       -0.0164045         145.559
0.582                  -0.978921        -161.106         -49.0437         124.573         -49.0438         124.573       -0.0165557         145.485
0.583                  -0.979125        -161.904         -49.0551         123.172         -49.0552         123.173       -0.0167087         145.411
0.584                  -0.980958        -162.711          -49.061         121.797         -49.0611         121.797       -0.0168635         145.336
0.585                  -0.984403        -163.529         -49.0614         120.444         -49.0615         120.445       -0.0170201         145.262
0.586                  -0.989444        -164.357         -49.0564         119.112         -49.0564         119.113       -0.0171786         145.187
0.587                   -0.99607        -165.195         -49.0458         117.798         -49.0459         117.799        -0.017339         145.112
0.588                   -1.00428        -166.043           -49.03         116.502         -49.0299         116.502       -0.0175013         145.037
0.589                   -1.01406          -166.9         -49.0087         115.219         -49.0087          115.22       -0.0176655         144.962
0.59                    -1.02542        -167.768         -48.9822          113.95         -48.9822         113.951       -0.0178317         144.887
0.591                   -1.03837        -168.646         -48.9505         112.692         -48.9504         112.693       -0.0179999         144.811
0.592                   -1.05293        -169.534         -48.9135         111.444         -48.9135         111.445       -0.0181701         144.736
0.593                    -1.0691        -170.433         -48.8715         110.204         -48.8714         110.205       -0.0183425          144.66
0.594                   -1.08693        -171.342         -48.8244         108.971         -48.8243         108.971        -0.018517         144.584
0.595                   -1.10643        -172.262         -48.7723         107.743         -48.7723         107.743       -0.0186937         144.508
0.596                   -1.12766        -173.193         -48.7153         106.518         -48.7152         106.519       -0.0188727         144.431
0.597                   -1.15064        -174.136         -48.6535         105.296         -48.6534         105.296        -0.019054         144.355
0.598                   -1.17544         -175.09         -48.5868         104.075         -48.5867         104.075       -0.0192376         144.278
0.599                    -1.2021        -176.056         -48.5154         102.854         -48.5153         102.854       -0.0194236         144.201
0.6                     -1.23071        -177.034         -48.4394         101.631         -48.4393         101.631        -0.019612         144.124
0.601                   -1.26132        -178.024         -48.3588         100.406         -48.3587         100.406        -0.019803         144.046
0.602                   -1.29403        -179.028         -48.2736          99.176         -48.2735         99.1761       -0.0199966         143.969
0.603                   -1.32892         179.956         -48.1841         97.9413          -48.184         97.9413       -0.0201928         143.891
0.604                   -1.36609         178.926         -48.0902         96.7001         -48.0901         96.7001       -0.0203918         143.813
0.605                   -1.40565         177.882          -47.992         95.4514         -47.9919         95.4513       -0.0205935         143.735
0.606                   -1.44772         176.825         -47.8897         94.1939         -47.8896         94.1938       -0.0207981         143.657
0.607                   -1.49243         175.753         -47.7833         92.9264         -47.7831         92.9263       -0.0210056         143.578
0.608                   -1.53992         174.666         -47.6728         91.6479         -47.6727         91.6477       -0.0212161         143.499
0.609                   -1.59034         173.565         -47.5585         90.3572         -47.5584          90.357       -0.0214296          143.42
0.61                    -1.64386         172.448         -47.4404         89.0531         -47.4403         89.0528       -0.0216463         143.341
0.611                   -1.70067         171.316         -47.3186         87.7345         -47.3185         87.7342       -0.0218663         143.261
0.612                   -1.76094         170.168         -47.1933         86.4003         -47.1931            86.4       -0.0220895         143.182
0.613                    -1.8249         169.004         -47.0645         85.0494         -47.0643          85.049       -0.0223162         143.102
0.614                   -1.89277         167.824         -46.9324         83.6807         -46.9322         83.6803       -0.0225463         143.022
0.615                   -1.96479         166.628         -46.7971          82.293         -46.7969         82.2926       -0.0227801         142.941
0.616                   -2.04123         165.416         -46.6588         80.8854         -46.6586         80.8849       -0.0230174         142.861
0.617                   -2.12236         164.188         -46.5176         79.4567         -46.5174         79.4562       -0.0232586          142.78
0.618                   -2.20849         162.944         -46.3736         78.0059         -46.3735         78.0053       -0.0235036         142.699
0.619                   -2.29993         161.684         -46.2272         76.5319         -46.2271         76.5314       -0.0237525         142.618
0.62                    -2.39705         160.408         -46.0784         75.0339         -46.0783         75.0334       -0.0240055         142.536
0.621                    -2.5002         159.117         -45.9274         73.5109         -45.9273         73.5103       -0.0242626         142.454
0.622                   -2.60979         157.812         -45.7745         71.9619         -45.7744         71.9613        -0.024524         142.372
0.623                   -2.72623         156.493         -45.6198         70.3861         -45.6198         70.3855       -0.0247897          142.29
0.624                   -2.84997         155.161         -45.4637         68.7827         -45.4636         68.7821       -0.0250598         142.208
0.625                    -2.9815         153.817         -45.3063         67.1509         -45.3062         67.1503       -0.0253345         142.125
0.626                   -3.12133         152.463         -45.1478         65.4901         -45.1478         65.4895       -0.0256139         142.042
0.627                   -3.26998         151.101         -44.9887         63.7996         -44.9886         63.7991        -0.025898         141.958
0.628                   -3.42803         149.732          -44.829         62.0791          -44.829         62.0786        -0.026187         141.875
0.629                   -3.59609         148.358         -44.6692         60.3282         -44.6692         60.3276       -0.0264809         141.791
