! TOUCHSTONE file generated by CST MICROWAVE STUDIO
! Date and time: Thu Feb 11 19:32:53 2021
! Project name: Scenario_1_Planar_Body_Tissue_Out_of_Line.cst
! Parameters = {L_HA=400; Ltissue=1000; MT=2.54; Rad_Dielectric=30; Rad_Lower=7.3; Rad_Upper=30; Wtissue=1000; a_HA=580; a_WG=246; b_HA=500; b_WG=121; c_HA=0; c_WG=187; d_feed=85; dx1=346; dy1=-86.5; h_feed=15; h_lower=18; h_upper=40; hfat=3; hgap=25; hmuscle=50; hskin=1.5}
! Header version: 2018
! Port assignment regex: !\s*Touchstone port\s*([0-9]+)\s*=\s*(CST MWS port|CST DS port)\s*([0-9]+|Zmin|Zmax)\s*\(\"(.*)\"\)(\s*mode\s*([0-9]+))?.*
! Touchstone port assignment:
! Touchstone port 1 = CST MWS port 1 ("")
! Touchstone port 2 = CST MWS port 2 ("")
# GHz S DB R 50
0.5                    -0.271709         -121.51         -55.6814         32.0475         -55.6813         32.0482      -0.00807347         151.143
0.501                  -0.272172        -121.904         -55.6815         30.6955         -55.6813         30.6967      -0.00813865         151.078
0.502                  -0.272672        -122.301         -55.6798         29.3295         -55.6795         29.3313      -0.00820412         151.013
0.503                  -0.273211        -122.701         -55.6762         27.9498         -55.6759         27.9521       -0.0082699         150.948
0.504                  -0.273791        -123.103         -55.6706         26.5565         -55.6703         26.5593      -0.00833599         150.882
0.505                  -0.274412        -123.508          -55.663         25.1498         -55.6627         25.1532      -0.00840241         150.817
0.506                  -0.275078        -123.916         -55.6533         23.7301         -55.6529          23.734      -0.00846916         150.752
0.507                  -0.275788        -124.327         -55.6414         22.2976          -55.641          22.302      -0.00853625         150.686
0.508                  -0.276547        -124.741         -55.6272         20.8527         -55.6269         20.8576      -0.00860369          150.62
0.509                  -0.277354        -125.157         -55.6107         19.3956         -55.6103          19.401      -0.00867149         150.555
0.51                   -0.278213        -125.577         -55.5918         17.9269         -55.5914         17.9327      -0.00873967         150.489
0.511                  -0.279126        -125.999         -55.5704         16.4469           -55.57         16.4531      -0.00880823         150.423
0.512                  -0.280094        -126.424         -55.5465         14.9559          -55.546         14.9627      -0.00887718         150.357
0.513                  -0.281121        -126.853         -55.5199         13.4546         -55.5194         13.4618      -0.00894653         150.291
0.514                  -0.282208        -127.285         -55.4906         11.9434         -55.4901          11.951       -0.0090163         150.225
0.515                  -0.283358         -127.72         -55.4585         10.4229         -55.4581         10.4308      -0.00908649         150.159
0.516                  -0.284575        -128.158         -55.4237         8.89346         -55.4233          8.9017      -0.00915711         150.093
0.517                  -0.285859        -128.599         -55.3859          7.3558         -55.3855         7.36436      -0.00922818         150.026
0.518                  -0.287216        -129.044         -55.3453         5.81046         -55.3449         5.81933      -0.00929971          149.96
0.519                  -0.288647        -129.493         -55.3017         4.25808         -55.3013         4.26722      -0.00937171         149.893
0.52                   -0.290156        -129.944         -55.2551         2.69928         -55.2547         2.70867      -0.00944418         149.827
0.521                  -0.291747        -130.399         -55.2054          1.1347          -55.205         1.14432      -0.00951715          149.76
0.522                  -0.293422        -130.858         -55.1526       -0.434985         -55.1523       -0.425178      -0.00959062         149.693
0.523                  -0.295186        -131.321         -55.0968        -2.00911         -55.0964        -1.99914       -0.0096646         149.626
0.524                  -0.297043        -131.787         -55.0378        -3.58699         -55.0375        -3.57689      -0.00973912         149.559
0.525                  -0.298997        -132.257         -54.9757        -5.16794         -54.9753        -5.15773      -0.00981417         149.492
0.526                  -0.301051        -132.731         -54.9104        -6.75126         -54.9101        -6.74098      -0.00988977         149.425
0.527                  -0.303212        -133.209         -54.8419        -8.33627         -54.8417        -8.32595      -0.00996595         149.358
0.528                  -0.305483         -133.69         -54.7703        -9.92228         -54.7701        -9.91195       -0.0100427          149.29
0.529                  -0.307869        -134.176         -54.6955        -11.5086         -54.6953        -11.4983         -0.01012         149.223
0.53                   -0.310376        -134.666         -54.6176        -13.0945         -54.6174        -13.0843        -0.010198         149.155
0.531                   -0.31301         -135.16         -54.5366        -14.6794         -54.5364        -14.6693       -0.0102766         149.088
0.532                  -0.315777        -135.659         -54.4524        -16.2627         -54.4522        -16.2526       -0.0103558          149.02
0.533                  -0.318682        -136.162         -54.3652        -17.8435          -54.365        -17.8336       -0.0104356         148.952
0.534                  -0.321732        -136.669         -54.2749        -19.4215         -54.2747        -19.4117       -0.0105161         148.884
0.535                  -0.324934        -137.181         -54.1815        -20.9958         -54.1814        -20.9863       -0.0105973         148.816
0.536                  -0.328296        -137.698         -54.0852         -22.566         -54.0851        -22.5567       -0.0106792         148.748
0.537                  -0.331826        -138.219         -53.9859        -24.1315         -53.9858        -24.1225       -0.0107618          148.68
0.538                  -0.335531        -138.745         -53.8838        -25.6918         -53.8837        -25.6831       -0.0108451         148.611
0.539                   -0.33942        -139.276         -53.7787        -27.2463         -53.7787        -27.2379       -0.0109291         148.543
0.54                   -0.343502        -139.813         -53.6709        -28.7946         -53.6709        -28.7865       -0.0110139         148.474
0.541                  -0.347788        -140.354         -53.5603        -30.3362         -53.5603        -30.3285       -0.0110995         148.406
0.542                  -0.352287        -140.901          -53.447        -31.8706          -53.447        -31.8633       -0.0111859         148.337
0.543                   -0.35701        -141.453         -53.3311        -33.3976         -53.3311        -33.3907        -0.011273         148.268
0.544                  -0.361968        -142.011         -53.2126        -34.9166         -53.2125        -34.9102        -0.011361         148.199
0.545                  -0.367175        -142.574         -53.0915        -36.4274         -53.0915        -36.4215       -0.0114498          148.13
0.546                  -0.372642        -143.143          -52.968        -37.9297          -52.968        -37.9242       -0.0115395          148.06
0.547                  -0.378385        -143.718          -52.842        -39.4232          -52.842        -39.4182       -0.0116301         147.991
0.548                  -0.384416        -144.299         -52.7137        -40.9075         -52.7137        -40.9031       -0.0117215         147.922
0.549                  -0.390753        -144.886         -52.5831        -42.3826          -52.583        -42.3787       -0.0118139         147.852
0.55                   -0.397411        -145.479         -52.4502        -43.8482         -52.4502        -43.8448       -0.0119072         147.782
0.551                  -0.404408        -146.079         -52.3151        -45.3041         -52.3151        -45.3012       -0.0120014         147.713
0.552                  -0.411763        -146.686         -52.1779        -46.7502         -52.1779        -46.7479       -0.0120966         147.643
0.553                  -0.419496        -147.299         -52.0386        -48.1863         -52.0385        -48.1847       -0.0121929         147.573
0.554                  -0.427627         -147.92         -51.8972        -49.6125         -51.8972        -49.6114       -0.0122901         147.502
0.555                  -0.436181        -148.547         -51.7539        -51.0285         -51.7538         -51.028       -0.0123883         147.432
0.556                   -0.44518        -149.182         -51.6085        -52.4344         -51.6085        -52.4345       -0.0124877         147.362
0.557                  -0.454652        -149.824         -51.4613        -53.8302         -51.4612        -53.8309       -0.0125881         147.291
0.558                  -0.464622        -150.474         -51.3122        -55.2158         -51.3121        -55.2171       -0.0126896          147.22
0.559                  -0.475122        -151.132         -51.1612        -56.5912         -51.1611        -56.5931       -0.0127922          147.15
0.56                   -0.486183        -151.798         -51.0084        -57.9565         -51.0083        -57.9591        -0.012896         147.079
0.561                  -0.497838        -152.473         -50.8538        -59.3118         -50.8537         -59.315        -0.013001         147.008
0.562                  -0.510123        -153.156         -50.6975         -60.657         -50.6973        -60.6608       -0.0131072         146.936
0.563                  -0.523079        -153.847         -50.5394        -61.9924         -50.5392        -61.9968       -0.0132146         146.865
0.564                  -0.536745        -154.548         -50.3796         -63.318         -50.3794         -63.323       -0.0133232         146.794
0.565                  -0.551167        -155.257          -50.218        -64.6339         -50.2178        -64.6395       -0.0134332         146.722
0.566                  -0.566393        -155.977         -50.0547        -65.9404         -50.0545        -65.9465       -0.0135445          146.65
0.567                  -0.582475        -156.706         -49.8897        -67.2374         -49.8895        -67.2441       -0.0136571         146.578
0.568                  -0.599467        -157.444          -49.723        -68.5252         -49.7228        -68.5325       -0.0137711         146.506
0.569                   -0.61743        -158.194         -49.5545        -69.8041         -49.5543        -69.8119       -0.0138865         146.434
0.57                   -0.636427        -158.953         -49.3842        -71.0741          -49.384        -71.0825       -0.0140034         146.362
0.571                  -0.656528        -159.724         -49.2122        -72.3356          -49.212        -72.3444       -0.0141218         146.289
0.572                  -0.677806        -160.505         -49.0384        -73.5887         -49.0382         -73.598       -0.0142416         146.217
0.573                  -0.700343        -161.298         -48.8627        -74.8338         -48.8625        -74.8435       -0.0143631         146.144
0.574                  -0.724225        -162.102         -48.6851         -76.071         -48.6849        -76.0811       -0.0144861         146.071
0.575                  -0.749545        -162.919         -48.5056        -77.3008         -48.5054        -77.3112       -0.0146108         145.998
0.576                  -0.776403        -163.747         -48.3241        -78.5234         -48.3239        -78.5341       -0.0147372         145.925
0.577                   -0.80491        -164.589         -48.1405        -79.7392         -48.1403        -79.7502       -0.0148653         145.852
0.578                  -0.835183        -165.443         -47.9548        -80.9486         -47.9546        -80.9598       -0.0149952         145.778
0.579                  -0.867348         -166.31         -47.7668         -82.152         -47.7667        -82.1633       -0.0151269         145.704
0.58                   -0.901544         -167.19         -47.5765          -83.35         -47.5764        -83.3613       -0.0152605         145.631
0.581                   -0.93792        -168.084         -47.3838        -84.5429         -47.3837        -84.5543       -0.0153961         145.557
0.582                  -0.976636        -168.992         -47.1886        -85.7315         -47.1885        -85.7427       -0.0155337         145.482
0.583                   -1.01787        -169.914         -46.9907        -86.9163         -46.9906        -86.9273       -0.0156734         145.408
0.584                    -1.0618         -170.85           -46.79         -88.098         -46.7899        -88.1088       -0.0158152         145.334
0.585                   -1.10865        -171.801         -46.5863        -89.2775         -46.5863        -89.2879       -0.0159593         145.259
0.586                   -1.15862        -172.766         -46.3795        -90.4557         -46.3795        -90.4656       -0.0161057         145.184
0.587                   -1.21196        -173.746         -46.1693        -91.6335         -46.1694        -91.6428       -0.0162545         145.109
0.588                   -1.26893         -174.74         -45.9557        -92.8123         -45.9558        -92.8207       -0.0164057         145.034
0.589                   -1.32981        -175.749         -45.7383        -93.9932         -45.7384        -94.0007       -0.0165596         144.959
0.59                     -1.3949        -176.773          -45.517        -95.1778         -45.5171        -95.1842       -0.0167161         144.883
0.591                   -1.46452         -177.81         -45.2915        -96.3679         -45.2916         -96.373       -0.0168755         144.807
0.592                   -1.53904        -178.861         -45.0615        -97.5655         -45.0616        -97.5691       -0.0170378         144.732
0.593                   -1.61882        -179.926         -44.8268        -98.7728         -44.8269        -98.7747       -0.0172032         144.655
0.594                   -1.70427         178.998         -44.5871        -99.9926         -44.5871        -99.9926       -0.0173718         144.579
0.595                   -1.79584          177.91          -44.342        -101.228         -44.3419        -101.226       -0.0175438         144.503
0.596                   -1.89399         176.813         -44.0913        -102.483         -44.0911        -102.478       -0.0177193         144.426
0.597                   -1.99922         175.707         -43.8346        -103.761         -43.8342        -103.753       -0.0178986         144.349
0.598                   -2.11205         174.594         -43.5716        -105.067         -43.5711        -105.057       -0.0180817         144.272
0.599                   -2.23305         173.477         -43.3022        -106.407         -43.3013        -106.394       -0.0182691         144.195
0.6                     -2.36281          172.36         -43.0259        -107.788         -43.0247        -107.771       -0.0184607         144.117
0.601                   -2.50194         171.244         -42.7426        -109.216         -42.7411        -109.196        -0.018657          144.04
0.602                   -2.65107         170.135         -42.4523        -110.702         -42.4502        -110.678       -0.0188581         143.962
0.603                   -2.81086         169.037         -42.1549        -112.255         -42.1523        -112.227       -0.0190644         143.884
0.604                   -2.98196         167.956         -41.8508        -113.886         -41.8474        -113.855        -0.019276         143.806
0.605                   -3.16501         166.899         -41.5404        -115.608         -41.5361        -115.574       -0.0194932         143.727
0.606                   -3.36064         165.873         -41.2246        -117.437         -41.2193          -117.4       -0.0197164         143.648
0.607                   -3.56942         164.887         -40.9047        -119.387         -40.8982        -119.348       -0.0199458         143.569
0.608                   -3.79184         163.953         -40.5826        -121.475         -40.5748        -121.435       -0.0201817          143.49
0.609                    -4.0283         163.081          -40.261        -123.717         -40.2517        -123.678       -0.0204244         143.411
0.61                    -4.27901         162.286         -39.9434        -126.128         -39.9326        -126.092        -0.020674         143.332
0.611                   -4.54397         161.582         -39.6343        -128.722          -39.622         -128.69       -0.0209309         143.252
0.612                   -4.82289         160.987         -39.3392        -131.505         -39.3256         -131.48        -0.021195         143.172
0.613                   -5.11511         160.519         -39.0647        -134.477         -39.0499        -134.462       -0.0214666         143.092
0.614                   -5.41946         160.199         -38.8177        -137.625         -38.8021        -137.621       -0.0217457         143.011
0.615                   -5.73419         160.048         -38.6056        -140.923         -38.5896        -140.933       -0.0220321         142.931
0.616                    -6.0568         160.089         -38.4347        -144.329         -38.4192        -144.353       -0.0223257          142.85
0.617                   -6.38395         160.342         -38.3103        -147.787         -38.2958        -147.825       -0.0226263         142.769
0.618                   -6.71131         160.829         -38.2347        -151.231          -38.222        -151.278       -0.0229335         142.688
0.619                   -7.03347         161.565         -38.2077        -154.586         -38.1972         -154.64       -0.0232468         142.606
0.62                    -7.34403         162.561         -38.2253        -157.785         -38.2175        -157.839       -0.0235656         142.525
0.621                   -7.63562         163.818         -38.2812        -160.766          -38.276        -160.814       -0.0238894         142.443
0.622                    -7.9003         165.327         -38.3667        -163.486         -38.3637        -163.523       -0.0242174         142.361
0.623                   -8.13002         167.066          -38.472         -165.92         -38.4709         -165.94       -0.0245487         142.278
0.624                   -8.31728         168.995         -38.5877         -168.06         -38.5877         -168.06       -0.0248827         142.196
0.625                   -8.45598         171.064         -38.7046        -169.915         -38.7049        -169.892       -0.0252185         142.113
0.626                   -8.54205          173.21         -38.8152        -171.504          -38.815        -171.458       -0.0255554          142.03
0.627                   -8.57407         175.365         -38.9134        -172.856         -38.9118        -172.787       -0.0258928         141.947
0.628                   -8.55335         177.461         -38.9946        -174.002          -38.991        -173.912       -0.0262303         141.864
0.629                   -8.48374         179.437         -39.0556        -174.976         -39.0494        -174.867       -0.0265673          141.78
