! TOUCHSTONE file generated by CST MICROWAVE STUDIO
! Date and time: Fri Dec 11 14:10:56 2020
! Project name: Scenario_1_Planar_Body_Tissue_Out_of_Line_v2.cst
! Parameters = {dy1=-86.5; L_HA=400; Ltissue=700; MT=2.54; Rad_Dielectric=30; Rad_Lower=7.3; Rad_Upper=30; Wtissue=700; a_HA=580; a_WG=246; b_HA=500; b_WG=121; c_HA=0; c_WG=187; d_feed=85; dx1=520; h_feed=15; h_lower=18; h_upper=40; hfat=3; hgap=25; hmuscle=50; hskin=1.5}
! Header version: 2018
! Port assignment regex: !\s*Touchstone port\s*([0-9]+)\s*=\s*(CST MWS port|CST DS port)\s*([0-9]+|Zmin|Zmax)\s*\(\"(.*)\"\)(\s*mode\s*([0-9]+))?.*
! Touchstone port assignment:
! Touchstone port 1 = CST MWS port 1 ("")
! Touchstone port 2 = CST MWS port 2 ("")
# GHz S DB R 50
0.5                   -0.0768517        -121.855         -61.6403        -49.6479         -61.6405        -49.6437      -0.00732632         151.158
0.501                 -0.0796267        -122.313         -61.4295        -50.6633         -61.4298        -50.6593      -0.00738627         151.093
0.502                 -0.0825966        -122.775         -61.2143         -51.692         -61.2146        -51.6882      -0.00744683         151.028
0.503                 -0.0857775         -123.24         -60.9946        -52.7347         -60.9949        -52.7311        -0.007508         150.963
0.504                  -0.089187         -123.71         -60.7703        -53.7922         -60.7706        -53.7887       -0.0075698         150.897
0.505                 -0.0928443        -124.184         -60.5413        -54.8654         -60.5416        -54.8621      -0.00763224         150.832
0.506                 -0.0967709        -124.663         -60.3075         -55.955         -60.3079        -55.9519      -0.00769535         150.766
0.507                   -0.10099        -125.146         -60.0689        -57.0623         -60.0693        -57.0593      -0.00775915         150.701
0.508                  -0.105529        -125.634         -59.8254        -58.1881         -59.8258        -58.1853      -0.00782365         150.635
0.509                  -0.110415        -126.126          -59.577        -59.3338         -59.5774        -59.3311      -0.00788889         150.569
0.51                    -0.11568        -126.623         -59.3235        -60.5005         -59.3239         -60.498       -0.0079549         150.503
0.511                  -0.121361        -127.126         -59.0649        -61.6896         -59.0653        -61.6873       -0.0080217         150.438
0.512                  -0.127495        -127.634         -58.8011        -62.9027         -58.8015        -62.9004      -0.00808933         150.372
0.513                  -0.134128        -128.147          -58.532        -64.1412         -58.5325        -64.1391      -0.00815783         150.305
0.514                  -0.141306        -128.665         -58.2577        -65.4071         -58.2581        -65.4051      -0.00822726         150.239
0.515                  -0.149084        -129.189         -57.9779        -66.7021         -57.9784        -66.7002      -0.00829765         150.173
0.516                  -0.157521        -129.719         -57.6928        -68.0283         -57.6933        -68.0265      -0.00836907         150.107
0.517                  -0.166685        -130.255         -57.4022        -69.3879         -57.4026        -69.3863      -0.00844159          150.04
0.518                  -0.176648        -130.797          -57.106        -70.7834         -57.1065        -70.7819      -0.00851527         149.974
0.519                  -0.187494        -131.345         -56.8044        -72.2174         -56.8048        -72.2159       -0.0085902         149.907
0.52                   -0.199314          -131.9         -56.4972        -73.6926         -56.4976        -73.6912      -0.00866647          149.84
0.521                   -0.21221         -132.46         -56.1845        -75.2121         -56.1849        -75.2109       -0.0087442         149.774
0.522                  -0.226295        -133.027         -55.8663        -76.7793         -55.8667        -76.7781       -0.0088235         149.707
0.523                  -0.241694          -133.6         -55.5426        -78.3977         -55.5431        -78.3965      -0.00890451          149.64
0.524                  -0.258546         -134.18         -55.2137         -80.071         -55.2142          -80.07      -0.00898738         149.573
0.525                  -0.277003        -134.765         -54.8796        -81.8035           -54.88        -81.8025      -0.00907229         149.505
0.526                  -0.297233        -135.356         -54.5405        -83.5996         -54.5409        -83.5986      -0.00915943         149.438
0.527                   -0.31942        -135.952         -54.1967        -85.4638         -54.1971         -85.463      -0.00924901         149.371
0.528                   -0.34376        -136.553         -53.8484        -87.4014         -53.8488        -87.4006      -0.00934128         149.303
0.529                  -0.370466        -137.157         -53.4962        -89.4175         -53.4966        -89.4167      -0.00943651         149.236
0.53                   -0.399763        -137.764         -53.1404        -91.5177         -53.1408        -91.5169      -0.00953497         149.168
0.531                  -0.431885        -138.373         -52.7818        -93.7078         -52.7822        -93.7071        -0.009637           149.1
0.532                  -0.467069        -138.981         -52.4211        -95.9936         -52.4214        -95.9929      -0.00974291         149.032
0.533                  -0.505548        -139.586         -52.0591        -98.3813         -52.0594        -98.3806      -0.00985306         148.964
0.534                  -0.547541        -140.186         -51.6969        -100.877         -51.6972        -100.876       -0.0099678         148.896
0.535                  -0.593234        -140.778         -51.3358        -103.485         -51.3361        -103.485       -0.0100875         148.828
0.536                  -0.642762        -141.358         -50.9772        -106.212         -50.9775        -106.212       -0.0102124          148.76
0.537                  -0.696185        -141.921         -50.6228        -109.063         -50.6231        -109.062       -0.0103429         148.692
0.538                  -0.753454        -142.463         -50.2745         -112.04         -50.2747         -112.04       -0.0104792         148.623
0.539                  -0.814378        -142.979         -49.9344        -115.146         -49.9346        -115.146       -0.0106214         148.555
0.54                   -0.878584        -143.461         -49.6047        -118.382         -49.6049        -118.381       -0.0107694         148.486
0.541                  -0.945484        -143.905          -49.288        -121.745         -49.2882        -121.745        -0.010923         148.417
0.542                   -1.01425        -144.305         -48.9868        -125.232         -48.9869        -125.231       -0.0110819         148.349
0.543                   -1.08378        -144.657         -48.7037        -128.834         -48.7038        -128.834       -0.0112455          148.28
0.544                   -1.15273        -144.956         -48.4412        -132.543         -48.4413        -132.542       -0.0114128         148.211
0.545                   -1.21957        -145.201         -48.2018        -136.343         -48.2018        -136.343       -0.0115829         148.142
0.546                   -1.28259        -145.393         -47.9875        -140.219         -47.9876        -140.219       -0.0117545         148.073
0.547                    -1.3401        -145.535         -47.8001        -144.151         -47.8001        -144.151       -0.0119262         148.004
0.548                   -1.39051        -145.635         -47.6406        -148.117         -47.6406        -148.117       -0.0120968         147.935
0.549                   -1.43246          -145.7         -47.5098        -152.095         -47.5098        -152.095       -0.0122647         147.866
0.55                    -1.46499        -145.744         -47.4076         -156.06         -47.4076         -156.06       -0.0124288         147.797
0.551                   -1.48759        -145.777         -47.3332         -159.99         -47.3333         -159.99       -0.0125882         147.727
0.552                   -1.50022        -145.814         -47.2856        -163.864         -47.2856        -163.864        -0.012742         147.658
0.553                   -1.50333        -145.865          -47.263        -167.661          -47.263        -167.662       -0.0128899         147.589
0.554                   -1.49772        -145.942         -47.2632        -171.367         -47.2632        -171.367       -0.0130316         147.519
0.555                   -1.48451        -146.053         -47.2838        -174.967         -47.2838        -174.967       -0.0131674         147.449
0.556                   -1.46495        -146.204         -47.3222        -178.451         -47.3222        -178.451       -0.0132975          147.38
0.557                   -1.44035        -146.399          -47.376         178.188         -47.3759         178.188       -0.0134224          147.31
0.558                     -1.412        -146.639         -47.4424         174.953         -47.4423         174.953       -0.0135428          147.24
0.559                   -1.38108        -146.926          -47.519         171.846          -47.519         171.846       -0.0136593         147.169
0.56                    -1.34862        -147.257         -47.6035         168.867         -47.6035         168.867       -0.0137726         147.099
0.561                   -1.31551         -147.63         -47.6939         166.012         -47.6939         166.012       -0.0138835         147.029
0.562                   -1.28246        -148.043         -47.7883         163.279         -47.7883         163.279       -0.0139925         146.958
0.563                   -1.25005        -148.493         -47.8851         160.663          -47.885         160.663       -0.0141002         146.887
0.564                   -1.21873        -148.977         -47.9827         158.157         -47.9826         158.158       -0.0142073         146.816
0.565                   -1.18881        -149.491         -48.0799         155.757         -48.0799         155.758       -0.0143141         146.745
0.566                   -1.16052        -150.033         -48.1758         153.457         -48.1757         153.457       -0.0144211         146.674
0.567                   -1.13403        -150.601         -48.2693         151.249         -48.2693          151.25       -0.0145287         146.603
0.568                   -1.10942        -151.191         -48.3598         149.129         -48.3598          149.13       -0.0146371         146.531
0.569                   -1.08675        -151.801         -48.4467          147.09         -48.4466         147.091       -0.0147467          146.46
0.57                    -1.06604        -152.431         -48.5294         145.127         -48.5293         145.127       -0.0148576         146.388
0.571                   -1.04726        -153.077         -48.6075         143.233         -48.6074         143.234         -0.01497         146.316
0.572                    -1.0304         -153.74         -48.6808         141.405         -48.6807         141.406       -0.0150841         146.244
0.573                   -1.01541        -154.417         -48.7489         139.637         -48.7488         139.638       -0.0151999         146.172
0.574                   -1.00225        -155.107         -48.8117         137.924         -48.8116         137.925       -0.0153177         146.099
0.575                  -0.990871        -155.811          -48.869         136.263         -48.8689         136.264       -0.0154374         146.027
0.576                  -0.981219        -156.526         -48.9207         134.649         -48.9206          134.65       -0.0155592         145.954
0.577                  -0.973245        -157.253         -48.9668         133.079         -48.9667          133.08        -0.015683         145.881
0.578                  -0.966905        -157.991         -49.0072         131.548         -49.0071         131.549        -0.015809         145.808
0.579                  -0.962153        -158.739         -49.0419         130.054         -49.0418         130.055       -0.0159372         145.735
0.58                   -0.958952        -159.498         -49.0708         128.594         -49.0707         128.595       -0.0160676         145.662
0.581                  -0.957268        -160.268         -49.0941         127.164          -49.094         127.166       -0.0162002         145.588
0.582                   -0.95707        -161.047         -49.1117         125.763         -49.1116         125.764       -0.0163351         145.515
0.583                  -0.958337        -161.836         -49.1237         124.387         -49.1235         124.388       -0.0164723         145.441
0.584                  -0.961048        -162.635           -49.13         123.035         -49.1299         123.036       -0.0166119         145.367
0.585                  -0.965193        -163.445         -49.1309         121.703         -49.1308         121.704       -0.0167537         145.293
0.586                  -0.970762        -164.264         -49.1262          120.39         -49.1261         120.392       -0.0168979         145.219
0.587                  -0.977756        -165.093         -49.1161         119.095          -49.116         119.096       -0.0170445         145.144
0.588                  -0.986177        -165.933         -49.1007         117.814         -49.1006         117.815       -0.0171935         145.069
0.589                  -0.996036        -166.783           -49.08         116.547         -49.0799         116.548       -0.0173449         144.995
0.59                    -1.00735        -167.644          -49.054         115.291         -49.0539         115.292       -0.0174987          144.92
0.591                   -1.02013        -168.515         -49.0229         114.046         -49.0228         114.047        -0.017655         144.845
0.592                   -1.03442        -169.398         -48.9867         112.809         -48.9866          112.81       -0.0178137         144.769
0.593                   -1.05023        -170.291         -48.9454         111.579         -48.9453          111.58        -0.017975         144.694
0.594                   -1.06762        -171.196         -48.8992         110.355         -48.8991         110.356       -0.0181388         144.618
0.595                   -1.08662        -172.113          -48.848         109.135          -48.848         109.136       -0.0183051         144.543
0.596                   -1.10728        -173.041         -48.7921         107.918          -48.792         107.919       -0.0184741         144.467
0.597                   -1.12967        -173.982         -48.7313         106.703         -48.7312         106.704       -0.0186456          144.39
0.598                   -1.15384        -174.935         -48.6659         105.489         -48.6658         105.489       -0.0188198         144.314
0.599                   -1.17987        -175.901         -48.5958         104.274         -48.5957         104.274       -0.0189966         144.238
0.6                     -1.20783         -176.88         -48.5211         103.057         -48.5211         103.057       -0.0191761         144.161
0.601                   -1.23781        -177.873         -48.4419         101.837         -48.4419         101.837       -0.0193584         144.084
0.602                    -1.2699        -178.879         -48.3583         100.613         -48.3583         100.613       -0.0195435         144.007
0.603                    -1.3042        -179.899         -48.2703          99.384         -48.2703         99.3841       -0.0197314         143.929
0.604                   -1.34083         179.067          -48.178         98.1485          -48.178         98.1486       -0.0199221         143.852
0.605                    -1.3799         178.018         -48.0815         96.9057         -48.0815         96.9057       -0.0201158         143.774
0.606                   -1.42154         176.955         -47.9808         95.6544         -47.9808         95.6543       -0.0203124         143.696
0.607                    -1.4659         175.876          -47.876         94.3935         -47.8761         94.3933       -0.0205119         143.618
0.608                   -1.51312         174.781         -47.7672          93.122         -47.7673         93.1216       -0.0207146          143.54
0.609                   -1.56337         173.672         -47.6546         91.8388         -47.6546         91.8383       -0.0209203         143.462
0.61                    -1.61682         172.546          -47.538         90.5428         -47.5381         90.5421       -0.0211292         143.383
0.611                   -1.67366         171.404         -47.4178         89.2329         -47.4179         89.2321       -0.0213412         143.304
0.612                    -1.7341         170.246         -47.2938          87.908         -47.2939         87.9071       -0.0215565         143.225
0.613                   -1.79836         169.071         -47.1664         86.5672         -47.1665         86.5661       -0.0217752         143.145
0.614                   -1.86666          167.88         -47.0355         85.2093         -47.0356         85.2081       -0.0219972         143.066
0.615                   -1.93926         166.672         -46.9012         83.8332         -46.9014         83.8319       -0.0222227         142.986
0.616                   -2.01643         165.448         -46.7638         82.4379          -46.764         82.4365       -0.0224516         142.906
0.617                   -2.09845         164.207         -46.6233         81.0223         -46.6235         81.0208       -0.0226842         142.826
0.618                   -2.18565          162.95         -46.4799         79.5855         -46.4801         79.5838       -0.0229204         142.745
0.619                   -2.27834         161.677         -46.3337         78.1262         -46.3339         78.1244       -0.0231603         142.665
0.62                    -2.37688         160.389         -46.1848         76.6436         -46.1851         76.6416       -0.0234041         142.584
0.621                   -2.48164         159.085         -46.0336         75.1365         -46.0338         75.1345       -0.0236517         142.503
0.622                   -2.59303         157.766           -45.88         73.6041         -45.8803          73.602       -0.0239033         142.421
0.623                   -2.71148         156.434         -45.7245         72.0454         -45.7247         72.0431        -0.024159         142.339
0.624                   -2.83744          155.09          -45.567         70.4595         -45.5673         70.4571       -0.0244188         142.258
0.625                   -2.97138         153.733         -45.4079         68.8455         -45.4082         68.8431       -0.0246828         142.175
0.626                   -3.11383         152.367         -45.2475         67.2027         -45.2478         67.2002       -0.0249512         142.093
0.627                   -3.26533         150.993         -45.0859         65.5304         -45.0862         65.5278        -0.025224          142.01
0.628                   -3.42645         149.613         -44.9235         63.8278         -44.9238         63.8252       -0.0255014         141.927
0.629                   -3.59779         148.229         -44.7605         62.0946         -44.7607         62.0919       -0.0257833         141.844
