! TOUCHSTONE file generated by CST MICROWAVE STUDIO
! Date and time: Sat Nov 14 20:00:21 2020
! Project name: Scenario_1_Planar_Body_Tissue_Out_of_Line.cst
! Parameters = {dy1=86.5; L_HA=400; Ltissue=700; MT=2.54; Rad_Dielectric=30; Rad_Lower=7.3; Rad_Upper=30; Wtissue=700; a_HA=580; a_WG=246; b_HA=500; b_WG=121; c_HA=0; c_WG=187; d_feed=85; dx1=693; h_feed=15; h_lower=18; h_upper=40; hfat=3; hgap=25; hmuscle=50; hskin=1.5}
! Header version: 2018
! Port assignment regex: !\s*Touchstone port\s*([0-9]+)\s*=\s*(CST MWS port|CST DS port)\s*([0-9]+|Zmin|Zmax)\s*\(\"(.*)\"\)(\s*mode\s*([0-9]+))?.*
! Touchstone port assignment:
! Touchstone port 1 = CST MWS port 1 ("")
! Touchstone port 2 = CST MWS port 2 ("")
# GHz S DB R 50
0.5                     -0.20422        -121.557         -61.1003        -172.367         -61.1008        -172.365      -0.00777126         151.159
0.501                  -0.205186        -121.978          -61.071         -173.52         -61.0715        -173.517      -0.00783332         151.094
0.502                  -0.206215        -122.401         -61.0399        -174.686         -61.0405        -174.683      -0.00789598         151.028
0.503                  -0.207309        -122.827         -61.0071        -175.868         -61.0077        -175.863      -0.00795924         150.963
0.504                  -0.208471        -123.256         -60.9724        -177.064          -60.973        -177.058      -0.00802312         150.898
0.505                  -0.209704        -123.687         -60.9357        -178.274         -60.9364        -178.268       -0.0080876         150.832
0.506                  -0.211011        -124.122         -60.8971        -179.499         -60.8978        -179.493       -0.0081527         150.767
0.507                  -0.212396        -124.559         -60.8564         179.261         -60.8572         179.268      -0.00821843         150.701
0.508                  -0.213862            -125         -60.8135         178.006         -60.8143         178.014      -0.00828478         150.635
0.509                  -0.215412        -125.444         -60.7684         176.736         -60.7693         176.745      -0.00835176          150.57
0.51                   -0.217052        -125.891          -60.721         175.452         -60.7219         175.461      -0.00841938         150.504
0.511                  -0.218784        -126.341         -60.6712         174.152         -60.6722         174.162      -0.00848764         150.438
0.512                  -0.220614        -126.794          -60.619         172.838         -60.6199         172.848      -0.00855655         150.372
0.513                  -0.222546        -127.251         -60.5641         171.509         -60.5652          171.52      -0.00862611         150.306
0.514                  -0.224585        -127.711         -60.5067         170.165         -60.5078         170.177      -0.00869632          150.24
0.515                  -0.226738        -128.174         -60.4465         168.807         -60.4476         168.819       -0.0087672         150.173
0.516                  -0.229008        -128.641         -60.3836         167.434         -60.3847         167.446      -0.00883875         150.107
0.517                  -0.231404        -129.112         -60.3177         166.047         -60.3189         166.059      -0.00891098         150.041
0.518                  -0.233931        -129.587         -60.2489         164.645         -60.2501         164.658      -0.00898388         149.974
0.519                  -0.236596        -130.065         -60.1771         163.229         -60.1783         163.242      -0.00905747         149.907
0.52                   -0.239408        -130.547         -60.1021         161.799         -60.1034         161.812      -0.00913176         149.841
0.521                  -0.242373        -131.033         -60.0239         160.355         -60.0252         160.368      -0.00920675         149.774
0.522                  -0.245501        -131.523         -59.9424         158.897         -59.9437         158.911      -0.00928244         149.707
0.523                  -0.248801        -132.018         -59.8576         157.425         -59.8589         157.439      -0.00935885          149.64
0.524                  -0.252283        -132.516         -59.7692          155.94         -59.7706         155.955      -0.00943598         149.573
0.525                  -0.255958        -133.019         -59.6774         154.442         -59.6787         154.457      -0.00951385         149.506
0.526                  -0.259836        -133.526         -59.5819         152.931         -59.5833         152.945      -0.00959245         149.439
0.527                  -0.263931        -134.038         -59.4827         151.407         -59.4841         151.422      -0.00967179         149.371
0.528                  -0.268256        -134.555         -59.3798         149.871         -59.3812         149.885       -0.0097519         149.304
0.529                  -0.272825        -135.076          -59.273         148.322         -59.2744         148.336      -0.00983277         149.237
0.53                   -0.277653        -135.603         -59.1624         146.761         -59.1637         146.775      -0.00991441         149.169
0.531                  -0.282758        -136.134         -59.0477         145.188         -59.0491         145.202      -0.00999684         149.101
0.532                  -0.288156        -136.671          -58.929         143.603         -58.9303         143.617       -0.0100801         149.033
0.533                  -0.293868        -137.213         -58.8062         142.007         -58.8075         142.021       -0.0101641         148.966
0.534                  -0.299915         -137.76         -58.6792           140.4         -58.6805         140.414       -0.0102489         148.898
0.535                  -0.306319        -138.313          -58.548         138.782         -58.5493         138.795       -0.0103346         148.829
0.536                  -0.313106        -138.872         -58.4125         137.153         -58.4138         137.166       -0.0104211         148.761
0.537                  -0.320301        -139.437         -58.2727         135.513         -58.2739         135.526       -0.0105085         148.693
0.538                  -0.327935        -140.008         -58.1285         133.863         -58.1297         133.875       -0.0105968         148.625
0.539                  -0.336039        -140.585         -57.9798         132.202         -57.9809         132.214        -0.010686         148.556
0.54                   -0.344647        -141.168         -57.8266         130.531         -57.8278         130.543        -0.010776         148.487
0.541                  -0.353797        -141.758         -57.6689          128.85           -57.67         128.861        -0.010867         148.419
0.542                   -0.36353        -142.355         -57.5067         127.159         -57.5077         127.169        -0.010959          148.35
0.543                  -0.373891        -142.959         -57.3398         125.457         -57.3408         125.468       -0.0110519         148.281
0.544                  -0.384929         -143.57         -57.1683         123.746         -57.1692         123.755       -0.0111458         148.212
0.545                  -0.396696        -144.189         -56.9921         122.024          -56.993         122.033       -0.0112407         148.143
0.546                  -0.409251        -144.814         -56.8112         120.291          -56.812           120.3       -0.0113367         148.074
0.547                  -0.422659        -145.448         -56.6255         118.548         -56.6262         118.556       -0.0114338         148.004
0.548                  -0.436989         -146.09          -56.435         116.794         -56.4357         116.802       -0.0115319         147.935
0.549                  -0.452318        -146.739         -56.2398         115.029         -56.2404         115.036       -0.0116313         147.865
0.55                    -0.46873        -147.397         -56.0397         113.252         -56.0402         113.258       -0.0117318         147.795
0.551                  -0.486318        -148.064         -55.8347         111.463         -55.8352         111.468       -0.0118336         147.726
0.552                  -0.505182        -148.739         -55.6249         109.661         -55.6253         109.666       -0.0119367         147.656
0.553                  -0.525436        -149.423         -55.4102         107.846         -55.4105          107.85       -0.0120411         147.585
0.554                    -0.5472        -150.115         -55.1906         106.016         -55.1908         106.019       -0.0121469         147.515
0.555                  -0.570609        -150.817          -54.966         104.171         -54.9662         104.174       -0.0122542         147.445
0.556                   -0.59581        -151.528         -54.7365         102.311         -54.7366         102.313        -0.012363         147.374
0.557                  -0.622966        -152.247          -54.502         100.433         -54.5021         100.434       -0.0124735         147.304
0.558                  -0.652254        -152.976         -54.2626         98.5364         -54.2626         98.5368       -0.0125857         147.233
0.559                  -0.683866        -153.713         -54.0183         96.6202         -54.0182         96.6199       -0.0126997         147.162
0.56                   -0.718016        -154.459          -53.769         94.6825         -53.7688         94.6816       -0.0128156         147.091
0.561                  -0.754934        -155.213         -53.5147         92.7218         -53.5145         92.7201       -0.0129335          147.02
0.562                  -0.794869        -155.974         -53.2556          90.736         -53.2553         90.7336       -0.0130537         146.949
0.563                  -0.838094        -156.742         -52.9916         88.7232         -52.9913         88.7201       -0.0131761         146.878
0.564                  -0.884897        -157.516         -52.7228         86.6809         -52.7225         86.6772        -0.013301         146.806
0.565                   -0.93559        -158.295         -52.4493         84.6068         -52.4489         84.6025       -0.0134285         146.734
0.566                  -0.990501        -159.077          -52.171         82.4982         -52.1706         82.4932       -0.0135588         146.663
0.567                   -1.04997         -159.86         -51.8883         80.3519         -51.8879         80.3464        -0.013692         146.591
0.568                   -1.11435        -160.641         -51.6012          78.165         -51.6008         78.1589       -0.0138285         146.519
0.569                     -1.184        -161.418         -51.3098         75.9338         -51.3094         75.9273       -0.0139683         146.446
0.57                    -1.25926        -162.188         -51.0145         73.6547         -51.0141         73.6478       -0.0141116         146.374
0.571                   -1.34045        -162.946         -50.7156         71.3238         -50.7152         71.3166       -0.0142588         146.302
0.572                   -1.42784        -163.686         -50.4132         68.9367         -50.4129         68.9293       -0.0144099         146.229
0.573                   -1.52165        -164.404          -50.108         66.4891         -50.1076         66.4815       -0.0145652         146.156
0.574                   -1.62198        -165.093         -49.8003         63.9761            -49.8         63.9685       -0.0147248         146.083
0.575                   -1.72879        -165.744         -49.4908         61.3931         -49.4906         61.3856       -0.0148889          146.01
0.576                   -1.84186         -166.35         -49.1803         58.7349         -49.1801         58.7278       -0.0150577         145.937
0.577                   -1.96072        -166.901         -48.8695         55.9967         -48.8694           55.99       -0.0152311         145.864
0.578                   -2.08462        -167.388         -48.5594         53.1735         -48.5594         53.1674       -0.0154092          145.79
0.579                   -2.21245        -167.801         -48.2514         50.2607         -48.2514         50.2554       -0.0155919         145.716
0.58                    -2.34272        -168.132         -47.9465         47.2539         -47.9466         47.2497       -0.0157793         145.643
0.581                    -2.4735        -168.371         -47.6465         44.1497         -47.6466         44.1467        -0.015971         145.569
0.582                   -2.60247        -168.515         -47.3529         40.9453          -47.353         40.9438       -0.0161668         145.495
0.583                   -2.72697        -168.559         -47.0678         37.6394         -47.0679         37.6395       -0.0163665          145.42
0.584                   -2.84404        -168.505         -46.7931          34.232         -46.7931         34.2339       -0.0165696         145.346
0.585                   -2.95067        -168.359          -46.531         30.7253          -46.531         30.7292       -0.0167757         145.272
0.586                   -3.04393        -168.131         -46.2839         27.1237         -46.2837         27.1297       -0.0169843         145.197
0.587                   -3.12127        -167.837         -46.0541         23.4342         -46.0537         23.4423       -0.0171949         145.122
0.588                   -3.18067        -167.496         -45.8438         19.6667         -45.8431         19.6769        -0.017407         145.047
0.589                    -3.2209        -167.132         -45.6552         15.8339         -45.6542         15.8461       -0.0176202         144.972
0.59                    -3.24157        -166.769         -45.4902         11.9515         -45.4888         11.9654        -0.017834         144.897
0.591                   -3.24318        -166.429         -45.3501         8.03771         -45.3483         8.05307        -0.018048         144.822
0.592                   -3.22702        -166.135         -45.2362         4.11275         -45.2339         4.12915       -0.0182618         144.746
0.593                   -3.19501        -165.905         -45.1489        0.198333         -45.1461         0.21531       -0.0184752         144.671
0.594                   -3.14948        -165.752         -45.0882        -3.68322         -45.0848        -3.66621        -0.018688         144.595
0.595                   -3.09302        -165.687         -45.0533        -7.50988         -45.0494        -7.49341       -0.0189001         144.519
0.596                    -3.0282        -165.714         -45.0431        -11.2607         -45.0387        -11.2453       -0.0191114         144.443
0.597                   -2.95749        -165.835         -45.0559        -14.9166          -45.051         -14.903        -0.019322         144.367
0.598                   -2.88313        -166.049         -45.0895        -18.4611         -45.0841        -18.4496        -0.019532          144.29
0.599                   -2.80705        -166.352         -45.1414        -21.8804         -45.1356        -21.8716       -0.0197414         144.213
0.6                     -2.73089         -166.74         -45.2089         -25.164         -45.2029        -25.1582       -0.0199505         144.137
0.601                   -2.65597        -167.207         -45.2893        -28.3043          -45.283        -28.3017       -0.0201594          144.06
0.602                   -2.58332        -167.745         -45.3798        -31.2967         -45.3734        -31.2976       -0.0203684         143.982
0.603                   -2.51374         -168.35         -45.4776        -34.1396         -45.4711        -34.1439       -0.0205777         143.905
0.604                   -2.44779        -169.014           -45.58        -36.8335         -45.5736        -36.8412       -0.0207876         143.827
0.605                   -2.38588        -169.732         -45.6846         -39.381         -45.6783         -39.392       -0.0209983         143.749
0.606                   -2.32827        -170.498          -45.789        -41.7868         -45.7831        -41.8007         -0.02121         143.671
0.607                   -2.27511        -171.309         -45.8913        -44.0566         -45.8856        -44.0732        -0.021423         143.593
0.608                   -2.22647        -172.159         -45.9894        -46.1975         -45.9842        -46.2164       -0.0216376         143.514
0.609                   -2.18235        -173.045         -46.0818        -48.2176         -46.0769        -48.2382       -0.0218539         143.436
0.61                    -2.14271        -173.963         -46.1668        -50.1255         -46.1624        -50.1473       -0.0220721         143.357
0.611                   -2.10749        -174.912         -46.2432        -51.9305         -46.2394         -51.953       -0.0222926         143.277
0.612                   -2.07661        -175.889           -46.31        -53.6422         -46.3067        -53.6648       -0.0225153         143.198
0.613                   -2.04997        -176.891         -46.3661        -55.2707         -46.3633        -55.2927       -0.0227407         143.118
0.614                   -2.02747        -177.918         -46.4108        -56.8259         -46.4086        -56.8468       -0.0229687         143.039
0.615                   -2.00902        -178.968         -46.4436        -58.3181         -46.4419        -58.3373       -0.0231996         142.958
0.616                   -1.99454          179.96          -46.464        -59.7576         -46.4628        -59.7745       -0.0234336         142.878
0.617                   -1.98395         178.867         -46.4718        -61.1542          -46.471        -61.1684       -0.0236708         142.797
0.618                   -1.97719         177.753         -46.4669        -62.5181         -46.4664        -62.5291       -0.0239112         142.717
0.619                   -1.97419          176.62         -46.4492        -63.8588          -46.449        -63.8662       -0.0241552         142.636
0.62                    -1.97492         175.466         -46.4191        -65.1856          -46.419        -65.1892       -0.0244027         142.554
0.621                   -1.97935         174.293         -46.3767        -66.5074         -46.3767         -66.507       -0.0246539         142.473
0.622                   -1.98749           173.1         -46.3224        -67.8327         -46.3225        -67.8281        -0.024909         142.391
0.623                   -1.99933         171.888          -46.257        -69.1693          -46.257        -69.1606        -0.025168         142.309
0.624                    -2.0149         170.656         -46.1808        -70.5245         -46.1807        -70.5117       -0.0254311         142.226
0.625                   -2.03424         169.403         -46.0947        -71.9049         -46.0943        -71.8882       -0.0256984         142.144
0.626                   -2.05741         168.131         -45.9995        -73.3164         -45.9988         -73.296         -0.02597         142.061
0.627                   -2.08449         166.838          -45.896        -74.7642         -45.8948        -74.7405        -0.026246         141.978
0.628                   -2.11556         165.523          -45.785        -76.2528         -45.7834        -76.2261       -0.0265265         141.894
0.629                   -2.15075         164.188         -45.6676        -77.7858         -45.6655        -77.7567       -0.0268117         141.811
