! TOUCHSTONE file generated by CST MICROWAVE STUDIO
! Date and time: Fri Dec 11 14:11:08 2020
! Project name: Scenario_1_Planar_Body_Tissue_Out_of_Line_v2.cst
! Parameters = {dy1=-69.2; L_HA=400; Ltissue=700; MT=2.54; Rad_Dielectric=30; Rad_Lower=7.3; Rad_Upper=30; Wtissue=700; a_HA=580; a_WG=246; b_HA=500; b_WG=121; c_HA=0; c_WG=187; d_feed=85; dx1=520; h_feed=15; h_lower=18; h_upper=40; hfat=3; hgap=25; hmuscle=50; hskin=1.5}
! Header version: 2018
! Port assignment regex: !\s*Touchstone port\s*([0-9]+)\s*=\s*(CST MWS port|CST DS port)\s*([0-9]+|Zmin|Zmax)\s*\(\"(.*)\"\)(\s*mode\s*([0-9]+))?.*
! Touchstone port assignment:
! Touchstone port 1 = CST MWS port 1 ("")
! Touchstone port 2 = CST MWS port 2 ("")
# GHz S DB R 50
0.5                   -0.0760069        -121.945         -61.4842        -48.9287         -61.4847        -48.9249      -0.00744404         151.146
0.501                 -0.0849695        -122.296          -60.792        -59.9033         -60.8788        -60.2198      -0.00717464         151.081
0.502                 -0.0938326        -122.649         -60.1312        -69.8572         -60.2839        -70.4435      -0.00689032         151.016
0.503                  -0.102598        -123.005         -59.5219        -78.8834          -59.724        -79.6744      -0.00659031         150.951
0.504                  -0.111268        -123.363         -58.9733        -87.0801         -59.2117        -88.0114      -0.00627415         150.887
0.505                  -0.119843        -123.724         -58.4869        -94.5383         -58.7513        -95.5541      -0.00594191         150.822
0.506                  -0.128328        -124.087         -58.0601        -101.339         -58.3422        -102.395      -0.00559446         150.757
0.507                  -0.136722        -124.453         -57.6877        -107.554         -57.9812        -108.616      -0.00523384         150.693
0.508                  -0.145028        -124.821         -57.3639        -113.246         -57.6633        -114.291       -0.0048638         150.629
0.509                  -0.153249        -125.191         -57.0822        -118.471         -57.3837        -119.482      -0.00449042         150.565
0.51                   -0.161386        -125.565         -56.8368         -123.28         -57.1372        -124.246      -0.00412286         150.502
0.511                  -0.169441        -125.941         -56.6223        -127.715         -56.9191        -128.632       -0.0037742         150.439
0.512                  -0.177417        -126.319          -56.434        -131.819         -56.7254        -132.682      -0.00346209         150.376
0.513                  -0.185315          -126.7         -56.2676        -135.625         -56.5523        -136.435      -0.00320897         150.314
0.514                  -0.193139        -127.084         -56.1198        -139.165         -56.3967        -139.923      -0.00304145         150.253
0.515                  -0.200889        -127.471         -55.9873        -142.467          -56.256        -143.176      -0.00298824         150.192
0.516                  -0.208569        -127.861         -55.8679        -145.557         -56.1278        -146.218      -0.00307634         150.131
0.517                  -0.216181        -128.253         -55.7593        -148.456         -56.0102        -149.073      -0.00332578          150.07
0.518                  -0.223727        -128.648         -55.6597        -151.184         -55.9016        -151.759      -0.00374388         150.009
0.519                  -0.231209        -129.046         -55.5677        -153.758         -55.8006        -154.295      -0.00432119         149.947
0.52                    -0.23863        -129.447          -55.482        -156.194          -55.706        -156.694      -0.00503096         149.884
0.521                  -0.245993        -129.851         -55.4015        -158.504         -55.6168        -158.972      -0.00583299          149.82
0.522                  -0.253299        -130.259         -55.3255        -160.702         -55.5322        -161.139      -0.00668089         149.755
0.523                  -0.260552        -130.669          -55.253        -162.798         -55.4515        -163.207         -0.00753         149.689
0.524                  -0.267755        -131.082         -55.1836        -164.801         -55.3741        -165.184      -0.00834359         149.622
0.525                   -0.27491        -131.499         -55.1167        -166.721         -55.2994         -167.08      -0.00909592         149.554
0.526                  -0.282019        -131.918         -55.0518        -168.564          -55.227        -168.901      -0.00977237         149.485
0.527                  -0.289086        -132.341         -54.9886        -170.338         -55.1566        -170.654       -0.0103676         149.416
0.528                  -0.296114        -132.767         -54.9267        -172.048         -55.0877        -172.346       -0.0108829         149.346
0.529                  -0.303106        -133.197         -54.8658        -173.701         -55.0202        -173.981        -0.011324         149.277
0.53                   -0.310064         -133.63         -54.8057          -175.3         -54.9537        -175.565       -0.0116986         149.207
0.531                  -0.316993        -134.066         -54.7462        -176.852         -54.8881        -177.101       -0.0120152         149.137
0.532                  -0.323895        -134.506         -54.6871        -178.359         -54.8231        -178.594       -0.0122823         149.066
0.533                  -0.330773         -134.95         -54.6283        -179.825         -54.7587         179.952       -0.0125078         148.996
0.534                  -0.337632        -135.397         -54.5696         178.745         -54.6945         178.535       -0.0126985         148.926
0.535                  -0.344475        -135.847         -54.5109         177.351         -54.6306         177.152       -0.0128604         148.856
0.536                  -0.351305        -136.302          -54.452         175.987         -54.5668         175.799       -0.0129989         148.786
0.537                  -0.358126         -136.76          -54.393         174.653          -54.503         174.474       -0.0131182         148.716
0.538                  -0.364943        -137.222         -54.3336         173.345         -54.4391         173.176       -0.0132219         148.646
0.539                  -0.371759        -137.688         -54.2739         172.062          -54.375         171.902       -0.0133132         148.576
0.54                   -0.378579        -138.158         -54.2138         170.802         -54.3107          170.65       -0.0133944         148.506
0.541                  -0.385407        -138.632         -54.1532         169.563          -54.246         169.418       -0.0134678         148.436
0.542                  -0.392248         -139.11         -54.0921         168.343          -54.181         168.205        -0.013535         148.365
0.543                  -0.399105        -139.592         -54.0303         167.141         -54.1156          167.01       -0.0135975         148.295
0.544                  -0.405985        -140.078          -53.968         165.955         -54.0496          165.83       -0.0136564         148.225
0.545                  -0.412892        -140.569          -53.905         164.784         -53.9832         164.665       -0.0137128         148.155
0.546                  -0.419831        -141.064         -53.8412         163.627         -53.9161         163.514       -0.0137674         148.084
0.547                  -0.426808        -141.564         -53.7767         162.482         -53.8485         162.375        -0.013821         148.014
0.548                  -0.433829        -142.068         -53.7115          161.35         -53.7802         161.248       -0.0138742         147.943
0.549                  -0.440899        -142.576         -53.6454         160.228         -53.7112         160.131       -0.0139274         147.873
0.55                   -0.448024         -143.09         -53.5785         159.116         -53.6415         159.023        -0.013981         147.802
0.551                  -0.455212        -143.608         -53.5107         158.013          -53.571         157.925       -0.0140353         147.732
0.552                  -0.462468        -144.131         -53.4421         156.918         -53.4998         156.834       -0.0140907         147.661
0.553                  -0.469799        -144.658         -53.3725          155.83         -53.4277         155.751       -0.0141474          147.59
0.554                  -0.477214        -145.191          -53.302         154.749         -53.3548         154.674       -0.0142056         147.519
0.555                  -0.484718        -145.729         -53.2306         153.674         -53.2811         153.602       -0.0142655         147.448
0.556                  -0.492321        -146.273         -53.1582         152.605         -53.2065         152.537       -0.0143271         147.377
0.557                   -0.50003        -146.821         -53.0848          151.54         -53.1309         151.475       -0.0143907         147.306
0.558                  -0.507854        -147.375         -53.0103          150.48         -53.0544         150.418       -0.0144564         147.235
0.559                  -0.515802        -147.935         -52.9349         149.423          -52.977         149.365       -0.0145242         147.163
0.56                   -0.523883          -148.5         -52.8584          148.37         -52.8986         148.314       -0.0145943         147.092
0.561                  -0.532108        -149.071         -52.7808         147.319         -52.8191         147.266       -0.0146666          147.02
0.562                  -0.540487        -149.648         -52.7021         146.271         -52.7387         146.221       -0.0147413         146.948
0.563                  -0.549031        -150.231         -52.6223         145.224         -52.6572         145.177       -0.0148184         146.877
0.564                   -0.55775         -150.82         -52.5414         144.179         -52.5747         144.134        -0.014898         146.805
0.565                  -0.566658        -151.415         -52.4593         143.134          -52.491         143.092         -0.01498         146.733
0.566                  -0.575766        -152.016         -52.3761         142.091         -52.4063          142.05       -0.0150646          146.66
0.567                  -0.585088        -152.624         -52.2917         141.047         -52.3204         141.009       -0.0151518         146.588
0.568                  -0.594638        -153.239         -52.2061         140.003         -52.2334         139.967       -0.0152415         146.516
0.569                  -0.604431        -153.861         -52.1193         138.959         -52.1452         138.925       -0.0153339         146.443
0.57                   -0.614481        -154.489         -52.0312         137.914         -52.0559         137.882        -0.015429          146.37
0.571                  -0.624806        -155.124         -51.9419         136.867         -51.9654         136.837       -0.0155267         146.298
0.572                  -0.635422        -155.767         -51.8514         135.819         -51.8736         135.791       -0.0156271         146.225
0.573                  -0.646347        -156.417         -51.7595         134.769         -51.7806         134.742       -0.0157302         146.152
0.574                  -0.657601        -157.075         -51.6664         133.717         -51.6863         133.692       -0.0158361         146.078
0.575                  -0.669204         -157.74          -51.572         132.662         -51.5908         132.638       -0.0159448         146.005
0.576                  -0.681177        -158.414         -51.4762         131.604          -51.494         131.582       -0.0160562         145.932
0.577                  -0.693543        -159.095         -51.3791         130.543         -51.3959         130.523       -0.0161704         145.858
0.578                  -0.706325        -159.785         -51.2806         129.479         -51.2965          129.46       -0.0162874         145.784
0.579                  -0.719548        -160.483         -51.1807          128.41         -51.1957         128.393       -0.0164072          145.71
0.58                    -0.73324         -161.19         -51.0795         127.338         -51.0936         127.322       -0.0165299         145.636
0.581                  -0.747429        -161.906         -50.9768         126.261         -50.9901         126.246       -0.0166555         145.562
0.582                  -0.762144         -162.63         -50.8728          125.18         -50.8852         125.166       -0.0167839         145.488
0.583                  -0.777418        -163.364         -50.7673         124.093         -50.7789         124.081       -0.0169153         145.413
0.584                  -0.793284        -164.108         -50.6603         123.001         -50.6712          122.99       -0.0170496         145.338
0.585                  -0.809778        -164.861         -50.5519         121.904         -50.5621         121.893       -0.0171868         145.264
0.586                  -0.826939        -165.625          -50.442           120.8         -50.4515         120.791        -0.017327         145.189
0.587                  -0.844806        -166.399         -50.3306         119.691         -50.3394         119.682       -0.0174702         145.113
0.588                  -0.863422        -167.183         -50.2177         118.574         -50.2259         118.566       -0.0176164         145.038
0.589                  -0.882835        -167.978         -50.1033         117.451         -50.1109         117.444       -0.0177656         144.963
0.59                   -0.903091        -168.784         -49.9874          116.32         -49.9944         116.314       -0.0179179         144.887
0.591                  -0.924244        -169.601           -49.87         115.182         -49.8764         115.176       -0.0180732         144.811
0.592                  -0.946348         -170.43          -49.751         114.036         -49.7569         114.031       -0.0182316         144.735
0.593                  -0.969463        -171.271         -49.6305         112.881         -49.6359         112.877       -0.0183932         144.659
0.594                  -0.993651        -172.124         -49.5084         111.718         -49.5133         111.715       -0.0185579         144.583
0.595                   -1.01898        -172.989         -49.3847         110.546         -49.3892         110.543       -0.0187257         144.506
0.596                   -1.04552        -173.867         -49.2595         109.364         -49.2635         109.362       -0.0188968          144.43
0.597                   -1.07335        -174.758         -49.1327         108.173         -49.1363         108.171       -0.0190711         144.353
0.598                   -1.10255        -175.663         -49.0044         106.972         -49.0076          106.97       -0.0192486         144.276
0.599                   -1.13321        -176.582         -48.8745         105.759         -48.8773         105.758       -0.0194294         144.199
0.6                     -1.16542        -177.514          -48.743         104.536         -48.7454         104.535       -0.0196136         144.121
0.601                   -1.19928        -178.461           -48.61         103.302         -48.6121         103.301       -0.0198011         144.044
0.602                    -1.2349        -179.423         -48.4754         102.055         -48.4771         102.055       -0.0199919         143.966
0.603                   -1.27239           179.6         -48.3392         100.796         -48.3407         100.796       -0.0201861         143.888
0.604                   -1.31188         178.608         -48.2016         99.5246         -48.2027         99.5246       -0.0203838          143.81
0.605                    -1.3535           177.6         -48.0624         98.2398         -48.0633           98.24        -0.020585         143.731
0.606                   -1.39738         176.576         -47.9217         96.9413         -47.9224         96.9416       -0.0207897         143.653
0.607                   -1.44368         175.535         -47.7795         95.6285           -47.78         95.6289       -0.0209979         143.574
0.608                   -1.49256         174.478         -47.6359          94.301         -47.6361         94.3015       -0.0212097         143.495
0.609                    -1.5442         173.404         -47.4909         92.9582         -47.4909         92.9588       -0.0214251         143.416
0.61                    -1.59877         172.312         -47.3445         91.5998         -47.3443         91.6003       -0.0216442         143.336
0.611                   -1.65648         171.203         -47.1967          90.225         -47.1963         90.2255        -0.021867         143.257
0.612                   -1.71755         170.076         -47.0477         88.8334         -47.0471         88.8339       -0.0220936         143.177
0.613                    -1.7822         168.931         -46.8973         87.4244         -46.8966         87.4249       -0.0223239         143.097
0.614                   -1.85067         167.768         -46.7458         85.9974          -46.745         85.9979        -0.022558         143.016
0.615                   -1.92323         166.586         -46.5931          84.552         -46.5922         84.5524       -0.0227961         142.936
0.616                   -2.00016         165.386         -46.4394         83.0875         -46.4383         83.0878        -0.023038         142.855
0.617                   -2.08176         164.168         -46.2847         81.6035         -46.2835         81.6036        -0.023284         142.774
0.618                   -2.16836         162.932          -46.129         80.0992         -46.1277         80.0992       -0.0235339         142.693
0.619                    -2.2603         161.677         -45.9726         78.5742         -45.9712          78.574        -0.023788         142.611
0.62                    -2.35795         160.405         -45.8154          77.028         -45.8139         77.0276       -0.0240462          142.53
0.621                   -2.46171         159.116         -45.6575         75.4599          -45.656         75.4593       -0.0243085         142.448
0.622                   -2.57199         157.809         -45.4992         73.8695         -45.4976         73.8688       -0.0245751         142.365
0.623                   -2.68925         156.487         -45.3405         72.2563         -45.3389         72.2554        -0.024846         142.283
0.624                   -2.81397          155.15         -45.1815         70.6198         -45.1799         70.6187       -0.0251212           142.2
0.625                   -2.94666         153.799         -45.0224         68.9597         -45.0208         68.9583       -0.0254009         142.117
0.626                   -3.08786         152.435         -44.8634         67.2754         -44.8617         67.2738        -0.025685         142.034
0.627                   -3.23815          151.06         -44.7046         65.5666         -44.7029         65.5649       -0.0259737         141.951
0.628                   -3.39813         149.677         -44.5461         63.8331         -44.5445         63.8312       -0.0262669         141.867
0.629                   -3.56846         148.288         -44.3882         62.0746         -44.3866         62.0726       -0.0265649         141.783
