! TOUCHSTONE file generated by CST MICROWAVE STUDIO
! Date and time: Sat Nov 14 20:36:54 2020
! Project name: Scenario_1_Planar_Body_Tissue_Out_of_Line_v2.cst
! Parameters = {dy1=51.9; L_HA=400; Ltissue=700; MT=2.54; Rad_Dielectric=30; Rad_Lower=7.3; Rad_Upper=30; Wtissue=700; a_HA=580; a_WG=246; b_HA=500; b_WG=121; c_HA=0; c_WG=187; d_feed=85; dx1=173; h_feed=15; h_lower=18; h_upper=40; hfat=3; hgap=25; hmuscle=50; hskin=1.5}
! Header version: 2018
! Port assignment regex: !\s*Touchstone port\s*([0-9]+)\s*=\s*(CST MWS port|CST DS port)\s*([0-9]+|Zmin|Zmax)\s*\(\"(.*)\"\)(\s*mode\s*([0-9]+))?.*
! Touchstone port assignment:
! Touchstone port 1 = CST MWS port 1 ("")
! Touchstone port 2 = CST MWS port 2 ("")
# GHz S DB R 50
0.5                    -0.043679        -121.762         -57.2129         131.328         -57.2127         131.329      -0.00715116         151.152
0.501                 -0.0442853        -122.207         -57.0378         130.677         -57.0376         130.678      -0.00719777         151.086
0.502                 -0.0449472        -122.655         -56.8606         130.024         -56.8603         130.025      -0.00724552         151.021
0.503                 -0.0456681        -123.106         -56.6813         129.368          -56.681          129.37      -0.00729442         150.955
0.504                 -0.0464517        -123.561         -56.4998          128.71         -56.4994         128.713      -0.00734447          150.89
0.505                 -0.0473023         -124.02          -56.316          128.05         -56.3157         128.053      -0.00739568         150.824
0.506                  -0.048224        -124.483           -56.13         127.387         -56.1296          127.39      -0.00744808         150.758
0.507                 -0.0492217        -124.949         -55.9417         126.722         -55.9413         126.725      -0.00750166         150.692
0.508                 -0.0503003         -125.42          -55.751         126.053         -55.7506         126.057      -0.00755643         150.626
0.509                 -0.0514654        -125.895          -55.558         125.382         -55.5575         125.386      -0.00761242          150.56
0.51                  -0.0527228        -126.374         -55.3625         124.707          -55.362         124.711      -0.00766963         150.494
0.511                 -0.0540789        -126.857         -55.1645         124.029          -55.164         124.033      -0.00772808         150.428
0.512                 -0.0555406        -127.345          -54.964         123.347         -54.9635         123.351      -0.00778777         150.362
0.513                 -0.0571153        -127.838         -54.7609          122.66         -54.7603         122.665      -0.00784873         150.295
0.514                 -0.0588111        -128.336         -54.5551          121.97         -54.5545         121.975      -0.00791097         150.229
0.515                 -0.0606369        -128.838         -54.3466         121.275          -54.346         121.281       -0.0079745         150.162
0.516                 -0.0626022        -129.346         -54.1353         120.576         -54.1348         120.581      -0.00803934         150.096
0.517                 -0.0647174        -129.859         -53.9213         119.871         -53.9207         119.877      -0.00810551         150.029
0.518                 -0.0669939        -130.377         -53.7043         119.161         -53.7037         119.167      -0.00817303         149.962
0.519                 -0.0694439        -130.902         -53.4843         118.445         -53.4837         118.451      -0.00824191         149.895
0.52                  -0.0720812        -131.432         -53.2614         117.723         -53.2607          117.73      -0.00831218         149.828
0.521                 -0.0749204        -131.968         -53.0353         116.995         -53.0346         117.001      -0.00838385         149.761
0.522                 -0.0779777         -132.51          -52.806         116.259         -52.8053         116.266      -0.00845696         149.694
0.523                 -0.0812711        -133.059         -52.5734         115.516         -52.5727         115.523      -0.00853152         149.627
0.524                   -0.08482        -133.615         -52.3375         114.766         -52.3368         114.773      -0.00860757          149.56
0.525                  -0.088646        -134.178         -52.0982         114.006         -52.0975         114.013      -0.00868513         149.492
0.526                 -0.0927727        -134.748         -51.8553         113.238         -51.8546         113.245      -0.00876422         149.425
0.527                 -0.0972265        -135.326         -51.6088         112.461         -51.6081         112.468       -0.0088449         149.357
0.528                  -0.102036        -135.911         -51.3586         111.673         -51.3578          111.68      -0.00892718         149.289
0.529                  -0.107234        -136.506         -51.1045         110.874         -51.1037         110.881      -0.00901111         149.221
0.53                   -0.112856        -137.108         -50.8465         110.063         -50.8457         110.071      -0.00909673         149.153
0.531                  -0.118941         -137.72         -50.5844          109.24         -50.5836         109.248      -0.00918409         149.085
0.532                  -0.125533        -138.342         -50.3181         108.404         -50.3173         108.411      -0.00927323         149.017
0.533                  -0.132682        -138.973         -50.0476         107.553         -50.0468          107.56       -0.0093642         148.949
0.534                  -0.140443        -139.615         -49.7726         106.687         -49.7718         106.694      -0.00945707         148.881
0.535                  -0.148877        -140.268         -49.4931         105.804         -49.4923         105.812       -0.0095519         148.812
0.536                  -0.158053        -140.932         -49.2089         104.904          -49.208         104.912      -0.00964875         148.744
0.537                   -0.16805        -141.608         -48.9198         103.985         -48.9189         103.993      -0.00974771         148.675
0.538                  -0.178954        -142.297         -48.6257         103.046         -48.6248         103.053      -0.00984886         148.606
0.539                  -0.190865            -143         -48.3265         102.084         -48.3256         102.092       -0.0099523         148.537
0.54                   -0.203895        -143.717         -48.0219         101.099         -48.0211         101.107       -0.0100581         148.468
0.541                  -0.218171        -144.448         -47.7119         100.089          -47.711         100.096       -0.0101665         148.399
0.542                  -0.233838        -145.196         -47.3963         99.0509         -47.3954         99.0578       -0.0102774          148.33
0.543                   -0.25106         -145.96         -47.0748         97.9832         -47.0739         97.9899       -0.0103912         148.261
0.544                  -0.270026        -146.742         -46.7473         96.8833         -46.7464         96.8899       -0.0105078         148.191
0.545                  -0.290952        -147.542         -46.4136         95.7485         -46.4127         95.7549       -0.0106276         148.122
0.546                  -0.314085        -148.362         -46.0736          94.576         -46.0727         94.5822       -0.0107508         148.052
0.547                  -0.339712        -149.203         -45.7271         93.3624         -45.7262         93.3684       -0.0108775         147.982
0.548                  -0.368161        -150.066         -45.3739         92.1041         -45.3729           92.11        -0.011008         147.912
0.549                  -0.399813        -150.953         -45.0138         90.7973         -45.0128         90.8029       -0.0111426         147.842
0.55                   -0.435112        -151.864         -44.6467         89.4375         -44.6457         89.4429       -0.0112818         147.772
0.551                   -0.47457        -152.801         -44.2724         88.0199         -44.2715          88.025       -0.0114257         147.701
0.552                  -0.518786        -153.765         -43.8909         86.5391           -43.89          86.544       -0.0115749         147.631
0.553                  -0.568459        -154.758         -43.5021         84.9893         -43.5012         84.9939       -0.0117299          147.56
0.554                  -0.624406         -155.78          -43.106         83.3638         -43.1051         83.3681       -0.0118913          147.49
0.555                  -0.687583        -156.833         -42.7026         81.6555         -42.7017         81.6595       -0.0120597         147.419
0.556                  -0.759111        -157.916         -42.2921         79.8563         -42.2912           79.86       -0.0122359         147.348
0.557                  -0.840301        -159.031         -41.8746         77.9576         -41.8738         77.9609       -0.0124207         147.276
0.558                   -0.93269        -160.175         -41.4506         75.9496         -41.4498         75.9526       -0.0126152         147.205
0.559                   -1.03807        -161.347         -41.0206         73.8219         -41.0198         73.8246       -0.0128204         147.133
0.56                    -1.15852        -162.542         -40.5853         71.5631         -40.5846         71.5655       -0.0130377         147.062
0.561                   -1.29644        -163.756         -40.1458         69.1613         -40.1451         69.1633       -0.0132686          146.99
0.562                   -1.45458        -164.978         -39.7034         66.6035         -39.7027         66.6052       -0.0135147         146.918
0.563                   -1.63601        -166.195         -39.2597         63.8766         -39.2591          63.878       -0.0137778         146.846
0.564                   -1.84409        -167.385          -38.817         60.9674         -38.8165         60.9684       -0.0140602         146.774
0.565                   -2.08235        -168.523          -38.378         57.8631         -38.3775         57.8638       -0.0143639         146.701
0.566                   -2.35423        -169.568         -37.9459         54.5522         -37.9455         54.5527       -0.0146913         146.629
0.567                   -2.66266         -170.47         -37.5247         51.0256         -37.5244         51.0258       -0.0150448         146.556
0.568                   -3.00935        -171.161         -37.1189         47.2774         -37.1187         47.2775       -0.0154267         146.484
0.569                   -3.39366        -171.557         -36.7337         43.3072         -36.7335         43.3072       -0.0158386         146.411
0.57                    -3.81106        -171.558         -36.3746         39.1207         -36.3745         39.1208       -0.0162817         146.339
0.571                   -4.25113        -171.052         -36.0474         34.7321         -36.0474         34.7322       -0.0167557         146.266
0.572                   -4.69547        -169.935         -35.7579         30.1642          -35.758         30.1645       -0.0172586         146.194
0.573                    -5.1165        -168.134         -35.5111         25.4496         -35.5113         25.4503       -0.0177856         146.121
0.574                   -5.47878        -165.648         -35.3113         20.6295         -35.3116         20.6305       -0.0183291         146.049
0.575                   -5.74462        -162.582         -35.1613         15.7519         -35.1616         15.7533       -0.0188775         145.978
0.576                   -5.88389         -159.16         -35.0622         10.8686         -35.0625         10.8705        -0.019416         145.906
0.577                   -5.88417        -155.685         -35.0131         6.03197         -35.0135         6.03441       -0.0199273         145.835
0.578                   -5.75504         -152.46         -35.0116           1.291          -35.012         1.29394       -0.0203933         145.764
0.579                   -5.52348        -149.713         -35.0538         -3.3117         -35.0541         -3.3083       -0.0207974         145.693
0.58                    -5.22387         -147.56         -35.1344        -7.74195         -35.1348        -7.73815       -0.0211275         145.623
0.581                   -4.88881        -146.014          -35.248         -11.975         -35.2484        -11.9708       -0.0213773         145.552
0.582                   -4.54391        -145.025         -35.3887        -15.9952          -35.389        -15.9908       -0.0215478         145.481
0.583                   -4.20678         -144.51         -35.5508        -19.7953          -35.551        -19.7907       -0.0216459          145.41
0.584                   -3.88804        -144.382          -35.729        -23.3749         -35.7292        -23.3702       -0.0216834         145.339
0.585                   -3.59319        -144.557         -35.9187        -26.7389         -35.9188        -26.7341       -0.0216743         145.267
0.586                   -3.32432        -144.965         -36.1158         -29.896         -36.1158        -29.8913        -0.021633         145.194
0.587                   -3.08137        -145.551         -36.3168        -32.8575         -36.3168        -32.8528       -0.0215727         145.121
0.588                    -2.8631        -146.268          -36.519        -35.6359          -36.519        -35.6314       -0.0215046         145.048
0.589                   -2.66766        -147.083         -36.7201        -38.2447           -36.72        -38.2403       -0.0214372         144.974
0.59                    -2.49295         -147.97         -36.9182        -40.6971         -36.9181        -40.6929       -0.0213773         144.899
0.591                   -2.33687        -148.908         -37.1119         -43.006         -37.1118        -43.0021        -0.021329         144.824
0.592                    -2.1974        -149.882         -37.3002         -45.184            -37.3        -45.1802       -0.0212954         144.749
0.593                   -2.07269        -150.882         -37.4821        -47.2425          -37.482         -47.239        -0.021278         144.674
0.594                   -1.96106        -151.899         -37.6572        -49.1923         -37.6571        -49.1891       -0.0212776         144.598
0.595                   -1.86101        -152.928          -37.825        -51.0434         -37.8249        -51.0405       -0.0212941         144.522
0.596                   -1.77125        -153.963         -37.9852        -52.8048         -37.9851        -52.8022       -0.0213272         144.446
0.597                   -1.69061        -155.003         -38.1377        -54.4849         -38.1375        -54.4825       -0.0213763         144.369
0.598                   -1.61807        -156.044         -38.2823        -56.0911         -38.2822         -56.089       -0.0214408         144.292
0.599                   -1.55276        -157.086         -38.4191        -57.6304          -38.419        -57.6286       -0.0215196         144.215
0.6                     -1.49391        -158.128         -38.5481         -59.109         -38.5479        -59.1075       -0.0216121         144.138
0.601                   -1.44084        -159.168         -38.6693        -60.5326         -38.6692        -60.5314       -0.0217173          144.06
0.602                   -1.39296        -160.207         -38.7829        -61.9064         -38.7828        -61.9054       -0.0218345         143.983
0.603                   -1.34977        -161.245          -38.889        -63.2351         -38.8889        -63.2343        -0.021963         143.905
0.604                   -1.31082        -162.282         -38.9877         -64.523         -38.9876        -64.5225       -0.0221021         143.827
0.605                   -1.27571        -163.319         -39.0792        -65.7742         -39.0792        -65.7738       -0.0222511         143.749
0.606                   -1.24409        -164.355         -39.1637        -66.9922         -39.1637        -66.9921       -0.0224095          143.67
0.607                   -1.21568        -165.391         -39.2412        -68.1805         -39.2412        -68.1805       -0.0225769         143.591
0.608                   -1.19019        -166.428          -39.312        -69.3422         -39.3121        -69.3424       -0.0227526         143.513
0.609                   -1.16741        -167.466         -39.3763        -70.4803         -39.3764        -70.4806       -0.0229364         143.433
0.61                    -1.14711        -168.506         -39.4342        -71.5974         -39.4344        -71.5978       -0.0231279         143.354
0.611                   -1.12913        -169.548         -39.4859        -72.6963         -39.4861        -72.6967       -0.0233267         143.275
0.612                    -1.1133        -170.593         -39.5315        -73.7793         -39.5318        -73.7797       -0.0235326         143.195
0.613                   -1.09948        -171.642         -39.5713        -74.8488         -39.5716        -74.8492       -0.0237453         143.115
0.614                   -1.08755        -172.694         -39.6055         -75.907         -39.6058        -75.9073       -0.0239646         143.035
0.615                    -1.0774        -173.751         -39.6342        -76.9561         -39.6345        -76.9563       -0.0241903         142.954
0.616                   -1.06894        -174.814         -39.6576         -77.998          -39.658        -77.9981       -0.0244222         142.874
0.617                   -1.06207        -175.882          -39.676        -79.0349         -39.6764        -79.0348       -0.0246602         142.793
0.618                   -1.05674        -176.956         -39.6895        -80.0686           -39.69        -80.0682       -0.0249041         142.712
0.619                   -1.05287        -178.038         -39.6986        -81.1008         -39.6991        -81.1001       -0.0251539         142.631
0.62                    -1.05042        -179.127         -39.7033        -82.1333         -39.7039        -82.1322       -0.0254094         142.549
0.621                   -1.04933         179.776         -39.7042        -83.1674         -39.7047        -83.1659       -0.0256706         142.467
0.622                   -1.04957         178.671         -39.7013        -84.2045         -39.7019        -84.2025       -0.0259373         142.385
0.623                    -1.0511         177.556         -39.6953        -85.2455         -39.6958        -85.2431       -0.0262096         142.303
0.624                   -1.05391         176.431         -39.6864         -86.291         -39.6869        -86.2882       -0.0264873         142.221
0.625                   -1.05796         175.296         -39.6751        -87.3413         -39.6755        -87.3381       -0.0267704         142.138
0.626                   -1.06325          174.15         -39.6618        -88.3958         -39.6622        -88.3922        -0.027059         142.055
0.627                   -1.06977         172.993         -39.6468        -89.4535         -39.6472        -89.4496       -0.0273529         141.972
0.628                   -1.07751         171.823         -39.6307        -90.5127          -39.631        -90.5087       -0.0276522         141.888
0.629                   -1.08647         170.641         -39.6137         -91.571         -39.6138        -91.5669       -0.0279568         141.805
