! TOUCHSTONE file generated by CST MICROWAVE STUDIO
! Date and time: Sat Nov 14 20:00:39 2020
! Project name: Scenario_1_Planar_Body_Tissue_Out_of_Line.cst
! Parameters = {dy1=51.9; L_HA=400; Ltissue=700; MT=2.54; Rad_Dielectric=30; Rad_Lower=7.3; Rad_Upper=30; Wtissue=700; a_HA=580; a_WG=246; b_HA=500; b_WG=121; c_HA=0; c_WG=187; d_feed=85; dx1=693; h_feed=15; h_lower=18; h_upper=40; hfat=3; hgap=25; hmuscle=50; hskin=1.5}
! Header version: 2018
! Port assignment regex: !\s*Touchstone port\s*([0-9]+)\s*=\s*(CST MWS port|CST DS port)\s*([0-9]+|Zmin|Zmax)\s*\(\"(.*)\"\)(\s*mode\s*([0-9]+))?.*
! Touchstone port assignment:
! Touchstone port 1 = CST MWS port 1 ("")
! Touchstone port 2 = CST MWS port 2 ("")
# GHz S DB R 50
0.5                    -0.208796        -121.519         -60.8141        -171.065         -60.8147        -171.065      -0.00779323         151.138
0.501                  -0.209735        -121.944         -60.8675        -171.286         -60.8714        -170.753      -0.00785035         151.073
0.502                  -0.210743        -122.371         -60.9193        -171.535         -60.9266        -170.471      -0.00790824         151.008
0.503                  -0.211823        -122.801         -60.9694        -171.811         -60.9804         -170.22      -0.00796693         150.942
0.504                  -0.212978        -123.234         -61.0178        -172.118         -61.0327        -170.003       -0.0080264         150.877
0.505                  -0.214211         -123.67         -61.0644        -172.456         -61.0836        -169.822      -0.00808668         150.811
0.506                  -0.215523        -124.108         -61.1091        -172.827         -61.1331         -169.68      -0.00814775         150.746
0.507                  -0.216919         -124.55         -61.1517        -173.232         -61.1812        -169.578      -0.00820964          150.68
0.508                  -0.218403        -124.994         -61.1922        -173.674          -61.228         -169.52      -0.00827234         150.614
0.509                  -0.219976        -125.441         -61.2304        -174.153         -61.2735        -169.507      -0.00833586         150.548
0.51                   -0.221644        -125.892         -61.2663        -174.672         -61.3175        -169.543      -0.00840021         150.482
0.511                   -0.22341        -126.345         -61.2995        -175.232         -61.3603         -169.63      -0.00846539         150.416
0.512                  -0.225279        -126.802           -61.33        -175.835         -61.4016        -169.772      -0.00853141          150.35
0.513                  -0.227254        -127.262         -61.3576        -176.483         -61.4415         -169.97      -0.00859827         150.284
0.514                  -0.229342        -127.726         -61.3821        -177.177         -61.4799        -170.228      -0.00866598         150.218
0.515                  -0.231546        -128.192         -61.4033        -177.919         -61.5166        -170.549      -0.00873455         150.152
0.516                  -0.233874        -128.663         -61.4208        -178.711         -61.5517        -170.936      -0.00880399         150.085
0.517                  -0.236329        -129.136         -61.4345        -179.554         -61.5849        -171.392       -0.0088743         150.019
0.518                   -0.23892        -129.614         -61.4441         179.549          -61.616        -171.921      -0.00894548         149.952
0.519                  -0.241651        -130.095         -61.4493         178.598         -61.6448        -172.526      -0.00901754         149.885
0.52                   -0.244531         -130.58         -61.4496         177.591         -61.6711         -173.21       -0.0090905         149.819
0.521                  -0.247567        -131.069         -61.4448         176.527         -61.6944        -173.976      -0.00916435         149.752
0.522                  -0.250768        -131.562         -61.4346         175.403         -61.7145        -174.828      -0.00923911         149.685
0.523                  -0.254141        -132.058         -61.4184          174.22         -61.7308        -175.769      -0.00931478         149.618
0.524                  -0.257697         -132.56         -61.3958         172.977         -61.7429        -176.802      -0.00939137         149.551
0.525                  -0.261445        -133.065         -61.3665         171.672         -61.7501         -177.93      -0.00946888         149.483
0.526                  -0.265397        -133.575         -61.3299         170.306         -61.7518        -179.156      -0.00954733         149.416
0.527                  -0.269564        -134.089         -61.2856         168.878         -61.7472         179.518      -0.00962671         149.349
0.528                  -0.273958        -134.607          -61.233         167.388         -61.7356          178.09      -0.00970705         149.281
0.529                  -0.278594        -135.131         -61.1718         165.837          -61.716         176.558      -0.00978834         149.214
0.53                   -0.283485        -135.659         -61.1013         164.225         -61.6875         174.921      -0.00987059         149.146
0.531                  -0.288647        -136.193         -61.0211         162.554         -61.6491          173.18      -0.00995382         149.078
0.532                  -0.294099        -136.731         -60.9306         160.825         -61.5997         171.334        -0.010038          149.01
0.533                  -0.299857        -137.274         -60.8296          159.04         -61.5382         169.386       -0.0101232         148.942
0.534                  -0.305941        -137.823         -60.7174         157.201         -61.4634         167.337       -0.0102094         148.874
0.535                  -0.312374        -138.378         -60.5938          155.31         -61.3744         165.192       -0.0102966         148.806
0.536                  -0.319179        -138.938         -60.4583         153.371           -61.27         162.955       -0.0103848         148.738
0.537                  -0.326382        -139.504         -60.3107         151.385         -61.1493         160.631        -0.010474          148.67
0.538                  -0.334009        -140.076         -60.1507         149.357         -61.0114         158.228       -0.0105643         148.601
0.539                  -0.342091        -140.654         -59.9781          147.29         -60.8556         155.752       -0.0106556         148.532
0.54                    -0.35066        -141.239         -59.7929         145.187         -60.6812         153.213       -0.0107479         148.464
0.541                  -0.359753         -141.83         -59.5951         143.052         -60.4878         150.618       -0.0108413         148.395
0.542                  -0.369409        -142.428         -59.3846         140.888         -60.2754         147.978       -0.0109358         148.326
0.543                  -0.379669        -143.032         -59.1616           138.7         -60.0439         145.302       -0.0110313         148.257
0.544                  -0.390582        -143.644         -58.9262         136.489         -59.7936         142.598        -0.011128         148.188
0.545                  -0.402196        -144.263         -58.6788          134.26          -59.525         139.876       -0.0112257         148.119
0.546                  -0.414569         -144.89         -58.4197         132.014         -59.2386         137.144       -0.0113246         148.049
0.547                  -0.427762        -145.524         -58.1493         129.755         -58.9354         134.409       -0.0114245          147.98
0.548                  -0.441842        -146.167         -57.8681         127.484         -58.6163         131.678       -0.0115256          147.91
0.549                  -0.456883        -146.817         -57.5764         125.203         -58.2824         128.955       -0.0116279         147.841
0.55                   -0.472966        -147.476          -57.275         122.913          -57.935         126.245       -0.0117313         147.771
0.551                  -0.490181        -148.144         -56.9643         120.615         -57.5753          123.55       -0.0118359         147.701
0.552                  -0.508627         -148.82         -56.6449          118.31         -57.2045         120.872       -0.0119417         147.631
0.553                  -0.528412        -149.505         -56.3176         115.996          -56.824         118.212       -0.0120487         147.561
0.554                  -0.549655        -150.199          -55.983         113.674         -56.4351          115.57        -0.012157         147.491
0.555                  -0.572489        -150.903         -55.6417         111.343         -56.0391         112.943       -0.0122665          147.42
0.556                   -0.59706        -151.616         -55.2944         109.001         -55.6372          110.33       -0.0123773          147.35
0.557                  -0.623528        -152.338         -54.9418         106.646         -55.2307         107.727       -0.0124894         147.279
0.558                   -0.65207         -153.07         -54.5847         104.277         -54.8206         105.132       -0.0126028         147.208
0.559                  -0.682881        -153.811         -54.2236         101.891         -54.4081         102.541       -0.0127177         147.138
0.56                   -0.716176        -154.561         -53.8595         99.4859         -53.9944         99.9493       -0.0128339         147.066
0.561                  -0.752191        -155.321         -53.4929         97.0583         -53.5804         97.3523       -0.0129517         146.995
0.562                  -0.791182        -156.089         -53.1247         94.6055         -53.1672         94.7456       -0.0130709         146.924
0.563                  -0.833433        -156.865         -52.7557         92.1246         -52.7559         92.1246       -0.0131918         146.853
0.564                  -0.879251        -157.648         -52.3866         89.6124         -52.3473         89.4847       -0.0133143         146.781
0.565                  -0.928967        -158.437         -52.0182         87.0658         -51.9426         86.8214       -0.0134386         146.709
0.566                  -0.982937        -159.231         -51.6515          84.482         -51.5426         84.1308       -0.0135648         146.638
0.567                   -1.04154        -160.028         -51.2872         81.8579         -51.1485         81.4087        -0.013693         146.566
0.568                   -1.10518        -160.827         -50.9264         79.1911         -50.7612         78.6518       -0.0138233         146.493
0.569                   -1.17427        -161.623           -50.57         76.4791         -50.3816         75.8572        -0.013956         146.421
0.57                    -1.24923        -162.414         -50.2189         73.7201          -50.011         73.0224       -0.0140912         146.349
0.571                   -1.33047        -163.196         -49.8742         70.9125         -49.6502         70.1459       -0.0142293         146.276
0.572                   -1.41837        -163.963         -49.5369         68.0553         -49.3002         67.2265       -0.0143704         146.203
0.573                   -1.51326        -164.711         -49.2081         65.1484         -48.9622         64.2642       -0.0145149         146.131
0.574                   -1.61541        -165.431         -48.8889          62.192         -48.6372         61.2598       -0.0146633         146.057
0.575                   -1.72492        -166.116         -48.5802         59.1874         -48.3259         58.2148       -0.0148159         145.984
0.576                   -1.84173        -166.756         -48.2832         56.1366         -48.0295         55.1319       -0.0149733         145.911
0.577                   -1.96555        -167.341         -47.9989         53.0424         -47.7486         52.0144        -0.015136         145.837
0.578                   -2.09576         -167.86         -47.7281         49.9087          -47.484         48.8667       -0.0153046         145.764
0.579                   -2.23134        -168.302         -47.4718         46.7399         -47.2363          45.694       -0.0154796          145.69
0.58                    -2.37083        -168.654         -47.2307         43.5415          -47.006          42.502       -0.0156617         145.616
0.581                   -2.51223        -168.906         -47.0055         40.3196         -46.7935         39.2971       -0.0158513         145.542
0.582                   -2.65301        -169.049         -46.7966         37.0809         -46.5988         36.0862       -0.0160488         145.467
0.583                   -2.79012        -169.078         -46.6044         33.8327          -46.422         32.8762       -0.0162543         145.393
0.584                   -2.92009         -168.99          -46.429         30.5822          -46.263         29.6741       -0.0164677         145.319
0.585                   -3.03919        -168.791         -46.2704         27.3373         -46.1214          26.487       -0.0166885         145.244
0.586                   -3.14374        -168.492         -46.1285         24.1052         -45.9967         23.3214       -0.0169158         145.169
0.587                   -3.23036        -168.108         -46.0029         20.8933         -45.8883         20.1836       -0.0171483         145.094
0.588                   -3.29632        -167.665         -45.8931         17.7085         -45.7955         17.0793       -0.0173845         145.019
0.589                   -3.33987        -167.188         -45.7986          14.557         -45.7174         14.0133       -0.0176226         144.944
0.59                    -3.36035        -166.709         -45.7185         11.4444         -45.6531         10.9899       -0.0178609         144.869
0.591                   -3.35828        -166.257         -45.6519         8.37561         -45.6016         8.01263       -0.0180975         144.793
0.592                   -3.33525        -165.858         -45.5981         5.35473         -45.5619         5.08419       -0.0183313         144.718
0.593                   -3.29372        -165.536          -45.556         2.38499          -45.533         2.20652       -0.0185612         144.642
0.594                   -3.23667        -165.306         -45.5247       -0.531146         -45.5138       -0.619123       -0.0187866         144.566
0.595                   -3.16737        -165.181         -45.5031        -3.39201         -45.5033        -3.39215       -0.0190075          144.49
0.596                   -3.08907        -165.166         -45.4903        -6.19666         -45.5006        -6.11255        -0.019224         144.414
0.597                   -3.00479        -165.261         -45.4852         -8.9448         -45.5046        -8.78086       -0.0194365         144.338
0.598                   -2.91724        -165.463          -45.487        -11.6367         -45.5146         -11.398       -0.0196459         144.261
0.599                   -2.82869        -165.768         -45.4947        -14.2733         -45.5295        -13.9654       -0.0198527         144.185
0.6                     -2.74098        -166.167         -45.5075        -16.8557         -45.5487        -16.4847       -0.0200577         144.108
0.601                   -2.65557        -166.652         -45.5246        -19.3856         -45.5714        -18.9577       -0.0202618         144.031
0.602                   -2.57354        -167.216         -45.5453        -21.8649         -45.5969        -21.3866       -0.0204655         143.953
0.603                   -2.49567         -167.85         -45.5689        -24.2958         -45.6245        -23.7735       -0.0206696         143.876
0.604                   -2.42249        -168.547         -45.5947        -26.6805         -45.6537        -26.1208       -0.0208745         143.798
0.605                   -2.35432        -169.299         -45.6222        -29.0215         -45.6839        -28.4308       -0.0210807          143.72
0.606                   -2.29135        -170.101         -45.6508        -31.3212         -45.7148        -30.7058       -0.0212887         143.642
0.607                   -2.23363        -170.947         -45.6801        -33.5823         -45.7457        -32.9481       -0.0214988         143.563
0.608                   -2.18113        -171.832         -45.7096        -35.8072         -45.7763        -35.1602       -0.0217113         143.485
0.609                   -2.13378        -172.752         -45.7389        -37.9984         -45.8063        -37.3441       -0.0219264         143.406
0.61                    -2.09145        -173.704         -45.7677        -40.1585         -45.8353        -39.5021       -0.0221444         143.327
0.611                   -2.05399        -174.685         -45.7956        -42.2898         -45.8631        -41.6363       -0.0223654         143.247
0.612                   -2.02126        -175.692         -45.8224        -44.3947         -45.8893        -43.7486       -0.0225895         143.168
0.613                    -1.9931        -176.724         -45.8477        -46.4753         -45.9137         -45.841        -0.022817         143.088
0.614                   -1.96936        -177.779         -45.8714        -48.5339         -45.9361        -47.9152       -0.0230479         143.008
0.615                    -1.9499        -178.855         -45.8932        -50.5725         -45.9563        -49.9729       -0.0232824         142.928
0.616                   -1.93459        -179.952         -45.9129         -52.593         -45.9741        -52.0158       -0.0235204         142.847
0.617                    -1.9233         178.931         -45.9304        -54.5973         -45.9894        -54.0453       -0.0237622         142.767
0.618                   -1.91596         177.794         -45.9455        -56.5871          -46.002        -56.0628       -0.0240077         142.686
0.619                   -1.91247         176.639          -45.958         -58.564         -46.0119        -58.0697        -0.024257         142.604
0.62                    -1.91277         175.465         -45.9679        -60.5296         -46.0188        -60.0671       -0.0245103         142.523
0.621                   -1.91682         174.271         -45.9751        -62.4853         -46.0228        -62.0561       -0.0247676         142.441
0.622                   -1.92459         173.059         -45.9793        -64.4324         -46.0237        -64.0379       -0.0250289         142.359
0.623                   -1.93607         171.828         -45.9806        -66.3722         -46.0215        -66.0133       -0.0252943         142.277
0.624                   -1.95128         170.577         -45.9789        -68.3057         -46.0161        -67.9832       -0.0255639         142.194
0.625                   -1.97025         169.307         -45.9741        -70.2342         -46.0075        -69.9485       -0.0258378         142.112
0.626                   -1.99302         168.017         -45.9662        -72.1585         -45.9956        -71.9099       -0.0261159         142.029
0.627                   -2.01966         166.706         -45.9551        -74.0795         -45.9804         -73.868       -0.0263985         141.945
0.628                   -2.05027         165.374         -45.9408        -75.9982          -45.962        -75.8235       -0.0266855         141.862
0.629                   -2.08495          164.02         -45.9232        -77.9152         -45.9403         -77.777        -0.026977         141.778
