! TOUCHSTONE file generated by CST MICROWAVE STUDIO
! Date and time: Thu Feb 11 19:33:15 2021
! Project name: Scenario_1_Planar_Body_Tissue_Out_of_Line.cst
! Parameters = {L_HA=400; Ltissue=1000; MT=2.54; Rad_Dielectric=30; Rad_Lower=7.3; Rad_Upper=30; Wtissue=1000; a_HA=580; a_WG=246; b_HA=500; b_WG=121; c_HA=0; c_WG=187; d_feed=85; dx1=346; dy1=-34.6; h_feed=15; h_lower=18; h_upper=40; hfat=3; hgap=25; hmuscle=50; hskin=1.5}
! Header version: 2018
! Port assignment regex: !\s*Touchstone port\s*([0-9]+)\s*=\s*(CST MWS port|CST DS port)\s*([0-9]+|Zmin|Zmax)\s*\(\"(.*)\"\)(\s*mode\s*([0-9]+))?.*
! Touchstone port assignment:
! Touchstone port 1 = CST MWS port 1 ("")
! Touchstone port 2 = CST MWS port 2 ("")
# GHz S DB R 50
0.5                    -0.269832        -121.505         -55.4653         35.0603         -55.4648         35.0602      -0.00800335         151.149
0.501                  -0.272024        -121.913         -55.5392         33.6029         -55.5385         33.6031      -0.00806513         151.084
0.502                  -0.274219        -122.324         -55.6073         32.1241         -55.6064         32.1245      -0.00812739         151.018
0.503                  -0.276417        -122.736         -55.6694         30.6252         -55.6683         30.6259      -0.00819013         150.953
0.504                   -0.27862        -123.151         -55.7255         29.1076         -55.7243         29.1087      -0.00825336         150.888
0.505                   -0.28083        -123.568         -55.7755         27.5728         -55.7741         27.5744       -0.0083171         150.823
0.506                  -0.283046        -123.987         -55.8192         26.0223         -55.8177         26.0244      -0.00838133         150.757
0.507                   -0.28527        -124.409         -55.8567         24.4579          -55.855         24.4605      -0.00844607         150.692
0.508                  -0.287504        -124.833         -55.8877          22.881         -55.8859         22.8842      -0.00851133         150.626
0.509                  -0.289749         -125.26         -55.9124         21.2933         -55.9105         21.2971       -0.0085771          150.56
0.51                   -0.292007        -125.689         -55.9306         19.6965         -55.9287         19.7008       -0.0086434         150.494
0.511                  -0.294278        -126.121         -55.9425         18.0922         -55.9404         18.0971      -0.00871023         150.429
0.512                  -0.296565        -126.555         -55.9479         16.4821         -55.9458         16.4876      -0.00877761         150.363
0.513                   -0.29887        -126.992         -55.9469         14.8677         -55.9448         14.8738      -0.00884552         150.297
0.514                  -0.301194        -127.432         -55.9395         13.2508         -55.9374         13.2574      -0.00891399         150.231
0.515                   -0.30354        -127.874         -55.9258         11.6328         -55.9237         11.6399      -0.00898301         150.164
0.516                  -0.305909        -128.319          -55.906         10.0152         -55.9039         10.0229      -0.00905259         150.098
0.517                  -0.308303        -128.767           -55.88         8.39943         -55.8779         8.40763      -0.00912275         150.032
0.518                  -0.310726        -129.218         -55.8479         6.78696         -55.8459         6.79561      -0.00919348         149.965
0.519                   -0.31318        -129.672           -55.81         5.17903         -55.8079         5.18811       -0.0092648         149.899
0.52                   -0.315667         -130.13         -55.7662         3.57689         -55.7642         3.58634      -0.00933671         149.832
0.521                   -0.31819         -130.59         -55.7168         1.98165         -55.7149         1.99145      -0.00940921         149.765
0.522                  -0.320753        -131.053         -55.6619        0.394389           -55.66        0.404488      -0.00948232         149.699
0.523                  -0.323358         -131.52         -55.6016        -1.18395         -55.5997        -1.17359      -0.00955604         149.632
0.524                  -0.326009         -131.99          -55.536        -2.75249         -55.5342        -2.74192      -0.00963038         149.565
0.525                   -0.32871        -132.463         -55.4654        -4.31045         -55.4637        -4.29971      -0.00970534         149.498
0.526                  -0.331464         -132.94         -55.3899        -5.85715         -55.3882        -5.84629      -0.00978094         149.431
0.527                  -0.334275        -133.421         -55.3097          -7.392         -55.3081        -7.38105      -0.00985718         149.363
0.528                  -0.337148        -133.905         -55.2248         -8.9145         -55.2233         -8.9035      -0.00993407         149.296
0.529                  -0.340087        -134.393         -55.1356        -10.4242         -55.1341        -10.4132       -0.0100116         149.229
0.53                   -0.343096        -134.885         -55.0421        -11.9208         -55.0407        -11.9099       -0.0100898         149.161
0.531                  -0.346182         -135.38         -54.9444        -13.4041         -54.9432        -13.3932       -0.0101687         149.093
0.532                  -0.349349         -135.88         -54.8429        -14.8738         -54.8417         -14.863       -0.0102483         149.026
0.533                  -0.352604        -136.383         -54.7375        -16.3299         -54.7364        -16.3192       -0.0103285         148.958
0.534                  -0.355951        -136.891         -54.6285        -17.7723         -54.6275        -17.7618       -0.0104095          148.89
0.535                  -0.359398        -137.403          -54.516        -19.2011          -54.515        -19.1908       -0.0104912         148.822
0.536                  -0.362951        -137.919         -54.4002        -20.6163         -54.3992        -20.6062       -0.0105735         148.754
0.537                  -0.366618         -138.44         -54.2811        -22.0182         -54.2802        -22.0083       -0.0106566         148.686
0.538                  -0.370406        -138.966         -54.1588        -23.4068          -54.158        -23.3972       -0.0107405         148.617
0.539                  -0.374324        -139.496         -54.0336        -24.7824         -54.0329        -24.7731        -0.010825         148.549
0.54                   -0.378379        -140.031         -53.9055        -26.1453         -53.9048        -26.1363       -0.0109104          148.48
0.541                  -0.382582        -140.571         -53.7746        -27.4959          -53.774        -27.4872       -0.0109964         148.412
0.542                  -0.386942        -141.115         -53.6411        -28.8345         -53.6405        -28.8261       -0.0110833         148.343
0.543                  -0.391469        -141.665         -53.5049        -30.1614         -53.5044        -30.1534       -0.0111709         148.274
0.544                  -0.396174        -142.221         -53.3663        -31.4772         -53.3658        -31.4694       -0.0112594         148.205
0.545                  -0.401069        -142.781         -53.2252        -32.7822         -53.2248        -32.7748       -0.0113486         148.136
0.546                  -0.406167        -143.348         -53.0818        -34.0769         -53.0815        -34.0698       -0.0114386         148.067
0.547                  -0.411481         -143.92         -52.9361        -35.3617         -52.9358         -35.355       -0.0115295         147.998
0.548                  -0.417025        -144.497         -52.7882        -36.6373          -52.788         -36.631       -0.0116212         147.928
0.549                  -0.422814        -145.081         -52.6382        -37.9041         -52.6379        -37.8981       -0.0117137         147.859
0.55                   -0.428864        -145.671          -52.486        -39.1626         -52.4858         -39.157       -0.0118071         147.789
0.551                  -0.435193        -146.267         -52.3318        -40.4135         -52.3316        -40.4082       -0.0119013         147.719
0.552                  -0.441818         -146.87         -52.1755        -41.6572         -52.1754        -41.6522       -0.0119965         147.649
0.553                  -0.448759         -147.48         -52.0173        -42.8943         -52.0172        -42.8897       -0.0120925         147.579
0.554                  -0.456038        -148.096         -51.8571        -44.1254         -51.8571        -44.1212       -0.0121894         147.509
0.555                  -0.463676        -148.719          -51.695        -45.3511          -51.695        -45.3472       -0.0122872         147.439
0.556                  -0.471698         -149.35          -51.531        -46.5721          -51.531        -46.5685        -0.012386         147.369
0.557                  -0.480129        -149.988         -51.3652        -47.7888         -51.3652        -47.7855       -0.0124857         147.298
0.558                  -0.488996        -150.633         -51.1974         -49.002         -51.1974         -48.999       -0.0125864         147.228
0.559                  -0.498329        -151.286         -51.0278        -50.2122         -51.0279        -50.2095        -0.012688         147.157
0.56                   -0.508159        -151.948         -50.8564          -51.42         -50.8564        -51.4177       -0.0127906         147.086
0.561                   -0.51852        -152.618         -50.6831        -52.6262         -50.6832        -52.6241       -0.0128942         147.015
0.562                  -0.529448        -153.296          -50.508        -53.8314         -50.5081        -53.8296       -0.0129989         146.944
0.563                  -0.540983        -153.983          -50.331        -55.0362         -50.3311        -55.0346       -0.0131046         146.873
0.564                  -0.553165        -154.679         -50.1522        -56.2413         -50.1524        -56.2399       -0.0132113         146.801
0.565                   -0.56604        -155.384         -49.9716        -57.4473         -49.9717        -57.4462       -0.0133191          146.73
0.566                  -0.579656        -156.099         -49.7891        -58.6551         -49.7893        -58.6542        -0.013428         146.658
0.567                  -0.594065        -156.824         -49.6048        -59.8651          -49.605        -59.8645       -0.0135381         146.586
0.568                  -0.609324        -157.559         -49.4186        -61.0783         -49.4188        -61.0779       -0.0136492         146.514
0.569                  -0.625492        -158.304         -49.2305        -62.2953         -49.2307        -62.2951       -0.0137615         146.442
0.57                   -0.642635         -159.06         -49.0406        -63.5169         -49.0408        -63.5168       -0.0138751          146.37
0.571                  -0.660823        -159.827         -48.8488        -64.7438         -48.8489        -64.7439       -0.0139898         146.298
0.572                  -0.680132        -160.605          -48.655        -65.9768         -48.6552        -65.9771       -0.0141058         146.225
0.573                  -0.700644        -161.395         -48.4594        -67.2167         -48.4596        -67.2172       -0.0142231         146.153
0.574                  -0.722447        -162.197         -48.2618        -68.4644          -48.262         -68.465       -0.0143417          146.08
0.575                  -0.745638        -163.011         -48.0623        -69.7206         -48.0624        -69.7214       -0.0144616         146.007
0.576                  -0.770319        -163.838         -47.8608        -70.9863          -47.861        -70.9872        -0.014583         145.934
0.577                  -0.796604        -164.677         -47.6573        -72.2624         -47.6575        -72.2634       -0.0147057          145.86
0.578                  -0.824614         -165.53          -47.452        -73.5498         -47.4522        -73.5508         -0.01483         145.787
0.579                  -0.854481        -166.397         -47.2446        -74.8493         -47.2448        -74.8505       -0.0149558         145.713
0.58                   -0.886347        -167.277         -47.0353        -76.1621         -47.0355        -76.1633       -0.0150832          145.64
0.581                  -0.920368        -168.172          -46.824        -77.4891         -46.8242        -77.4904       -0.0152123         145.566
0.582                  -0.956711        -169.081         -46.6107        -78.8314         -46.6109        -78.8328       -0.0153431         145.492
0.583                  -0.995558        -170.005         -46.3955        -80.1901         -46.3957        -80.1915       -0.0154757         145.417
0.584                   -1.03711        -170.944         -46.1784        -81.5662         -46.1786        -81.5676       -0.0156102         145.343
0.585                   -1.08157        -171.898         -45.9593         -82.961         -45.9595        -82.9625       -0.0157467         145.268
0.586                   -1.12919        -172.867         -45.7384        -84.3756         -45.7386        -84.3771       -0.0158853         145.194
0.587                    -1.1802        -173.853         -45.5156        -85.8113         -45.5158        -85.8128        -0.016026         145.119
0.588                   -1.23489        -174.853          -45.291        -87.2693         -45.2912        -87.2709       -0.0161691         145.044
0.589                   -1.29356        -175.869         -45.0647         -88.751         -45.0649        -88.7526       -0.0163146         144.968
0.59                    -1.35651        -176.901         -44.8367        -90.2578         -44.8369        -90.2593       -0.0164628         144.893
0.591                   -1.42411        -177.948         -44.6071        -91.7909         -44.6073        -91.7924       -0.0166136         144.817
0.592                   -1.49672        -179.009          -44.376        -93.3519         -44.3762        -93.3534       -0.0167675         144.741
0.593                   -1.57475         179.915         -44.1435        -94.9422         -44.1437        -94.9436       -0.0169244         144.665
0.594                   -1.65865         178.826         -43.9097        -96.5633         -43.9099        -96.5647       -0.0170847         144.589
0.595                   -1.74887         177.725         -43.6748        -98.2166          -43.675         -98.218       -0.0172485         144.513
0.596                   -1.84592         176.613         -43.4389        -99.9038         -43.4391        -99.9051       -0.0174162         144.436
0.597                   -1.95034         175.491         -43.2023        -101.626         -43.2024        -101.628       -0.0175879         144.359
0.598                    -2.0627         174.362          -42.965        -103.386         -42.9652        -103.387       -0.0177639         144.282
0.599                   -2.18361         173.228         -42.7275        -105.183         -42.7276        -105.185       -0.0179447         144.205
0.6                     -2.31371         172.092         -42.4898        -107.021           -42.49        -107.022       -0.0181303         144.127
0.601                   -2.45367         170.958         -42.2524          -108.9         -42.2526        -108.901       -0.0183213          144.05
0.602                   -2.60417         169.831         -42.0155        -110.822         -42.0157        -110.822       -0.0185179         143.972
0.603                   -2.76593         168.715         -41.7795        -112.787         -41.7796        -112.788       -0.0187205         143.894
0.604                   -2.93966         167.616         -41.5448        -114.798         -41.5449        -114.798       -0.0189295         143.816
0.605                   -3.12605         166.543         -41.3117        -116.854         -41.3118        -116.855       -0.0191452         143.737
0.606                   -3.32579         165.503         -41.0808        -118.958         -41.0809        -118.958       -0.0193679         143.658
0.607                    -3.5395         164.507         -40.8525        -121.109         -40.8526        -121.109        -0.019598         143.579
0.608                    -3.7677         163.565         -40.6273        -123.307         -40.6274        -123.308       -0.0198358           143.5
0.609                    -4.0108         162.691         -40.4057        -125.554         -40.4058        -125.554       -0.0200816         143.421
0.61                    -4.26899         161.901         -40.1884        -127.848         -40.1885        -127.849       -0.0203357         143.341
0.611                   -4.54225          161.21         -39.9759         -130.19         -39.9759         -130.19        -0.020598         143.262
0.612                   -4.83018         160.637         -39.7687        -132.577         -39.7688        -132.577       -0.0208689         143.182
0.613                   -5.13195         160.204         -39.5676        -135.009         -39.5676        -135.009       -0.0211483         143.101
0.614                   -5.44617         159.932          -39.373        -137.483         -39.3731        -137.483       -0.0214362         143.021
0.615                   -5.77074         159.845         -39.1857        -139.997         -39.1857        -139.997       -0.0217325          142.94
0.616                   -6.10274         159.966         -39.0061        -142.549         -39.0061        -142.549       -0.0220368          142.86
0.617                   -6.43822         160.319         -38.8347        -145.134         -38.8347        -145.134       -0.0223489         142.779
0.618                   -6.77215         160.925         -38.6721         -147.75         -38.6721         -147.75       -0.0226685         142.697
0.619                   -7.09831         161.798         -38.5188        -150.391         -38.5187        -150.391        -0.022995         142.616
0.62                    -7.40938         162.947          -38.375        -153.054         -38.3749        -153.053       -0.0233279         142.534
0.621                   -7.69716         164.369          -38.241        -155.732          -38.241        -155.732       -0.0236666         142.453
0.622                   -7.95296         166.047         -38.1172        -158.421         -38.1171        -158.421       -0.0240104         142.371
0.623                   -8.16832         167.951         -38.0035        -161.116         -38.0034        -161.116       -0.0243589         142.288
0.624                    -8.3358         170.031         -37.9001        -163.811            -37.9        -163.811       -0.0247112         142.206
0.625                   -8.44983         172.227         -37.8068          -166.5         -37.8067        -166.499       -0.0250669         142.123
0.626                    -8.5075         174.466         -37.7235        -169.178         -37.7234        -169.177       -0.0254253          142.04
0.627                   -8.50888         176.677           -37.65        -171.839         -37.6499        -171.839       -0.0257859         141.957
0.628                   -8.45696         178.788         -37.5858        -174.479         -37.5857        -174.479       -0.0261484         141.874
0.629                   -8.35719        -179.259         -37.5307        -177.093         -37.5306        -177.093       -0.0265122          141.79
