! TOUCHSTONE file generated by CST MICROWAVE STUDIO
! Date and time: Fri Dec 11 14:11:34 2020
! Project name: Scenario_1_Planar_Body_Tissue_Out_of_Line_v2.cst
! Parameters = {dy1=-34.6; L_HA=400; Ltissue=700; MT=2.54; Rad_Dielectric=30; Rad_Lower=7.3; Rad_Upper=30; Wtissue=700; a_HA=580; a_WG=246; b_HA=500; b_WG=121; c_HA=0; c_WG=187; d_feed=85; dx1=520; h_feed=15; h_lower=18; h_upper=40; hfat=3; hgap=25; hmuscle=50; hskin=1.5}
! Header version: 2018
! Port assignment regex: !\s*Touchstone port\s*([0-9]+)\s*=\s*(CST MWS port|CST DS port)\s*([0-9]+|Zmin|Zmax)\s*\(\"(.*)\"\)(\s*mode\s*([0-9]+))?.*
! Touchstone port assignment:
! Touchstone port 1 = CST MWS port 1 ("")
! Touchstone port 2 = CST MWS port 2 ("")
# GHz S DB R 50
0.5                   -0.0748408        -121.961         -61.3974         -47.998         -61.3981        -47.9974      -0.00744428         151.148
0.501                 -0.0758666        -122.346         -61.2795        -48.8604         -61.2803        -48.8652      -0.00751644         151.083
0.502                 -0.0769304        -122.733         -61.1606        -49.7343         -61.1616        -49.7445       -0.0075887         151.018
0.503                 -0.0780335        -123.122         -61.0409        -50.6199          -61.042        -50.6355      -0.00766107         150.953
0.504                  -0.079177        -123.513         -60.9202        -51.5174         -60.9215        -51.5385      -0.00773359         150.888
0.505                 -0.0803621        -123.907         -60.7987        -52.4271         -60.8001        -52.4536      -0.00780626         150.823
0.506                 -0.0815901        -124.303         -60.6762        -53.3491         -60.6778         -53.381      -0.00787912         150.757
0.507                 -0.0828623        -124.701         -60.5527        -54.2836         -60.5545        -54.3211      -0.00795218         150.692
0.508                   -0.08418        -125.102         -60.4282         -55.231         -60.4302        -55.2739      -0.00802547         150.626
0.509                 -0.0855447        -125.506         -60.3028        -56.1914         -60.3049        -56.2398        -0.008099         150.561
0.51                  -0.0869578        -125.911         -60.1764        -57.1651         -60.1786         -57.219      -0.00817279         150.495
0.511                 -0.0884207         -126.32         -60.0489        -58.1523         -60.0514        -58.2117      -0.00824688         150.429
0.512                 -0.0899351        -126.731         -59.9204        -59.1532          -59.923        -59.2182      -0.00832127         150.363
0.513                 -0.0915025        -127.145         -59.7908        -60.1682         -59.7936        -60.2387      -0.00839599         150.297
0.514                 -0.0931245        -127.561         -59.6601        -61.1974         -59.6632        -61.2735      -0.00847106         150.231
0.515                 -0.0948029         -127.98         -59.5284        -62.2412         -59.5316        -62.3228      -0.00854651         150.165
0.516                 -0.0965394        -128.402         -59.3955        -63.2997          -59.399        -63.3869      -0.00862235         150.099
0.517                 -0.0983359        -128.826         -59.2616        -64.3734         -59.2652        -64.4662      -0.00869861         150.033
0.518                  -0.100194        -129.253         -59.1264        -65.4624         -59.1303        -65.5608       -0.0087753         149.966
0.519                  -0.102116        -129.683         -58.9901         -66.567         -58.9942         -66.671      -0.00885246           149.9
0.52                   -0.104104        -130.116         -58.8527        -67.6876         -58.8569        -67.7971      -0.00893009         149.833
0.521                   -0.10616        -130.552          -58.714        -68.8244         -58.7185        -68.9395      -0.00900823         149.767
0.522                  -0.108286        -130.991         -58.5742        -69.9777         -58.5789        -70.0985       -0.0090869           149.7
0.523                  -0.110485        -131.433         -58.4331        -71.1479          -58.438        -71.2742      -0.00916611         149.633
0.524                  -0.112758        -131.878         -58.2908        -72.3352          -58.296        -72.4671      -0.00924589         149.566
0.525                  -0.115108        -132.326         -58.1472        -73.5401         -58.1526        -73.6775      -0.00932627         149.499
0.526                  -0.117538        -132.777         -58.0024        -74.7627         -58.0081        -74.9057      -0.00940726         149.432
0.527                  -0.120051        -133.231         -57.8563        -76.0034         -57.8622        -76.1519      -0.00948889         149.365
0.528                  -0.122648        -133.688         -57.7089        -77.2626         -57.7152        -77.4167      -0.00957118         149.297
0.529                  -0.125333        -134.149         -57.5603        -78.5406         -57.5668        -78.7002      -0.00965415          149.23
0.53                   -0.128109        -134.613         -57.4103        -79.8378         -57.4171        -80.0028      -0.00973783         149.162
0.531                  -0.130978         -135.08         -57.2591        -81.1545         -57.2661        -81.3249      -0.00982224         149.095
0.532                  -0.133945        -135.551         -57.1065         -82.491         -57.1139        -82.6668       -0.0099074         149.027
0.533                  -0.137012        -136.025         -56.9526        -83.8477         -56.9603        -84.0289      -0.00999333         148.959
0.534                  -0.140182        -136.503         -56.7974        -85.2251         -56.8054        -85.4116       -0.0100801         148.891
0.535                   -0.14346        -136.984         -56.6409        -86.6233         -56.6493        -86.8151       -0.0101676         148.823
0.536                  -0.146848        -137.469         -56.4831         -88.043         -56.4918        -88.2399        -0.010256         148.755
0.537                  -0.150351        -137.958          -56.324        -89.4843          -56.333        -89.6864       -0.0103453         148.687
0.538                  -0.153973         -138.45         -56.1635        -90.9476          -56.173        -91.1549       -0.0104355         148.619
0.539                  -0.157718        -138.947         -56.0018        -92.4335         -56.0117        -92.6457       -0.0105265          148.55
0.54                    -0.16159        -139.447         -55.8388        -93.9422         -55.8491        -94.1593       -0.0106186         148.482
0.541                  -0.165594        -139.951         -55.6746         -95.474         -55.6852         -95.696       -0.0107116         148.413
0.542                  -0.169734        -140.459         -55.5091        -97.0295         -55.5201        -97.2563       -0.0108055         148.344
0.543                  -0.174015        -140.971         -55.3424         -98.609         -55.3539        -98.8404       -0.0109005         148.275
0.544                  -0.178443        -141.487         -55.1745        -100.213         -55.1864        -100.449       -0.0109966         148.206
0.545                  -0.183023        -142.007         -55.0054        -101.841         -55.0178        -102.082       -0.0110937         148.137
0.546                  -0.187759        -142.532         -54.8352        -103.495         -54.8481        -103.739       -0.0111919         148.068
0.547                  -0.192659        -143.061         -54.6639        -105.174         -54.6773        -105.423       -0.0112912         147.999
0.548                  -0.197729        -143.594         -54.4916        -106.879         -54.5055        -107.131       -0.0113916         147.929
0.549                  -0.202973        -144.132         -54.3183         -108.61         -54.3326        -108.866       -0.0114932          147.86
0.55                     -0.2084        -144.675          -54.144        -110.367         -54.1589        -110.627        -0.011596          147.79
0.551                  -0.214016        -145.222         -53.9688        -112.151         -53.9843        -112.415          -0.0117          147.72
0.552                  -0.219828        -145.774         -53.7928        -113.962         -53.8089        -114.229       -0.0118053          147.65
0.553                  -0.225844        -146.331         -53.6161        -115.801         -53.6327        -116.071       -0.0119118          147.58
0.554                  -0.232071        -146.892         -53.4387        -117.667         -53.4559        -117.939       -0.0120196          147.51
0.555                  -0.238519        -147.459         -53.2607        -119.561         -53.2785        -119.836       -0.0121288          147.44
0.556                  -0.245195        -148.031         -53.0822        -121.482         -53.1006         -121.76       -0.0122392         147.369
0.557                  -0.252109        -148.608         -52.9032        -123.432         -52.9223        -123.712       -0.0123511         147.299
0.558                   -0.25927         -149.19          -52.724         -125.41         -52.7437        -125.692       -0.0124644         147.228
0.559                  -0.266688        -149.778         -52.5445        -127.417         -52.5649        -127.699       -0.0125791         147.157
0.56                   -0.274373        -150.371          -52.365        -129.452          -52.386        -129.735       -0.0126952         147.086
0.561                  -0.282337         -150.97         -52.1855        -131.515         -52.2071        -131.799       -0.0128128         147.015
0.562                  -0.290591        -151.575         -52.0061        -133.606         -52.0284        -133.891        -0.012932         146.944
0.563                  -0.299147        -152.185         -51.8269        -135.726           -51.85        -136.011       -0.0130526         146.873
0.564                  -0.308018        -152.802         -51.6482        -137.873          -51.672        -138.158       -0.0131749         146.801
0.565                  -0.317217        -153.424         -51.4701        -140.048         -51.4945        -140.333       -0.0132987          146.73
0.566                  -0.326757        -154.053         -51.2926        -142.251         -51.3177        -142.534       -0.0134242         146.658
0.567                  -0.336654        -154.688         -51.1159        -144.481         -51.1417        -144.762       -0.0135513         146.586
0.568                  -0.346923        -155.329         -50.9402        -146.737         -50.9666        -147.017       -0.0136801         146.514
0.569                  -0.357581        -155.977         -50.7656        -149.019         -50.7927        -149.297       -0.0138107         146.442
0.57                   -0.368643        -156.632         -50.5923        -151.326         -50.6201        -151.601       -0.0139429          146.37
0.571                  -0.380129        -157.294         -50.4205        -153.658         -50.4488         -153.93        -0.014077         146.298
0.572                  -0.392057        -157.962         -50.2501        -156.014         -50.2791        -156.283       -0.0142128         146.225
0.573                  -0.404448        -158.638         -50.0815        -158.393         -50.1111        -158.658       -0.0143505         146.152
0.574                  -0.417322        -159.321         -49.9148        -160.793         -49.9449        -161.054         -0.01449          146.08
0.575                  -0.430701        -160.012         -49.7501        -163.215         -49.7807        -163.471       -0.0146314         146.007
0.576                  -0.444609         -160.71         -49.5874        -165.656         -49.6185        -165.907       -0.0147748         145.933
0.577                   -0.45907        -161.416          -49.427        -168.116         -49.4586        -168.362       -0.0149201          145.86
0.578                  -0.474112         -162.13          -49.269        -170.593          -49.301        -170.833       -0.0150674         145.787
0.579                   -0.48976        -162.853         -49.1135        -173.087         -49.1458         -173.32       -0.0152168         145.713
0.58                   -0.506045        -163.583         -48.9605        -175.594         -48.9931        -175.822       -0.0153682         145.639
0.581                  -0.522998        -164.322         -48.8101        -178.115          -48.843        -178.336       -0.0155217         145.565
0.582                   -0.54065         -165.07         -48.6625         179.353         -48.6956         179.139       -0.0156773         145.491
0.583                  -0.559036        -165.827         -48.5176          176.81         -48.5509         176.604       -0.0158351         145.417
0.584                  -0.578193        -166.592         -48.3756          174.26         -48.4089         174.061        -0.015995         145.343
0.585                   -0.59816        -167.368         -48.2363         171.702         -48.2697         171.511       -0.0161572         145.268
0.586                  -0.618976        -168.152            -48.1          169.14         -48.1333         168.956       -0.0163217         145.194
0.587                  -0.640687        -168.947         -47.9664         166.573         -47.9997         166.398       -0.0164884         145.119
0.588                  -0.663338        -169.751         -47.8357         164.005         -47.8688         163.837       -0.0166575         145.044
0.589                  -0.686977        -170.566         -47.7078         161.436         -47.7407         161.276        -0.016829         144.968
0.59                   -0.711656        -171.391         -47.5826         158.868         -47.6153         158.717       -0.0170029         144.893
0.591                  -0.737431        -172.227         -47.4602         156.303         -47.4925          156.16       -0.0171792         144.818
0.592                   -0.76436        -173.073         -47.3403         153.742         -47.3722         153.606        -0.017358         144.742
0.593                  -0.792504        -173.931         -47.2229         151.186         -47.2544         151.058       -0.0175394         144.666
0.594                  -0.821931          -174.8          -47.108         148.637          -47.139         148.517       -0.0177233          144.59
0.595                  -0.852709        -175.681         -46.9954         146.095         -47.0258         145.983       -0.0179098         144.514
0.596                  -0.884915        -176.574          -46.885         143.562         -46.9148         143.458       -0.0180989         144.437
0.597                  -0.918626        -177.479         -46.7767          141.04         -46.8059         140.943       -0.0182908         144.361
0.598                  -0.953927        -178.396         -46.6703         138.528         -46.6988         138.438       -0.0184853         144.284
0.599                  -0.990909        -179.326         -46.5657         136.028         -46.5935         135.945       -0.0186826         144.207
0.6                     -1.02967         179.731         -46.4627          133.54         -46.4898         133.464       -0.0188828          144.13
0.601                    -1.0703         178.775         -46.3613         131.065         -46.3876         130.996       -0.0190857         144.052
0.602                   -1.11293         177.805         -46.2613         128.605         -46.2868         128.541       -0.0192916         143.975
0.603                   -1.15766         176.822         -46.1625         126.158         -46.1871           126.1       -0.0195004         143.897
0.604                   -1.20461         175.824         -46.0647         123.726         -46.0886         123.674       -0.0197122         143.819
0.605                   -1.25392         174.813          -45.968         121.308         -45.9909         121.262       -0.0199271         143.741
0.606                   -1.30573         173.787          -45.872         118.906         -45.8941         118.865        -0.020145         143.662
0.607                   -1.36019         172.746         -45.7767         116.518         -45.7979         116.482        -0.020366         143.584
0.608                   -1.41746         171.691         -45.6819         114.146         -45.7022         114.114       -0.0205902         143.505
0.609                   -1.47771          170.62         -45.5875         111.789          -45.607         111.761       -0.0208176         143.426
0.61                    -1.54113         169.534         -45.4935         109.446          -45.512         109.422       -0.0210483         143.347
0.611                   -1.60789         168.433         -45.3996         107.118         -45.4173         107.098       -0.0212823         143.267
0.612                   -1.67823         167.317         -45.3058         104.805         -45.3226         104.788       -0.0215197         143.188
0.613                   -1.75235         166.185         -45.2119         102.505         -45.2279         102.492       -0.0217604         143.108
0.614                   -1.83049         165.038          -45.118         100.219          -45.133         100.209       -0.0220047         143.028
0.615                   -1.91291         163.875         -45.0238         97.9469          -45.038         97.9391       -0.0222525         142.947
0.616                   -1.99987         162.697         -44.9294         95.6871         -44.9428         95.6818       -0.0225039         142.867
0.617                   -2.09166         161.504         -44.8346         93.4396         -44.8472         93.4364       -0.0227589         142.786
0.618                   -2.18859         160.295         -44.7394         91.2038         -44.7512         91.2025       -0.0230176         142.705
0.619                   -2.29097         159.073         -44.6438          88.979         -44.6548         88.9794       -0.0232801         142.624
0.62                    -2.39917         157.836         -44.5476         86.7648         -44.5579         86.7666       -0.0235464         142.542
0.621                   -2.51354         156.586          -44.451         84.5604         -44.4605         84.5635       -0.0238166          142.46
0.622                   -2.63449         155.323         -44.3538         82.3651         -44.3626         82.3693       -0.0240907         142.378
0.623                   -2.76242         154.049         -44.2561         80.1784         -44.2642         80.1835       -0.0243688         142.296
0.624                   -2.89778         152.764         -44.1578         77.9996         -44.1653         78.0054        -0.024651         142.214
0.625                   -3.04104          151.47          -44.059         75.8278         -44.0658         75.8342       -0.0249373         142.131
0.626                    -3.1927         150.168         -43.9596         73.6626         -43.9658         73.6693       -0.0252278         142.048
0.627                   -3.35328          148.86         -43.8597          71.503         -43.8653         71.5101       -0.0255225         141.965
0.628                   -3.52335         147.548         -43.7593         69.3486         -43.7644         69.3558       -0.0258216         141.881
0.629                   -3.70348         146.235         -43.6585         67.1986          -43.663         67.2057       -0.0261251         141.797
