! TOUCHSTONE file generated by CST MICROWAVE STUDIO
! Date and time: Mon Nov 30 08:35:03 2020
! Project name: Scenario_1_Planar_Body_Tissue_Out_of_Line.cst
! Parameters = {dy1=-34.6; L_HA=400; Ltissue=700; MT=2.54; Rad_Dielectric=30; Rad_Lower=7.3; Rad_Upper=30; Wtissue=700; a_HA=580; a_WG=246; b_HA=500; b_WG=121; c_HA=0; c_WG=187; d_feed=85; dx1=866; h_feed=15; h_lower=18; h_upper=40; hfat=3; hgap=25; hmuscle=50; hskin=1.5}
! Header version: 2018
! Port assignment regex: !\s*Touchstone port\s*([0-9]+)\s*=\s*(CST MWS port|CST DS port)\s*([0-9]+|Zmin|Zmax)\s*\(\"(.*)\"\)(\s*mode\s*([0-9]+))?.*
! Touchstone port assignment:
! Touchstone port 1 = CST MWS port 1 ("")
! Touchstone port 2 = CST MWS port 2 ("")
# GHz S DB R 50
0.5                   -0.0985446        -122.132           -63.53         107.216         -63.5292         107.221      -0.00748886         151.148
0.501                  -0.115804        -122.502          -63.337         106.108         -63.3367          106.11      -0.00756782         151.083
0.502                   -0.13244        -122.872         -63.1384         104.976         -63.1385         104.976      -0.00764711         151.018
0.503                  -0.148471        -123.244         -62.9339         103.818         -62.9345         103.816      -0.00772674         150.953
0.504                  -0.163918        -123.618         -62.7234         102.634         -62.7245          102.63       -0.0078067         150.887
0.505                  -0.178798        -123.994         -62.5066          101.42         -62.5082         101.414      -0.00788702         150.822
0.506                   -0.19313        -124.372         -62.2835         100.177         -62.2856         100.169       -0.0079677         150.756
0.507                  -0.206932        -124.751         -62.0537         98.9001         -62.0564         98.8904      -0.00804875         150.691
0.508                  -0.220221        -125.133         -61.8172         97.5885         -61.8204         97.5769      -0.00813017         150.625
0.509                  -0.233017        -125.517         -61.5736         96.2393         -61.5774          96.226      -0.00821197         150.559
0.51                   -0.245335        -125.904         -61.3229         94.8496         -61.3273         94.8346      -0.00829417         150.493
0.511                  -0.257192        -126.293         -61.0648         93.4163         -61.0698         93.3997      -0.00837676         150.427
0.512                  -0.268606        -126.685         -60.7993         91.9359         -60.8048         91.9179      -0.00845977         150.361
0.513                  -0.279592        -127.079          -60.526         90.4046         -60.5322         90.3853      -0.00854319         150.295
0.514                  -0.290168        -127.476         -60.2449         88.8183         -60.2517         88.7978      -0.00862703         150.229
0.515                  -0.300347        -127.877         -59.9559         87.1723         -59.9634         87.1507      -0.00871131         150.163
0.516                  -0.310148         -128.28         -59.6589         85.4614         -59.6671          85.439      -0.00879604         150.097
0.517                  -0.319584        -128.687          -59.354         83.6801         -59.3629         83.6571      -0.00888122          150.03
0.518                  -0.328671        -129.097          -59.041         81.8221         -59.0507         81.7988      -0.00896686         149.964
0.519                  -0.337425         -129.51         -58.7202         79.8807         -58.7306         79.8574      -0.00905298         149.897
0.52                   -0.345859        -129.927         -58.3919         77.8485          -58.403         77.8256      -0.00913957          149.83
0.521                  -0.353989        -130.347         -58.0562         75.7175         -58.0681         75.6953      -0.00922666         149.764
0.522                  -0.361829        -130.771         -57.7137          73.479         -57.7264         73.4579      -0.00931425         149.697
0.523                  -0.369394        -131.199          -57.365         71.1236         -57.3786         71.1042      -0.00940235          149.63
0.524                  -0.376698         -131.63         -57.0111         68.6415         -57.0255         68.6243      -0.00949098         149.563
0.525                  -0.383756        -132.066         -56.6531         66.0226         -56.6683         66.0082      -0.00958014         149.496
0.526                   -0.39058        -132.505         -56.2925         63.2563         -56.3085         63.2455      -0.00966984         149.429
0.527                  -0.397187        -132.949         -55.9309         60.3322         -55.9477         60.3257       -0.0097601         149.361
0.528                   -0.40359        -133.397         -55.5708         57.2407         -55.5883         57.2392      -0.00985093         149.294
0.529                  -0.409802        -133.849         -55.2147         53.9728         -55.2328         53.9772      -0.00994233         149.226
0.53                   -0.415839        -134.306         -54.8657         50.5217         -54.8844         50.5328       -0.0100343         149.159
0.531                  -0.421714        -134.767         -54.5276         46.8832         -54.5467         46.9018       -0.0101269         149.091
0.532                  -0.427442        -135.232         -54.2042         43.0568         -54.2236         43.0838       -0.0102201         149.024
0.533                  -0.433037        -135.703         -53.9001         39.0471         -53.9196          39.083       -0.0103139         148.956
0.534                  -0.438514        -136.178         -53.6197         34.8643         -53.6391         34.9094       -0.0104084         148.888
0.535                  -0.443887        -136.658         -53.3675         30.5252         -53.3866         30.5798       -0.0105035          148.82
0.536                  -0.449172        -137.143         -53.1479         26.0537         -53.1664         26.1177       -0.0105993         148.752
0.537                  -0.454384        -137.633         -52.9644         21.4806         -52.9821         21.5533       -0.0106958         148.683
0.538                  -0.459539        -138.128         -52.8197          16.842         -52.8363         16.9227       -0.0107929         148.615
0.539                  -0.464651        -138.629         -52.7152         12.1782         -52.7305         12.2657       -0.0108908         148.547
0.54                   -0.469738        -139.135         -52.6511         7.53124          -52.665         7.62416       -0.0109894         148.478
0.541                  -0.474815        -139.647         -52.6261         2.94217         -52.6386         3.03889       -0.0110887         148.409
0.542                  -0.479901        -140.164          -52.638        -1.55123         -52.6488        -1.45234       -0.0111887         148.341
0.543                  -0.485012        -140.687         -52.6831        -5.91642         -52.6924        -5.81695       -0.0112896         148.272
0.544                  -0.490168        -141.216         -52.7573        -10.1273         -52.7651        -10.0288       -0.0113912         148.203
0.545                  -0.495385        -141.751          -52.856         -14.165         -52.8623        -14.0686       -0.0114936         148.134
0.546                  -0.500685        -142.292         -52.9744        -18.0173         -52.9794        -17.9241       -0.0115968         148.064
0.547                  -0.506088        -142.839         -53.1078        -21.6783         -53.1117        -21.5891       -0.0117009         147.995
0.548                  -0.511613        -143.393         -53.2521        -25.1474          -53.255        -25.0628       -0.0118058         147.926
0.549                  -0.517284        -143.953         -53.4033         -28.428         -53.4052        -28.3484       -0.0119116         147.856
0.55                   -0.523123         -144.52         -53.5579        -31.5268          -53.559        -31.4524       -0.0120182         147.787
0.551                  -0.529155        -145.094         -53.7129        -34.4527         -53.7134        -34.3836       -0.0121258         147.717
0.552                  -0.535404        -145.675         -53.8659        -37.2158         -53.8659         -37.152       -0.0122343         147.647
0.553                  -0.541897        -146.263         -54.0147        -39.8271         -54.0143        -39.7685       -0.0123437         147.577
0.554                  -0.548663        -146.858         -54.1578        -42.2978          -54.157        -42.2443       -0.0124541         147.507
0.555                  -0.555729        -147.461         -54.2936        -44.6391         -54.2925        -44.5904       -0.0125655         147.437
0.556                  -0.563129        -148.072         -54.4211        -46.8619         -54.4198        -46.8177       -0.0126778         147.366
0.557                  -0.570894         -148.69         -54.5394        -48.9766          -54.538        -48.9367       -0.0127912         147.296
0.558                   -0.57906        -149.316         -54.6479        -50.9929         -54.6464        -50.9571       -0.0129057         147.225
0.559                  -0.587663        -149.951         -54.7461        -52.9203         -54.7446        -52.8881       -0.0130212         147.155
0.56                   -0.596743        -150.594         -54.8337        -54.7673         -54.8321        -54.7386       -0.0131378         147.084
0.561                  -0.606342        -151.245         -54.9103        -56.5419         -54.9088        -56.5165       -0.0132556         147.013
0.562                  -0.616505        -151.905         -54.9759        -58.2518         -54.9744        -58.2294       -0.0133745         146.942
0.563                   -0.62728        -152.574         -55.0303        -59.9039         -55.0288        -59.8842       -0.0134945          146.87
0.564                  -0.638717        -153.252         -55.0736        -61.5047         -55.0721        -61.4874       -0.0136158         146.799
0.565                  -0.650872         -153.94         -55.1056        -63.0601         -55.1043        -63.0451       -0.0137383         146.728
0.566                  -0.663802        -154.637         -55.1266        -64.5759         -55.1253        -64.5629       -0.0138621         146.656
0.567                  -0.677571        -155.344         -55.1365        -66.0572         -55.1353        -66.0461       -0.0139872         146.584
0.568                  -0.692247        -156.061         -55.1356         -67.509         -55.1345        -67.4995       -0.0141136         146.512
0.569                  -0.707901        -156.788         -55.1238        -68.9358         -55.1228        -68.9278       -0.0142414          146.44
0.57                   -0.724611        -157.526         -55.1015         -70.342         -55.1005        -70.3354       -0.0143706         146.368
0.571                  -0.742462        -158.274         -55.0686        -71.7317         -55.0678        -71.7262       -0.0145013         146.296
0.572                  -0.761543        -159.033         -55.0254        -73.1087         -55.0247        -73.1043       -0.0146334         146.223
0.573                  -0.781953        -159.804         -54.9722        -74.4768         -54.9715        -74.4733        -0.014767         146.151
0.574                  -0.803795        -160.585         -54.9089        -75.8394         -54.9083        -75.8368       -0.0149022         146.078
0.575                  -0.827184        -161.378         -54.8359           -77.2         -54.8354         -77.198       -0.0150391         146.005
0.576                  -0.852241        -162.182         -54.7534        -78.5617         -54.7529        -78.5603       -0.0151776         145.932
0.577                  -0.879099        -162.998         -54.6615        -79.9276         -54.6611        -79.9267       -0.0153178         145.859
0.578                    -0.9079        -163.826         -54.5605        -81.3009         -54.5601        -81.3004       -0.0154597         145.786
0.579                  -0.938797        -164.665         -54.4505        -82.6843         -54.4503        -82.6842       -0.0156035         145.712
0.58                   -0.971957        -165.517         -54.3319        -84.0809         -54.3316        -84.0811       -0.0157491         145.638
0.581                   -1.00756         -166.38         -54.2047        -85.4933         -54.2046        -85.4937       -0.0158967         145.565
0.582                   -1.04579        -167.255         -54.0694        -86.9243         -54.0692        -86.9249       -0.0160463         145.491
0.583                   -1.08687        -168.142          -53.926        -88.3767         -53.9259        -88.3774        -0.016198         145.417
0.584                   -1.13101         -169.04         -53.7749         -89.853         -53.7749        -89.8538       -0.0163518         145.342
0.585                   -1.17846         -169.95         -53.6164        -91.3558         -53.6164        -91.3567       -0.0165077         145.268
0.586                   -1.22947        -170.869         -53.4507        -92.8878         -53.4506        -92.8887        -0.016666         145.193
0.587                   -1.28432        -171.799          -53.278        -94.4515          -53.278        -94.4524       -0.0168266         145.118
0.588                   -1.34329        -172.738         -53.0988        -96.0495         -53.0989        -96.0503       -0.0169897         145.043
0.589                    -1.4067        -173.685         -52.9134        -97.6841         -52.9134         -97.685       -0.0171553         144.968
0.59                    -1.47488        -174.638         -52.7221         -99.358         -52.7221        -99.3588       -0.0173235         144.893
0.591                   -1.54817        -175.598         -52.5252        -101.073         -52.5252        -101.074       -0.0174944         144.817
0.592                   -1.62692         -176.56         -52.3232        -102.833         -52.3232        -102.834       -0.0176681         144.742
0.593                   -1.71151        -177.524         -52.1164        -104.639         -52.1165        -104.639       -0.0178447         144.666
0.594                   -1.80231        -178.487         -51.9054        -106.493         -51.9055        -106.493       -0.0180242          144.59
0.595                    -1.8997        -179.445         -51.6907        -108.398         -51.6907        -108.398       -0.0182069         144.514
0.596                   -2.00404         179.604         -51.4726        -110.355         -51.4726        -110.356       -0.0183927         144.437
0.597                   -2.11568         178.666         -51.2518        -112.367         -51.2518        -112.368       -0.0185818         144.361
0.598                   -2.23495         177.745         -51.0289        -114.435         -51.0288        -114.436       -0.0187742         144.284
0.599                   -2.36211         176.847         -50.8044        -116.562         -50.8043        -116.562       -0.0189701         144.207
0.6                     -2.49737         175.978          -50.579        -118.747          -50.579        -118.747       -0.0191696          144.13
0.601                   -2.64083         175.145         -50.3535        -120.992         -50.3534        -120.992       -0.0193727         144.053
0.602                   -2.79248         174.356         -50.1284        -123.297         -50.1283        -123.297       -0.0195795         143.975
0.603                   -2.95214          173.62         -49.9047        -125.663         -49.9046        -125.664       -0.0197901         143.897
0.604                   -3.11943         172.947         -49.6829         -128.09         -49.6828        -128.091       -0.0200046         143.819
0.605                   -3.29374         172.346          -49.464        -130.577         -49.4639        -130.578       -0.0202231         143.741
0.606                   -3.47416         171.828         -49.2487        -133.123         -49.2486        -133.124       -0.0204454         143.663
0.607                   -3.65945         171.403         -49.0379        -135.726         -49.0377        -135.727       -0.0206718         143.584
0.608                   -3.84801         171.082         -48.8322        -138.384          -48.832        -138.384       -0.0209023         143.506
0.609                   -4.03784         170.872         -48.6325        -141.093         -48.6324        -141.094       -0.0211368         143.427
0.61                    -4.22652         170.781         -48.4396        -143.851         -48.4394        -143.852       -0.0213753         143.348
0.611                   -4.41128         170.815          -48.254        -146.654         -48.2538        -146.655       -0.0216179         143.268
0.612                     -4.589         170.974         -48.0764        -149.496         -48.0763        -149.497       -0.0218645         143.189
0.613                   -4.75634         171.257         -47.9074        -152.373         -47.9073        -152.374        -0.022115         143.109
0.614                   -4.90989         171.655         -47.7474        -155.279         -47.7473        -155.279       -0.0223696         143.029
0.615                   -5.04634         172.158         -47.5968        -158.208         -47.5967        -158.209       -0.0226279         142.949
0.616                   -5.16271         172.746         -47.4557        -161.154         -47.4556        -161.155       -0.0228902         142.868
0.617                   -5.25652           173.4         -47.3244        -164.111         -47.3243        -164.112       -0.0231561         142.788
0.618                   -5.32607         174.093         -47.2028        -167.072         -47.2027        -167.073       -0.0234257         142.707
0.619                   -5.37047         174.798         -47.0909        -170.032         -47.0908        -170.033        -0.023699         142.626
0.62                    -5.38977         175.487         -46.9883        -172.984         -46.9883        -172.985       -0.0239758         142.544
0.621                   -5.38492         176.134         -46.8949        -175.922         -46.8948        -175.923        -0.024256         142.463
0.622                   -5.35763         176.714         -46.8101        -178.842         -46.8101        -178.843       -0.0245397         142.381
0.623                   -5.31025         177.207         -46.7335         178.262         -46.7335         178.261       -0.0248267         142.299
0.624                   -5.24555         177.596         -46.6646         175.393         -46.6646         175.392        -0.025117         142.217
0.625                    -5.1665         177.872         -46.6026         172.556         -46.6026         172.555       -0.0254106         142.134
0.626                   -5.07613         178.026          -46.547         169.754          -46.547         169.753       -0.0257074         142.051
0.627                   -4.97734         178.055         -46.4971         166.989         -46.4971         166.988       -0.0260075         141.968
0.628                   -4.87283         177.961         -46.4521         164.263         -46.4522         164.262       -0.0263109         141.885
0.629                     -4.765         177.744         -46.4114         161.578         -46.4115         161.577       -0.0266176         141.801
