! TOUCHSTONE file generated by CST MICROWAVE STUDIO
! Date and time: Thu Feb 11 19:30:47 2021
! Project name: Scenario_1_Planar_Body_Tissue_Out_of_Line.cst
! Parameters = {L_HA=400; Ltissue=1000; MT=2.54; Rad_Dielectric=30; Rad_Lower=7.3; Rad_Upper=30; Wtissue=1000; a_HA=580; a_WG=246; b_HA=500; b_WG=121; c_HA=0; c_WG=187; d_feed=85; dx1=346; dy1=-346; h_feed=15; h_lower=18; h_upper=40; hfat=3; hgap=25; hmuscle=50; hskin=1.5}
! Header version: 2018
! Port assignment regex: !\s*Touchstone port\s*([0-9]+)\s*=\s*(CST MWS port|CST DS port)\s*([0-9]+|Zmin|Zmax)\s*\(\"(.*)\"\)(\s*mode\s*([0-9]+))?.*
! Touchstone port assignment:
! Touchstone port 1 = CST MWS port 1 ("")
! Touchstone port 2 = CST MWS port 2 ("")
# GHz S DB R 50
0.5                    -0.249843        -121.686         -59.5618        -15.2301          -59.562        -15.2293      -0.00796254         151.145
0.501                  -0.252292        -122.074         -59.4155        -17.7967         -59.4152        -17.8008      -0.00802005          151.08
0.502                  -0.254729        -122.465         -59.2779        -20.3738         -59.2773        -20.3826      -0.00807826         151.015
0.503                  -0.257157        -122.858         -59.1492        -22.9569         -59.1484        -22.9701      -0.00813717         150.949
0.504                  -0.259577        -123.255         -59.0293        -25.5416         -59.0283         -25.559      -0.00819679         150.884
0.505                  -0.261993        -123.654         -58.9181        -28.1235          -58.917        -28.1447      -0.00825713         150.818
0.506                  -0.264406        -124.056         -58.8156        -30.6981         -58.8144        -30.7229       -0.0083182         150.753
0.507                   -0.26682         -124.46         -58.7214        -33.2614         -58.7202        -33.2894      -0.00838001         150.687
0.508                  -0.269236        -124.868         -58.6354        -35.8093         -58.6343        -35.8402      -0.00844256         150.621
0.509                  -0.271659        -125.279         -58.5572        -38.3381         -58.5561        -38.3716      -0.00850587         150.556
0.51                    -0.27409        -125.692         -58.4865        -40.8444         -58.4855        -40.8801      -0.00856994          150.49
0.511                  -0.276532        -126.109         -58.4228        -43.3251         -58.4219        -43.3626      -0.00863478         150.424
0.512                  -0.278989        -126.529         -58.3657        -45.7772          -58.365        -45.8163       -0.0087004         150.358
0.513                  -0.281463        -126.952         -58.3148        -48.1985         -58.3142        -48.2388      -0.00876681         150.291
0.514                  -0.283959        -127.379         -58.2696        -50.5867         -58.2691        -50.6279      -0.00883402         150.225
0.515                  -0.286479        -127.808         -58.2295        -52.9402         -58.2291         -52.982      -0.00890203         150.159
0.516                  -0.289026        -128.241          -58.194        -55.2575         -58.1939        -55.2996      -0.00897086         150.092
0.517                  -0.291606        -128.677         -58.1628        -57.5375         -58.1628        -57.5798      -0.00904052         150.026
0.518                   -0.29422        -129.117         -58.1353        -59.7795         -58.1354        -59.8217      -0.00911102         149.959
0.519                  -0.296874         -129.56         -58.1109         -61.983         -58.1112        -62.0248      -0.00918237         149.893
0.52                   -0.299571        -130.007         -58.0894        -64.1477         -58.0898         -64.189      -0.00925457         149.826
0.521                  -0.302315        -130.457         -58.0701        -66.2737         -58.0706        -66.3143      -0.00932765         149.759
0.522                  -0.305111        -130.911         -58.0527        -68.3611         -58.0534        -68.4009       -0.0094016         149.692
0.523                  -0.307964        -131.368         -58.0369        -70.4104         -58.0376        -70.4492      -0.00947644         149.625
0.524                  -0.310877         -131.83         -58.0221        -72.4221         -58.0229        -72.4598      -0.00955219         149.558
0.525                  -0.313857        -132.295          -58.008        -74.3968         -58.0089        -74.4334      -0.00962885         149.491
0.526                  -0.316908        -132.764         -57.9944        -76.3355         -57.9954        -76.3709      -0.00970643         149.424
0.527                  -0.320035        -133.237         -57.9809         -78.239         -57.9819        -78.2731      -0.00978496         149.356
0.528                  -0.323245        -133.714         -57.9672        -80.1082         -57.9683         -80.141      -0.00986443         149.289
0.529                  -0.326543        -134.195         -57.9531        -81.9443         -57.9542        -81.9758      -0.00994486         149.221
0.53                   -0.329935         -134.68         -57.9383        -83.7483         -57.9394        -83.7784       -0.0100263         149.154
0.531                  -0.333427        -135.169         -57.9226        -85.5214         -57.9237        -85.5501       -0.0101087         149.086
0.532                  -0.337027        -135.663         -57.9058        -87.2646         -57.9069        -87.2919       -0.0101921         149.018
0.533                  -0.340741        -136.161         -57.8876        -88.9792         -57.8887        -89.0051       -0.0102765          148.95
0.534                  -0.344576        -136.664          -57.868        -90.6662         -57.8691        -90.6908       -0.0103619         148.882
0.535                  -0.348541        -137.171         -57.8468        -92.3269         -57.8479        -92.3502       -0.0104484         148.814
0.536                  -0.352643        -137.682         -57.8238        -93.9624         -57.8249        -93.9844       -0.0105359         148.746
0.537                   -0.35689        -138.199          -57.799        -95.5739            -57.8        -95.5945       -0.0106245         148.677
0.538                  -0.361292         -138.72         -57.7721        -97.1624         -57.7731        -97.1818       -0.0107142         148.609
0.539                  -0.365858        -139.246         -57.7432        -98.7291         -57.7441        -98.7472        -0.010805          148.54
0.54                   -0.370597        -139.777          -57.712        -100.275         -57.7129        -100.292       -0.0108969         148.471
0.541                   -0.37552        -140.313         -57.6786        -101.801         -57.6795        -101.817       -0.0109899         148.403
0.542                  -0.380637        -140.855         -57.6429        -103.309         -57.6437        -103.323       -0.0110841         148.334
0.543                   -0.38596        -141.401         -57.6047        -104.799         -57.6055        -104.812       -0.0111794         148.265
0.544                    -0.3915        -141.953         -57.5641        -106.272         -57.5648        -106.284       -0.0112759         148.196
0.545                  -0.397271        -142.511          -57.521        -107.729         -57.5216        -107.741       -0.0113736         148.127
0.546                  -0.403285        -143.074         -57.4753        -109.172         -57.4759        -109.183       -0.0114725         148.057
0.547                  -0.409557        -143.643          -57.427        -110.601         -57.4275        -110.611       -0.0115727         147.988
0.548                  -0.416101        -144.218         -57.3761        -112.017         -57.3766        -112.026       -0.0116741         147.918
0.549                  -0.422932        -144.798         -57.3225        -113.421         -57.3229        -113.429       -0.0117767         147.849
0.55                   -0.430068        -145.385         -57.2662        -114.813         -57.2666        -114.821       -0.0118806         147.779
0.551                  -0.437526        -145.978         -57.2072        -116.195         -57.2075        -116.202       -0.0119859         147.709
0.552                  -0.445323        -146.577         -57.1455        -117.568         -57.1457        -117.574       -0.0120924         147.639
0.553                   -0.45348        -147.183          -57.081        -118.931         -57.0812        -118.937       -0.0122003         147.569
0.554                  -0.462017        -147.796         -57.0137        -120.287         -57.0139        -120.292       -0.0123096         147.499
0.555                  -0.470955        -148.415         -56.9437        -121.635         -56.9438        -121.639       -0.0124202         147.428
0.556                  -0.480319        -149.041         -56.8708        -122.977         -56.8709        -122.981       -0.0125322         147.358
0.557                  -0.490133        -149.675         -56.7952        -124.313         -56.7952        -124.316       -0.0126457         147.287
0.558                  -0.500422        -150.315         -56.7167        -125.644         -56.7167        -125.646       -0.0127606         147.217
0.559                  -0.511216        -150.963         -56.6354         -126.97         -56.6354        -126.972       -0.0128769         147.146
0.56                   -0.522542        -151.619         -56.5513        -128.293         -56.5513        -128.295       -0.0129947         147.075
0.561                  -0.534433        -152.283         -56.4644        -129.613         -56.4643        -129.614       -0.0131141         147.004
0.562                  -0.546922        -152.954         -56.3747         -130.93         -56.3745        -130.932       -0.0132349         146.933
0.563                  -0.560044        -153.634         -56.2821        -132.246         -56.2819        -132.247       -0.0133574         146.861
0.564                  -0.573838        -154.321         -56.1867        -133.562         -56.1865        -133.562       -0.0134814          146.79
0.565                  -0.588344        -155.018         -56.0884        -134.877         -56.0882        -134.877        -0.013607         146.718
0.566                  -0.603605        -155.723         -55.9874        -136.192         -55.9871        -136.192       -0.0137342         146.646
0.567                  -0.619667        -156.437         -55.8835        -137.509         -55.8832        -137.509        -0.013863         146.575
0.568                   -0.63658         -157.16         -55.7768        -138.828         -55.7765        -138.828       -0.0139936         146.503
0.569                  -0.654395        -157.893         -55.6673        -140.149          -55.667        -140.149       -0.0141258          146.43
0.57                    -0.67317        -158.635         -55.5549        -141.474         -55.5547        -141.474       -0.0142598         146.358
0.571                  -0.692965        -159.386         -55.4398        -142.803         -55.4395        -142.803       -0.0143955         146.286
0.572                  -0.713843        -160.148         -55.3219        -144.137         -55.3216        -144.137        -0.014533         146.213
0.573                  -0.735874         -160.92         -55.2012        -145.477         -55.2009        -145.476       -0.0146723          146.14
0.574                  -0.759132        -161.703         -55.0778        -146.823         -55.0775        -146.822       -0.0148135         146.068
0.575                  -0.783697        -162.496         -54.9516        -148.176         -54.9513        -148.175       -0.0149565         145.995
0.576                  -0.809652          -163.3         -54.8227        -149.538         -54.8224        -149.537       -0.0151014         145.921
0.577                   -0.83709        -164.115         -54.6911        -150.908         -54.6908        -150.907       -0.0152482         145.848
0.578                  -0.866107        -164.942         -54.5569        -152.288         -54.5566        -152.287        -0.015397         145.775
0.579                  -0.896811         -165.78         -54.4199        -153.678         -54.4197        -153.677       -0.0155477         145.701
0.58                   -0.929312         -166.63         -54.2804         -155.08         -54.2801        -155.079       -0.0157005         145.627
0.581                  -0.963733        -167.491         -54.1383        -156.494          -54.138        -156.493       -0.0158553         145.553
0.582                    -1.0002        -168.365         -53.9937        -157.921         -53.9934         -157.92       -0.0160122         145.479
0.583                   -1.03886        -169.251         -53.8465        -159.363         -53.8463        -159.362       -0.0161712         145.405
0.584                   -1.07987         -170.15          -53.697         -160.82         -53.6967        -160.819       -0.0163324         145.331
0.585                   -1.12337        -171.061          -53.545        -162.293         -53.5448        -162.292       -0.0164957         145.256
0.586                   -1.16955        -171.984         -53.3908        -163.783         -53.3906        -163.783       -0.0166612         145.181
0.587                   -1.21859         -172.92         -53.2343        -165.292         -53.2342        -165.291        -0.016829         145.107
0.588                    -1.2707        -173.869         -53.0757         -166.82         -53.0756        -166.819       -0.0169991         145.032
0.589                   -1.32608         -174.83          -52.915        -168.368         -52.9149        -168.368       -0.0171714         144.956
0.59                    -1.38498        -175.804         -52.7524        -169.939         -52.7523        -169.938       -0.0173461         144.881
0.591                   -1.44763         -176.79          -52.588        -171.531         -52.5879        -171.531       -0.0175232         144.805
0.592                   -1.51431        -177.787         -52.4219        -173.148         -52.4218        -173.148       -0.0177027          144.73
0.593                    -1.5853        -178.796         -52.2542         -174.79         -52.2541        -174.789       -0.0178847         144.654
0.594                   -1.66089        -179.816         -52.0851        -176.458         -52.0851        -176.457       -0.0180691         144.578
0.595                   -1.74142         179.154         -51.9148        -178.153         -51.9148        -178.153       -0.0182561         144.501
0.596                   -1.82723         178.114         -51.7435        -179.877         -51.7435        -179.876       -0.0184456         144.425
0.597                   -1.91869         177.067         -51.5713          178.37         -51.5714          178.37       -0.0186377         144.348
0.598                   -2.01618         176.013         -51.3986         176.586         -51.3987         176.586       -0.0188324         144.271
0.599                   -2.12011         174.953         -51.2255          174.77         -51.2256          174.77       -0.0190297         144.194
0.6                     -2.23091          173.89         -51.0523         172.922         -51.0525         172.922       -0.0192298         144.117
0.601                   -2.34903         172.826         -50.8794          171.04         -50.8796          171.04       -0.0194325          144.04
0.602                   -2.47493         171.764          -50.707         169.123         -50.7072         169.123        -0.019638         143.962
0.603                   -2.60909         170.706         -50.5355         167.171         -50.5357         167.172       -0.0198463         143.884
0.604                     -2.752         169.657         -50.3653         165.184         -50.3655         165.184       -0.0200573         143.806
0.605                   -2.90415          168.62         -50.1966          163.16         -50.1968         163.161       -0.0202712         143.728
0.606                   -3.06603         167.601           -50.03           161.1         -50.0302           161.1       -0.0204879          143.65
0.607                    -3.2381         166.605         -49.8658         159.004          -49.866         159.004       -0.0207076         143.571
0.608                   -3.42081         165.639         -49.7045         156.871         -49.7047         156.871       -0.0209301         143.492
0.609                   -3.61456          164.71         -49.5465         154.702         -49.5468         154.703       -0.0211556         143.413
0.61                    -3.81966         163.826         -49.3923         152.499         -49.3926         152.499       -0.0213842         143.334
0.611                   -4.03635         162.998         -49.2424         150.261         -49.2426         150.261       -0.0216157         143.255
0.612                   -4.26473         162.235         -49.0972          147.99         -49.0974         147.991       -0.0218504         143.175
0.613                   -4.50473         161.549         -48.9571         145.689         -48.9574         145.689       -0.0220883         143.095
0.614                   -4.75607         160.954         -48.8228         143.358         -48.8231         143.358       -0.0223295         143.015
0.615                    -5.0182         160.464         -48.6945             141         -48.6948         141.001        -0.022574         142.935
0.616                   -5.29021         160.093         -48.5727         138.619          -48.573         138.619       -0.0228221         142.854
0.617                   -5.57079         159.858         -48.4578         136.216         -48.4581         136.217       -0.0230737         142.773
0.618                   -5.85813         159.775         -48.3501         133.796         -48.3504         133.796       -0.0233292         142.692
0.619                   -6.14985          159.86         -48.2499         131.362         -48.2501         131.362       -0.0235885         142.611
0.62                    -6.44292         160.129         -48.1575         128.917         -48.1577         128.917       -0.0238519         142.529
0.621                   -6.73361         160.594         -48.0729         126.466         -48.0731         126.466       -0.0241195         142.448
0.622                   -7.01749         161.265         -47.9964         124.013         -47.9966         124.013       -0.0243914         142.366
0.623                   -7.28945         162.147          -47.928         121.562         -47.9282         121.563       -0.0246677         142.283
0.624                   -7.54385         163.238         -47.8676         119.118         -47.8678         119.118       -0.0249485         142.201
0.625                   -7.77477         164.528         -47.8153         116.685         -47.8154         116.685        -0.025234         142.118
0.626                   -7.97632         165.997         -47.7707         114.267         -47.7709         114.267       -0.0255242         142.035
0.627                    -8.1431         167.615         -47.7338         111.869         -47.7339         111.868       -0.0258191         141.951
0.628                   -8.27068         169.345         -47.7042         109.493         -47.7043         109.492       -0.0261189         141.868
0.629                     -8.356          171.14         -47.6816         107.144         -47.6817         107.143       -0.0264235         141.784
