! TOUCHSTONE file generated by CST MICROWAVE STUDIO
! Date and time: Thu Feb 11 19:33:23 2021
! Project name: Scenario_1_Planar_Body_Tissue_Out_of_Line.cst
! Parameters = {L_HA=400; Ltissue=1000; MT=2.54; Rad_Dielectric=30; Rad_Lower=7.3; Rad_Upper=30; Wtissue=1000; a_HA=580; a_WG=246; b_HA=500; b_WG=121; c_HA=0; c_WG=187; d_feed=85; dx1=346; dy1=-17.3; h_feed=15; h_lower=18; h_upper=40; hfat=3; hgap=25; hmuscle=50; hskin=1.5}
! Header version: 2018
! Port assignment regex: !\s*Touchstone port\s*([0-9]+)\s*=\s*(CST MWS port|CST DS port)\s*([0-9]+|Zmin|Zmax)\s*\(\"(.*)\"\)(\s*mode\s*([0-9]+))?.*
! Touchstone port assignment:
! Touchstone port 1 = CST MWS port 1 ("")
! Touchstone port 2 = CST MWS port 2 ("")
# GHz S DB R 50
0.5                    -0.269384        -121.503         -55.4251         35.6085         -55.4252         35.6086      -0.00800422         151.133
0.501                  -0.271044        -121.912         -55.4431         33.9667         -55.4433         33.9658      -0.00807505         151.068
0.502                  -0.272733        -122.323         -55.4574         32.3284         -55.4578         32.3266      -0.00814607         151.002
0.503                  -0.274451        -122.736          -55.468          30.694         -55.4685         30.6913      -0.00821729         150.937
0.504                  -0.276199        -123.152         -55.4748         29.0637         -55.4754         29.0602      -0.00828873         150.872
0.505                  -0.277978         -123.57         -55.4778          27.438         -55.4786         27.4337      -0.00836037         150.806
0.506                   -0.27979         -123.99         -55.4771         25.8172          -55.478         25.8121      -0.00843223         150.741
0.507                  -0.281634        -124.412         -55.4726         24.2016         -55.4736         24.1958      -0.00850432         150.675
0.508                  -0.283513        -124.837         -55.4644         22.5915         -55.4655          22.585      -0.00857663          150.61
0.509                  -0.285428        -125.265         -55.4525         20.9873         -55.4536         20.9801      -0.00864918         150.544
0.51                   -0.287379        -125.695         -55.4368         19.3893          -55.438         19.3815      -0.00872197         150.478
0.511                  -0.289369        -126.128         -55.4174         17.7978         -55.4187         17.7895      -0.00879501         150.412
0.512                  -0.291399        -126.563         -55.3944         16.2131         -55.3957         16.2043       -0.0088683         150.346
0.513                   -0.29347        -127.001         -55.3676         14.6356          -55.369         14.6263      -0.00894185          150.28
0.514                  -0.295584        -127.442         -55.3373         13.0655         -55.3387         13.0557      -0.00901567         150.214
0.515                  -0.297743        -127.886         -55.3033          11.503         -55.3048         11.4928      -0.00908976         150.148
0.516                  -0.299949        -128.332         -55.2658         9.94847         -55.2673         9.93791      -0.00916414         150.081
0.517                  -0.302204        -128.781         -55.2247         8.40211         -55.2262         8.39121       -0.0092388         150.015
0.518                  -0.304509        -129.234         -55.1801         6.86414         -55.1817         6.85295      -0.00931376         149.948
0.519                  -0.306868        -129.689         -55.1321         5.33477         -55.1336         5.32331      -0.00938902         149.882
0.52                   -0.309282        -130.147         -55.0806         3.81417         -55.0822         3.80249      -0.00946459         149.815
0.521                  -0.311755        -130.609         -55.0257         2.30253         -55.0274         2.29066      -0.00954048         149.749
0.522                  -0.314288        -131.073         -54.9676        0.799973         -54.9692        0.787947       -0.0096167         149.682
0.523                  -0.316885        -131.541         -54.9061       -0.693361         -54.9077       -0.705509      -0.00969326         149.615
0.524                  -0.319548        -132.013         -54.8414        -2.17737          -54.843        -2.18961      -0.00977016         149.548
0.525                  -0.322282        -132.487         -54.7735        -3.65197          -54.775        -3.66427      -0.00984741         149.481
0.526                  -0.325089        -132.966         -54.7024         -5.1171         -54.7039        -5.12942      -0.00992503         149.413
0.527                  -0.327973        -133.447         -54.6282        -6.57271         -54.6297        -6.58503        -0.010003         149.346
0.528                  -0.330938        -133.933         -54.5509        -8.01877         -54.5525        -8.03107       -0.0100814         149.279
0.529                  -0.333988        -134.422         -54.4707         -9.4553         -54.4722        -9.46753       -0.0101601         149.211
0.53                   -0.337127        -134.914         -54.3874        -10.8823         -54.3889        -10.8944       -0.0102393         149.144
0.531                   -0.34036        -135.411         -54.3013        -12.2998         -54.3027        -12.3118       -0.0103189         149.076
0.532                  -0.343692        -135.912         -54.2122        -13.7079         -54.2136        -13.7198       -0.0103989         149.008
0.533                  -0.347128        -136.416         -54.1203        -15.1066         -54.1217        -15.1184       -0.0104793          148.94
0.534                  -0.350674        -136.925         -54.0256        -16.4961          -54.027        -16.5076       -0.0105602         148.873
0.535                  -0.354335        -137.438         -53.9282        -17.8764         -53.9295        -17.8878       -0.0106415         148.804
0.536                  -0.358117        -137.955          -53.828        -19.2476         -53.8293        -19.2588       -0.0107233         148.736
0.537                  -0.362028        -138.477         -53.7251        -20.6101         -53.7264         -20.621       -0.0108055         148.668
0.538                  -0.366075        -139.003         -53.6196        -21.9638         -53.6208        -21.9745       -0.0108883           148.6
0.539                  -0.370264        -139.534         -53.5115         -23.309         -53.5127        -23.3194       -0.0109716         148.531
0.54                   -0.374604         -140.07         -53.4008        -24.6458          -53.402         -24.656       -0.0110554         148.463
0.541                  -0.379104         -140.61         -53.2876        -25.9745         -53.2887        -25.9844       -0.0111397         148.394
0.542                  -0.383772        -141.156         -53.1718        -27.2954         -53.1729         -27.305       -0.0112245         148.325
0.543                  -0.388618        -141.706         -53.0536        -28.6086         -53.0546        -28.6179       -0.0113099         148.256
0.544                  -0.393652        -142.262         -52.9329        -29.9144         -52.9339        -29.9234       -0.0113959         148.187
0.545                  -0.398886        -142.823         -52.8097         -31.213         -52.8107        -31.2217       -0.0114825         148.118
0.546                  -0.404331        -143.389         -52.6842        -32.5049         -52.6851        -32.5132       -0.0115697         148.049
0.547                      -0.41        -143.962         -52.5562        -33.7902         -52.5571        -33.7982       -0.0116575          147.98
0.548                  -0.415905         -144.54         -52.4259        -35.0692         -52.4268        -35.0769        -0.011746          147.91
0.549                  -0.422061        -145.123         -52.2932        -36.3424          -52.294        -36.3497       -0.0118351         147.841
0.55                   -0.428484        -145.713         -52.1582          -37.61          -52.159         -37.617       -0.0119248         147.771
0.551                  -0.435189         -146.31         -52.0208        -38.8724         -52.0216         -38.879       -0.0120153         147.701
0.552                  -0.442194        -146.912         -51.8812        -40.1299         -51.8818        -40.1362       -0.0121065         147.631
0.553                  -0.449517        -147.521         -51.7392        -41.3829         -51.7398        -41.3889       -0.0121984         147.561
0.554                  -0.457178        -148.137         -51.5949        -42.6318         -51.5955        -42.6374       -0.0122911         147.491
0.555                  -0.465199         -148.76         -51.4483        -43.8771         -51.4489        -43.8823       -0.0123845         147.421
0.556                  -0.473603         -149.39         -51.2994         -45.119         -51.2999         -45.124       -0.0124788          147.35
0.557                  -0.482413        -150.027         -51.1482        -46.3581         -51.1487        -46.3627       -0.0125739          147.28
0.558                  -0.491656        -150.672         -50.9948        -47.5948         -50.9953        -47.5991       -0.0126698         147.209
0.559                   -0.50136        -151.325          -50.839        -48.8296         -50.8395        -48.8335       -0.0127666         147.138
0.56                   -0.511555        -151.985          -50.681        -50.0628         -50.6814        -50.0664       -0.0128643         147.067
0.561                  -0.522274        -152.654         -50.5207        -51.2951          -50.521        -51.2984       -0.0129629         146.996
0.562                  -0.533552        -153.331          -50.358        -52.5269         -50.3584        -52.5299       -0.0130625         146.925
0.563                  -0.545426        -154.017         -50.1931        -53.7587         -50.1934        -53.7614       -0.0131631         146.854
0.564                  -0.557936        -154.712         -50.0259         -54.991         -50.0261        -54.9934       -0.0132648         146.782
0.565                  -0.571126        -155.416         -49.8563        -56.2245         -49.8565        -56.2266       -0.0133674         146.711
0.566                  -0.585043         -156.13         -49.6844        -57.4597         -49.6846        -57.4615       -0.0134712         146.639
0.567                  -0.599738        -156.853         -49.5102        -58.6972         -49.5104        -58.6987       -0.0135761         146.567
0.568                  -0.615264        -157.586         -49.3337        -59.9375         -49.3338        -59.9388       -0.0136822         146.495
0.569                   -0.63168         -158.33         -49.1548        -61.1814         -49.1549        -61.1824       -0.0137896         146.423
0.57                   -0.649051        -159.084         -48.9735        -62.4295         -48.9736        -62.4303       -0.0138982         146.351
0.571                  -0.667444        -159.849         -48.7898        -63.6824         -48.7899         -63.683       -0.0140081         146.278
0.572                  -0.686934        -160.626         -48.6038         -64.941         -48.6038        -64.9413       -0.0141194         146.206
0.573                  -0.707601        -161.414         -48.4154        -66.2058         -48.4154         -66.206       -0.0142321         146.133
0.574                  -0.729532        -162.214         -48.2246        -67.4778         -48.2245        -67.4777       -0.0143462          146.06
0.575                  -0.752821        -163.026         -48.0313        -68.7576         -48.0313        -68.7573        -0.014462         145.987
0.576                  -0.777569        -163.851         -47.8357        -70.0461         -47.8356        -70.0457       -0.0145793         145.914
0.577                  -0.803889        -164.689         -47.6376        -71.3442         -47.6375        -71.3436       -0.0146983          145.84
0.578                  -0.831898        -165.541         -47.4372        -72.6527          -47.437         -72.652       -0.0148191         145.767
0.579                  -0.861728        -166.405         -47.2343        -73.9726         -47.2341        -73.9717       -0.0149417         145.693
0.58                   -0.893519        -167.284          -47.029        -75.3049         -47.0288        -75.3038       -0.0150662         145.619
0.581                  -0.927426        -168.177         -46.8212        -76.6504          -46.821        -76.6493       -0.0151927         145.545
0.582                  -0.963613        -169.085         -46.6111        -78.0104         -46.6109        -78.0091       -0.0153214         145.471
0.583                   -1.00226        -170.008         -46.3986        -79.3858         -46.3983        -79.3845       -0.0154522         145.397
0.584                   -1.04357        -170.946         -46.1838        -80.7778         -46.1835        -80.7764       -0.0155853         145.322
0.585                   -1.08775        -171.899         -45.9666        -82.1876         -45.9663        -82.1861       -0.0157209         145.247
0.586                   -1.13504        -172.868         -45.7471        -83.6164         -45.7468        -83.6149        -0.015859         145.173
0.587                   -1.18568        -173.853         -45.5254        -85.0654          -45.525        -85.0638       -0.0159997         145.098
0.588                   -1.23996        -174.854         -45.3014         -86.536          -45.301        -86.5344       -0.0161433         145.022
0.589                   -1.29816         -175.87         -45.0753        -88.0295         -45.0749        -88.0279       -0.0162899         144.947
0.59                    -1.36061        -176.902         -44.8472        -89.5473         -44.8468        -89.5457       -0.0164396         144.871
0.591                   -1.42767         -177.95         -44.6171        -91.0909         -44.6167        -91.0893       -0.0165925         144.796
0.592                    -1.4997        -179.013         -44.3851        -92.6617         -44.3846        -92.6601       -0.0167489          144.72
0.593                   -1.57713         179.909         -44.1513        -94.2612         -44.1509        -94.2598        -0.016909         144.643
0.594                   -1.66038         178.817          -43.916        -95.8911         -43.9155        -95.8897       -0.0170729         144.567
0.595                   -1.74995         177.712         -43.6791        -97.5529         -43.6787        -97.5516       -0.0172408         144.491
0.596                   -1.84633         176.595          -43.441        -99.2483         -43.4405         -99.247       -0.0174129         144.414
0.597                   -1.95008         175.468         -43.2018        -100.979         -43.2013        -100.978       -0.0175895         144.337
0.598                   -2.06179         174.333         -42.9617        -102.746         -42.9612        -102.745       -0.0177708          144.26
0.599                   -2.18208         173.192         -42.7209        -104.551         -42.7204         -104.55        -0.017957         144.182
0.6                      -2.3116         172.048         -42.4799        -106.397         -42.4794        -106.396       -0.0181484         144.105
0.601                   -2.45104         170.905         -42.2387        -108.284         -42.2383        -108.283       -0.0183451         144.027
0.602                   -2.60113         169.767         -41.9979        -110.214         -41.9975        -110.213       -0.0185475         143.949
0.603                   -2.76258          168.64         -41.7578        -112.188         -41.7573        -112.187       -0.0187557         143.871
0.604                   -2.93616         167.529         -41.5187        -114.207         -41.5183        -114.207       -0.0189701         143.793
0.605                   -3.12259         166.443         -41.2812        -116.274         -41.2808        -116.273       -0.0191908         143.714
0.606                    -3.3226         165.388         -41.0457        -118.387         -41.0452        -118.387       -0.0194181         143.635
0.607                   -3.53683         164.376         -40.8126        -120.549         -40.8122        -120.549       -0.0196522         143.556
0.608                   -3.76588         163.419         -40.5826        -122.759         -40.5823         -122.76       -0.0198933         143.477
0.609                   -4.01018         162.529         -40.3563        -125.018         -40.3559        -125.019       -0.0201414         143.398
0.61                       -4.27         161.721         -40.1341        -127.326         -40.1338        -127.326       -0.0203969         143.318
0.611                   -4.54533         161.014         -39.9168        -129.681         -39.9165        -129.681       -0.0206597         143.238
0.612                   -4.83582         160.426         -39.7049        -132.083         -39.7046        -132.083         -0.02093         143.158
0.613                   -5.14069         159.978         -39.4991         -134.53         -39.4989         -134.53       -0.0212078         143.078
0.614                   -5.45855         159.694            -39.3         -137.02         -39.2998         -137.02       -0.0214931         142.998
0.615                    -5.7873         159.598         -39.1083         -139.55         -39.1081        -139.551       -0.0217858         142.917
0.616                   -6.12395         159.716         -38.9245        -142.119         -38.9244        -142.119       -0.0220859         142.836
0.617                   -6.46448          160.07         -38.7492        -144.721         -38.7491        -144.721       -0.0223931         142.755
0.618                   -6.80369         160.683          -38.583        -147.353         -38.5829        -147.353       -0.0227072         142.674
0.619                   -7.13516         161.571         -38.4261         -150.01         -38.4261        -150.011       -0.0230281         142.592
0.62                    -7.45128         162.744         -38.2791        -152.688         -38.2791        -152.689       -0.0233554         142.511
0.621                   -7.74349         164.197         -38.1422        -155.382         -38.1423        -155.382       -0.0236888         142.429
0.622                   -8.00273         165.915         -38.0157        -158.085         -38.0158        -158.086       -0.0240279         142.346
0.623                   -8.22018         167.864         -37.8996        -160.793         -37.8997        -160.793       -0.0243724         142.264
0.624                    -8.3881         169.993          -37.794        -163.499         -37.7941        -163.499       -0.0247217         142.182
0.625                   -8.50079         172.237         -37.6987        -166.197         -37.6988        -166.197       -0.0250755         142.099
0.626                   -8.55535         174.523         -37.6136        -168.883         -37.6137        -168.883       -0.0254333         142.016
0.627                   -8.55208         176.773         -37.5384        -171.551         -37.5386         -171.55       -0.0257948         141.932
0.628                   -8.49432         178.916         -37.4727        -174.195         -37.4729        -174.194       -0.0261594         141.849
0.629                   -8.38798        -179.109         -37.4161        -176.811         -37.4163         -176.81       -0.0265268         141.765
