! TOUCHSTONE file generated by CST MICROWAVE STUDIO
! Date and time: Tue Nov 17 07:13:34 2020
! Project name: Scenario_1_Planar_Body_Tissue_Out_of_Line.cst
! Header version: 2018
! Port assignment regex: !\s*Touchstone port\s*([0-9]+)\s*=\s*(CST MWS port|CST DS port)\s*([0-9]+|Zmin|Zmax)\s*\(\"(.*)\"\)(\s*mode\s*([0-9]+))?.*
! Touchstone port assignment:
! Touchstone port 1 = CST MWS port 1 ("")
! Touchstone port 2 = CST MWS port 2 ("")
# GHz S DB R 50
0.5                    -0.163615        -121.553         -63.2362        -16.5525          -63.236        -16.5525      -0.00765448         151.144
0.501                  -0.165342         -121.99         -63.1861        -17.8545          -63.186        -17.8546      -0.00771382         151.079
0.502                  -0.167164        -122.429         -63.1332        -19.1764         -63.1331        -19.1765      -0.00777385         151.014
0.503                  -0.169084        -122.872         -63.0773        -20.5184         -63.0772        -20.5186      -0.00783456         150.948
0.504                  -0.171107        -123.317         -63.0183        -21.8808         -63.0182        -21.8811      -0.00789598         150.883
0.505                   -0.17324        -123.766          -62.956        -23.2638          -62.956        -23.2642      -0.00795811         150.817
0.506                  -0.175487        -124.218         -62.8905        -24.6677         -62.8904        -24.6682      -0.00802096         150.752
0.507                  -0.177856        -124.673         -62.8214        -26.0929         -62.8214        -26.0934      -0.00808455         150.686
0.508                  -0.180352        -125.132         -62.7488        -27.5394         -62.7488          -27.54       -0.0081489          150.62
0.509                  -0.182983        -125.593         -62.6725        -29.0077         -62.6725        -29.0084      -0.00821401         150.555
0.51                   -0.185757        -126.059         -62.5924        -30.4979         -62.5923        -30.4987      -0.00827991         150.489
0.511                  -0.188683        -126.527         -62.5083        -32.0104         -62.5083        -32.0112       -0.0083466         150.423
0.512                   -0.19177            -127         -62.4202        -33.5453         -62.4201        -33.5462       -0.0084141         150.356
0.513                  -0.195028        -127.476         -62.3278         -35.103         -62.3277        -35.1039      -0.00848244          150.29
0.514                  -0.198467        -127.956         -62.2311        -36.6837          -62.231        -36.6847      -0.00855162         150.224
0.515                  -0.202101         -128.44         -62.1299        -38.2878         -62.1299        -38.2888      -0.00862168         150.158
0.516                  -0.205942        -128.928         -62.0241        -39.9155         -62.0241        -39.9165      -0.00869262         150.091
0.517                  -0.210005         -129.42         -61.9136        -41.5671         -61.9136        -41.5682      -0.00876448         150.025
0.518                  -0.214305        -129.917         -61.7983         -43.243         -61.7982        -43.2441      -0.00883726         149.958
0.519                  -0.218859        -130.418         -61.6779        -44.9435         -61.6779        -44.9447        -0.008911         149.891
0.52                   -0.223686        -130.923         -61.5525        -46.6691         -61.5525        -46.6702      -0.00898573         149.825
0.521                  -0.228807        -131.433         -61.4218          -48.42         -61.4218        -48.4212      -0.00906146         149.758
0.522                  -0.234244        -131.948         -61.2858        -50.1968         -61.2858         -50.198      -0.00913822         149.691
0.523                  -0.240023        -132.468         -61.1444             -52         -61.1443        -52.0012      -0.00921605         149.624
0.524                   -0.24617        -132.993         -60.9973          -53.83         -60.9973        -53.8312      -0.00929498         149.557
0.525                  -0.252716        -133.523         -60.8445        -55.6876         -60.8445        -55.6888      -0.00937503         149.489
0.526                  -0.259695        -134.058          -60.686        -57.5732          -60.686        -57.5744      -0.00945626         149.422
0.527                  -0.267144        -134.599         -60.5216        -59.4877         -60.5215        -59.4889      -0.00953868         149.355
0.528                  -0.275103        -135.146         -60.3512        -61.4319         -60.3511        -61.4331      -0.00962235         149.287
0.529                  -0.283619        -135.698         -60.1747        -63.4066         -60.1747        -63.4078       -0.0097073         149.219
0.53                   -0.292742        -136.257         -59.9921        -65.4129         -59.9921         -65.414      -0.00979358         149.152
0.531                  -0.302528        -136.822         -59.8033        -67.4518         -59.8033        -67.4529      -0.00988123         149.084
0.532                   -0.31304        -137.393         -59.6082        -69.5245         -59.6082        -69.5256      -0.00997031         149.016
0.533                  -0.324347         -137.97         -59.4069        -71.6324         -59.4069        -71.6335       -0.0100609         148.948
0.534                  -0.336528        -138.554         -59.1993         -73.777         -59.1993         -73.778       -0.0101529          148.88
0.535                  -0.349669        -139.145         -58.9854        -75.9599         -58.9854        -75.9609       -0.0102466         148.812
0.536                  -0.363867        -139.743         -58.7652        -78.1829         -58.7652        -78.1838       -0.0103419         148.743
0.537                   -0.37923        -140.348         -58.5388         -80.448         -58.5388        -80.4488        -0.010439         148.675
0.538                  -0.395878         -140.96         -58.3063        -82.7573         -58.3062         -82.758       -0.0105378         148.606
0.539                  -0.413946        -141.579         -58.0677        -85.1131         -58.0676        -85.1138       -0.0106384         148.538
0.54                   -0.433585        -142.205         -57.8232        -87.5181         -57.8231        -87.5187       -0.0107409         148.469
0.541                  -0.454959        -142.838          -57.573        -89.9749         -57.5729        -89.9754       -0.0108454           148.4
0.542                  -0.478254        -143.477         -57.3173        -92.4865         -57.3172        -92.4869       -0.0109519         148.331
0.543                  -0.503674        -144.122         -57.0564         -95.056         -57.0563        -95.0564       -0.0110606         148.262
0.544                  -0.531443        -144.773         -56.7907        -97.6868         -56.7906        -97.6871       -0.0111713         148.193
0.545                  -0.561804        -145.429         -56.5205        -100.382         -56.5204        -100.383       -0.0112843         148.124
0.546                  -0.595021        -146.089         -56.2464        -103.146         -56.2463        -103.146       -0.0113995         148.054
0.547                  -0.631376         -146.75         -55.9691        -105.982         -55.9689        -105.982       -0.0115171         147.985
0.548                  -0.671163        -147.413          -55.689        -108.894         -55.6889        -108.894       -0.0116369         147.915
0.549                   -0.71468        -148.073         -55.4072        -111.886          -55.407        -111.886       -0.0117591         147.846
0.55                   -0.762222        -148.729         -55.1244         -114.96         -55.1243         -114.96       -0.0118836         147.776
0.551                  -0.814059        -149.377         -54.8418        -118.122         -54.8417        -118.121       -0.0120105         147.706
0.552                  -0.870417        -150.011         -54.5606        -121.372         -54.5604        -121.372       -0.0121397         147.636
0.553                  -0.931441        -150.629          -54.282        -124.715         -54.2818        -124.714       -0.0122711         147.566
0.554                  -0.997157        -151.222         -54.0075        -128.151         -54.0073         -128.15       -0.0124047         147.496
0.555                   -1.06742        -151.784         -53.7388        -131.681         -53.7386         -131.68       -0.0125404         147.425
0.556                   -1.14184        -152.307         -53.4775        -135.304         -53.4772        -135.304       -0.0126781         147.355
0.557                   -1.21975        -152.784         -53.2254        -139.019         -53.2252        -139.018       -0.0128176         147.284
0.558                   -1.30011        -153.206         -52.9844        -142.821         -52.9842        -142.821       -0.0129588         147.213
0.559                   -1.38148        -153.566         -52.7564        -146.705         -52.7561        -146.705       -0.0131015         147.143
0.56                    -1.46199        -153.858         -52.5431        -150.664         -52.5429        -150.664       -0.0132456         147.072
0.561                   -1.53944         -154.08         -52.3464        -154.688         -52.3461        -154.687       -0.0133908         147.001
0.562                   -1.61134        -154.233         -52.1677        -158.765         -52.1674        -158.765       -0.0135369          146.93
0.563                   -1.67513        -154.323         -52.0083        -162.882          -52.008        -162.882       -0.0136839         146.858
0.564                   -1.72845        -154.359         -51.8693        -167.024          -51.869        -167.024       -0.0138314         146.787
0.565                   -1.76936        -154.358         -51.7514        -171.175          -51.751        -171.176       -0.0139795         146.715
0.566                   -1.79663        -154.337         -51.6546         -175.32         -51.6543         -175.32       -0.0141278         146.644
0.567                   -1.80982        -154.318          -51.579         -179.44         -51.5787         -179.44       -0.0142763         146.572
0.568                   -1.80939        -154.319          -51.524          176.48         -51.5237         176.479       -0.0144249           146.5
0.569                   -1.79655        -154.359         -51.4886         172.454         -51.4883         172.454       -0.0145736         146.428
0.57                    -1.77307        -154.452         -51.4717         168.497         -51.4714         168.497       -0.0147223         146.356
0.571                    -1.7411        -154.608         -51.4717         164.621         -51.4715          164.62        -0.014871         146.284
0.572                   -1.70284        -154.832         -51.4871         160.835         -51.4868         160.834       -0.0150197         146.211
0.573                   -1.66045        -155.127         -51.5158         157.147         -51.5157         157.146       -0.0151685         146.139
0.574                   -1.61584         -155.49         -51.5562         153.564          -51.556         153.563       -0.0153175         146.066
0.575                   -1.57064        -155.919         -51.6063         150.087         -51.6062         150.086       -0.0154667         145.993
0.576                   -1.52614        -156.409         -51.6643         146.721         -51.6641          146.72       -0.0156162          145.92
0.577                   -1.48335        -156.955         -51.7283         143.464         -51.7282         143.463       -0.0157662         145.847
0.578                   -1.44301         -157.55         -51.7969         140.317         -51.7968         140.316       -0.0159167         145.774
0.579                   -1.40563        -158.189         -51.8683         137.277         -51.8683         137.276        -0.016068           145.7
0.58                    -1.37153        -158.868         -51.9413          134.34         -51.9413         134.339         -0.01622         145.626
0.581                   -1.34091        -159.581         -52.0146         131.504         -52.0146         131.503       -0.0163731         145.553
0.582                   -1.31386        -160.326          -52.087         128.764          -52.087         128.763       -0.0165272         145.479
0.583                    -1.2904        -161.097         -52.1576         126.115         -52.1576         126.114       -0.0166826         145.405
0.584                   -1.27049        -161.893         -52.2255         123.553         -52.2255         123.552       -0.0168393          145.33
0.585                   -1.25408        -162.711         -52.2899         121.073           -52.29         121.072       -0.0169975         145.256
0.586                   -1.24109        -163.549         -52.3502         118.669         -52.3503         118.668       -0.0171573         145.181
0.587                   -1.23143        -164.406         -52.4058         116.336         -52.4058         116.336       -0.0173188         145.106
0.588                   -1.22503         -165.28         -52.4562          114.07         -52.4562          114.07       -0.0174821         145.031
0.589                   -1.22181        -166.171          -52.501         111.866          -52.501         111.866       -0.0176472         144.956
0.59                    -1.22172        -167.076         -52.5398         109.719         -52.5398         109.718       -0.0178144         144.881
0.591                   -1.22469        -167.997         -52.5724         107.623         -52.5724         107.623       -0.0179836         144.805
0.592                   -1.23071        -168.932         -52.5984         105.575         -52.5985         105.575        -0.018155          144.73
0.593                   -1.23974        -169.882         -52.6178         103.571         -52.6179         103.571       -0.0183287         144.654
0.594                    -1.2518        -170.845         -52.6303         101.605         -52.6304         101.605       -0.0185047         144.578
0.595                    -1.2669        -171.823         -52.6359         99.6734          -52.636         99.6734        -0.018683         144.502
0.596                   -1.28507        -172.814         -52.6344         97.7726         -52.6345         97.7727       -0.0188639         144.425
0.597                   -1.30637         -173.82         -52.6258         95.8984         -52.6258         95.8985       -0.0190472         144.349
0.598                   -1.33088        -174.839           -52.61         94.0469         -52.6101          94.047       -0.0192332         144.272
0.599                   -1.35869        -175.873          -52.587         92.2144         -52.5871         92.2145       -0.0194218         144.195
0.6                     -1.38992        -176.921         -52.5569         90.3971          -52.557         90.3972       -0.0196131         144.118
0.601                   -1.42469        -177.983         -52.5197         88.5915         -52.5197         88.5917       -0.0198072          144.04
0.602                   -1.46318         -179.06         -52.4754         86.7942         -52.4755         86.7943       -0.0200042         143.963
0.603                   -1.50556         179.849         -52.4241         85.0015         -52.4242         85.0017        -0.020204         143.885
0.604                   -1.55203         178.743          -52.366         83.2103         -52.3661         83.2105       -0.0204068         143.807
0.605                   -1.60282         177.623         -52.3011         81.4173         -52.3012         81.4174       -0.0206125         143.729
0.606                   -1.65818         176.488         -52.2297         79.6191         -52.2298         79.6193       -0.0208214          143.65
0.607                    -1.7184          175.34         -52.1519         77.8127         -52.1519         77.8129       -0.0210333         143.572
0.608                   -1.78379         174.178         -52.0678         75.9951         -52.0679         75.9952       -0.0212484         143.493
0.609                   -1.85467         173.003         -51.9778         74.1632         -51.9778         74.1633       -0.0214668         143.414
0.61                    -1.93141         171.815          -51.882         72.3142         -51.8821         72.3143       -0.0216884         143.335
0.611                   -2.01441         170.617         -51.7808         70.4453         -51.7809         70.4455       -0.0219134         143.255
0.612                   -2.10409         169.408         -51.6745         68.5539         -51.6746         68.5541       -0.0221418         143.176
0.613                   -2.20091         168.191         -51.5634         66.6375         -51.5635         66.6377       -0.0223737         143.096
0.614                   -2.30535         166.967         -51.4478         64.6938         -51.4479         64.6939       -0.0226091         143.016
0.615                   -2.41791         165.738         -51.3282         62.7204         -51.3283         62.7206       -0.0228482         142.935
0.616                   -2.53914         164.509          -51.205         60.7155         -51.2051         60.7157       -0.0230909         142.855
0.617                   -2.66959         163.281         -51.0786         58.6773         -51.0787         58.6776       -0.0233373         142.774
0.618                   -2.80982         162.059         -50.9495         56.6042         -50.9496         56.6045       -0.0235876         142.693
0.619                   -2.96041         160.848         -50.8182          54.495         -50.8183         54.4953       -0.0238418         142.611
0.62                    -3.12192         159.654         -50.6851         52.3486         -50.6853         52.3489       -0.0241001          142.53
0.621                   -3.29489         158.483         -50.5509         50.1643         -50.5511         50.1647       -0.0243624         142.448
0.622                   -3.47982         157.342         -50.4161         47.9419         -50.4162         47.9423       -0.0246289         142.366
0.623                   -3.67714         156.241         -50.2812         45.6812         -50.2813         45.6817       -0.0248997         142.284
0.624                   -3.88717          155.19         -50.1467         43.3828         -50.1469         43.3833       -0.0251749         142.201
0.625                    -4.1101         154.199         -50.0133         41.0472         -50.0134         41.0479       -0.0254547         142.118
0.626                   -4.34593         153.283         -49.8814         38.6757         -49.8816         38.6765       -0.0257391         142.035
0.627                    -4.5944         152.454         -49.7516         36.2698         -49.7518         36.2707       -0.0260284         141.952
0.628                   -4.85495         151.728         -49.6244         33.8314         -49.6245         33.8324       -0.0263226         141.868
0.629                   -5.12661         151.122         -49.5002         31.3627         -49.5003         31.3638        -0.026622         141.784
0.63                    -5.40793         150.654         -49.3795         28.8664         -49.3796         28.8675       -0.0269266           141.7
0.631                   -5.69689         150.341         -49.2626         26.3453         -49.2627         26.3465       -0.0272367         141.615
