! TOUCHSTONE file generated by CST MICROWAVE STUDIO
! Date and time: Sat Nov 14 20:37:46 2020
! Project name: Scenario_1_Planar_Body_Tissue_Out_of_Line_v2.cst
! Parameters = {dy1=0; L_HA=400; Ltissue=700; MT=2.54; Rad_Dielectric=30; Rad_Lower=7.3; Rad_Upper=30; Wtissue=700; a_HA=580; a_WG=246; b_HA=500; b_WG=121; c_HA=0; c_WG=187; d_feed=85; dx1=173; h_feed=15; h_lower=18; h_upper=40; hfat=3; hgap=25; hmuscle=50; hskin=1.5}
! Header version: 2018
! Port assignment regex: !\s*Touchstone port\s*([0-9]+)\s*=\s*(CST MWS port|CST DS port)\s*([0-9]+|Zmin|Zmax)\s*\(\"(.*)\"\)(\s*mode\s*([0-9]+))?.*
! Touchstone port assignment:
! Touchstone port 1 = CST MWS port 1 ("")
! Touchstone port 2 = CST MWS port 2 ("")
# GHz S DB R 50
0.5                   -0.0433903         -121.75         -56.8034         131.983         -56.8037         131.985      -0.00720824         151.149
0.501                 -0.0444497        -122.198         -56.6332         131.338         -56.6335         131.339      -0.00726882         151.084
0.502                 -0.0455697        -122.649         -56.4609         130.691         -56.4612         130.692      -0.00732981         151.018
0.503                  -0.046754        -123.104         -56.2866         130.042         -56.2869         130.043      -0.00739121         150.953
0.504                 -0.0480062        -123.562         -56.1102         129.391         -56.1104         129.393      -0.00745303         150.887
0.505                 -0.0493306        -124.025         -55.9316         128.739         -55.9319         128.741      -0.00751526         150.821
0.506                 -0.0507315         -124.49         -55.7508         128.085         -55.7511         128.086      -0.00757789         150.756
0.507                 -0.0522136         -124.96         -55.5678         127.428          -55.568          127.43      -0.00764094          150.69
0.508                 -0.0537821        -125.434         -55.3825          126.77         -55.3827         126.771       -0.0077044         150.624
0.509                 -0.0554425        -125.912         -55.1948         126.108         -55.1949          126.11      -0.00776826         150.558
0.51                  -0.0572006        -126.394         -55.0047         125.444         -55.0048         125.445      -0.00783253         150.492
0.511                 -0.0590629         -126.88         -54.8121         124.777         -54.8123         124.778      -0.00789721         150.426
0.512                 -0.0610364        -127.371          -54.617         124.107         -54.6171         124.108       -0.0079623          150.36
0.513                 -0.0631286        -127.867         -54.4193         123.433         -54.4195         123.434      -0.00802779         150.293
0.514                 -0.0653476        -128.367          -54.219         122.756         -54.2191         122.757      -0.00809371         150.227
0.515                 -0.0677023        -128.872          -54.016         122.075         -54.0161         122.076      -0.00816003          150.16
0.516                 -0.0702023        -129.383         -53.8101         121.389         -53.8102         121.391      -0.00822678         150.094
0.517                 -0.0728581        -129.898         -53.6014         120.699         -53.6015         120.701      -0.00829395         150.027
0.518                 -0.0756811        -130.419         -53.3898         120.005         -53.3899         120.006      -0.00836154          149.96
0.519                 -0.0786838        -130.946         -53.1752         119.305         -53.1753         119.306      -0.00842958         149.894
0.52                  -0.0818797        -131.478         -52.9575         118.599         -52.9575         118.601      -0.00849805         149.827
0.521                 -0.0852838        -132.017         -52.7366         117.888         -52.7366         117.889      -0.00856697          149.76
0.522                 -0.0889123        -132.561         -52.5125          117.17         -52.5125         117.171      -0.00863636         149.693
0.523                 -0.0927832        -133.112          -52.285         116.446          -52.285         116.447      -0.00870621         149.625
0.524                  -0.096916         -133.67          -52.054         115.714         -52.0541         115.715      -0.00877655         149.558
0.525                  -0.101332        -134.235         -51.8196         114.974         -51.8196         114.975       -0.0088474         149.491
0.526                  -0.106056        -134.807         -51.5814         114.226         -51.5814         114.227      -0.00891876         149.423
0.527                  -0.111114        -135.387         -51.3396         113.468         -51.3396         113.469      -0.00899067         149.356
0.528                  -0.116534        -135.974         -51.0938         112.701         -51.0938         112.702      -0.00906314         149.288
0.529                  -0.122349         -136.57         -50.8441         111.924         -50.8441         111.925       -0.0091362          149.22
0.53                   -0.128595        -137.174         -50.5903         111.135         -50.5903         111.136      -0.00920989         149.152
0.531                  -0.135312        -137.787         -50.3323         110.335         -50.3323         110.336      -0.00928424         149.084
0.532                  -0.142542         -138.41         -50.0699         109.521         -50.0699         109.522       -0.0093593         149.016
0.533                  -0.150337        -139.043          -49.803         108.694          -49.803         108.695      -0.00943512         148.948
0.534                   -0.15875        -139.686         -49.5315         107.851         -49.5315         107.852      -0.00951175          148.88
0.535                  -0.167844        -140.339         -49.2552         106.993         -49.2552         106.994      -0.00958926         148.811
0.536                  -0.177687        -141.004          -48.974         106.117         -48.9739         106.118      -0.00966773         148.743
0.537                  -0.188358        -141.682         -48.6877         105.223         -48.6876         105.223      -0.00974724         148.674
0.538                  -0.199943        -142.371         -48.3961         104.308          -48.396         104.308      -0.00982791         148.606
0.539                  -0.212543        -143.074         -48.0991         103.371          -48.099         103.371      -0.00990985         148.537
0.54                   -0.226268        -143.791         -47.7964         102.411         -47.7964         102.411      -0.00999319         148.468
0.541                  -0.241245        -144.523          -47.488         101.425          -47.488         101.425       -0.0100781         148.399
0.542                   -0.25762         -145.27         -47.1737         100.412         -47.1736         100.412       -0.0101648         148.329
0.543                  -0.275557        -146.034         -46.8531         99.3681         -46.8531         99.3682       -0.0102534          148.26
0.544                  -0.295243        -146.816         -46.5262         98.2921         -46.5262         98.2921       -0.0103443          148.19
0.545                  -0.316895        -147.616         -46.1928         97.1806         -46.1927         97.1807       -0.0104378         148.121
0.546                  -0.340759        -148.435         -45.8526         96.0307         -45.8525         96.0307       -0.0105341         148.051
0.547                   -0.36712        -149.275         -45.5055         94.8388         -45.5054         94.8387       -0.0106337         147.981
0.548                  -0.396307        -150.137         -45.1512         93.6012         -45.1512         93.6011       -0.0107371         147.911
0.549                  -0.428701        -151.023         -44.7896         92.3136         -44.7896         92.3134       -0.0108448         147.841
0.55                   -0.464743        -151.933         -44.4206         90.9715         -44.4206         90.9713       -0.0109576          147.77
0.551                  -0.504945        -152.868          -44.044         89.5696         -44.0439         89.5693       -0.0110761           147.7
0.552                  -0.549906        -153.831         -43.6596         88.1023         -43.6596          88.102       -0.0112013         147.629
0.553                  -0.600325        -154.822         -43.2675         86.5632         -43.2674         86.5629       -0.0113342         147.558
0.554                  -0.657018        -155.842         -42.8675         84.9454         -42.8675          84.945       -0.0114761         147.487
0.555                  -0.720943        -156.893         -42.4597         83.2411         -42.4597         83.2407       -0.0116284         147.416
0.556                  -0.793223        -157.975         -42.0444         81.4417         -42.0444         81.4412       -0.0117928         147.344
0.557                  -0.875173        -159.087         -41.6216         79.5378         -41.6217         79.5373       -0.0119711         147.273
0.558                  -0.968339        -160.229         -41.1919         77.5191          -41.192         77.5186       -0.0121657         147.201
0.559                   -1.07452          -161.4         -40.7559         75.3743         -40.7559         75.3738       -0.0123789         147.129
0.56                    -1.19583        -162.594         -40.3143         73.0913         -40.3143         73.0908       -0.0126134         147.057
0.561                   -1.33469        -163.807         -39.8683          70.657         -39.8683         70.6565       -0.0128723         146.985
0.562                   -1.49388        -165.029         -39.4193         68.0578         -39.4194         68.0573       -0.0131587         146.912
0.563                   -1.67655        -166.246         -38.9693         65.2795         -38.9694         65.2791       -0.0134758          146.84
0.564                   -1.88615        -167.438         -38.5208         62.3082         -38.5208         62.3078       -0.0138266         146.767
0.565                   -2.12633        -168.578         -38.0766         59.1306         -38.0767         59.1303       -0.0142135         146.695
0.566                   -2.40068        -169.626         -37.6405          55.735         -37.6406         55.7347       -0.0146384         146.622
0.567                   -2.71234        -170.529         -37.2169         52.1126         -37.2169         52.1123       -0.0151014         146.549
0.568                   -3.06324        -171.221         -36.8106         48.2586         -36.8107         48.2584       -0.0156008         146.477
0.569                   -3.45295        -171.613         -36.4274         44.1747         -36.4275         44.1745       -0.0161326         146.404
0.57                    -3.87708          -171.6         -36.0733         39.8696         -36.0734         39.8695       -0.0166896         146.332
0.571                   -4.32506        -171.068         -35.7544         35.3617         -35.7545         35.3616       -0.0172617          146.26
0.572                   -4.77792        -169.904         -35.4766          30.679         -35.4767          30.679       -0.0178365         146.189
0.573                   -5.20682         -168.03          -35.245           25.86         -35.2451           25.86       -0.0183994         146.117
0.574                   -5.57434        -165.443         -35.0635         20.9513         -35.0635         20.9514       -0.0189356         146.046
0.575                    -5.8405        -162.255         -34.9342         16.0061         -34.9342         16.0062       -0.0194316         145.976
0.576                   -5.97355        -158.706         -34.8574         11.0799         -34.8574           11.08       -0.0198763         145.905
0.577                   -5.96111        -155.121         -34.8313         6.22663         -34.8314         6.22673       -0.0202626         145.834
0.578                    -5.8146        -151.819         -34.8526         1.49514         -34.8527         1.49523       -0.0205875         145.764
0.579                   -5.56379        -149.035         -34.9164        -3.07402         -34.9164        -3.07396       -0.0208519         145.693
0.58                    -5.24565        -146.881         -35.0169        -7.45007         -35.0169        -7.45004       -0.0210601         145.622
0.581                   -4.89437        -145.362          -35.148        -11.6124          -35.148        -11.6124       -0.0212188         145.551
0.582                   -4.53625        -144.419         -35.3036        -15.5497         -35.3036        -15.5497       -0.0213357         145.479
0.583                   -4.18888        -143.959          -35.478        -19.2589          -35.478         -19.259       -0.0214189         145.407
0.584                   -3.86256        -143.888          -35.666        -22.7433          -35.666        -22.7434       -0.0214763         145.335
0.585                   -3.56235         -144.12          -35.863        -26.0108         -35.8631        -26.0109       -0.0215149         145.262
0.586                   -3.28986        -144.583         -36.0653        -29.0725         -36.0653        -29.0727       -0.0215409         145.189
0.587                   -3.04464        -145.218         -36.2697        -31.9414         -36.2697        -31.9416       -0.0215594         145.116
0.588                   -2.82512        -145.981         -36.4735        -34.6315         -36.4735        -34.6317       -0.0215744         145.043
0.589                   -2.62917        -146.837         -36.6748        -37.1568         -36.6748        -37.1571       -0.0215893         144.969
0.59                    -2.45452         -147.76          -36.872        -39.5313          -36.872        -39.5316       -0.0216064         144.894
0.591                   -2.29888         -148.73         -37.0638        -41.7682         -37.0638        -41.7685       -0.0216277          144.82
0.592                   -2.16014        -149.733         -37.2494        -43.8798         -37.2494        -43.8801       -0.0216545         144.745
0.593                   -2.03634        -150.758          -37.428        -45.8778         -37.4281        -45.8781       -0.0216878          144.67
0.594                   -1.92574        -151.798         -37.5994        -47.7726         -37.5994        -47.7729       -0.0217282         144.594
0.595                   -1.82681        -152.846         -37.7631        -49.5741         -37.7631        -49.5744       -0.0217761         144.519
0.596                    -1.7382        -153.899          -37.919         -51.291          -37.919        -51.2913       -0.0218317         144.443
0.597                   -1.65871        -154.955          -38.067        -52.9313          -38.067        -52.9315       -0.0218952         144.366
0.598                   -1.58733         -156.01         -38.2071        -54.5022         -38.2071        -54.5024       -0.0219665          144.29
0.599                   -1.52314        -157.064         -38.3394        -56.0102         -38.3394        -56.0104       -0.0220455         144.213
0.6                     -1.46538        -158.117          -38.464        -57.4612          -38.464        -57.4614       -0.0221321         144.137
0.601                   -1.41336        -159.167          -38.581        -58.8606          -38.581        -58.8608       -0.0222263         144.059
0.602                   -1.36649        -160.215         -38.6905        -60.2131         -38.6906        -60.2133       -0.0223278         143.982
0.603                   -1.32426        -161.261         -38.7928        -61.5231         -38.7929        -61.5233       -0.0224364         143.905
0.604                   -1.28621        -162.306         -38.8881        -62.7945         -38.8881        -62.7947        -0.022552         143.827
0.605                   -1.25195        -163.348         -38.9765        -64.0309         -38.9765        -64.0311       -0.0226745         143.749
0.606                   -1.22115         -164.39         -39.0581        -65.2355         -39.0582        -65.2357       -0.0228035         143.671
0.607                   -1.19348        -165.432         -39.1333        -66.4112         -39.1333        -66.4114       -0.0229391         143.592
0.608                    -1.1687        -166.473         -39.2022        -67.5608         -39.2022        -67.5609       -0.0230811         143.514
0.609                   -1.14656        -167.516         -39.2649        -68.6866         -39.2649        -68.6867       -0.0232292         143.435
0.61                    -1.12687        -168.559         -39.3218        -69.7908         -39.3218        -69.7909       -0.0233835         143.356
0.611                   -1.10945        -169.605         -39.3728        -70.8755         -39.3728        -70.8756       -0.0235437         143.276
0.612                   -1.09413        -170.653         -39.4183        -71.9426         -39.4183        -71.9427       -0.0237098         143.197
0.613                   -1.08077        -171.705         -39.4583        -72.9937         -39.4583        -72.9938       -0.0238817         143.117
0.614                   -1.06926         -172.76         -39.4931        -74.0304         -39.4931        -74.0305       -0.0240593         143.037
0.615                   -1.05949         -173.82         -39.5228        -75.0542         -39.5228        -75.0543       -0.0242426         142.957
0.616                   -1.05136        -174.884         -39.5476        -76.0664         -39.5476        -76.0665       -0.0244314         142.876
0.617                   -1.04479        -175.954         -39.5675        -77.0683         -39.5675        -77.0684       -0.0246258         142.795
0.618                   -1.03972        -177.031         -39.5828        -78.0609         -39.5828         -78.061       -0.0248257         142.714
0.619                   -1.03607        -178.114         -39.5935        -79.0454         -39.5935        -79.0456       -0.0250311         142.633
0.62                     -1.0338        -179.205         -39.5998        -80.0228         -39.5998        -80.0229       -0.0252419         142.552
0.621                   -1.03285         179.696         -39.6018         -80.994         -39.6018        -80.9941       -0.0254582          142.47
0.622                    -1.0332         178.589         -39.5996        -81.9599         -39.5996          -81.96       -0.0256798         142.388
0.623                   -1.03482         177.473         -39.5933        -82.9212         -39.5933        -82.9214        -0.025907         142.306
0.624                   -1.03766         176.346          -39.583        -83.8789          -39.583         -83.879       -0.0261395         142.224
0.625                   -1.04173          175.21         -39.5689        -84.8336         -39.5689        -84.8337       -0.0263775         142.141
0.626                     -1.047         174.062          -39.551         -85.786         -39.5509        -85.7862        -0.026621         142.058
0.627                   -1.05347         172.903         -39.5294        -86.7369         -39.5293        -86.7371         -0.02687         141.975
0.628                   -1.06112         171.732         -39.5041        -87.6869         -39.5041         -87.687       -0.0271245         141.891
0.629                   -1.06998         170.547         -39.4753        -88.6365         -39.4753        -88.6367       -0.0273845         141.807
