! TOUCHSTONE file generated by CST MICROWAVE STUDIO
! Date and time: Mon Nov 30 08:34:39 2020
! Project name: Scenario_1_Planar_Body_Tissue_Out_of_Line.cst
! Parameters = {dy1=0; L_HA=400; Ltissue=700; MT=2.54; Rad_Dielectric=30; Rad_Lower=7.3; Rad_Upper=30; Wtissue=700; a_HA=580; a_WG=246; b_HA=500; b_WG=121; c_HA=0; c_WG=187; d_feed=85; dx1=866; h_feed=15; h_lower=18; h_upper=40; hfat=3; hgap=25; hmuscle=50; hskin=1.5}
! Header version: 2018
! Port assignment regex: !\s*Touchstone port\s*([0-9]+)\s*=\s*(CST MWS port|CST DS port)\s*([0-9]+|Zmin|Zmax)\s*\(\"(.*)\"\)(\s*mode\s*([0-9]+))?.*
! Touchstone port assignment:
! Touchstone port 1 = CST MWS port 1 ("")
! Touchstone port 2 = CST MWS port 2 ("")
# GHz S DB R 50
0.5                   -0.0980774        -122.135          -63.502         107.221         -63.5013         107.221       -0.0075166         151.139
0.501                  -0.102205        -122.609         -63.2295         105.655         -63.2289         105.655      -0.00758809         151.074
0.502                  -0.106859        -123.087         -62.9524         104.049         -62.9519         104.049      -0.00766066         151.009
0.503                  -0.112095        -123.569         -62.6707         102.399         -62.6703         102.398      -0.00773434         150.943
0.504                  -0.117971        -124.056         -62.3845         100.703         -62.3842         100.701      -0.00780918         150.878
0.505                   -0.12455        -124.547         -62.0937         98.9568         -62.0935         98.9553       -0.0078852         150.812
0.506                  -0.131904        -125.043         -61.7986         97.1584         -61.7985         97.1566      -0.00796245         150.746
0.507                  -0.140109        -125.543         -61.4991         95.3039         -61.4991          95.302      -0.00804097         150.681
0.508                   -0.14925        -126.047         -61.1956         93.3899         -61.1956         93.3878      -0.00812079         150.615
0.509                  -0.159415        -126.555         -60.8881         91.4124         -60.8882         91.4102      -0.00820196         150.549
0.51                   -0.170702        -127.067         -60.5769         89.3674         -60.5771         89.3652      -0.00828453         150.483
0.511                  -0.183211        -127.582         -60.2625         87.2507         -60.2628         87.2484      -0.00836853         150.417
0.512                  -0.197047        -128.099         -59.9451         85.0578         -59.9455         85.0555      -0.00845402         150.351
0.513                  -0.212319        -128.619         -59.6254         82.7841         -59.6259         82.7819      -0.00854103         150.284
0.514                  -0.229131        -129.139          -59.304          80.425         -59.3045         80.4229       -0.0086296         150.218
0.515                  -0.247586         -129.66         -58.9815         77.9759          -58.982         77.9739      -0.00871976         150.152
0.516                  -0.267774        -130.179         -58.6589         75.4321         -58.6595         75.4303      -0.00881154         150.085
0.517                  -0.289768        -130.697         -58.3371         72.7893         -58.3377         72.7877      -0.00890495         150.019
0.518                  -0.313615        -131.209         -58.0174         70.0434          -58.018         70.0421      -0.00899999         149.952
0.519                  -0.339326        -131.716         -57.7009          67.191         -57.7016           67.19      -0.00909665         149.885
0.52                   -0.366864        -132.215         -57.3893         64.2294         -57.3899         64.2286      -0.00919489         149.819
0.521                  -0.396132        -132.703         -57.0841         61.1567         -57.0848         61.1563      -0.00929464         149.752
0.522                  -0.426959        -133.178         -56.7871         57.9727         -56.7878         57.9726      -0.00939582         149.685
0.523                  -0.459091        -133.638         -56.5003         54.6784          -56.501         54.6787      -0.00949831         149.618
0.524                  -0.492183        -134.081         -56.2257         51.2769         -56.2264         51.2775      -0.00960196         149.551
0.525                  -0.525798        -134.504         -55.9654         47.7732          -55.966         47.7741      -0.00970658         149.484
0.526                  -0.559413        -134.907         -55.7213         44.1747         -55.7219          44.176      -0.00981195         149.416
0.527                  -0.592433        -135.289         -55.4955         40.4913          -55.496         40.4928      -0.00991784         149.349
0.528                  -0.624222         -135.65         -55.2897         36.7352         -55.2901         36.7369        -0.010024         149.282
0.529                  -0.654131        -135.991         -55.1054         32.9209         -55.1059         32.9228       -0.0101301         149.214
0.53                   -0.681545        -136.315          -54.944         29.0647         -54.9444         29.0667       -0.0102359         149.147
0.531                  -0.705922        -136.624         -54.8062         25.1845         -54.8065         25.1866       -0.0103411         149.079
0.532                  -0.726833        -136.922         -54.6923         21.2991         -54.6926         21.3013       -0.0104456         149.011
0.533                  -0.743987        -137.215         -54.6023         17.4276         -54.6025         17.4298        -0.010549         148.944
0.534                  -0.757251        -137.505         -54.5355         13.5884         -54.5356         13.5905       -0.0106513         148.876
0.535                  -0.766647        -137.798          -54.491          9.7991         -54.4911         9.80108       -0.0107524         148.808
0.536                  -0.772339        -138.099         -54.4673         6.07545         -54.4673         6.07727       -0.0108522          148.74
0.537                  -0.774612        -138.411         -54.4628         2.43123         -54.4628         2.43288       -0.0109507         148.671
0.538                  -0.773835        -138.737         -54.4754        -1.12211         -54.4754        -1.12066       -0.0110482         148.603
0.539                  -0.770435        -139.079         -54.5032        -4.57556         -54.5031        -4.57432       -0.0111445         148.535
0.54                   -0.764863         -139.44         -54.5439        -7.92254         -54.5439        -7.92151       -0.0112401         148.466
0.541                  -0.757569        -139.821         -54.5955        -11.1587         -54.5954        -11.1579        -0.011335         148.397
0.542                  -0.748983        -140.221         -54.6558        -14.2819         -54.6557        -14.2813       -0.0114295         148.329
0.543                    -0.7395        -140.642         -54.7229        -17.2916         -54.7228        -17.2911       -0.0115238          148.26
0.544                  -0.729474        -141.082         -54.7949        -20.1888         -54.7948        -20.1885       -0.0116181         148.191
0.545                  -0.719212        -141.542         -54.8701        -22.9759           -54.87        -22.9758       -0.0117126         148.122
0.546                  -0.708975         -142.02         -54.9471        -25.6561          -54.947         -25.656       -0.0118076         148.053
0.547                  -0.698983        -142.516         -55.0243        -28.2333         -55.0243        -28.2334       -0.0119031         147.983
0.548                  -0.689416        -143.028         -55.1008        -30.7121         -55.1007        -30.7122       -0.0119995         147.914
0.549                  -0.680419        -143.557         -55.1753        -33.0971         -55.1753        -33.0973       -0.0120967         147.844
0.55                   -0.672109          -144.1          -55.247        -35.3934          -55.247        -35.3936        -0.012195         147.775
0.551                  -0.664578        -144.658         -55.3151        -37.6061          -55.315        -37.6063       -0.0122944         147.705
0.552                  -0.657898        -145.229         -55.3788        -39.7403         -55.3788        -39.7405        -0.012395         147.635
0.553                  -0.652126        -145.813         -55.4377        -41.8008         -55.4378         -41.801       -0.0124969         147.565
0.554                  -0.647305        -146.409         -55.4913        -43.7927         -55.4913        -43.7928       -0.0126001         147.495
0.555                   -0.64347        -147.018          -55.539        -45.7205         -55.5391        -45.7206       -0.0127048         147.424
0.556                  -0.640649        -147.637         -55.5806        -47.5889         -55.5807        -47.5889       -0.0128109         147.354
0.557                  -0.638864        -148.267         -55.6158        -49.4023         -55.6159        -49.4022       -0.0129185         147.283
0.558                  -0.638136        -148.908         -55.6444        -51.1646         -55.6444        -51.1645       -0.0130276         147.213
0.559                  -0.638485         -149.56          -55.666        -52.8801         -55.6661        -52.8798       -0.0131382         147.142
0.56                   -0.639928        -150.222         -55.6807        -54.5525         -55.6808        -54.5521       -0.0132503         147.071
0.561                  -0.642486        -150.893         -55.6882        -56.1854         -55.6883        -56.1849        -0.013364             147
0.562                   -0.64618        -151.575         -55.6884        -57.7823         -55.6885        -57.7817       -0.0134793         146.929
0.563                  -0.651034        -152.266         -55.6813        -59.3465         -55.6814        -59.3458       -0.0135962         146.858
0.564                  -0.657075        -152.967         -55.6668        -60.8813         -55.6669        -60.8805       -0.0137146         146.786
0.565                  -0.664335        -153.678         -55.6448        -62.3897         -55.6449        -62.3888       -0.0138346         146.714
0.566                  -0.672849        -154.399         -55.6153        -63.8747         -55.6154        -63.8736       -0.0139563         146.643
0.567                  -0.682656         -155.13         -55.5783        -65.3391         -55.5784        -65.3379       -0.0140796         146.571
0.568                  -0.693803        -155.871         -55.5337        -66.7856         -55.5339        -66.7844       -0.0142045         146.499
0.569                   -0.70634        -156.621         -55.4817        -68.2171         -55.4818        -68.2157       -0.0143311         146.427
0.57                   -0.720324        -157.382         -55.4221         -69.636         -55.4222        -69.6345       -0.0144593         146.355
0.571                  -0.735819        -158.153         -55.3549         -71.045         -55.3551        -71.0434       -0.0145893         146.282
0.572                  -0.752897        -158.934         -55.2803        -72.4465         -55.2804        -72.4449       -0.0147209          146.21
0.573                  -0.771636        -159.726         -55.1982        -73.8432         -55.1984        -73.8415       -0.0148542         146.137
0.574                  -0.792123        -160.528         -55.1087        -75.2373         -55.1088        -75.2355       -0.0149893         146.064
0.575                  -0.814454        -161.341         -55.0118        -76.6313         -55.0119        -76.6295       -0.0151262         145.991
0.576                  -0.838734        -162.165         -54.9076        -78.0277         -54.9077        -78.0258       -0.0152649         145.918
0.577                  -0.865079        -162.999         -54.7961        -79.4288         -54.7961        -79.4269       -0.0154054         145.845
0.578                  -0.893616        -163.844         -54.6773         -80.837         -54.6774        -80.8351       -0.0155477         145.771
0.579                  -0.924481          -164.7         -54.5515        -82.2548         -54.5515        -82.2529        -0.015692         145.698
0.58                   -0.957827        -165.567         -54.4185        -83.6846         -54.4186        -83.6826       -0.0158382         145.624
0.581                  -0.993816        -166.445         -54.2787        -85.1287         -54.2787        -85.1267       -0.0159864          145.55
0.582                   -1.03263        -167.333         -54.1319        -86.5897          -54.132        -86.5877       -0.0161366         145.476
0.583                   -1.07445        -168.232         -53.9785        -88.0699         -53.9785        -88.0679       -0.0162889         145.402
0.584                    -1.1195        -169.141         -53.8185        -89.5719         -53.8185        -89.5699       -0.0164434         145.327
0.585                   -1.16799        -170.059          -53.652        -91.0981          -53.652        -91.0962       -0.0166001         145.253
0.586                   -1.22018        -170.987         -53.4793        -92.6511         -53.4793        -92.6492        -0.016759         145.178
0.587                   -1.27631        -171.924         -53.3005        -94.2334         -53.3005        -94.2316       -0.0169202         145.103
0.588                   -1.33667        -172.868         -53.1159        -95.8476         -53.1158        -95.8458       -0.0170839         145.028
0.589                   -1.40155         -173.82         -52.9256        -97.4963         -52.9256        -97.4945       -0.0172501         144.953
0.59                    -1.47126        -174.776           -52.73        -99.1819           -52.73        -99.1802       -0.0174188         144.877
0.591                   -1.54612        -175.737         -52.5293        -100.907         -52.5293        -100.905       -0.0175902         144.802
0.592                   -1.62649          -176.7         -52.3239        -102.674         -52.3239        -102.673       -0.0177644         144.726
0.593                   -1.71271        -177.663         -52.1142        -104.486         -52.1141        -104.485       -0.0179414          144.65
0.594                   -1.80513        -178.624         -51.9004        -106.345         -51.9003        -106.344       -0.0181214         144.574
0.595                   -1.90412        -179.579         -51.6831        -108.254          -51.683        -108.252       -0.0183044         144.497
0.596                   -2.01004         179.476         -51.4626        -110.214         -51.4626        -110.212       -0.0184906         144.421
0.597                    -2.1232         178.544         -51.2396        -112.227         -51.2396        -112.226       -0.0186801         144.344
0.598                   -2.24392          177.63         -51.0146        -114.297         -51.0145        -114.296        -0.018873         144.267
0.599                   -2.37245          176.74         -50.7881        -116.424         -50.7881        -116.423       -0.0190693          144.19
0.6                     -2.50899          175.88         -50.5608         -118.61         -50.5608        -118.609       -0.0192693         144.113
0.601                   -2.65361         175.058         -50.3334        -120.857         -50.3334        -120.856       -0.0194729         144.036
0.602                   -2.80631          174.28         -50.1066        -123.164         -50.1066        -123.163       -0.0196804         143.958
0.603                   -2.96688         173.557         -49.8812        -125.533         -49.8811        -125.532       -0.0198918          143.88
0.604                   -3.13495         172.896         -49.6578        -127.963         -49.6578        -127.963       -0.0201071         143.802
0.605                    -3.3099         172.308         -49.4375        -130.454         -49.4374        -130.454       -0.0203265         143.724
0.606                    -3.4908         171.804         -49.2208        -133.005         -49.2208        -133.005         -0.02055         143.645
0.607                   -3.67643         171.394         -49.0088        -135.614         -49.0088        -135.614       -0.0207777         143.567
0.608                   -3.86517         171.086         -48.8022        -138.279         -48.8022        -138.279       -0.0210095         143.488
0.609                   -4.05501         170.892         -48.6017        -140.997         -48.6017        -140.997       -0.0212456         143.409
0.61                    -4.24353         170.817         -48.4082        -143.764         -48.4082        -143.763       -0.0214859         143.329
0.611                   -4.42795         170.866         -48.2224        -146.575         -48.2224        -146.575       -0.0217304          143.25
0.612                   -4.60512         171.041         -48.0448        -149.427         -48.0448        -149.427        -0.021979          143.17
0.613                   -4.77169          171.34         -47.8761        -152.314         -47.8761        -152.314       -0.0222318          143.09
0.614                   -4.92422         171.754         -47.7166        -155.229         -47.7166        -155.229       -0.0224886          143.01
0.615                   -5.05938         172.272         -47.5668        -158.167         -47.5668        -158.167       -0.0227495          142.93
0.616                   -5.17416         172.876         -47.4268        -161.122         -47.4268        -161.122       -0.0230142         142.849
0.617                   -5.26609         173.544         -47.2967        -164.086         -47.2968        -164.086       -0.0232828         142.768
0.618                   -5.33345          174.25         -47.1766        -167.053         -47.1766        -167.053       -0.0235551         142.687
0.619                   -5.37538         174.966         -47.0662        -170.017         -47.0663        -170.017        -0.023831         142.606
0.62                    -5.39199         175.664         -46.9654        -172.972         -46.9655        -172.972       -0.0241106         142.524
0.621                   -5.38427         176.317         -46.8737        -175.912         -46.8738        -175.912       -0.0243936         142.443
0.622                     -5.354         176.901         -46.7908        -178.831         -46.7908        -178.831       -0.0246801         142.361
0.623                   -5.30362         177.395         -46.7159         178.275          -46.716         178.275       -0.0249699         142.278
0.624                   -5.23596         177.783         -46.6486         175.411         -46.6487         175.411       -0.0252631         142.196
0.625                   -5.15408         178.054         -46.5882          172.58         -46.5883          172.58       -0.0255595         142.113
0.626                   -5.06105         178.201         -46.5339         169.785          -46.534         169.785       -0.0258593          142.03
0.627                   -4.95985         178.222         -46.4851         167.029         -46.4852         167.029       -0.0261623         141.947
0.628                   -4.85319         178.117         -46.4411         164.313         -46.4412         164.313       -0.0264686         141.864
0.629                   -4.74352         177.889          -46.401         161.638         -46.4012         161.638       -0.0267783          141.78
