! TOUCHSTONE file generated by CST MICROWAVE STUDIO
! Date and time: Sat Nov 14 20:37:58 2020
! Project name: Scenario_1_Planar_Body_Tissue_Out_of_Line_v2.cst
! Parameters = {dy1=-17.3; L_HA=400; Ltissue=700; MT=2.54; Rad_Dielectric=30; Rad_Lower=7.3; Rad_Upper=30; Wtissue=700; a_HA=580; a_WG=246; b_HA=500; b_WG=121; c_HA=0; c_WG=187; d_feed=85; dx1=173; h_feed=15; h_lower=18; h_upper=40; hfat=3; hgap=25; hmuscle=50; hskin=1.5}
! Header version: 2018
! Port assignment regex: !\s*Touchstone port\s*([0-9]+)\s*=\s*(CST MWS port|CST DS port)\s*([0-9]+|Zmin|Zmax)\s*\(\"(.*)\"\)(\s*mode\s*([0-9]+))?.*
! Touchstone port assignment:
! Touchstone port 1 = CST MWS port 1 ("")
! Touchstone port 2 = CST MWS port 2 ("")
# GHz S DB R 50
0.5                   -0.0434253        -121.738         -56.7871         132.041         -56.7875         132.041      -0.00722141         151.145
0.501                 -0.0445524        -122.161         -56.6135         131.539         -56.6138          131.54      -0.00726223          151.08
0.502                 -0.0457069        -122.588         -56.4378         131.032         -56.4382         131.033      -0.00730349         151.015
0.503                 -0.0468916        -123.018         -56.2601         130.518         -56.2604         130.519      -0.00734519         150.949
0.504                 -0.0481095        -123.452         -56.0802         129.997         -56.0805         129.998      -0.00738734         150.884
0.505                 -0.0493641        -123.891         -55.8981          129.47         -55.8984         129.471      -0.00742994         150.818
0.506                 -0.0506589        -124.333         -55.7138         128.936         -55.7141         128.937      -0.00747301         150.752
0.507                 -0.0519979        -124.779         -55.5272         128.394         -55.5275         128.396      -0.00751656         150.687
0.508                 -0.0533853         -125.23         -55.3383         127.846         -55.3386         127.847      -0.00756059         150.621
0.509                 -0.0548258        -125.685          -55.147          127.29         -55.1473         127.291      -0.00760512         150.555
0.51                  -0.0563242        -126.145         -54.9532         126.726         -54.9535         126.728      -0.00765016         150.489
0.511                 -0.0578861        -126.609          -54.757         126.155         -54.7573         126.157      -0.00769572         150.423
0.512                 -0.0595173        -127.078         -54.5582         125.576         -54.5584         125.578      -0.00774182         150.357
0.513                 -0.0612243        -127.552         -54.3568         124.989          -54.357          124.99      -0.00778846         150.291
0.514                  -0.063014        -128.031         -54.1527         124.393         -54.1529         124.394      -0.00783567         150.224
0.515                 -0.0648942        -128.515         -53.9458         123.788          -53.946          123.79      -0.00788347         150.158
0.516                 -0.0668732        -129.005         -53.7361         123.175         -53.7364         123.177      -0.00793186         150.091
0.517                 -0.0689601          -129.5         -53.5236         122.552         -53.5238         122.554      -0.00798087         150.025
0.518                 -0.0711649        -130.001         -53.3081          121.92         -53.3083         121.922      -0.00803052         149.958
0.519                 -0.0734987        -130.507         -53.0895         121.277         -53.0897         121.279      -0.00808084         149.891
0.52                  -0.0759733         -131.02         -52.8679         120.625         -52.8681         120.627      -0.00813185         149.824
0.521                 -0.0786022         -131.54          -52.643         119.962         -52.6432         119.964      -0.00818358         149.757
0.522                 -0.0813999        -132.065         -52.4149         119.288         -52.4151          119.29      -0.00823605          149.69
0.523                 -0.0843824        -132.598         -52.1834         118.602         -52.1836         118.604      -0.00828931         149.623
0.524                 -0.0875676        -133.138         -51.9485         117.905         -51.9487         117.906       -0.0083434         149.556
0.525                 -0.0909749        -133.685           -51.71         117.194         -51.7102         117.196      -0.00839835         149.488
0.526                 -0.0946263         -134.24         -51.4679         116.471         -51.4681         116.473      -0.00845421         149.421
0.527                 -0.0985457        -134.803         -51.2221         115.735         -51.2222         115.737      -0.00851103         149.353
0.528                   -0.10276        -135.374         -50.9724         114.984         -50.9725         114.986      -0.00856888         149.285
0.529                  -0.107299        -135.954         -50.7187         114.218         -50.7189          114.22      -0.00862781         149.217
0.53                   -0.112196        -136.542          -50.461         113.436         -50.4612         113.438      -0.00868791         149.149
0.531                  -0.117488        -137.141         -50.1991         112.638         -50.1993          112.64      -0.00874925         149.081
0.532                  -0.123216        -137.749         -49.9329         111.822         -49.9331         111.824      -0.00881193         149.013
0.533                  -0.129428        -138.368         -49.6623         110.988         -49.6624          110.99      -0.00887604         148.945
0.534                  -0.136175        -138.998         -49.3871         110.135         -49.3872         110.136      -0.00894171         148.876
0.535                  -0.143516        -139.639         -49.1072         109.261         -49.1073         109.262      -0.00900906         148.808
0.536                  -0.151518        -140.293         -48.8225         108.365         -48.8226         108.367      -0.00907825         148.739
0.537                  -0.160256        -140.959         -48.5328         107.446         -48.5329         107.448      -0.00914945          148.67
0.538                  -0.169814        -141.639          -48.238         106.503         -48.2381         106.504      -0.00922284         148.602
0.539                  -0.180291        -142.333         -47.9379         105.533          -47.938         105.535      -0.00929864         148.533
0.54                   -0.191794        -143.041         -47.6324         104.535         -47.6325         104.537      -0.00937709         148.463
0.541                  -0.204451        -143.766         -47.3213         103.508         -47.3213          103.51      -0.00945848         148.394
0.542                  -0.218405        -144.508         -47.0044         102.449         -47.0044         102.451      -0.00954311         148.325
0.543                   -0.23382        -145.267         -46.6815         101.355         -46.6816         101.357      -0.00963136         148.255
0.544                  -0.250886        -146.046         -46.3526         100.225         -46.3527         100.227      -0.00972361         148.185
0.545                  -0.269821        -146.844         -46.0175         99.0551         -46.0175         99.0567      -0.00982035         148.115
0.546                  -0.290877        -147.664         -45.6759         97.8426         -45.6759         97.8441      -0.00992209         148.045
0.547                  -0.314348        -148.506         -45.3277          96.584         -45.3277         96.5855       -0.0100294         147.975
0.548                  -0.340574        -149.373         -44.9728         95.2756         -44.9728          95.277        -0.010143         147.905
0.549                  -0.369951        -150.265         -44.6111         93.9133         -44.6111         93.9147       -0.0102637         147.834
0.55                   -0.402944        -151.184         -44.2423         92.4926         -44.2424         92.4939       -0.0103923         147.764
0.551                  -0.440095        -152.133         -43.8666         91.0083         -43.8666         91.0096       -0.0105297         147.693
0.552                  -0.482042        -153.111         -43.4837          89.455         -43.4837         89.4562       -0.0106771         147.622
0.553                  -0.529539        -154.122         -43.0937         87.8264         -43.0937         87.8275       -0.0108357         147.551
0.554                  -0.583471        -155.166         -42.6966         86.1158         -42.6966         86.1169       -0.0110069          147.48
0.555                  -0.644888        -156.245         -42.2927         84.3157         -42.2927         84.3167        -0.011192         147.408
0.556                  -0.715028        -157.359          -41.882          82.418          -41.882         82.4189       -0.0113928         147.337
0.557                   -0.79536         -158.51          -41.465         80.4135          -41.465         80.4144       -0.0116109         147.265
0.558                  -0.887619        -159.697         -41.0422         78.2927         -41.0422         78.2935       -0.0118482         147.193
0.559                  -0.993852        -160.917         -40.6143          76.045         -40.6142         76.0457       -0.0121065         147.121
0.56                    -1.11646        -162.168         -40.1822         73.6592         -40.1821         73.6598       -0.0123877         147.049
0.561                   -1.25826        -163.442         -39.7471         71.1233         -39.7471         71.1239       -0.0126934         146.977
0.562                   -1.42247        -164.729         -39.3108         68.4253         -39.3108         68.4258       -0.0130253         146.905
0.563                   -1.61275        -166.013         -38.8751         65.5528         -38.8751         65.5531       -0.0133844         146.832
0.564                   -1.83315        -167.272         -38.4425         62.4939         -38.4425         62.4942       -0.0137714          146.76
0.565                   -2.08789        -168.471         -38.0161         59.2378         -38.0161          59.238        -0.014186         146.687
0.566                   -2.38111        -169.565         -37.5993         55.7756         -37.5993         55.7757       -0.0146272         146.615
0.567                    -2.7162        -170.489         -37.1965         52.1016         -37.1965         52.1016       -0.0150926         146.543
0.568                   -3.09484         -171.16         -36.8122         48.2142         -36.8122         48.2141       -0.0155787         146.471
0.569                   -3.51542        -171.474         -36.4515         44.1176         -36.4515         44.1175       -0.0160806         146.398
0.57                    -3.97084        -171.308           -36.12         39.8232           -36.12          39.823        -0.016592         146.326
0.571                   -4.44586        -170.529         -35.8229         35.3502         -35.8229         35.3499       -0.0171056         146.255
0.572                   -4.91461        -169.026         -35.5653         30.7266         -35.5653         30.7263       -0.0176133         146.183
0.573                   -5.34015        -166.743         -35.3513         25.9886         -35.3514         25.9883       -0.0181068         146.112
0.574                   -5.67856         -163.74         -35.1841         21.1792         -35.1841         21.1788       -0.0185782          146.04
0.575                   -5.88913        -160.216         -35.0651         16.3458         -35.0652         16.3454       -0.0190204         145.969
0.576                   -5.94811        -156.496         -34.9944         11.5374         -34.9945         11.5371       -0.0194278         145.898
0.577                   -5.85778        -152.945         -34.9702         6.80142         -34.9703         6.80114       -0.0197963         145.827
0.578                   -5.64438        -149.858         -34.9893         2.18023         -34.9894         2.17998       -0.0201239         145.755
0.579                   -5.34663        -147.403         -35.0475        -2.29064         -35.0476        -2.29085       -0.0204103         145.684
0.58                    -5.00321        -145.618         -35.1396          -6.584         -35.1397        -6.58416       -0.0206569         145.612
0.581                   -4.64507        -144.454         -35.2604        -10.6812         -35.2605        -10.6813       -0.0208662         145.541
0.582                   -4.29346        -143.818         -35.4043        -14.5716         -35.4044        -14.5717       -0.0210418         145.469
0.583                   -3.96105        -143.608         -35.5664        -18.2515         -35.5665        -18.2516       -0.0211879         145.397
0.584                    -3.6543        -143.732         -35.7419         -21.723          -35.742         -21.723       -0.0213088         145.324
0.585                   -3.37552        -144.108         -35.9267         -24.992         -35.9268         -24.992       -0.0214089         145.252
0.586                   -3.12459        -144.674         -36.1173        -28.0679         -36.1173        -28.0679       -0.0214925         145.179
0.587                       -2.9        -145.379         -36.3107        -30.9615         -36.3108        -30.9614       -0.0215632         145.105
0.588                   -2.69963        -146.186         -36.5045        -33.6848         -36.5046        -33.6847       -0.0216247         145.032
0.589                   -2.52111        -147.066         -36.6967        -36.2502         -36.6968        -36.2501       -0.0216798         144.958
0.59                    -2.36208        -147.999         -36.8858          -38.67         -36.8858        -38.6699       -0.0217311         144.884
0.591                   -2.22033        -148.969         -37.0705         -40.956         -37.0705        -40.9559       -0.0217809         144.809
0.592                   -2.09384        -149.963         -37.2499        -43.1195         -37.2499        -43.1194       -0.0218309         144.734
0.593                    -1.9808        -150.975         -37.4233         -45.171         -37.4233        -45.1709       -0.0218826         144.659
0.594                   -1.87962        -151.997         -37.5902        -47.1203         -37.5902        -47.1202       -0.0219372         144.584
0.595                   -1.78891        -153.026         -37.7502        -48.9763         -37.7502        -48.9763       -0.0219955         144.508
0.596                   -1.70745        -154.059         -37.9031        -50.7474         -37.9032        -50.7473       -0.0220584         144.432
0.597                   -1.63418        -155.093         -38.0488        -52.4409         -38.0489        -52.4409       -0.0221264         144.356
0.598                   -1.56819        -156.127         -38.1872        -54.0638         -38.1873        -54.0637       -0.0221999          144.28
0.599                   -1.50868         -157.16         -38.3184        -55.6222         -38.3184        -55.6222       -0.0222792         144.203
0.6                     -1.45496        -158.192         -38.4422        -57.1217         -38.4422        -57.1217       -0.0223647         144.126
0.601                   -1.40642        -159.223          -38.559        -58.5676          -38.559        -58.5676       -0.0224563         144.049
0.602                   -1.36254        -160.252         -38.6686        -59.9644         -38.6686        -59.9644       -0.0225543         143.972
0.603                   -1.32287         -161.28         -38.7713        -61.3164         -38.7713        -61.3164       -0.0226586         143.894
0.604                   -1.28701        -162.308         -38.8673        -62.6274         -38.8673        -62.6274       -0.0227693         143.817
0.605                   -1.25461        -163.336         -38.9566        -63.9009         -38.9566         -63.901       -0.0228864         143.739
0.606                   -1.22536        -164.363         -39.0394        -65.1401         -39.0394        -65.1402       -0.0230099          143.66
0.607                     -1.199        -165.392         -39.1158         -66.348         -39.1158        -66.3481       -0.0231396         143.582
0.608                    -1.1753        -166.422         -39.1861        -67.5271         -39.1861        -67.5272       -0.0232757         143.503
0.609                   -1.15404        -167.453         -39.2504          -68.68         -39.2504        -68.6801       -0.0234179         143.424
0.61                    -1.13506        -168.487         -39.3088         -69.809         -39.3087        -69.8091       -0.0235664         143.345
0.611                   -1.11818        -169.524         -39.3614         -70.916         -39.3614        -70.9161       -0.0237209         143.265
0.612                   -1.10327        -170.565         -39.4085         -72.003         -39.4085        -72.0031       -0.0238815         143.186
0.613                   -1.09021         -171.61         -39.4502        -73.0717         -39.4502        -73.0719        -0.024048         143.106
0.614                   -1.07888        -172.659         -39.4866        -74.1239         -39.4866        -74.1241       -0.0242206         143.026
0.615                    -1.0692        -173.714         -39.5178        -75.1611         -39.5178        -75.1612        -0.024399         142.945
0.616                   -1.06108        -174.775          -39.544        -76.1846          -39.544        -76.1848       -0.0245833         142.865
0.617                   -1.05445        -175.842         -39.5653        -77.1958         -39.5653         -77.196       -0.0247734         142.784
0.618                   -1.04925        -176.916         -39.5819         -78.196         -39.5819        -78.1962       -0.0249694         142.703
0.619                   -1.04543        -177.998         -39.5938        -79.1864         -39.5937        -79.1865       -0.0251711         142.621
0.62                    -1.04293        -179.088         -39.6011         -80.168         -39.6011        -80.1681       -0.0253786          142.54
0.621                   -1.04173         179.813          -39.604        -81.1418          -39.604         -81.142       -0.0255918         142.458
0.622                   -1.04178         178.705         -39.6025         -82.109         -39.6025        -82.1092       -0.0258108         142.376
0.623                   -1.04307         177.587         -39.5969        -83.0704         -39.5968        -83.0706       -0.0260355         142.293
0.624                   -1.04557         176.459         -39.5871        -84.0269          -39.587        -84.0271       -0.0262659         142.211
0.625                   -1.04927          175.32         -39.5732        -84.9794         -39.5732        -84.9796       -0.0265021         142.128
0.626                   -1.05416          174.17         -39.5554        -85.9288         -39.5554        -85.9289       -0.0267441         142.045
0.627                   -1.06024         173.007         -39.5338        -86.8757         -39.5337        -86.8759       -0.0269918         141.961
0.628                    -1.0675         171.832         -39.5083        -87.8211         -39.5083        -87.8212       -0.0272454         141.878
0.629                   -1.07595         170.643         -39.4792        -88.7655         -39.4792        -88.7657       -0.0275048         141.794
