! TOUCHSTONE file generated by CST MICROWAVE STUDIO
! Date and time: Sat Nov 14 20:01:23 2020
! Project name: Scenario_1_Planar_Body_Tissue_Out_of_Line.cst
! Parameters = {dy1=-17.3; L_HA=400; Ltissue=700; MT=2.54; Rad_Dielectric=30; Rad_Lower=7.3; Rad_Upper=30; Wtissue=700; a_HA=580; a_WG=246; b_HA=500; b_WG=121; c_HA=0; c_WG=187; d_feed=85; dx1=693; h_feed=15; h_lower=18; h_upper=40; hfat=3; hgap=25; hmuscle=50; hskin=1.5}
! Header version: 2018
! Port assignment regex: !\s*Touchstone port\s*([0-9]+)\s*=\s*(CST MWS port|CST DS port)\s*([0-9]+|Zmin|Zmax)\s*\(\"(.*)\"\)(\s*mode\s*([0-9]+))?.*
! Touchstone port assignment:
! Touchstone port 1 = CST MWS port 1 ("")
! Touchstone port 2 = CST MWS port 2 ("")
# GHz S DB R 50
0.5                    -0.210428        -121.511          -60.759        -169.848          -60.759        -169.847       -0.0077583         151.149
0.501                  -0.211038        -121.923         -60.7664        -171.639         -60.7663        -171.638      -0.00782047         151.084
0.502                  -0.211679        -122.338         -60.7701        -173.433           -60.77        -173.432      -0.00788312         151.018
0.503                  -0.212353        -122.756         -60.7703        -175.229         -60.7701        -175.228      -0.00794625         150.953
0.504                  -0.213062        -123.176         -60.7666        -177.026         -60.7664        -177.025      -0.00800988         150.888
0.505                   -0.21381          -123.6         -60.7592        -178.823          -60.759        -178.823      -0.00807399         150.822
0.506                  -0.214601        -124.027         -60.7479          179.38         -60.7477          179.38      -0.00813861         150.757
0.507                  -0.215437        -124.457         -60.7327         177.585         -60.7325         177.585      -0.00820374         150.691
0.508                  -0.216322         -124.89         -60.7135         175.792         -60.7133         175.792      -0.00826938         150.626
0.509                  -0.217259        -125.326         -60.6903         174.002           -60.69         174.002      -0.00833553          150.56
0.51                   -0.218255        -125.766          -60.663         172.217         -60.6627         172.217      -0.00840222         150.494
0.511                  -0.219311        -126.209         -60.6316         170.436         -60.6313         170.436      -0.00846943         150.428
0.512                  -0.220434        -126.656         -60.5961         168.661         -60.5958         168.662      -0.00853718         150.362
0.513                  -0.221628        -127.107         -60.5564         166.893         -60.5561         166.893      -0.00860548         150.296
0.514                  -0.222899        -127.561         -60.5125         165.132         -60.5122         165.133      -0.00867433          150.23
0.515                  -0.224252        -128.019         -60.4644          163.38         -60.4641          163.38      -0.00874373         150.164
0.516                  -0.225694         -128.48          -60.412         161.636         -60.4118         161.636      -0.00881371         150.097
0.517                   -0.22723        -128.946         -60.3555         159.902         -60.3552         159.902      -0.00888425         150.031
0.518                  -0.228869        -129.415         -60.2947         158.178         -60.2944         158.178      -0.00895538         149.964
0.519                  -0.230617        -129.889         -60.2297         156.464         -60.2294         156.464      -0.00902709         149.898
0.52                   -0.232482        -130.367         -60.1604         154.762         -60.1602         154.762      -0.00909941         149.831
0.521                  -0.234474        -130.849         -60.0869         153.072         -60.0867         153.072      -0.00917232         149.765
0.522                  -0.236601        -131.335         -60.0091         151.394         -60.0089         151.394      -0.00924586         149.698
0.523                  -0.238873        -131.826         -59.9271         149.729          -59.927         149.729      -0.00932001         149.631
0.524                  -0.241301        -132.322         -59.8409         148.077         -59.8408         148.077       -0.0093948         149.564
0.525                  -0.243897        -132.822         -59.7504         146.438         -59.7503         146.438      -0.00947023         149.497
0.526                  -0.246672        -133.328         -59.6557         144.812         -59.6556         144.812      -0.00954631         149.429
0.527                   -0.24964        -133.838         -59.5567         143.201         -59.5567         143.201      -0.00962306         149.362
0.528                  -0.252816        -134.353         -59.4535         141.603         -59.4536         141.603      -0.00970048         149.295
0.529                  -0.256214        -134.874         -59.3461         140.019         -59.3461         140.019      -0.00977858         149.227
0.53                   -0.259851          -135.4         -59.2344         138.449         -59.2345         138.449      -0.00985738          149.16
0.531                  -0.263746        -135.931         -59.1184         136.893         -59.1186         136.893      -0.00993689         149.092
0.532                  -0.267918        -136.468         -58.9982         135.351         -58.9984         135.351       -0.0100171         149.024
0.533                  -0.272388        -137.011         -58.8737         133.821         -58.8738         133.822       -0.0100981         148.956
0.534                  -0.277179         -137.56         -58.7448         132.306          -58.745         132.306       -0.0101798         148.888
0.535                  -0.282316        -138.115         -58.6115         130.802         -58.6118         130.803       -0.0102623          148.82
0.536                  -0.287826        -138.676         -58.4739         129.312         -58.4742         129.312       -0.0103456         148.752
0.537                  -0.293738        -139.244         -58.3319         127.833         -58.3322         127.833       -0.0104297         148.684
0.538                  -0.300084        -139.818         -58.1854         126.366         -58.1857         126.366       -0.0105146         148.616
0.539                  -0.306898          -140.4         -58.0343         124.909         -58.0347          124.91       -0.0106003         148.547
0.54                   -0.314219        -140.988         -57.8787         123.463         -57.8792         123.463       -0.0106869         148.478
0.541                  -0.322088        -141.584         -57.7185         122.026          -57.719         122.026       -0.0107744          148.41
0.542                  -0.330549        -142.187         -57.5536         120.597         -57.5541         120.598       -0.0108628         148.341
0.543                  -0.339653        -142.798         -57.3839         119.176         -57.3844         119.176       -0.0109522         148.272
0.544                  -0.349452        -143.417         -57.2094         117.761         -57.2099         117.762       -0.0110425         148.203
0.545                  -0.360006        -144.044         -57.0299         116.351         -57.0305         116.352       -0.0111339         148.134
0.546                   -0.37138        -144.679         -56.8455         114.946         -56.8461         114.947       -0.0112262         148.065
0.547                  -0.383644        -145.323          -56.656         113.543         -56.6566         113.544       -0.0113197         147.995
0.548                  -0.396876        -145.976         -56.4613         112.142         -56.4619         112.143       -0.0114143         147.926
0.549                  -0.411161        -146.637         -56.2613          110.74          -56.262         110.741         -0.01151         147.856
0.55                   -0.426593        -147.308          -56.056         109.336         -56.0567         109.338        -0.011607         147.786
0.551                  -0.443275        -147.989         -55.8452         107.929          -55.846          107.93       -0.0117052         147.717
0.552                   -0.46132        -148.679         -55.6289         106.516         -55.6297         106.517       -0.0118048         147.647
0.553                  -0.480854        -149.379          -55.407         105.095         -55.4077         105.097       -0.0119058         147.577
0.554                  -0.502014        -150.088         -55.1793         103.664           -55.18         103.666       -0.0120082         147.506
0.555                  -0.524949        -150.808         -54.9458         102.221         -54.9465         102.223       -0.0121123         147.436
0.556                  -0.549828        -151.538         -54.7064         100.763         -54.7072         100.765       -0.0122179         147.366
0.557                  -0.576831        -152.278          -54.461         99.2866         -54.4618         99.2889       -0.0123253         147.295
0.558                  -0.606159        -153.028         -54.2097           97.79         -54.2104         97.7924       -0.0124346         147.224
0.559                  -0.638032        -153.788         -53.9522         96.2695         -53.9529          96.272       -0.0125458         147.153
0.56                   -0.672691        -154.558         -53.6886         94.7219         -53.6893         94.7245       -0.0126591         147.082
0.561                  -0.710397        -155.336         -53.4189         93.1434         -53.4196         93.1462       -0.0127747         147.011
0.562                  -0.751436        -156.124         -53.1431         91.5304         -53.1438         91.5332       -0.0128926          146.94
0.563                  -0.796117        -156.919         -52.8613         89.8786          -52.862         89.8815       -0.0130131         146.869
0.564                  -0.844773        -157.721         -52.5735         88.1838         -52.5742         88.1868       -0.0131363         146.797
0.565                  -0.897759        -158.528           -52.28         86.4413         -52.2806         86.4444       -0.0132623         146.726
0.566                  -0.955453        -159.339         -51.9807         84.6463         -51.9813         84.6494       -0.0133915         146.654
0.567                   -1.01825        -160.151         -51.6761         82.7937         -51.6767         82.7969        -0.013524         146.582
0.568                   -1.08655        -160.962         -51.3665         80.8781          -51.367         80.8813       -0.0136599          146.51
0.569                   -1.16077        -161.768         -51.0522          78.894         -51.0527         78.8972       -0.0137996         146.437
0.57                     -1.2413        -162.565         -50.7338         76.8356         -50.7342         76.8388       -0.0139433         146.365
0.571                   -1.32851        -163.349         -50.4118         74.6971         -50.4122         74.7002       -0.0140911         146.293
0.572                   -1.42272        -164.114         -50.0871         72.4725         -50.0874         72.4755       -0.0142433          146.22
0.573                   -1.52416        -164.852         -49.7605         70.1559         -49.7608         70.1589          -0.0144         146.147
0.574                   -1.63295        -165.557          -49.433         67.7418         -49.4333         67.7446       -0.0145615         146.074
0.575                   -1.74904        -166.218         -49.1059         65.2246         -49.1061         65.2272       -0.0147279         146.001
0.576                   -1.87215        -166.828         -48.7805         62.5995         -48.7807          62.602       -0.0148993         145.928
0.577                   -2.00171        -167.375         -48.4585         59.8626         -48.4587         59.8649       -0.0150758         145.855
0.578                    -2.1368        -167.847         -48.1415         57.0109         -48.1416         57.0129       -0.0152574         145.781
0.579                   -2.27611        -168.235         -47.8315         54.0426         -47.8316         54.0444        -0.015444         145.707
0.58                    -2.41785        -168.528         -47.5306         50.9578         -47.5307         50.9593       -0.0156355         145.634
0.581                   -2.55973        -168.717         -47.2409         47.7585          -47.241         47.7598       -0.0158318          145.56
0.582                   -2.69901        -168.797         -46.9647          44.449         -46.9647         44.4501       -0.0160325         145.486
0.583                   -2.83257        -168.764         -46.7043         41.0363         -46.7043          41.037       -0.0162374         145.412
0.584                     -2.957        -168.622         -46.4617         37.5296         -46.4617         37.5301        -0.016446         145.337
0.585                   -3.06886        -168.378          -46.239         33.9413         -46.2391         33.9415        -0.016658         145.263
0.586                   -3.16489        -168.046          -46.038         30.2859          -46.038         30.2859       -0.0168728         145.188
0.587                   -3.24231        -167.646         -45.8599         26.5803           -45.86           26.58       -0.0170899         145.114
0.588                    -3.2991          -167.2         -45.7057         22.8428         -45.7058         22.8423       -0.0173088         145.039
0.589                   -3.33414        -166.736         -45.5759         19.0928          -45.576         19.0922        -0.017529         144.964
0.59                    -3.34736        -166.281         -45.4704         15.3501         -45.4704         15.3494         -0.01775         144.889
0.591                   -3.33965        -165.862         -45.3885         11.6338         -45.3886          11.633       -0.0179713         144.813
0.592                   -3.31278          -165.5         -45.3293         7.96174         -45.3294         7.96093       -0.0181927         144.738
0.593                   -3.26915        -165.216         -45.2912         4.35018         -45.2914         4.34936       -0.0184137         144.662
0.594                   -3.21157        -165.022         -45.2726        0.812904         -45.2727        0.812105       -0.0186341         144.587
0.595                   -3.14298        -164.928         -45.2713        -2.63877         -45.2715        -2.63953       -0.0188537         144.511
0.596                   -3.06626        -164.938         -45.2853        -5.99618         -45.2855        -5.99688       -0.0190725         144.435
0.597                   -2.98409        -165.052         -45.3123        -9.25323         -45.3125        -9.25385       -0.0192904         144.358
0.598                   -2.89886        -165.266         -45.3502        -12.4062         -45.3503        -12.4068       -0.0195074         144.282
0.599                   -2.81256        -165.577         -45.3968        -15.4537         -45.3969        -15.4541       -0.0197235         144.205
0.6                     -2.72687        -165.978         -45.4501        -18.3958         -45.4503        -18.3962        -0.019939         144.129
0.601                    -2.6431        -166.461         -45.5084        -21.2345         -45.5086        -21.2348       -0.0201539         144.052
0.602                   -2.56227         -167.02           -45.57        -23.9728         -45.5702         -23.973       -0.0203685         143.975
0.603                   -2.48511        -167.648         -45.6335        -26.6146         -45.6336        -26.6147        -0.020583         143.897
0.604                   -2.41217        -168.337         -45.6975        -29.1645         -45.6976        -29.1646       -0.0207976          143.82
0.605                   -2.34379        -169.083         -45.7609        -31.6275          -45.761        -31.6275       -0.0210126         143.742
0.606                   -2.28019        -169.878         -45.8228         -34.009         -45.8229         -34.009       -0.0212281         143.664
0.607                   -2.22148        -170.718         -45.8824        -36.3143         -45.8825        -36.3143       -0.0214445         143.586
0.608                    -2.1677        -171.599          -45.939        -38.5489          -45.939        -38.5489       -0.0216619         143.507
0.609                    -2.1188        -172.517         -45.9919        -40.7181          -45.992         -40.718       -0.0218806         143.429
0.61                    -2.07474        -173.468         -46.0409         -42.827         -46.0409        -42.8269       -0.0221009          143.35
0.611                   -2.03542         -174.45         -46.0854        -44.8807         -46.0854        -44.8806       -0.0223229         143.271
0.612                   -2.00072        -175.461         -46.1252        -46.8838         -46.1252        -46.8838       -0.0225469         143.192
0.613                   -1.97056        -176.498         -46.1601        -48.8411         -46.1601         -48.841       -0.0227731         143.112
0.614                    -1.9448         -177.56         -46.1899        -50.7566         -46.1899        -50.7566       -0.0230015         143.032
0.615                   -1.92335        -178.645         -46.2145        -52.6345         -46.2144        -52.6346       -0.0232326         142.952
0.616                   -1.90612        -179.753         -46.2337        -54.4786         -46.2336        -54.4787       -0.0234663         142.872
0.617                   -1.89301         179.117         -46.2476        -56.2925         -46.2475        -56.2926       -0.0237028         142.792
0.618                   -1.88397         177.965         -46.2561        -58.0795          -46.256        -58.0797       -0.0239424         142.711
0.619                   -1.87892         176.794         -46.2593        -59.8428         -46.2592         -59.843       -0.0241851          142.63
0.62                    -1.87782         175.601         -46.2571        -61.5854          -46.257        -61.5856       -0.0244312         142.549
0.621                   -1.88067         174.389         -46.2496        -63.3099         -46.2495        -63.3102       -0.0246807         142.467
0.622                   -1.88743         173.156         -46.2369        -65.0191         -46.2368        -65.0194       -0.0249337         142.386
0.623                   -1.89813         171.903          -46.219        -66.7154         -46.2189        -66.7157       -0.0251905         142.304
0.624                   -1.91279         170.629          -46.196         -68.401         -46.1959        -68.4014        -0.025451         142.221
0.625                   -1.93145         169.335         -46.1681        -70.0783          -46.168        -70.0787       -0.0257156         142.139
0.626                   -1.95418          168.02         -46.1352        -71.7492         -46.1351        -71.7496       -0.0259841         142.056
0.627                   -1.98105         166.683         -46.0976        -73.4156         -46.0975        -73.4161       -0.0262568         141.973
0.628                   -2.01217         165.325         -46.0553        -75.0795         -46.0552          -75.08       -0.0265339          141.89
0.629                   -2.04765         163.945         -46.0085        -76.7426         -46.0084        -76.7431       -0.0268153         141.806
