! TOUCHSTONE file generated by CST MICROWAVE STUDIO
! Date and time: Sat Nov 14 20:38:13 2020
! Project name: Scenario_1_Planar_Body_Tissue_Out_of_Line_v2.cst
! Parameters = {dy1=-34.6; L_HA=400; Ltissue=700; MT=2.54; Rad_Dielectric=30; Rad_Lower=7.3; Rad_Upper=30; Wtissue=700; a_HA=580; a_WG=246; b_HA=500; b_WG=121; c_HA=0; c_WG=187; d_feed=85; dx1=173; h_feed=15; h_lower=18; h_upper=40; hfat=3; hgap=25; hmuscle=50; hskin=1.5}
! Header version: 2018
! Port assignment regex: !\s*Touchstone port\s*([0-9]+)\s*=\s*(CST MWS port|CST DS port)\s*([0-9]+|Zmin|Zmax)\s*\(\"(.*)\"\)(\s*mode\s*([0-9]+))?.*
! Touchstone port assignment:
! Touchstone port 1 = CST MWS port 1 ("")
! Touchstone port 2 = CST MWS port 2 ("")
# GHz S DB R 50
0.5                   -0.0435104         -121.73         -56.8586          132.08         -56.8586         132.081      -0.00718024         151.155
0.501                 -0.0477187        -122.006         -57.0866         130.458         -57.0867         130.459      -0.00730634          151.09
0.502                 -0.0519628        -122.285         -57.3187          128.75         -57.3188         128.751      -0.00743229         151.025
0.503                 -0.0562435        -122.566         -57.5545          126.95         -57.5546          126.95      -0.00755807          150.96
0.504                 -0.0605611        -122.848         -57.7934          125.05         -57.7935          125.05      -0.00768372         150.894
0.505                 -0.0649164        -123.132         -58.0349         123.042         -58.0351         123.041      -0.00780922         150.829
0.506                   -0.06931        -123.418         -58.2782         120.918         -58.2784         120.917       -0.0079346         150.763
0.507                 -0.0737423        -123.706         -58.5223          118.67         -58.5224         118.669      -0.00805986         150.698
0.508                  -0.078214        -123.996         -58.7659         116.289         -58.7661         116.287      -0.00818502         150.632
0.509                 -0.0827258        -124.288         -59.0076         113.766         -59.0078         113.765      -0.00831008         150.566
0.51                  -0.0872782        -124.582         -59.2455         111.094         -59.2457         111.092      -0.00843505         150.501
0.511                  -0.091872        -124.878         -59.4776         108.264         -59.4778         108.262      -0.00855994         150.435
0.512                 -0.0965077        -125.176         -59.7013         105.271         -59.7015         105.269      -0.00868477         150.369
0.513                  -0.101186        -125.476         -59.9139          102.11          -59.914         102.107      -0.00880954         150.303
0.514                  -0.105908        -125.777          -60.112         98.7795         -60.1121          98.776      -0.00893427         150.236
0.515                  -0.110674        -126.082         -60.2922           95.28         -60.2923         95.2761      -0.00905897          150.17
0.516                  -0.115484        -126.388         -60.4509         91.6172         -60.4509          91.613      -0.00918364         150.104
0.517                   -0.12034        -126.696         -60.5841         87.8013         -60.5841         87.7967       -0.0093083         150.038
0.518                  -0.125243        -127.006         -60.6883         83.8474         -60.6883         83.8424      -0.00943296         149.971
0.519                  -0.130192        -127.319           -60.76         79.7762         -60.7599         79.7709      -0.00955763         149.904
0.52                   -0.135189        -127.634         -60.7962         75.6131         -60.7961         75.6076      -0.00968233         149.838
0.521                  -0.140235        -127.951         -60.7949         71.3881         -60.7947         71.3824      -0.00980706         149.771
0.522                   -0.14533         -128.27         -60.7547         67.1341         -60.7544         67.1282      -0.00993185         149.704
0.523                  -0.150475        -128.592         -60.6754          62.885         -60.6751         62.8791       -0.0100567         149.637
0.524                  -0.155671        -128.915         -60.5578         58.6748         -60.5573         58.6689       -0.0101816          149.57
0.525                  -0.160919        -129.242         -60.4035          54.535          -60.403         54.5291       -0.0103066         149.503
0.526                  -0.166221         -129.57         -60.2152         50.4933         -60.2146         50.4876       -0.0104317         149.436
0.527                  -0.171575        -129.901         -59.9959         46.5731         -59.9953         46.5676       -0.0105569         149.369
0.528                  -0.176985        -130.234         -59.7494         42.7922         -59.7487         42.7869       -0.0106823         149.302
0.529                   -0.18245         -130.57         -59.4794         39.1633         -59.4787         39.1583       -0.0108078         149.234
0.53                   -0.187972        -130.908         -59.1896          35.694         -59.1889         35.6893       -0.0109334         149.167
0.531                  -0.193551        -131.249         -58.8837         32.3877         -58.8829         32.3832       -0.0110592         149.099
0.532                  -0.199189        -131.592          -58.565         29.2439         -58.5642         29.2397       -0.0111852         149.031
0.533                  -0.204886        -131.938         -58.2365         26.2593         -58.2357         26.2554       -0.0113114         148.963
0.534                  -0.210644        -132.286          -57.901         23.4285         -57.9001         23.4249       -0.0114378         148.895
0.535                  -0.216464        -132.637         -57.5606         20.7445         -57.5597         20.7411       -0.0115644         148.827
0.536                  -0.222347         -132.99         -57.2174         18.1994         -57.2165         18.1962       -0.0116913         148.759
0.537                  -0.228293        -133.347         -56.8731         15.7846         -56.8722         15.7817       -0.0118184         148.691
0.538                  -0.234305        -133.706         -56.5289         13.4917          -56.528          13.489       -0.0119458         148.623
0.539                  -0.240383        -134.067          -56.186         11.3118         -56.1851         11.3094       -0.0120735         148.554
0.54                   -0.246529        -134.432         -55.8453         9.23684         -55.8444         9.23457       -0.0122015         148.486
0.541                  -0.252743        -134.799         -55.5075         7.25863         -55.5066         7.25654       -0.0123299         148.417
0.542                  -0.259028        -135.169          -55.173         5.36966         -55.1722         5.36773       -0.0124586         148.348
0.543                  -0.265384        -135.542         -54.8425          3.5628         -54.8416         3.56103       -0.0125876          148.28
0.544                  -0.271812        -135.918         -54.5161         1.83143         -54.5153          1.8298        -0.012717         148.211
0.545                  -0.278315        -136.297         -54.1941        0.169418         -54.1933        0.167915       -0.0128468         148.142
0.546                  -0.284893        -136.679         -53.8766        -1.42893         -53.8758        -1.43031        -0.012977         148.073
0.547                  -0.291548        -137.064         -53.5638        -2.96883          -53.563        -2.97011       -0.0131077         148.003
0.548                  -0.298282        -137.452         -53.2556        -4.45512         -53.2548         -4.4563       -0.0132388         147.934
0.549                  -0.305095        -137.843         -52.9521         -5.8922         -52.9513        -5.89329       -0.0133704         147.864
0.55                    -0.31199        -138.237         -52.6532        -7.28413         -52.6524        -7.28514       -0.0135024         147.795
0.551                  -0.318968        -138.635         -52.3589        -8.63464         -52.3582        -8.63557        -0.013635         147.725
0.552                  -0.326031        -139.036         -52.0692        -9.94714         -52.0685        -9.94801       -0.0137681         147.655
0.553                   -0.33318         -139.44         -51.7839        -11.2248         -51.7832        -11.2256       -0.0139018         147.585
0.554                  -0.340417        -139.847          -51.503        -12.4704         -51.5023        -12.4712        -0.014036         147.515
0.555                  -0.347745        -140.258         -51.2264        -13.6867         -51.2257        -13.6874       -0.0141709         147.445
0.556                  -0.355163        -140.672         -50.9539        -14.8761         -50.9532        -14.8768       -0.0143063         147.375
0.557                  -0.362676         -141.09         -50.6855        -16.0409         -50.6848        -16.0415       -0.0144424         147.304
0.558                  -0.370284        -141.511          -50.421         -17.183         -50.4204        -17.1836       -0.0145791         147.234
0.559                  -0.377989        -141.936         -50.1604        -18.3045         -50.1598         -18.305       -0.0147165         147.163
0.56                   -0.385794        -142.364         -49.9035         -19.407         -49.9029        -19.4075       -0.0148547         147.092
0.561                    -0.3937        -142.797         -49.6503        -20.4922         -49.6497        -20.4927       -0.0149935         147.021
0.562                   -0.40171        -143.232         -49.4006        -21.5617            -49.4        -21.5621       -0.0151332          146.95
0.563                  -0.409826        -143.672         -49.1543        -22.6168         -49.1537        -22.6172       -0.0152735         146.879
0.564                   -0.41805        -144.116         -48.9113        -23.6588         -48.9107        -23.6591       -0.0154147         146.808
0.565                  -0.426385        -144.563         -48.6716        -24.6889          -48.671        -24.6893       -0.0155568         146.736
0.566                  -0.434833        -145.015         -48.4349        -25.7083         -48.4344        -25.7086       -0.0156997         146.665
0.567                  -0.443395         -145.47         -48.2014         -26.718         -48.2008        -26.7183       -0.0158434         146.593
0.568                  -0.452076         -145.93         -47.9707         -27.719         -47.9702        -27.7193       -0.0159881         146.521
0.569                  -0.460877        -146.393          -47.743        -28.7122         -47.7425        -28.7125       -0.0161337         146.449
0.57                   -0.469802        -146.861          -47.518        -29.6985         -47.5175        -29.6988       -0.0162803         146.377
0.571                  -0.478852        -147.334         -47.2958        -30.6788         -47.2953         -30.679       -0.0164278         146.305
0.572                  -0.488031         -147.81         -47.0761        -31.6536         -47.0757        -31.6539       -0.0165764         146.232
0.573                  -0.497342        -148.291         -46.8591        -32.6239         -46.8586        -32.6242       -0.0167261          146.16
0.574                  -0.506788        -148.777         -46.6445        -33.5902         -46.6441        -33.5905       -0.0168768         146.087
0.575                  -0.516372        -149.267         -46.4324        -34.5532         -46.4319        -34.5535       -0.0170286         146.014
0.576                  -0.526096        -149.762         -46.2226        -35.5135         -46.2222        -35.5138       -0.0171816         145.941
0.577                  -0.535966        -150.261         -46.0152        -36.4717         -46.0147        -36.4719       -0.0173358         145.868
0.578                  -0.545983        -150.766         -45.8099        -37.4283         -45.8095        -37.4285       -0.0174911         145.795
0.579                  -0.556152        -151.275         -45.6069        -38.3838         -45.6065         -38.384       -0.0176477         145.721
0.58                   -0.566476        -151.789         -45.4061        -39.3387         -45.4057         -39.339       -0.0178056         145.648
0.581                  -0.576959        -152.309         -45.2073        -40.2935          -45.207        -40.2938       -0.0179648         145.574
0.582                  -0.587605        -152.833         -45.0107        -41.2486         -45.0103        -41.2489       -0.0181253           145.5
0.583                  -0.598418        -153.363          -44.816        -42.2045         -44.8156        -42.2047       -0.0182872         145.426
0.584                  -0.609403        -153.898         -44.6233        -43.1615         -44.6229        -43.1617       -0.0184505         145.352
0.585                  -0.620562        -154.439         -44.4325          -44.12         -44.4322        -44.1202       -0.0186153         145.277
0.586                  -0.631902        -154.985         -44.2437        -45.0804         -44.2433        -45.0806       -0.0187816         145.203
0.587                  -0.643427        -155.536         -44.0567         -46.043         -44.0564        -46.0433       -0.0189494         145.128
0.588                  -0.655141        -156.094         -43.8715        -47.0082         -43.8712        -47.0085       -0.0191187         145.053
0.589                  -0.667049        -156.657         -43.6882        -47.9763         -43.6879        -47.9766       -0.0192897         144.978
0.59                   -0.679158        -157.227         -43.5066        -48.9476         -43.5064        -48.9479       -0.0194623         144.903
0.591                  -0.691471        -157.802         -43.3269        -49.9224         -43.3266        -49.9227       -0.0196366         144.828
0.592                  -0.703995        -158.384         -43.1488         -50.901         -43.1486        -50.9012       -0.0198126         144.752
0.593                  -0.716735        -158.972         -42.9725        -51.8836         -42.9722        -51.8838       -0.0199904         144.676
0.594                  -0.729698        -159.566         -42.7979        -52.8705         -42.7976        -52.8707         -0.02017           144.6
0.595                  -0.742889        -160.168         -42.6249        -53.8619         -42.6247        -53.8622       -0.0203515         144.524
0.596                  -0.756316        -160.775         -42.4537        -54.8581         -42.4535        -54.8584       -0.0205349         144.448
0.597                  -0.769984         -161.39         -42.2841        -55.8594         -42.2839        -55.8596       -0.0207203         144.371
0.598                    -0.7839        -162.012         -42.1161        -56.8658         -42.1159         -56.866       -0.0209076         144.295
0.599                  -0.798073        -162.641         -41.9498        -57.8776         -41.9496        -57.8779        -0.021097         144.218
0.6                     -0.81251        -163.277         -41.7851        -58.8951          -41.785        -58.8953       -0.0212885         144.141
0.601                  -0.827218         -163.92         -41.6221        -59.9183         -41.6219        -59.9186       -0.0214822         144.064
0.602                  -0.842205        -164.572         -41.4607        -60.9475         -41.4605        -60.9478        -0.021678         143.986
0.603                   -0.85748        -165.231         -41.3009        -61.9829         -41.3007        -61.9831       -0.0218761         143.908
0.604                  -0.873053        -165.898         -41.1427        -63.0245         -41.1426        -63.0248       -0.0220765         143.831
0.605                  -0.888931        -166.573         -40.9862        -64.0726          -40.986        -64.0728       -0.0222793         143.753
0.606                  -0.905125        -167.257         -40.8312        -65.1272         -40.8311        -65.1275       -0.0224845         143.674
0.607                  -0.921645        -167.949         -40.6779        -66.1886         -40.6778        -66.1888       -0.0226922         143.596
0.608                  -0.938502         -168.65         -40.5263        -67.2567         -40.5261        -67.2569       -0.0229024         143.517
0.609                  -0.955705        -169.359         -40.3762        -68.3317         -40.3761        -68.3319       -0.0231152         143.438
0.61                   -0.973268        -170.078         -40.2279        -69.4138         -40.2278         -69.414       -0.0233306         143.359
0.611                  -0.991201        -170.807         -40.0811        -70.5029          -40.081        -70.5031       -0.0235488          143.28
0.612                   -1.00952        -171.545         -39.9361        -71.5992          -39.936        -71.5994       -0.0237697           143.2
0.613                   -1.02823        -172.292         -39.7927        -72.7028         -39.7926         -72.703       -0.0239935          143.12
0.614                   -1.04735         -173.05          -39.651        -73.8136         -39.6509        -73.8138       -0.0242202          143.04
0.615                    -1.0669        -173.819          -39.511        -74.9318         -39.5109        -74.9319       -0.0244499          142.96
0.616                   -1.08688        -174.597         -39.3727        -76.0573         -39.3726        -76.0574       -0.0246826          142.88
0.617                   -1.10732        -175.387         -39.2361        -77.1902         -39.2361        -77.1903       -0.0249184         142.799
0.618                   -1.12823        -176.188         -39.1013        -78.3304         -39.1013        -78.3306       -0.0251574         142.718
0.619                   -1.14963        -177.001         -38.9682        -79.4781         -38.9682        -79.4782       -0.0253997         142.637
0.62                    -1.17154        -177.825         -38.8369        -80.6331         -38.8369        -80.6333       -0.0256453         142.555
0.621                   -1.19397        -178.661         -38.7074        -81.7955         -38.7074        -81.7956       -0.0258943         142.474
0.622                   -1.21694         -179.51         -38.5797        -82.9652         -38.5797        -82.9653       -0.0261468         142.392
0.623                   -1.24049         179.628         -38.4538        -84.1422         -38.4538        -84.1423       -0.0264028          142.31
0.624                   -1.26462         178.753         -38.3298        -85.3263         -38.3298        -85.3264       -0.0266625         142.227
0.625                   -1.28936         177.865         -38.2076        -86.5176         -38.2076        -86.5177       -0.0269259         142.144
0.626                   -1.31474         176.963         -38.0873         -87.716         -38.0873        -87.7161       -0.0271932         142.062
0.627                   -1.34078         176.046         -37.9689        -88.9213         -37.9689        -88.9213       -0.0274643         141.978
0.628                    -1.3675         175.114         -37.8524        -90.1334         -37.8524        -90.1335       -0.0277395         141.895
0.629                   -1.39494         174.168         -37.7378        -91.3523         -37.7378        -91.3523       -0.0280187         141.811
