! TOUCHSTONE file generated by CST MICROWAVE STUDIO
! Date and time: Thu Feb 11 19:34:00 2021
! Project name: Scenario_1_Planar_Body_Tissue_Out_of_Line.cst
! Parameters = {L_HA=400; Ltissue=1000; MT=2.54; Rad_Dielectric=30; Rad_Lower=7.3; Rad_Upper=30; Wtissue=1000; a_HA=580; a_WG=246; b_HA=500; b_WG=121; c_HA=0; c_WG=187; d_feed=85; dx1=346; dy1=34.6; h_feed=15; h_lower=18; h_upper=40; hfat=3; hgap=25; hmuscle=50; hskin=1.5}
! Header version: 2018
! Port assignment regex: !\s*Touchstone port\s*([0-9]+)\s*=\s*(CST MWS port|CST DS port)\s*([0-9]+|Zmin|Zmax)\s*\(\"(.*)\"\)(\s*mode\s*([0-9]+))?.*
! Touchstone port assignment:
! Touchstone port 1 = CST MWS port 1 ("")
! Touchstone port 2 = CST MWS port 2 ("")
# GHz S DB R 50
0.5                    -0.269678        -121.493         -55.4149         35.8351         -55.4148          35.835       -0.0080001         151.146
0.501                  -0.270894        -121.893         -55.4316         34.6041         -55.4316         34.6035      -0.00805751         151.081
0.502                  -0.272131        -122.295         -55.4462         33.3611         -55.4462         33.3601      -0.00811557         151.016
0.503                  -0.273392          -122.7         -55.4586         32.1062         -55.4585         32.1049      -0.00817429         150.951
0.504                  -0.274679        -123.108         -55.4688         30.8398         -55.4687          30.838      -0.00823366         150.885
0.505                  -0.275991        -123.518         -55.4765         29.5619         -55.4764         29.5598      -0.00829369          150.82
0.506                  -0.277333        -123.931         -55.4819         28.2729         -55.4817         28.2703      -0.00835439         150.754
0.507                  -0.278705        -124.347         -55.4847         26.9728         -55.4845         26.9699      -0.00841576         150.689
0.508                  -0.280109        -124.765         -55.4849          25.662         -55.4847         25.6588      -0.00847781         150.623
0.509                  -0.281548        -125.187         -55.4824         24.3408         -55.4822         24.3373      -0.00854053         150.557
0.51                   -0.283023        -125.611         -55.4772         23.0096         -55.4769         23.0057      -0.00860394         150.492
0.511                  -0.284537        -126.038         -55.4692         21.6685         -55.4689         21.6644      -0.00866804         150.426
0.512                  -0.286092        -126.468         -55.4582         20.3181         -55.4579         20.3136      -0.00873284          150.36
0.513                  -0.287691        -126.901         -55.4444         18.9586          -55.444         18.9539      -0.00879833         150.294
0.514                  -0.289335        -127.337         -55.4274         17.5905         -55.4271         17.5856      -0.00886453         150.227
0.515                  -0.291028        -127.776         -55.4074         16.2142          -55.407         16.2091      -0.00893144         150.161
0.516                  -0.292773        -128.218         -55.3843         14.8302         -55.3838         14.8248      -0.00899906         150.095
0.517                  -0.294572        -128.664         -55.3579         13.4389         -55.3574         13.4334      -0.00906741         150.029
0.518                  -0.296428        -129.112         -55.3283         12.0409         -55.3278         12.0351      -0.00913648         149.962
0.519                  -0.298345        -129.565         -55.2953         10.6365         -55.2948         10.6306      -0.00920628         149.895
0.52                   -0.300325         -130.02          -55.259         9.22631         -55.2584         9.22024      -0.00927681         149.829
0.521                  -0.302373        -130.479         -55.2192         7.81087         -55.2187         7.80468      -0.00934809         149.762
0.522                  -0.304491        -130.941         -55.1761          6.3907         -55.1754          6.3844      -0.00942011         149.695
0.523                  -0.306685        -131.407         -55.1294         4.96633         -55.1288         4.95994      -0.00949289         149.628
0.524                  -0.308957        -131.877         -55.0792         3.53831         -55.0786         3.53185      -0.00956643         149.561
0.525                  -0.311312         -132.35         -55.0255         2.10717         -55.0248         2.10065      -0.00964073         149.494
0.526                  -0.313755        -132.827         -54.9682        0.673468         -54.9675        0.666912       -0.0097158         149.427
0.527                   -0.31629        -133.308         -54.9074       -0.762254         -54.9067       -0.768833      -0.00979165          149.36
0.528                  -0.318921        -133.792          -54.843        -2.19946         -54.8422        -2.20604      -0.00986828         149.292
0.529                  -0.321655        -134.281          -54.775        -3.63761         -54.7742        -3.64419       -0.0099457         149.225
0.53                   -0.324496        -134.774         -54.7033        -5.07619         -54.7025        -5.08275       -0.0100239         149.157
0.531                  -0.327451        -135.271         -54.6281        -6.51469         -54.6273        -6.52121       -0.0101029         149.089
0.532                  -0.330525        -135.772         -54.5493        -7.95261         -54.5485        -7.95908       -0.0101828         149.022
0.533                  -0.333724        -136.277          -54.467        -9.38947         -54.4661        -9.39588       -0.0102634         148.954
0.534                  -0.337055        -136.787          -54.381        -10.8248         -54.3802        -10.8311       -0.0103448         148.886
0.535                  -0.340525        -137.301         -54.2916        -12.2582         -54.2907        -12.2644       -0.0104271         148.818
0.536                  -0.344142         -137.82         -54.1985        -13.6892         -54.1976        -13.6953       -0.0105102         148.749
0.537                  -0.347913        -138.344          -54.102        -15.1174         -54.1011        -15.1234       -0.0105942         148.681
0.538                  -0.351847        -138.872         -54.0021        -16.5425         -54.0011        -16.5484        -0.010679         148.613
0.539                  -0.355952        -139.405         -53.8986        -17.9641         -53.8977        -17.9699       -0.0107647         148.544
0.54                   -0.360238        -139.943         -53.7918        -19.3818         -53.7909        -19.3875       -0.0108512         148.476
0.541                  -0.364713        -140.486         -53.6816        -20.7955         -53.6807        -20.8011       -0.0109385         148.407
0.542                   -0.36939        -141.034         -53.5681        -22.2049         -53.5671        -22.2103       -0.0110268         148.338
0.543                  -0.374277        -141.588         -53.4512        -23.6097         -53.4503         -23.615       -0.0111159         148.269
0.544                  -0.379387        -142.147         -53.3311        -25.0098         -53.3302        -25.0149        -0.011206           148.2
0.545                  -0.384733        -142.712         -53.2078        -26.4049         -53.2069        -26.4099       -0.0112969         148.131
0.546                  -0.390327        -143.282         -53.0813         -27.795         -53.0804        -27.7998       -0.0113887         148.062
0.547                  -0.396182        -143.858         -52.9516          -29.18         -52.9507        -29.1846       -0.0114815         147.992
0.548                  -0.402314         -144.44         -52.8189        -30.5598          -52.818        -30.5643       -0.0115751         147.923
0.549                  -0.408737        -145.028         -52.6831        -31.9344         -52.6822        -31.9387       -0.0116697         147.853
0.55                   -0.415469        -145.622         -52.5443        -33.3039         -52.5434         -33.308       -0.0117653         147.784
0.551                  -0.422527        -146.223         -52.4025        -34.6681         -52.4017        -34.6721       -0.0118617         147.714
0.552                   -0.42993         -146.83         -52.2578        -36.0273          -52.257        -36.0311       -0.0119592         147.644
0.553                  -0.437697        -147.444         -52.1102        -37.3815         -52.1094        -37.3852       -0.0120575         147.574
0.554                  -0.445849        -148.065         -51.9598        -38.7309          -51.959        -38.7344       -0.0121569         147.504
0.555                   -0.45441        -148.693         -51.8065        -40.0757         -51.8057         -40.079       -0.0122572         147.433
0.556                  -0.463403        -149.328         -51.6505         -41.416         -51.6497        -41.4191       -0.0123586         147.363
0.557                  -0.472853         -149.97         -51.4917        -42.7521         -51.4909        -42.7551       -0.0124609         147.292
0.558                  -0.482789         -150.62         -51.3302        -44.0843         -51.3294        -44.0871       -0.0125642         147.222
0.559                  -0.493239        -151.278          -51.166        -45.4129         -51.1653        -45.4156       -0.0126686         147.151
0.56                   -0.504235        -151.944         -50.9992        -46.7382         -50.9985        -46.7407        -0.012774          147.08
0.561                   -0.51581        -152.618         -50.8297        -48.0606          -50.829         -48.063       -0.0128804         147.009
0.562                  -0.528001          -153.3         -50.6576        -49.3805          -50.657        -49.3827       -0.0129879         146.938
0.563                  -0.540845        -153.991          -50.483        -50.6983         -50.4824        -50.7004       -0.0130965         146.866
0.564                  -0.554385        -154.691         -50.3058        -52.0144         -50.3053        -52.0164       -0.0132061         146.795
0.565                  -0.568664          -155.4         -50.1261        -53.3295         -50.1256        -53.3313       -0.0133168         146.723
0.566                  -0.583729        -156.118         -49.9439         -54.644         -49.9434        -54.6457       -0.0134287         146.652
0.567                  -0.599633        -156.846         -49.7592        -55.9584         -49.7587          -55.96       -0.0135417          146.58
0.568                  -0.616429        -157.584         -49.5721        -57.2734         -49.5716        -57.2748       -0.0136558         146.508
0.569                  -0.634177        -158.332         -49.3824        -58.5895          -49.382        -58.5909       -0.0137711         146.436
0.57                   -0.652941        -159.091         -49.1904        -59.9076         -49.1899        -59.9088       -0.0138875         146.363
0.571                  -0.672788         -159.86         -48.9959        -61.2281         -48.9955        -61.2292       -0.0140052         146.291
0.572                  -0.693794         -160.64         -48.7989        -62.5519         -48.7986        -62.5529       -0.0141241         146.218
0.573                  -0.716037        -161.431         -48.5996        -63.8798         -48.5993        -63.8807       -0.0142442         146.146
0.574                  -0.739603        -162.234         -48.3979        -65.2124         -48.3976        -65.2133       -0.0143657         146.073
0.575                  -0.764586        -163.049         -48.1938        -66.5508         -48.1935        -66.5515       -0.0144884             146
0.576                  -0.791086        -163.876         -47.9874        -67.8957         -47.9871        -67.8963       -0.0146125         145.926
0.577                  -0.819211        -164.715         -47.7786         -69.248         -47.7783        -69.2486       -0.0147379         145.853
0.578                  -0.849079        -165.567         -47.5674        -70.6088         -47.5672        -70.6093       -0.0148648          145.78
0.579                  -0.880817        -166.433          -47.354         -71.979         -47.3538        -71.9795       -0.0149931         145.706
0.58                   -0.914562        -167.311         -47.1382        -73.3597          -47.138        -73.3601        -0.015123         145.632
0.581                  -0.950463        -168.204         -46.9202         -74.752           -46.92        -74.7523       -0.0152544         145.558
0.582                  -0.988682         -169.11         -46.6999        -76.1569         -46.6998        -76.1572       -0.0153874         145.484
0.583                   -1.02939         -170.03         -46.4774        -77.5758         -46.4773         -77.576       -0.0155222          145.41
0.584                   -1.07279        -170.965         -46.2527        -79.0098         -46.2526        -79.0099       -0.0156587         145.335
0.585                   -1.11907        -171.915         -46.0258        -80.4602         -46.0258        -80.4603        -0.015797          145.26
0.586                   -1.16847        -172.879         -45.7969        -81.9283         -45.7968        -81.9284       -0.0159373         145.186
0.587                   -1.22122        -173.858         -45.5659        -83.4156         -45.5659        -83.4156       -0.0160796         145.111
0.588                   -1.27758        -174.851         -45.3329        -84.9234         -45.3329        -84.9234       -0.0162241         145.035
0.589                   -1.33785         -175.86         -45.0981        -86.4532         -45.0981        -86.4532       -0.0163708          144.96
0.59                    -1.40233        -176.883         -44.8614        -88.0067         -44.8614        -88.0066         -0.01652         144.884
0.591                   -1.47135        -177.921          -44.623        -89.5853          -44.623        -89.5851       -0.0166717         144.809
0.592                   -1.54527        -178.973         -44.3829        -91.1906          -44.383        -91.1905       -0.0168262         144.733
0.593                   -1.62449         179.962         -44.1414        -92.8244         -44.1415        -92.8242       -0.0169836         144.657
0.594                   -1.70942         178.884         -43.8986        -94.4883         -43.8987        -94.4881       -0.0171441          144.58
0.595                   -1.80053         177.794         -43.6546        -96.1841         -43.6547        -96.1838       -0.0173079         144.504
0.596                   -1.89828         176.693         -43.4097        -97.9134         -43.4097        -97.9132       -0.0174753         144.427
0.597                   -2.00322         175.583          -43.164        -99.6781          -43.164        -99.6778       -0.0176466          144.35
0.598                   -2.11589         174.467         -42.9177         -101.48         -42.9178         -101.48        -0.017822         144.273
0.599                   -2.23688         173.345         -42.6712         -103.32         -42.6713         -103.32       -0.0180018         144.195
0.6                     -2.36683         172.221         -42.4248        -105.202         -42.4249        -105.201       -0.0181864         144.118
0.601                   -2.50638         171.099         -42.1787        -107.125         -42.1788        -107.125       -0.0183761          144.04
0.602                   -2.65623         169.983         -41.9334        -109.092         -41.9335        -109.091       -0.0185712         143.962
0.603                   -2.81708         168.877         -41.6892        -111.104         -41.6893        -111.103       -0.0187722         143.884
0.604                   -2.98965         167.788         -41.4465        -113.162         -41.4466        -113.162       -0.0189794         143.806
0.605                   -3.17466         166.722         -41.2059        -115.268          -41.206        -115.268       -0.0191932         143.727
0.606                    -3.3728         165.688         -40.9678        -117.423         -40.9679        -117.422        -0.019414         143.648
0.607                   -3.58473         164.695         -40.7328        -119.626         -40.7329        -119.626       -0.0196421         143.569
0.608                   -3.81104         163.754         -40.5014        -121.879         -40.5014        -121.879        -0.019878          143.49
0.609                   -4.05218         162.878         -40.2742        -124.181         -40.2742        -124.181        -0.020122          143.41
0.61                    -4.30846         162.082         -40.0518        -126.533         -40.0519        -126.533       -0.0203743          143.33
0.611                   -4.57994         161.382         -39.8349        -128.932          -39.835        -128.932       -0.0206351         143.251
0.612                   -4.86637         160.797         -39.6241        -131.379         -39.6242        -131.379       -0.0209048          143.17
0.613                   -5.16706         160.348         -39.4201        -133.871         -39.4202        -133.871       -0.0211832          143.09
0.614                    -5.4808         160.058         -39.2235        -136.406         -39.2235        -136.406       -0.0214706         143.009
0.615                   -5.80566         159.949         -39.0349         -138.98         -39.0349         -138.98       -0.0217668         142.929
0.616                   -6.13889         160.049         -38.8549        -141.592         -38.8549        -141.592       -0.0220716         142.848
0.617                   -6.47669          160.38         -38.6841        -144.236         -38.6841        -144.236       -0.0223848         142.766
0.618                   -6.81413         160.966         -38.5228        -146.909         -38.5228        -146.909        -0.022706         142.685
0.619                   -7.14499         161.824         -38.3716        -149.606         -38.3716        -149.606       -0.0230349         142.603
0.62                    -7.46185         162.966         -38.2307        -152.321         -38.2307        -152.321       -0.0233709         142.522
0.621                   -7.75621         164.393         -38.1005        -155.049         -38.1005        -155.049       -0.0237135          142.44
0.622                   -8.01892         166.089          -37.981        -157.784          -37.981        -157.784       -0.0240619         142.357
0.623                   -8.24089         168.024         -37.8723         -160.52         -37.8722         -160.52       -0.0244157         142.275
0.624                   -8.41392         170.151         -37.7743        -163.252         -37.7742        -163.252       -0.0247742         142.192
0.625                   -8.53175         172.406         -37.6868        -165.974         -37.6868        -165.974       -0.0251367         142.109
0.626                   -8.59082         174.714         -37.6097        -168.679         -37.6096         -168.68       -0.0255027         142.026
0.627                   -8.59086         176.996         -37.5424        -171.364         -37.5424        -171.364       -0.0258715         141.943
0.628                   -8.53482         179.177         -37.4847        -174.022         -37.4846        -174.022       -0.0262427         141.859
0.629                   -8.42838        -178.806         -37.4359        -176.649         -37.4358        -176.649       -0.0266158         141.775
