! TOUCHSTONE file generated by CST MICROWAVE STUDIO
! Date and time: Fri Dec 11 14:13:21 2020
! Project name: Scenario_1_Planar_Body_Tissue_Out_of_Line_v2.cst
! Parameters = {dy1=34.6; L_HA=400; Ltissue=700; MT=2.54; Rad_Dielectric=30; Rad_Lower=7.3; Rad_Upper=30; Wtissue=700; a_HA=580; a_WG=246; b_HA=500; b_WG=121; c_HA=0; c_WG=187; d_feed=85; dx1=520; h_feed=15; h_lower=18; h_upper=40; hfat=3; hgap=25; hmuscle=50; hskin=1.5}
! Header version: 2018
! Port assignment regex: !\s*Touchstone port\s*([0-9]+)\s*=\s*(CST MWS port|CST DS port)\s*([0-9]+|Zmin|Zmax)\s*\(\"(.*)\"\)(\s*mode\s*([0-9]+))?.*
! Touchstone port assignment:
! Touchstone port 1 = CST MWS port 1 ("")
! Touchstone port 2 = CST MWS port 2 ("")
# GHz S DB R 50
0.5                   -0.0748698        -121.974         -61.4379        -48.6365         -61.4381        -48.6372      -0.00745173          151.15
0.501                 -0.0775346        -122.434         -61.2158        -49.6113         -61.2159         -49.612      -0.00751242         151.084
0.502                 -0.0803982        -122.898         -60.9898         -50.601         -60.9899        -50.6017      -0.00757377         151.019
0.503                 -0.0834768        -123.366         -60.7598        -51.6064           -60.76        -51.6071      -0.00763581         150.954
0.504                 -0.0867883        -123.838         -60.5259        -52.6281         -60.5261        -52.6288      -0.00769854         150.888
0.505                 -0.0903521        -124.314         -60.2879         -53.667          -60.288        -53.6678      -0.00776197         150.823
0.506                   -0.09419        -124.795         -60.0456        -54.7241         -60.0458        -54.7248      -0.00782614         150.757
0.507                 -0.0983259        -125.281         -59.7991        -55.8003         -59.7993         -55.801      -0.00789105         150.691
0.508                  -0.102786        -125.771         -59.5482        -56.8966         -59.5484        -56.8973      -0.00795673         150.625
0.509                    -0.1076        -126.266         -59.2928        -58.0142          -59.293        -58.0149       -0.0080232         150.559
0.51                   -0.112799        -126.766         -59.0329        -59.1543         -59.0331        -59.1551      -0.00809049         150.493
0.511                  -0.118421        -127.271         -58.7683        -60.3184         -58.7685        -60.3191      -0.00815862         150.427
0.512                  -0.124504        -127.781          -58.499        -61.5077         -58.4992        -61.5084      -0.00822764         150.361
0.513                  -0.131094        -128.297         -58.2249         -62.724         -58.2251        -62.7247      -0.00829758         150.295
0.514                  -0.138239        -128.819         -57.9458        -63.9688          -57.946        -63.9695      -0.00836848         150.229
0.515                  -0.145994        -129.346         -57.6618        -65.2442          -57.662        -65.2448      -0.00844039         150.162
0.516                  -0.154421        -129.879         -57.3727         -66.552         -57.3728        -66.5527      -0.00851337         150.096
0.517                  -0.163587        -130.419         -57.0784        -67.8945         -57.0785        -67.8951      -0.00858746         150.029
0.518                   -0.17357        -130.964         -56.7788        -69.2741          -56.779        -69.2747      -0.00866276         149.963
0.519                  -0.184454        -131.516         -56.4741        -70.6933         -56.4742        -70.6939      -0.00873932         149.896
0.52                   -0.196333        -132.074          -56.164        -72.1549         -56.1641        -72.1555      -0.00881725         149.829
0.521                  -0.209313        -132.639         -55.8486         -73.662         -55.8487        -73.6625      -0.00889664         149.762
0.522                  -0.223512         -133.21         -55.5278        -75.2179          -55.528        -75.2184       -0.0089776         149.695
0.523                   -0.23906        -133.788         -55.2018        -76.8261         -55.2019        -76.8266      -0.00906027         149.628
0.524                  -0.256104        -134.373         -54.8705        -78.4905         -54.8706         -78.491       -0.0091448         149.561
0.525                  -0.274803        -134.963         -54.5341        -80.2154         -54.5342        -80.2158      -0.00923134         149.493
0.526                  -0.295336         -135.56         -54.1927         -82.005         -54.1928        -82.0054      -0.00932009         149.426
0.527                  -0.317897        -136.162         -53.8465        -83.8644         -53.8466        -83.8648      -0.00941127         149.359
0.528                  -0.342698        -136.769         -53.4958        -85.7987         -53.4959         -85.799      -0.00950509         149.291
0.529                   -0.36997         -137.38          -53.141        -87.8132         -53.1411        -87.8135      -0.00960184         149.223
0.53                   -0.399957        -137.994         -52.7825        -89.9139         -52.7826        -89.9142       -0.0097018         149.155
0.531                  -0.432918         -138.61          -52.421        -92.1068          -52.421         -92.107      -0.00980529         149.087
0.532                  -0.469117        -139.226          -52.057        -94.3981         -52.0571        -94.3984      -0.00991266         149.019
0.533                  -0.508822         -139.84         -51.6915        -96.7944         -51.6916        -96.7946       -0.0100243         148.951
0.534                  -0.552285        -140.448         -51.3256         -99.302         -51.3257        -99.3021       -0.0101405         148.883
0.535                  -0.599731        -141.048         -50.9604        -101.927         -50.9605        -101.927       -0.0102618         148.815
0.536                  -0.651336        -141.635         -50.5975        -104.676         -50.5975        -104.676       -0.0103885         148.746
0.537                  -0.707196        -142.206         -50.2385        -107.553         -50.2385        -107.553        -0.010521         148.678
0.538                  -0.767295        -142.753         -49.8853        -110.564         -49.8854        -110.564       -0.0106596         148.609
0.539                  -0.831459        -143.272         -49.5403         -113.71         -49.5403        -113.711       -0.0108044          148.54
0.54                   -0.899317        -143.756         -49.2057        -116.994         -49.2057        -116.994       -0.0109557         148.472
0.541                  -0.970248        -144.197         -48.8841        -120.414         -48.8842        -120.414       -0.0111132         148.403
0.542                   -1.04335         -144.59         -48.5785        -123.966         -48.5785        -123.966       -0.0112768         148.334
0.543                   -1.11741        -144.929         -48.2915        -127.643         -48.2915        -127.644       -0.0114458         148.265
0.544                    -1.1909         -145.21          -48.026        -131.435          -48.026        -131.435       -0.0116196         148.196
0.545                   -1.26207        -145.429         -47.7847        -135.327         -47.7846        -135.327       -0.0117969         148.127
0.546                   -1.32895        -145.589         -47.5698        -139.302         -47.5697        -139.302       -0.0119765         148.057
0.547                   -1.38957        -145.693         -47.3833        -143.338         -47.3832        -143.339       -0.0121568         147.988
0.548                   -1.44206        -145.749         -47.2265        -147.413         -47.2265        -147.413       -0.0123362         147.919
0.549                   -1.48487        -145.768         -47.1002        -151.501         -47.1001        -151.501       -0.0125131          147.85
0.55                    -1.51691        -145.763         -47.0043        -155.576         -47.0043        -155.576        -0.012686          147.78
0.551                   -1.53764        -145.749         -46.9382        -159.613         -46.9382        -159.614       -0.0128535         147.711
0.552                    -1.5471        -145.741         -46.9005        -163.589         -46.9005         -163.59       -0.0130147         147.641
0.553                   -1.54591        -145.752         -46.8892        -167.483         -46.8892        -167.483        -0.013169         147.572
0.554                   -1.53513        -145.795         -46.9021        -171.276         -46.9021        -171.277        -0.013316         147.502
0.555                   -1.51612        -145.879         -46.9365        -174.955         -46.9365        -174.955       -0.0134558         147.432
0.556                   -1.49042        -146.011         -46.9895        -178.508         -46.9895        -178.508       -0.0135888         147.362
0.557                   -1.45958        -146.193         -47.0582         178.072         -47.0582         178.071       -0.0137156         147.292
0.558                   -1.42508        -146.427         -47.1399         174.787         -47.1399         174.787        -0.013837         147.222
0.559                   -1.38826        -146.713         -47.2319         171.641         -47.2319          171.64       -0.0139537         147.152
0.56                    -1.35026        -147.048         -47.3318         168.631         -47.3318         168.631       -0.0140667         147.081
0.561                   -1.31204        -147.429         -47.4372         165.755         -47.4373         165.754       -0.0141767         147.011
0.562                   -1.27434        -147.853         -47.5463         163.008         -47.5463         163.007       -0.0142846          146.94
0.563                   -1.23774        -148.316         -47.6572         160.384         -47.6573         160.384       -0.0143911         146.869
0.564                   -1.20267        -148.815         -47.7685         157.879         -47.7686         157.878       -0.0144968         146.798
0.565                   -1.16944        -149.345         -47.8789         155.485          -47.879         155.484       -0.0146024         146.726
0.566                   -1.13823        -149.904         -47.9873         153.195         -47.9874         153.195       -0.0147081         146.655
0.567                   -1.10918        -150.488         -48.0928         151.004         -48.0928         151.003       -0.0148146         146.583
0.568                   -1.08234        -151.096         -48.1945         148.904         -48.1946         148.904       -0.0149221         146.512
0.569                   -1.05773        -151.723          -48.292          146.89         -48.2921         146.889       -0.0150309          146.44
0.57                    -1.03532         -152.37         -48.3847         144.954         -48.3848         144.954       -0.0151413         146.368
0.571                   -1.01508        -153.033         -48.4722         143.093         -48.4723         143.092       -0.0152533         146.296
0.572                  -0.996944        -153.712         -48.5541         141.299         -48.5542         141.298       -0.0153673         146.223
0.573                  -0.980859        -154.405         -48.6303         139.568         -48.6304         139.568       -0.0154832         146.151
0.574                  -0.966753        -155.111         -48.7006         137.895         -48.7007         137.895       -0.0156013         146.078
0.575                  -0.954558         -155.83         -48.7648         136.276         -48.7649         136.276       -0.0157215         146.005
0.576                  -0.944207         -156.56         -48.8228         134.707         -48.8229         134.707       -0.0158439         145.932
0.577                  -0.935636        -157.301         -48.8745         133.183         -48.8746         133.182       -0.0159686         145.859
0.578                  -0.928787        -158.053           -48.92         131.701         -48.9201           131.7       -0.0160956         145.786
0.579                  -0.923606        -158.816         -48.9592         130.257         -48.9593         130.256       -0.0162249         145.712
0.58                   -0.920044        -159.588         -48.9921         128.848         -48.9922         128.848       -0.0163567         145.639
0.581                  -0.918062        -160.371         -49.0187         127.472         -49.0188         127.472       -0.0164908         145.565
0.582                  -0.917623        -161.163         -49.0391         126.125         -49.0393         126.125       -0.0166273         145.491
0.583                  -0.918698        -161.965         -49.0534         124.805         -49.0535         124.805       -0.0167662         145.417
0.584                  -0.921266        -162.777         -49.0615         123.509         -49.0616         123.509       -0.0169076         145.343
0.585                   -0.92531        -163.599         -49.0635         122.235         -49.0636         122.235       -0.0170514         145.268
0.586                   -0.93082        -164.431         -49.0595         120.981         -49.0596         120.981       -0.0171977         145.194
0.587                  -0.937794        -165.273         -49.0496         119.745         -49.0497         119.745       -0.0173465         145.119
0.588                  -0.946232        -166.125         -49.0338         118.524         -49.0339         118.524       -0.0174977         145.044
0.589                  -0.956145        -166.988         -49.0122         117.317         -49.0123         117.317       -0.0176515         144.969
0.59                   -0.967547        -167.861         -48.9848         116.123         -48.9849         116.123       -0.0178077         144.894
0.591                  -0.980459        -168.745         -48.9518         114.938         -48.9519         114.938       -0.0179666         144.818
0.592                  -0.994908        -169.639         -48.9131         113.762         -48.9132         113.762        -0.018128         144.743
0.593                   -1.01093        -170.546          -48.869         112.594         -48.8691         112.594       -0.0182919         144.667
0.594                   -1.02856        -171.463         -48.8194         111.431         -48.8195         111.431       -0.0184585         144.591
0.595                   -1.04784        -172.393         -48.7644         110.272         -48.7645         110.272       -0.0186277         144.515
0.596                   -1.06884        -173.334         -48.7042         109.115         -48.7043         109.115       -0.0187996         144.438
0.597                    -1.0916        -174.288         -48.6387          107.96         -48.6388          107.96       -0.0189742         144.362
0.598                    -1.1162        -175.255         -48.5681         106.804         -48.5682         106.804       -0.0191515         144.285
0.599                   -1.14271        -176.234         -48.4924         105.647         -48.4925         105.647       -0.0193315         144.208
0.6                     -1.17121        -177.227         -48.4118         104.487         -48.4119         104.487       -0.0195144         144.131
0.601                   -1.20179        -178.233         -48.3262         103.323         -48.3263         103.323       -0.0197001         144.054
0.602                   -1.23455        -179.254         -48.2359         102.153          -48.236         102.154       -0.0198886         143.976
0.603                   -1.26959         179.712         -48.1409         100.977         -48.1409         100.977       -0.0200801         143.898
0.604                   -1.30703         178.662         -48.0412         99.7927         -48.0413          99.793       -0.0202745         143.821
0.605                     -1.347         177.598          -47.937         98.5991          -47.937         98.5993       -0.0204719         143.742
0.606                   -1.38964         176.519         -47.8283          97.395         -47.8284         97.3952       -0.0206724         143.664
0.607                   -1.43508         175.424         -47.7153         96.1791         -47.7154         96.1794        -0.020876         143.586
0.608                   -1.48349         174.314         -47.5981         94.9504         -47.5982         94.9506       -0.0210828         143.507
0.609                   -1.53505         173.188         -47.4768         93.7074         -47.4769         93.7077       -0.0212927         143.428
0.61                    -1.58993         172.045         -47.3515         92.4491         -47.3516         92.4494        -0.021506         143.349
0.611                   -1.64834         170.886         -47.2223         91.1743         -47.2224         91.1745       -0.0217225         143.269
0.612                   -1.71049         169.711         -47.0894         89.8817         -47.0895         89.8819       -0.0219425          143.19
0.613                   -1.77661         168.518         -46.9529         88.5701          -46.953         88.5704        -0.022166          143.11
0.614                   -1.84694         167.309          -46.813         87.2385          -46.813         87.2387        -0.022393          143.03
0.615                   -1.92175         166.083         -46.6697         85.8856         -46.6697         85.8858       -0.0226236          142.95
0.616                   -2.00133          164.84         -46.5233         84.5103         -46.5233         84.5105       -0.0228578         142.869
0.617                   -2.08597         163.581          -46.374         83.1115          -46.374         83.1117       -0.0230959         142.788
0.618                   -2.17601         162.305         -46.2219         81.6882         -46.2219         81.6884       -0.0233378         142.707
0.619                   -2.27178         161.013         -46.0672         80.2392         -46.0672         80.2394       -0.0235836         142.626
0.62                    -2.37367         159.705         -45.9101         78.7636         -45.9101         78.7637       -0.0238335         142.545
0.621                   -2.48205         158.382         -45.7509         77.2604         -45.7509         77.2604       -0.0240874         142.463
0.622                   -2.59737         157.045         -45.5898         75.7286         -45.5898         75.7286       -0.0243455         142.381
0.623                   -2.72005         155.694         -45.4271         74.1674         -45.4271         74.1674        -0.024608         142.299
0.624                   -2.85058         154.331         -45.2629         72.5761         -45.2629         72.5761       -0.0248748         142.216
0.625                   -2.98947         152.957         -45.0976         70.9539         -45.0976         70.9538       -0.0251461         142.134
0.626                   -3.13725         151.574         -44.9314         69.3002         -44.9314         69.3001        -0.025422         142.051
0.627                   -3.29448         150.183         -44.7647         67.6144         -44.7647         67.6143       -0.0257026         141.967
0.628                   -3.46176         148.788         -44.5977         65.8963         -44.5977         65.8961        -0.025988         141.884
0.629                   -3.63972          147.39         -44.4308         64.1454         -44.4308         64.1452       -0.0262783           141.8
