! TOUCHSTONE file generated by CST MICROWAVE STUDIO
! Date and time: Mon Nov 30 08:11:45 2020
! Project name: Scenario_1_Planar_Body_Tissue_Out_of_Line.cst
! Parameters = {dy1=34.6; L_HA=400; Ltissue=700; MT=2.54; Rad_Dielectric=30; Rad_Lower=7.3; Rad_Upper=30; Wtissue=700; a_HA=580; a_WG=246; b_HA=500; b_WG=121; c_HA=0; c_WG=187; d_feed=85; dx1=866; h_feed=15; h_lower=18; h_upper=40; hfat=3; hgap=25; hmuscle=50; hskin=1.5}
! Header version: 2018
! Port assignment regex: !\s*Touchstone port\s*([0-9]+)\s*=\s*(CST MWS port|CST DS port)\s*([0-9]+|Zmin|Zmax)\s*\(\"(.*)\"\)(\s*mode\s*([0-9]+))?.*
! Touchstone port assignment:
! Touchstone port 1 = CST MWS port 1 ("")
! Touchstone port 2 = CST MWS port 2 ("")
# GHz S DB R 50
0.5                   -0.0985599        -122.132         -63.5103          106.73         -63.5099         106.733      -0.00750574         151.144
0.501                  -0.102398        -122.595         -63.2485         105.135         -63.2481         105.137       -0.0075753         151.078
0.502                  -0.106723        -123.064         -62.9824         103.502         -62.9819         103.504      -0.00764578         151.013
0.503                  -0.111592        -123.537         -62.7118         101.829         -62.7114         101.831      -0.00771723         150.948
0.504                  -0.117063        -124.015         -62.4369         100.113         -62.4364         100.115      -0.00778968         150.882
0.505                  -0.123205        -124.497         -62.1576         98.3518         -62.1572         98.3535      -0.00786318         150.817
0.506                   -0.13009        -124.985          -61.874         96.5423         -61.8736         96.5437      -0.00793779         150.751
0.507                  -0.137797        -125.477         -61.5862         94.6813         -61.5858         94.6826      -0.00801357         150.685
0.508                  -0.146415        -125.974         -61.2944         92.7656          -61.294         92.7667      -0.00809058         150.619
0.509                  -0.156034        -126.475         -60.9987         90.7917         -60.9983         90.7926      -0.00816888         150.553
0.51                   -0.166755         -126.98         -60.6993         88.7557         -60.6989         88.7565      -0.00824856         150.487
0.511                  -0.178681        -127.488         -60.3965         86.6538         -60.3962         86.6545      -0.00832971         150.421
0.512                  -0.191921        -127.999         -60.0907         84.4819         -60.0904         84.4824       -0.0084124         150.355
0.513                  -0.206582        -128.513         -59.7823         82.2357         -59.7821         82.2362      -0.00849674         150.289
0.514                   -0.22277        -129.028         -59.4718          79.911         -59.4716         79.9113      -0.00858281         150.223
0.515                  -0.240584        -129.544         -59.1599         77.5032         -59.1597         77.5035      -0.00867073         150.156
0.516                   -0.26011        -130.058         -58.8473          75.008         -58.8472         75.0083      -0.00876057          150.09
0.517                  -0.281413         -130.57         -58.5348         72.4212         -58.5347         72.4214      -0.00885244         150.023
0.518                  -0.304529        -131.078         -58.2235         69.7387         -58.2234         69.7389      -0.00894641         149.957
0.519                  -0.329451         -131.58         -57.9144         66.9568         -57.9144         66.9571      -0.00904254          149.89
0.52                   -0.356123        -132.074          -57.609         64.0726         -57.6089         64.0729      -0.00914086         149.823
0.521                  -0.384426        -132.558         -57.3085         61.0837         -57.3085          61.084      -0.00924136         149.756
0.522                  -0.414166        -133.029         -57.0147         57.9887         -57.0147         57.9891      -0.00934398         149.689
0.523                  -0.445068        -133.486         -56.7292         54.7878         -56.7293         54.7883      -0.00944862         149.622
0.524                   -0.47677        -133.926         -56.4539         51.4824          -56.454          51.483      -0.00955508         149.555
0.525                  -0.508833        -134.348         -56.1907         48.0758         -56.1908         48.0765      -0.00966312         149.488
0.526                  -0.540741        -134.751         -55.9415         44.5733         -55.9417         44.5742      -0.00977241         149.421
0.527                  -0.571934        -135.135         -55.7083         40.9824         -55.7085         40.9835      -0.00988255         149.354
0.528                  -0.601825          -135.5         -55.4929         37.3129         -55.4931         37.3141      -0.00999309         149.286
0.529                  -0.629842        -135.848          -55.297         33.5767         -55.2972         33.5781       -0.0101036         149.219
0.53                   -0.655457        -136.181          -55.122         29.7879         -55.1222         29.7894       -0.0102135         149.151
0.531                  -0.678231        -136.502         -54.9688         25.9621         -54.9691         25.9638       -0.0103225         149.084
0.532                  -0.697832        -136.815         -54.8384         22.1166         -54.8386         22.1183         -0.01043         149.016
0.533                  -0.714059        -137.124         -54.7309          18.269         -54.7311         18.2708       -0.0105359         148.948
0.534                  -0.726844        -137.432         -54.6463         14.4375         -54.6465         14.4394         -0.01064          148.88
0.535                  -0.736249        -137.744         -54.5838         10.6396          -54.584         10.6415       -0.0107421         148.812
0.536                   -0.74245        -138.064         -54.5426         6.89176         -54.5428         6.89368       -0.0108423         148.744
0.537                  -0.745709        -138.394         -54.5213         3.20896         -54.5215         3.21087       -0.0109407         148.676
0.538                  -0.746353        -138.737         -54.5182        -0.39577         -54.5184       -0.393908       -0.0110376         148.608
0.539                  -0.744747        -139.095         -54.5316        -3.91157         -54.5317        -3.90978       -0.0111331         148.539
0.54                    -0.74127        -139.469         -54.5594        -7.32985         -54.5595        -7.32815       -0.0112276         148.471
0.541                  -0.736295        -139.861         -54.5995        -10.6443         -54.5997        -10.6427       -0.0113214         148.402
0.542                  -0.730177         -140.27           -54.65        -13.8507         -54.6502        -13.8492       -0.0114148         148.334
0.543                  -0.723241        -140.697         -54.7089        -16.9468          -54.709        -16.9455        -0.011508         148.265
0.544                   -0.71578        -141.141         -54.7742        -19.9321         -54.7743        -19.9309       -0.0116014         148.196
0.545                  -0.708049        -141.603         -54.8441        -22.8074         -54.8443        -22.8063       -0.0116951         148.127
0.546                  -0.700268        -142.081         -54.9172        -25.5748         -54.9173        -25.5739       -0.0117894         148.058
0.547                  -0.692625        -142.575         -54.9917        -28.2373         -54.9919        -28.2366       -0.0118844         147.988
0.548                  -0.685275        -143.084         -55.0666        -30.7987         -55.0667        -30.7981       -0.0119803         147.919
0.549                  -0.678348        -143.608         -55.1404        -33.2631         -55.1406        -33.2627       -0.0120773         147.849
0.55                   -0.671951        -144.147         -55.2123        -35.6351         -55.2125        -35.6348       -0.0121753          147.78
0.551                   -0.66617        -144.698         -55.2813        -37.9194         -55.2815        -37.9194       -0.0122745          147.71
0.552                  -0.661076        -145.263         -55.3467        -40.1211         -55.3468        -40.1212        -0.012375          147.64
0.553                  -0.656728        -145.839         -55.4076        -42.2449         -55.4078        -42.2451       -0.0124768          147.57
0.554                  -0.653173        -146.428         -55.4637        -44.2957         -55.4639         -44.296         -0.01258           147.5
0.555                  -0.650453        -147.028         -55.5143        -46.2782         -55.5145        -46.2787       -0.0126846          147.43
0.556                  -0.648601         -147.64          -55.559        -48.1972         -55.5592        -48.1977       -0.0127906         147.359
0.557                  -0.647648        -148.262         -55.5975         -50.057         -55.5977        -50.0577        -0.012898         147.289
0.558                  -0.647621        -148.895         -55.6295         -51.862         -55.6298        -51.8627        -0.013007         147.218
0.559                  -0.648549        -149.538         -55.6547        -53.6163          -55.655        -53.6171       -0.0131174         147.147
0.56                   -0.650457        -150.192          -55.673        -55.3239         -55.6733        -55.3248       -0.0132293         147.076
0.561                  -0.653372        -150.856         -55.6841        -56.9887         -55.6844        -56.9897       -0.0133427         147.005
0.562                  -0.657324         -151.53         -55.6879        -58.6143         -55.6882        -58.6153       -0.0134577         146.934
0.563                  -0.662344        -152.214         -55.6843        -60.2043         -55.6847        -60.2053       -0.0135743         146.863
0.564                  -0.668464        -152.909         -55.6733        -61.7619         -55.6736         -61.763       -0.0136924         146.791
0.565                  -0.675723        -153.613         -55.6546        -63.2905          -55.655        -63.2916       -0.0138121          146.72
0.566                  -0.684162        -154.327         -55.6284        -64.7932         -55.6287        -64.7944       -0.0139333         146.648
0.567                  -0.693826        -155.052         -55.5945        -66.2731         -55.5948        -66.2742       -0.0140562         146.576
0.568                  -0.704766        -155.787         -55.5529        -67.7331         -55.5532        -67.7342       -0.0141808         146.504
0.569                  -0.717036        -156.532         -55.5036         -69.176          -55.504        -69.1771       -0.0143069         146.432
0.57                   -0.730699        -157.288         -55.4466        -70.6046          -55.447        -70.6058       -0.0144348          146.36
0.571                  -0.745823        -158.054          -55.382        -72.0217         -55.3824        -72.0228       -0.0145643         146.288
0.572                  -0.762481        -158.831         -55.3097        -73.4299         -55.3101        -73.4311       -0.0146956         146.215
0.573                  -0.780757        -159.618         -55.2297        -74.8319         -55.2301         -74.833       -0.0148286         146.142
0.574                   -0.80074        -160.416         -55.1422        -76.2302         -55.1426        -76.2313       -0.0149634         146.069
0.575                   -0.82253        -161.226         -55.0471        -77.6274         -55.0475        -77.6285          -0.0151         145.996
0.576                  -0.846233        -162.046         -54.9445        -79.0261         -54.9449         -79.027       -0.0152385         145.923
0.577                  -0.871968        -162.878         -54.8345        -80.4286         -54.8349        -80.4296       -0.0153788          145.85
0.578                  -0.899863         -163.72         -54.7171        -81.8376         -54.7175        -81.8385       -0.0155211         145.777
0.579                  -0.930058        -164.574         -54.5925        -83.2556         -54.5928        -83.2564       -0.0156653         145.703
0.58                   -0.962705        -165.439         -54.4606         -84.685          -54.461        -84.6858       -0.0158115         145.629
0.581                   -0.99797        -166.315         -54.3217        -86.1283         -54.3221        -86.1291       -0.0159598         145.555
0.582                   -1.03603        -167.202         -54.1759        -87.5881         -54.1762        -87.5888       -0.0161102         145.481
0.583                   -1.07708          -168.1         -54.0232        -89.0669         -54.0236        -89.0675       -0.0162627         145.407
0.584                   -1.12133        -169.008         -53.8639        -90.5672         -53.8642        -90.5678       -0.0164174         145.333
0.585                   -1.16901        -169.926          -53.698        -92.0915         -53.6984         -92.092       -0.0165745         145.258
0.586                   -1.22035        -170.854         -53.5259        -93.6424         -53.5262        -93.6429       -0.0167338         145.184
0.587                   -1.27562        -171.791         -53.3476        -95.2225         -53.3479         -95.223       -0.0168956         145.109
0.588                   -1.33509        -172.736         -53.1634        -96.8344         -53.1637        -96.8347       -0.0170598         145.034
0.589                   -1.39905        -173.689         -52.9736        -98.4805         -52.9739        -98.4808       -0.0172266         144.958
0.59                    -1.46783        -174.647         -52.7784        -100.163         -52.7787        -100.164        -0.017396         144.883
0.591                   -1.54173        -175.609         -52.5781        -101.886         -52.5784        -101.886       -0.0175682         144.807
0.592                   -1.62111        -176.574         -52.3731         -103.65         -52.3734         -103.65       -0.0177431         144.732
0.593                    -1.7063        -177.539         -52.1637        -105.459          -52.164        -105.459        -0.017921         144.656
0.594                   -1.79768        -178.503         -51.9504        -107.314         -51.9506        -107.314       -0.0181018          144.58
0.595                   -1.89559        -179.461         -51.7335        -109.218         -51.7337        -109.218       -0.0182856         144.503
0.596                   -2.00039          179.59         -51.5135        -111.174         -51.5137        -111.174       -0.0184727         144.427
0.597                   -2.11241         178.654          -51.291        -113.183         -51.2911        -113.183        -0.018663          144.35
0.598                   -2.23194         177.735         -51.0664        -115.248         -51.0666        -115.248       -0.0188566         144.273
0.599                   -2.35926          176.84         -50.8405        -117.369         -50.8406        -117.369       -0.0190538         144.196
0.6                     -2.49454         175.974         -50.6137        -119.549         -50.6138        -119.549       -0.0192544         144.119
0.601                   -2.63789         175.144         -50.3868        -121.788         -50.3869        -121.788       -0.0194588         144.041
0.602                   -2.78929         174.358         -50.1605        -124.088         -50.1606        -124.088       -0.0196668         143.964
0.603                   -2.94856         173.625         -49.9355        -126.449         -49.9356        -126.449       -0.0198787         143.886
0.604                   -3.11533         172.954         -49.7127         -128.87         -49.7127         -128.87       -0.0200945         143.808
0.605                   -3.28901         172.355         -49.4927        -131.351         -49.4927        -131.351       -0.0203142          143.73
0.606                   -3.46871         171.837         -49.2764        -133.892         -49.2764        -133.892        -0.020538         143.651
0.607                   -3.65323         171.411         -49.0646        -136.489         -49.0646        -136.489       -0.0207658         143.573
0.608                   -3.84101         171.088         -48.8581        -139.142         -48.8581        -139.142       -0.0209977         143.494
0.609                   -4.03009         170.874         -48.6577        -141.848         -48.6577        -141.848       -0.0212338         143.415
0.61                    -4.21813         170.779         -48.4641        -144.602         -48.4641        -144.602       -0.0214739         143.336
0.611                    -4.4024         170.806          -48.278          -147.4          -48.278        -147.401       -0.0217182         143.256
0.612                   -4.57983         170.959            -48.1        -150.239            -48.1        -150.239       -0.0219666         143.176
0.613                   -4.74715         171.233         -47.9307        -153.113         -47.9307        -153.113       -0.0222191         143.096
0.614                   -4.90095         171.624         -47.7705        -156.015         -47.7705        -156.016       -0.0224756         143.016
0.615                   -5.03795         172.118         -47.6198        -158.941         -47.6198        -158.941        -0.022736         142.936
0.616                   -5.15513           172.7         -47.4787        -161.884         -47.4787        -161.884       -0.0230003         142.855
0.617                   -5.24999         173.348         -47.3475        -164.837         -47.3475        -164.837       -0.0232684         142.775
0.618                   -5.32075         174.037         -47.2261        -167.794         -47.2261        -167.794       -0.0235402         142.694
0.619                   -5.36646          174.74         -47.1144        -170.749         -47.1144         -170.75       -0.0238157         142.612
0.62                    -5.38708         175.429         -47.0121        -173.696         -47.0121        -173.696       -0.0240946         142.531
0.621                   -5.38347         176.077         -46.9189        -176.629         -46.9189        -176.629       -0.0243771         142.449
0.622                    -5.3573          176.66         -46.8344        -179.543         -46.8344        -179.543       -0.0246629         142.367
0.623                   -5.31085         177.157          -46.758         177.568          -46.758         177.567       -0.0249521         142.285
0.624                   -5.24688         177.551         -46.6892         174.706         -46.6892         174.706       -0.0252445         142.203
0.625                   -5.16835         177.832         -46.6273         171.877         -46.6274         171.876       -0.0255402          142.12
0.626                    -5.0783         177.991         -46.5717         169.082         -46.5718         169.082       -0.0258391         142.037
0.627                   -4.97966         178.025         -46.5217         166.325         -46.5217         166.325       -0.0261412         141.954
0.628                   -4.87516         177.935         -46.4765         163.607         -46.4765         163.607       -0.0264465          141.87
0.629                   -4.76726         177.722         -46.4355          160.93         -46.4355          160.93       -0.0267551         141.787
