! TOUCHSTONE file generated by CST MICROWAVE STUDIO
! Date and time: Sat Nov 14 20:38:24 2020
! Project name: Scenario_1_Planar_Body_Tissue_Out_of_Line_v2.cst
! Parameters = {dy1=-51.9; L_HA=400; Ltissue=700; MT=2.54; Rad_Dielectric=30; Rad_Lower=7.3; Rad_Upper=30; Wtissue=700; a_HA=580; a_WG=246; b_HA=500; b_WG=121; c_HA=0; c_WG=187; d_feed=85; dx1=173; h_feed=15; h_lower=18; h_upper=40; hfat=3; hgap=25; hmuscle=50; hskin=1.5}
! Header version: 2018
! Port assignment regex: !\s*Touchstone port\s*([0-9]+)\s*=\s*(CST MWS port|CST DS port)\s*([0-9]+|Zmin|Zmax)\s*\(\"(.*)\"\)(\s*mode\s*([0-9]+))?.*
! Touchstone port assignment:
! Touchstone port 1 = CST MWS port 1 ("")
! Touchstone port 2 = CST MWS port 2 ("")
# GHz S DB R 50
0.5                    -0.043696        -121.757         -56.9978         132.015         -56.9977         132.015      -0.00714317          151.16
0.501                 -0.0448125        -122.207          -56.832         131.417          -56.832         131.416      -0.00719223         151.095
0.502                  -0.045994         -122.66         -56.6639         130.814         -56.6639         130.814      -0.00724198          151.03
0.503                 -0.0472439        -123.117         -56.4933         130.208         -56.4934         130.208      -0.00729242         150.964
0.504                 -0.0485661        -123.578         -56.3202         129.598         -56.3203         129.598      -0.00734355         150.899
0.505                 -0.0499645        -124.041         -56.1446         128.984         -56.1447         128.983      -0.00739538         150.833
0.506                 -0.0514435        -124.509         -55.9664         128.365         -55.9666         128.365      -0.00744791         150.767
0.507                 -0.0530078        -124.981         -55.7856         127.742         -55.7858         127.742      -0.00750114         150.702
0.508                 -0.0546623        -125.456         -55.6021         127.115         -55.6024         127.114      -0.00755508         150.636
0.509                 -0.0564127        -125.935         -55.4159         126.483         -55.4162         126.482      -0.00760973          150.57
0.51                  -0.0582646        -126.419          -55.227         125.846         -55.2273         125.845      -0.00766509         150.504
0.511                 -0.0602246        -126.907         -55.0353         125.203         -55.0356         125.203      -0.00772117         150.438
0.512                 -0.0622994        -127.399         -54.8407         124.556         -54.8411         124.555      -0.00777797         150.372
0.513                 -0.0644966        -127.896         -54.6432         123.903         -54.6436         123.902      -0.00783551         150.305
0.514                 -0.0668244        -128.397         -54.4428         123.244         -54.4432         123.243      -0.00789377         150.239
0.515                 -0.0692914        -128.903         -54.2393          122.58         -54.2397         122.579      -0.00795278         150.173
0.516                 -0.0719074        -129.415         -54.0327         121.909         -54.0332         121.908      -0.00801253         150.106
0.517                 -0.0746827        -129.931         -53.8231         121.231         -53.8235          121.23      -0.00807304         150.039
0.518                 -0.0776288        -130.453         -53.6102         120.547         -53.6106         120.546      -0.00813431         149.973
0.519                  -0.080758         -130.98          -53.394         119.855         -53.3944         119.854      -0.00819636         149.906
0.52                  -0.0840841        -131.513         -53.1745         119.156         -53.1749         119.155      -0.00825918         149.839
0.521                 -0.0876217        -132.052         -52.9515         118.449          -52.952         118.448      -0.00832281         149.772
0.522                 -0.0913874        -132.597         -52.7251         117.734         -52.7256         117.733      -0.00838725         149.705
0.523                 -0.0953989        -133.149         -52.4951          117.01         -52.4956         117.009      -0.00845251         149.638
0.524                 -0.0996759        -133.707         -52.2615         116.276         -52.2619         116.275      -0.00851861         149.571
0.525                   -0.10424        -134.272         -52.0241         115.533         -52.0246         115.532      -0.00858557         149.503
0.526                  -0.109115        -134.844         -51.7829          114.78         -51.7833         114.779      -0.00865342         149.436
0.527                  -0.114328        -135.424         -51.5378         114.015         -51.5382         114.015      -0.00872217         149.368
0.528                  -0.119907        -136.011         -51.2887         113.239         -51.2891         113.239      -0.00879186         149.301
0.529                  -0.125885        -136.607         -51.0354         112.451         -51.0358         112.451      -0.00886252         149.233
0.53                   -0.132297        -137.211          -50.778          111.65         -50.7783         111.649      -0.00893418         149.165
0.531                  -0.139184        -137.824         -50.5162         110.835         -50.5165         110.834      -0.00900689         149.097
0.532                   -0.14659        -138.446         -50.2499         110.005         -50.2502         110.005      -0.00908069         149.029
0.533                  -0.154563        -139.078         -49.9791          109.16         -49.9794         109.159      -0.00915563         148.961
0.534                   -0.16316         -139.72         -49.7036         108.298         -49.7038         108.297      -0.00923179         148.893
0.535                  -0.172441        -140.373         -49.4233         107.418         -49.4235         107.417      -0.00930922         148.824
0.536                  -0.182477        -141.037          -49.138         106.519         -49.1382         106.518      -0.00938802         148.756
0.537                  -0.193346        -141.713         -48.8476         105.599         -48.8478         105.599      -0.00946826         148.687
0.538                  -0.205134        -142.402          -48.552         104.658         -48.5521         104.658      -0.00955008         148.618
0.539                  -0.217942        -143.103          -48.251         103.693         -48.2511         103.693      -0.00963357          148.55
0.54                   -0.231881        -143.819         -47.9444         102.703         -47.9445         102.703       -0.0097189         148.481
0.541                  -0.247079        -144.549         -47.6322         101.687         -47.6322         101.686      -0.00980623         148.411
0.542                   -0.26368        -145.294         -47.3141         100.641         -47.3141          100.64      -0.00989575         148.342
0.543                   -0.28185        -146.056         -46.9899         99.5631         -46.9899         99.5629      -0.00998768         148.273
0.544                  -0.301776        -146.835         -46.6596         98.4517         -46.6595         98.4516       -0.0100823         148.203
0.545                  -0.323674        -147.632         -46.3229         97.3037         -46.3228         97.3036       -0.0101799         148.134
0.546                  -0.347791        -148.449         -45.9796          96.116         -45.9795         96.1159       -0.0102808         148.064
0.547                  -0.374413        -149.286         -45.6297         94.8853         -45.6296         94.8852       -0.0103854         147.994
0.548                  -0.403867        -150.145         -45.2729         93.6078         -45.2728         93.6077       -0.0104943         147.924
0.549                  -0.436533        -151.026         -44.9092         92.2796          -44.909         92.2795       -0.0106079         147.854
0.55                   -0.472853        -151.932         -44.5383          90.896          -44.538         90.8959       -0.0107269         147.783
0.551                  -0.513336        -152.862         -44.1602         89.4523         -44.1599         89.4521       -0.0108521         147.713
0.552                   -0.55858         -153.82         -43.7748         87.9427         -43.7745         87.9425       -0.0109843         147.642
0.553                  -0.609279        -154.805          -43.382         86.3614         -43.3817         86.3611       -0.0111245         147.571
0.554                  -0.666244        -155.819         -42.9819         84.7015         -42.9816         84.7012        -0.011274           147.5
0.555                  -0.730427        -156.862         -42.5747         82.9557         -42.5743         82.9553        -0.011434         147.429
0.556                  -0.802939        -157.935         -42.1603         81.1157           -42.16         81.1153       -0.0116062         147.358
0.557                  -0.885083        -159.038         -41.7393         79.1728         -41.7389         79.1723       -0.0117922         147.286
0.558                  -0.978381        -160.169         -41.3119         77.1171         -41.3115         77.1165        -0.011994         147.215
0.559                   -1.08461        -161.327         -40.8788          74.938         -40.8784         74.9373        -0.012214         147.143
0.56                    -1.20583        -162.508          -40.441         72.6242         -40.4405         72.6234       -0.0124545         147.071
0.561                   -1.34443        -163.705         -39.9994         70.1634         -39.9989         70.1625       -0.0127182         146.999
0.562                   -1.50311        -164.908         -39.5556         67.5432         -39.5551         67.5422       -0.0130077         146.927
0.563                   -1.68491        -166.104         -39.1114         64.7505          -39.111         64.7494       -0.0133258         146.854
0.564                   -1.89315        -167.273         -38.6692         61.7726         -38.6688         61.7714       -0.0136748         146.782
0.565                   -2.13131        -168.387         -38.2318         58.5976         -38.2315         58.5963       -0.0140567         146.709
0.566                   -2.40275        -169.406         -37.8028          55.215         -37.8024         55.2137       -0.0144728         146.637
0.567                   -2.71033        -170.279         -37.3861         51.6172         -37.3858         51.6158       -0.0149227         146.564
0.568                   -3.05564         -170.94         -36.9865         47.8004         -36.9863         47.7991       -0.0154048         146.492
0.569                    -3.4379        -171.303         -36.6092         43.7664          -36.609         43.7652        -0.015915          146.42
0.57                    -3.85239        -171.269         -36.2597         39.5238         -36.2595         39.5228       -0.0164469         146.347
0.571                   -4.28844        -170.727         -35.9436         35.0895         -35.9436         35.0887       -0.0169916         146.276
0.572                   -4.72739        -169.575         -35.6665         30.4893         -35.6665         30.4889       -0.0175383         146.204
0.573                   -5.14141        -167.742          -35.433         25.7581         -35.4331         25.7581       -0.0180744         146.133
0.574                     -5.495        -165.231         -35.2469         20.9386         -35.2469         20.9391       -0.0185873         146.061
0.575                   -5.75075        -162.153         -35.1102         16.0791         -35.1103         16.0802        -0.019065          145.99
0.576                   -5.87929        -158.736         -35.0234         11.2309         -35.0235         11.2326        -0.019498          145.92
0.577                   -5.86927        -155.285         -34.9853         6.44412         -34.9854         6.44642       -0.0198797         145.849
0.578                    -5.7313        -152.099         -34.9928         1.76482          -34.993         1.76777       -0.0202069         145.778
0.579                   -5.49295        -149.401         -35.0419        -2.76783          -35.042        -2.76427         -0.02048         145.707
0.58                    -5.18877          -147.3         -35.1273        -7.12323         -35.1274         -7.1191       -0.0207021         145.636
0.581                   -4.85108        -145.807         -35.2435        -11.2799         -35.2436        -11.2752       -0.0208786         145.565
0.582                   -4.50511        -144.866         -35.3848        -15.2249         -35.3848        -15.2198        -0.021016         145.493
0.583                   -4.16805        -144.396         -35.5458        -18.9533         -35.5458        -18.9478       -0.0211213         145.421
0.584                   -3.85019        -144.306         -35.7216        -22.4661         -35.7215        -22.4602       -0.0212014         145.349
0.585                   -3.55676        -144.514         -35.9076         -25.769         -35.9074        -25.7629       -0.0212629         145.276
0.586                   -3.28964        -144.951         -36.1002        -28.8713            -36.1         -28.865       -0.0213112         145.203
0.587                   -3.04863        -145.561         -36.2961        -31.7842         -36.2958        -31.7778       -0.0213513          145.13
0.588                   -2.83241        -146.299         -36.4927        -34.5203         -36.4924        -34.5137        -0.021387         145.056
0.589                   -2.63904        -147.132          -36.688        -37.0924         -36.6876        -37.0858       -0.0214215         144.982
0.59                    -2.46639        -148.034         -36.8802        -39.5135         -36.8798        -39.5069       -0.0214574         144.908
0.591                   -2.31231        -148.984         -37.0681         -41.796         -37.0676        -41.7894       -0.0214965         144.834
0.592                   -2.17478        -149.969         -37.2506        -43.9517         -37.2501        -43.9452       -0.0215402         144.759
0.593                   -2.05193        -150.978          -37.427        -45.9918         -37.4264        -45.9855       -0.0215896         144.684
0.594                   -1.94207        -152.003         -37.5967        -47.9266         -37.5962        -47.9203       -0.0216454         144.608
0.595                   -1.84372        -153.037         -37.7595        -49.7654         -37.7589        -49.7592        -0.021708         144.533
0.596                   -1.75555        -154.078          -37.915        -51.5169         -37.9144        -51.5109       -0.0217777         144.457
0.597                   -1.67641        -155.122         -38.0631        -53.1889         -38.0625        -53.1831       -0.0218547         144.381
0.598                   -1.60529        -156.167         -38.2038        -54.7887         -38.2032        -54.7831       -0.0219391         144.305
0.599                   -1.54131        -157.211          -38.337        -56.3227         -38.3364        -56.3173       -0.0220308         144.228
0.6                     -1.48371        -158.254         -38.4628        -57.7968         -38.4622        -57.7916       -0.0221298         144.151
0.601                   -1.43181        -159.296         -38.5813        -59.2163         -38.5807        -59.2113       -0.0222359         144.074
0.602                   -1.38503        -160.336         -38.6926        -60.5861          -38.692        -60.5814        -0.022349         143.997
0.603                   -1.34287        -161.375         -38.7969        -61.9106         -38.7963        -61.9061        -0.022469          143.92
0.604                   -1.30487        -162.412         -38.8942        -63.1938         -38.8936        -63.1895       -0.0225956         143.842
0.605                   -1.27065        -163.449         -38.9847        -64.4392         -38.9841        -64.4353       -0.0227289         143.764
0.606                   -1.23987        -164.485         -39.0686        -65.6504         -39.0681        -65.6467       -0.0228685         143.686
0.607                   -1.21223         -165.52         -39.1461        -66.8302         -39.1456        -66.8268       -0.0230144         143.608
0.608                   -1.18746        -166.556         -39.2173        -67.9814         -39.2168        -67.9783       -0.0231664         143.529
0.609                   -1.16534        -167.594         -39.2823        -69.1066         -39.2819        -69.1038       -0.0233244          143.45
0.61                    -1.14565        -168.632         -39.3415         -70.208          -39.341        -70.2056       -0.0234883         143.371
0.611                   -1.12823        -169.673         -39.3947         -71.288         -39.3944        -71.2859       -0.0236579         143.292
0.612                   -1.11292        -170.717         -39.4424        -72.3483         -39.4421        -72.3465       -0.0238332         143.213
0.613                   -1.09957        -171.764         -39.4845        -73.3909         -39.4843        -73.3895       -0.0240141         143.133
0.614                   -1.08807        -172.815         -39.5213        -74.4175         -39.5211        -74.4164       -0.0242005         143.053
0.615                    -1.0783        -173.871         -39.5529        -75.4296         -39.5527        -75.4288       -0.0243923         142.973
0.616                   -1.07019        -174.932         -39.5793        -76.4287         -39.5793        -76.4283       -0.0245894         142.893
0.617                   -1.06363        -175.998         -39.6008        -77.4161         -39.6009        -77.4161       -0.0247918         142.812
0.618                   -1.05857        -177.071         -39.6175        -78.3933         -39.6176        -78.3936       -0.0249996         142.731
0.619                   -1.05494        -178.151         -39.6295        -79.3612         -39.6297        -79.3619       -0.0252125          142.65
0.62                    -1.05269        -179.238         -39.6369        -80.3212         -39.6372        -80.3222       -0.0254306         142.569
0.621                   -1.05177         179.666         -39.6398        -81.2743         -39.6402        -81.2757        -0.025654         142.487
0.622                   -1.05215         178.562         -39.6383        -82.2214         -39.6388        -82.2232       -0.0258825         142.406
0.623                    -1.0538         177.449         -39.6326        -83.1636         -39.6332        -83.1658       -0.0261161         142.324
0.624                   -1.05668         176.326         -39.6227        -84.1018         -39.6234        -84.1043        -0.026355         142.241
0.625                   -1.06079         175.192         -39.6087        -85.0368         -39.6095        -85.0397        -0.026599         142.159
0.626                   -1.06611         174.047         -39.5907        -85.9695         -39.5917        -85.9728       -0.0268482         142.076
0.627                   -1.07263         172.891         -39.5689        -86.9007           -39.57        -86.9044       -0.0271026         141.993
0.628                   -1.08034         171.722         -39.5433        -87.8312         -39.5445        -87.8353       -0.0273622          141.91
0.629                   -1.08926         170.541         -39.5139        -88.7618         -39.5153        -88.7662       -0.0276271         141.826
