! TOUCHSTONE file generated by CST MICROWAVE STUDIO
! Date and time: Thu Feb 11 19:34:09 2021
! Project name: Scenario_1_Planar_Body_Tissue_Out_of_Line.cst
! Parameters = {L_HA=400; Ltissue=1000; MT=2.54; Rad_Dielectric=30; Rad_Lower=7.3; Rad_Upper=30; Wtissue=1000; a_HA=580; a_WG=246; b_HA=500; b_WG=121; c_HA=0; c_WG=187; d_feed=85; dx1=346; dy1=51.9; h_feed=15; h_lower=18; h_upper=40; hfat=3; hgap=25; hmuscle=50; hskin=1.5}
! Header version: 2018
! Port assignment regex: !\s*Touchstone port\s*([0-9]+)\s*=\s*(CST MWS port|CST DS port)\s*([0-9]+|Zmin|Zmax)\s*\(\"(.*)\"\)(\s*mode\s*([0-9]+))?.*
! Touchstone port assignment:
! Touchstone port 1 = CST MWS port 1 ("")
! Touchstone port 2 = CST MWS port 2 ("")
# GHz S DB R 50
0.5                    -0.270383        -121.505         -55.4537           35.44         -55.4535         35.4396      -0.00798673         151.152
0.501                  -0.271586          -121.9         -55.3823         35.0239         -55.3873         35.0377      -0.00804431         151.087
0.502                  -0.272797        -122.297         -55.3078         34.6286         -55.3182         34.6578      -0.00810249         151.022
0.503                  -0.274017        -122.698         -55.2298         34.2568         -55.2462         34.3027      -0.00816128         150.957
0.504                  -0.275248        -123.101         -55.1481         33.9113         -55.1709         33.9753      -0.00822067         150.892
0.505                  -0.276493        -123.506         -55.0623         33.5952         -55.0921         33.6792      -0.00828069         150.826
0.506                  -0.277754        -123.915          -54.972         33.3122         -55.0093         33.4183      -0.00834132         150.761
0.507                  -0.279032        -124.326         -54.8769         33.0665         -54.9223         33.1972      -0.00840259         150.695
0.508                  -0.280332        -124.741         -54.7762         32.8628         -54.8306         33.0211      -0.00846449          150.63
0.509                  -0.281654        -125.158         -54.6694         32.7068         -54.7336         32.8961      -0.00852703         150.564
0.51                   -0.283001        -125.579         -54.5558         32.6048         -54.6308         32.8292      -0.00859022         150.498
0.511                  -0.284377        -126.002         -54.4343         32.5643         -54.5214         32.8289      -0.00865406         150.432
0.512                  -0.285783        -126.429          -54.304          32.594         -54.4044         32.9048      -0.00871856         150.367
0.513                  -0.287223        -126.858         -54.1634          32.704         -54.2788         33.0687      -0.00878373         150.301
0.514                    -0.2887        -127.291         -54.0109         32.9066         -54.1432         33.3342      -0.00884957         150.234
0.515                  -0.290216        -127.728         -53.8444         33.2161         -53.9961         33.7183      -0.00891609         150.168
0.516                  -0.291775        -128.167         -53.6614         33.6498         -53.8351         34.2411      -0.00898329         150.102
0.517                   -0.29338         -128.61         -53.4586         34.2288         -53.6578         34.9275      -0.00905118         150.036
0.518                  -0.295035        -129.056         -53.2318         34.9784         -53.4607         35.8083      -0.00911978         149.969
0.519                  -0.296742        -129.506         -52.9757           35.93         -53.2394          36.922      -0.00918907         149.903
0.52                   -0.298507        -129.959          -52.683         37.1227          -52.988         38.3177      -0.00925908         149.836
0.521                  -0.300333        -130.416         -52.3441         38.6053         -52.6989         40.0582      -0.00932981         149.769
0.522                  -0.302224        -130.876         -51.9461         40.4404         -52.3615         42.2261      -0.00940126         149.703
0.523                  -0.304184         -131.34         -51.4708         42.7094         -51.9612         44.9315      -0.00947345         149.636
0.524                  -0.306217        -131.808         -50.8926         45.5205         -51.4777         48.3258      -0.00954638         149.569
0.525                  -0.308329         -132.28         -50.1741         49.0237         -50.8823         52.6235      -0.00962006         149.502
0.526                  -0.310524        -132.756         -49.2594          53.438         -50.1337         58.1424      -0.00969449         149.435
0.527                  -0.312807        -133.235         -48.0616         59.1137         -49.1731         65.3832      -0.00976971         149.367
0.528                  -0.315183        -133.719         -46.4394         66.6935         -47.9212         75.2008      -0.00984572           149.3
0.529                  -0.317657        -134.207         -44.1528         77.6222         -46.2956          89.195      -0.00992253         149.233
0.53                   -0.320234        -134.698         -40.8238         96.1411         -44.3416         110.472            -0.01         149.165
0.531                  -0.322925        -135.195         -36.8227         136.741         -42.7753         143.167       -0.0100772         149.097
0.532                  -0.325752        -135.695         -38.0244        -161.472         -43.2161        -177.313       -0.0101564          149.03
0.533                   -0.32868          -136.2         -42.4055        -128.479         -45.3534        -145.625       -0.0102371         148.962
0.534                  -0.331742         -136.71         -45.6287          -111.2         -47.5454        -123.917       -0.0103178         148.894
0.535                  -0.334946        -137.224         -47.8234        -99.3624         -49.2396        -108.327       -0.0103992         148.826
0.536                  -0.338297        -137.742         -49.3331        -90.1894         -50.4443        -96.4648       -0.0104815         148.758
0.537                  -0.341803        -138.266         -50.3776        -82.7617          -51.271         -87.164       -0.0105646          148.69
0.538                  -0.345473        -138.794         -51.0993        -76.6685         -51.8248        -79.7753       -0.0106486         148.621
0.539                  -0.349316        -139.328         -51.5942        -71.6603         -52.1866        -73.8714       -0.0107334         148.553
0.54                   -0.353342        -139.866          -51.928        -67.5503          -52.414        -69.1397       -0.0108191         148.484
0.541                   -0.35756         -140.41         -52.1464         -64.187         -52.5469        -65.3417       -0.0109056         148.416
0.542                  -0.361982        -140.959          -52.281        -61.4447         -52.6127        -62.2923        -0.010993         148.347
0.543                  -0.366619        -141.513         -52.3542        -59.2193         -52.6303        -59.8477       -0.0110813         148.278
0.544                  -0.371482        -142.073         -52.3817        -57.4256         -52.6124        -57.8957       -0.0111705         148.209
0.545                  -0.376585        -142.639         -52.3745        -55.9937         -52.5682        -56.3482       -0.0112606          148.14
0.546                  -0.381941         -143.21         -52.3407        -54.8667          -52.504        -55.1359       -0.0113515         148.071
0.547                  -0.387565        -143.788         -52.2861        -53.9982         -52.4242        -54.2037       -0.0114434         148.002
0.548                   -0.39347        -144.371         -52.2151          -53.35         -52.3323        -53.5077       -0.0115362         147.932
0.549                  -0.399674         -144.96         -52.1308         -52.891         -52.2304        -53.0123         -0.01163         147.863
0.55                   -0.406194        -145.556         -52.0356        -52.5955         -52.1205         -52.689       -0.0117247         147.793
0.551                  -0.413046        -146.159         -51.9313         -52.442         -52.0037        -52.5141       -0.0118203         147.723
0.552                  -0.420251        -146.768         -51.8193        -52.4127         -51.8811        -52.4683       -0.0119169         147.653
0.553                  -0.427829        -147.383         -51.7006        -52.4929         -51.7533        -52.5356       -0.0120144         147.583
0.554                  -0.435802        -148.006          -51.576          -52.67         -51.6211        -52.7027        -0.012113         147.513
0.555                  -0.444191        -148.636         -51.4463        -52.9334         -51.4847        -52.9583       -0.0122125         147.443
0.556                  -0.453023        -149.273         -51.3118        -53.2741         -51.3446        -53.2929        -0.012313         147.373
0.557                  -0.462324        -149.917         -51.1731        -53.6846         -51.2009        -53.6985       -0.0124145         147.302
0.558                   -0.47212         -150.57         -51.0304        -54.1582         -51.0539        -54.1684       -0.0125171         147.231
0.559                  -0.482442         -151.23         -50.8839        -54.6893         -50.9038        -54.6966       -0.0126206         147.161
0.56                   -0.493323        -151.898         -50.7339        -55.2731         -50.7506        -55.2782       -0.0127253          147.09
0.561                  -0.504795        -152.574         -50.5806        -55.9055         -50.5945        -55.9088       -0.0128309         147.019
0.562                  -0.516895        -153.259          -50.424        -56.5827         -50.4354        -56.5848       -0.0129377         146.948
0.563                  -0.529663        -153.953         -50.2642        -57.3018         -50.2736         -57.303       -0.0130455         146.877
0.564                   -0.54314        -154.655         -50.1015        -58.0601          -50.109        -58.0606       -0.0131544         146.805
0.565                  -0.557371        -155.367         -49.9357        -58.8551         -49.9416        -58.8551       -0.0132644         146.734
0.566                  -0.572404        -156.088         -49.7669        -59.6849         -49.7715        -59.6847       -0.0133756         146.662
0.567                   -0.58829        -156.819         -49.5953        -60.5478         -49.5987        -60.5474       -0.0134879          146.59
0.568                  -0.605085        -157.559         -49.4208        -61.4422         -49.4232        -61.4418       -0.0136014         146.518
0.569                  -0.622849         -158.31         -49.2435        -62.3669          -49.245        -62.3666        -0.013716         146.446
0.57                   -0.641645        -159.071         -49.0634        -63.3209         -49.0641        -63.3208       -0.0138319         146.374
0.571                  -0.661543        -159.843         -48.8805        -64.3033         -48.8805        -64.3033        -0.013949         146.302
0.572                  -0.682617        -160.626         -48.6948        -65.3133         -48.6943        -65.3135       -0.0140673         146.229
0.573                  -0.704947        -161.421         -48.5063        -66.3503         -48.5054        -66.3509       -0.0141869         146.156
0.574                  -0.728619        -162.226         -48.3151         -67.414         -48.3138        -67.4148       -0.0143078         146.084
0.575                  -0.753727        -163.044         -48.1212         -68.504         -48.1195        -68.5051       -0.0144301         146.011
0.576                  -0.780371        -163.874         -47.9245        -69.6201         -47.9226        -69.6215       -0.0145537         145.937
0.577                   -0.80866        -164.716         -47.7251        -70.7622          -47.723        -70.7639       -0.0146787         145.864
0.578                  -0.838712        -165.571         -47.5231        -71.9303         -47.5208        -71.9323       -0.0148052         145.791
0.579                  -0.870654         -166.44         -47.3184        -73.1246          -47.316        -73.1269       -0.0149332         145.717
0.58                   -0.904624        -167.321          -47.111        -74.3452         -47.1085        -74.3478       -0.0150627         145.643
0.581                   -0.94077        -168.216          -46.901        -75.5925         -46.8985        -75.5954       -0.0151939         145.569
0.582                  -0.979255        -169.125         -46.6884        -76.8668         -46.6859          -76.87       -0.0153267         145.495
0.583                   -1.02025        -170.048         -46.4732        -78.1686         -46.4707         -78.172       -0.0154612         145.421
0.584                   -1.06395        -170.985         -46.2556        -79.4985         -46.2531        -79.5021       -0.0155975         145.347
0.585                   -1.11056        -171.937         -46.0355         -80.857          -46.033        -80.8608       -0.0157357         145.272
0.586                    -1.1603        -172.903          -45.813        -82.2449         -45.8106        -82.2489       -0.0158759         145.197
0.587                   -1.21342        -173.884         -45.5881         -83.663         -45.5858         -83.667       -0.0160181         145.122
0.588                   -1.27016        -174.879          -45.361         -85.112         -45.3588        -85.1162       -0.0161626         145.047
0.589                   -1.33082         -175.89         -45.1318        -86.5929         -45.1296        -86.5972       -0.0163093         144.972
0.59                    -1.39571        -176.915         -44.9004        -88.1067         -44.8984        -88.1111       -0.0164585         144.897
0.591                   -1.46516        -177.954         -44.6672        -89.6545         -44.6653        -89.6588       -0.0166103         144.821
0.592                   -1.53951        -179.007         -44.4321        -91.2371         -44.4303        -91.2415       -0.0167648         144.745
0.593                   -1.61918         179.927         -44.1953         -92.856         -44.1937        -92.8603       -0.0169223         144.669
0.594                   -1.70456         178.848         -43.9571        -94.5121         -43.9555        -94.5163       -0.0170829         144.593
0.595                   -1.79611         177.758         -43.7176        -96.2067         -43.7161        -96.2109       -0.0172469         144.516
0.596                   -1.89431         176.657         -43.4769         -97.941         -43.4756        -97.9451       -0.0174144          144.44
0.597                   -1.99969         175.547         -43.2354        -99.7162         -43.2342        -99.7202       -0.0175858         144.363
0.598                   -2.11279         174.431         -42.9934        -101.534         -42.9923        -101.537       -0.0177613         144.286
0.599                   -2.23419          173.31          -42.751        -103.394           -42.75        -103.398       -0.0179411         144.209
0.6                     -2.36453         172.187         -42.5086          -105.3         -42.5077        -105.303       -0.0181257         144.131
0.601                   -2.50445         171.066         -42.2666        -107.251         -42.2658        -107.254       -0.0183153         144.054
0.602                   -2.65462         169.951         -42.0253        -109.248         -42.0246        -109.251       -0.0185103         143.976
0.603                   -2.81574         168.847         -41.7851        -111.293         -41.7846        -111.296        -0.018711         143.898
0.604                   -2.98854          167.76         -41.5466        -113.387         -41.5461        -113.389       -0.0189178         143.819
0.605                    -3.1737         166.696         -41.3101        -115.529         -41.3097        -115.531       -0.0191311         143.741
0.606                   -3.37193         165.664         -41.0761         -117.72         -41.0758        -117.722       -0.0193511         143.662
0.607                   -3.58387         164.673         -40.8453        -119.961          -40.845        -119.962       -0.0195783         143.583
0.608                   -3.81009         163.735         -40.6181         -122.25         -40.6179        -122.251        -0.019813         143.504
0.609                   -4.05105         162.861         -40.3951        -124.588          -40.395        -124.589       -0.0200555         143.425
0.61                    -4.30706         162.067          -40.177        -126.974         -40.1769        -126.974        -0.020306         143.345
0.611                   -4.57816         161.368         -39.9643        -129.406         -39.9642        -129.406       -0.0205647         143.266
0.612                   -4.86411         160.784         -39.7576        -131.882         -39.7576        -131.882       -0.0208319         143.186
0.613                   -5.16424         160.335         -39.5576        -134.401         -39.5576        -134.401       -0.0211075         143.105
0.614                   -5.47734         160.043         -39.3648         -136.96         -39.3649         -136.96       -0.0213917         143.025
0.615                   -5.80153         159.933         -39.1799        -139.555         -39.1799        -139.555       -0.0216842         142.944
0.616                   -6.13407         160.029         -39.0032        -142.184         -39.0032        -142.183       -0.0219849         142.864
0.617                   -6.47123         160.355         -38.8354        -144.841         -38.8354         -144.84       -0.0222937         142.783
0.618                   -6.80812         160.934         -38.6767        -147.523         -38.6768        -147.522         -0.02261         142.701
0.619                   -7.13864         161.784         -38.5277        -150.225         -38.5277        -150.224       -0.0229336          142.62
0.62                    -7.45541         162.916         -38.3885        -152.942         -38.3885        -152.941       -0.0232639         142.538
0.621                   -7.75003         164.331         -38.2594        -155.668         -38.2594        -155.667       -0.0236005         142.456
0.622                   -8.01342         166.016         -38.1404        -158.398         -38.1404        -158.397       -0.0239426         142.374
0.623                   -8.23652          167.94         -38.0316        -161.126         -38.0316        -161.125       -0.0242897         142.292
0.624                   -8.41115         170.057         -37.9329        -163.848         -37.9328        -163.847       -0.0246412          142.21
0.625                   -8.53095         172.304          -37.844        -166.557          -37.844        -166.556       -0.0249966         142.127
0.626                   -8.59228         174.607         -37.7648        -169.248         -37.7648        -169.248       -0.0253551         142.044
0.627                   -8.59471         176.888          -37.695        -171.917         -37.6949        -171.917       -0.0257164         141.961
0.628                   -8.54104         179.072          -37.634         -174.56         -37.6339        -174.559       -0.0260799         141.877
0.629                   -8.43681        -178.907         -37.5814         -177.17         -37.5813         -177.17       -0.0264453         141.794
