! TOUCHSTONE file generated by CST MICROWAVE STUDIO
! Date and time: Fri Dec 11 14:13:36 2020
! Project name: Scenario_1_Planar_Body_Tissue_Out_of_Line_v2.cst
! Parameters = {dy1=51.9; L_HA=400; Ltissue=700; MT=2.54; Rad_Dielectric=30; Rad_Lower=7.3; Rad_Upper=30; Wtissue=700; a_HA=580; a_WG=246; b_HA=500; b_WG=121; c_HA=0; c_WG=187; d_feed=85; dx1=520; h_feed=15; h_lower=18; h_upper=40; hfat=3; hgap=25; hmuscle=50; hskin=1.5}
! Header version: 2018
! Port assignment regex: !\s*Touchstone port\s*([0-9]+)\s*=\s*(CST MWS port|CST DS port)\s*([0-9]+|Zmin|Zmax)\s*\(\"(.*)\"\)(\s*mode\s*([0-9]+))?.*
! Touchstone port assignment:
! Touchstone port 1 = CST MWS port 1 ("")
! Touchstone port 2 = CST MWS port 2 ("")
# GHz S DB R 50
0.5                   -0.0751291        -121.862         -61.5519        -49.3465         -61.5514        -49.3417       -0.0073386         151.156
0.501                  -0.103054        -122.395         -61.3796        -50.3648         -61.3794        -50.3589      -0.00744464         151.091
0.502                  -0.131506        -122.925         -61.2028        -51.3941         -61.2028        -51.3872      -0.00755064         151.025
0.503                  -0.160462         -123.45         -61.0214        -52.4349         -61.0215         -52.427      -0.00765658          150.96
0.504                  -0.189894         -123.97         -60.8351        -53.4878         -60.8355        -53.4788      -0.00776248         150.894
0.505                  -0.219777        -124.486         -60.6441        -54.5532         -60.6446        -54.5432      -0.00786833         150.829
0.506                   -0.25008        -124.997          -60.448        -55.6318         -60.4487        -55.6209      -0.00797415         150.763
0.507                  -0.280775        -125.503         -60.2468        -56.7244         -60.2477        -56.7124      -0.00807993         150.698
0.508                  -0.311828        -126.005         -60.0405        -57.8316         -60.0415        -57.8186      -0.00818568         150.632
0.509                  -0.343207        -126.501         -59.8288        -58.9542           -59.83        -58.9403       -0.0082914         150.566
0.51                   -0.374877        -126.992         -59.6116        -60.0933          -59.613        -60.0784      -0.00839709           150.5
0.511                    -0.4068        -127.477         -59.3889        -61.2497         -59.3904        -61.2338      -0.00850277         150.434
0.512                   -0.43894        -127.957         -59.1605        -62.4247         -59.1622        -62.4078      -0.00860843         150.368
0.513                  -0.471255        -128.432         -58.9262        -63.6193         -58.9281        -63.6015      -0.00871407         150.302
0.514                  -0.503705        -128.901          -58.686        -64.8351          -58.688        -64.8163      -0.00881971         150.236
0.515                  -0.536246        -129.364         -58.4398        -66.0733         -58.4418        -66.0536      -0.00892534          150.17
0.516                  -0.568834        -129.822         -58.1873        -67.3358         -58.1895        -67.3151      -0.00903098         150.104
0.517                  -0.601424        -130.274         -57.9285        -68.6241         -57.9308        -68.6025      -0.00913662         150.037
0.518                  -0.633967         -130.72         -57.6632        -69.9404         -57.6656        -69.9178      -0.00924228         149.971
0.519                  -0.666415         -131.16         -57.3913        -71.2867         -57.3938        -71.2632      -0.00934795         149.904
0.52                   -0.698717        -131.595         -57.1128        -72.6654         -57.1154        -72.6409      -0.00945364         149.838
0.521                  -0.730823        -132.024         -56.8274        -74.0792         -56.8301        -74.0537      -0.00955937         149.771
0.522                   -0.76268        -132.447         -56.5352        -75.5308         -56.5379        -75.5044      -0.00966513         149.704
0.523                  -0.794233        -132.865          -56.236        -77.0235         -56.2387        -76.9961      -0.00977093         149.637
0.524                  -0.825429        -133.277         -55.9297        -78.5606         -55.9325        -78.5323      -0.00987678          149.57
0.525                  -0.856213        -133.683         -55.6164        -80.1459         -55.6192        -80.1167      -0.00998268         149.503
0.526                  -0.886528        -134.084          -55.296        -81.7836         -55.2988        -81.7534       -0.0100886         149.436
0.527                  -0.916319         -134.48         -54.9684        -83.4781         -54.9712        -83.4471       -0.0101947         149.369
0.528                  -0.945529        -134.871         -54.6339        -85.2345         -54.6367        -85.2026       -0.0103008         149.302
0.529                  -0.974102        -135.257         -54.2925        -87.0581         -54.2952        -87.0253        -0.010407         149.234
0.53                    -1.00198        -135.639         -53.9444        -88.9548         -53.9471        -88.9211       -0.0105133         149.167
0.531                   -1.02911        -136.016         -53.5899        -90.9309         -53.5925        -90.8964       -0.0106197         149.099
0.532                   -1.05544        -136.389         -53.2293        -92.9931         -53.2318        -92.9578       -0.0107262         149.032
0.533                   -1.08091        -136.758         -52.8632        -95.1488         -52.8656        -95.1128       -0.0108328         148.964
0.534                   -1.10547        -137.123         -52.4922        -97.4057         -52.4945        -97.3691       -0.0109395         148.896
0.535                   -1.12907        -137.485         -52.1172        -99.7719         -52.1192        -99.7347       -0.0110464         148.828
0.536                   -1.15167        -137.845         -51.7391        -102.256          -51.741        -102.218       -0.0111535          148.76
0.537                    -1.1732        -138.202         -51.3592        -104.866         -51.3609        -104.828       -0.0112607         148.692
0.538                   -1.19364        -138.557         -50.9791         -107.61         -50.9806        -107.572        -0.011368         148.624
0.539                   -1.21294         -138.91         -50.6006        -110.497         -50.6018        -110.459       -0.0114756         148.556
0.54                    -1.23105        -139.262         -50.2259        -113.533         -50.2268        -113.495       -0.0115833         148.487
0.541                   -1.24796        -139.614         -49.8575        -116.725         -49.8582        -116.687       -0.0116912         148.419
0.542                   -1.26362        -139.966         -49.4983        -120.076         -49.4986        -120.039       -0.0117994          148.35
0.543                   -1.27801        -140.318         -49.1515        -123.587         -49.1515        -123.551       -0.0119078         148.282
0.544                    -1.2911        -140.671         -48.8205        -127.257         -48.8202        -127.222       -0.0120164         148.213
0.545                   -1.30289        -141.025         -48.5091        -131.079         -48.5085        -131.045       -0.0121253         148.144
0.546                   -1.31335        -141.381         -48.2208        -135.041           -48.22         -135.01       -0.0122344         148.075
0.547                   -1.32248        -141.741         -47.9594        -139.129         -47.9583          -139.1       -0.0123438         148.006
0.548                   -1.33028        -142.103          -47.728        -143.321         -47.7267        -143.294       -0.0124536         147.937
0.549                   -1.33675        -142.469         -47.5294         -147.59         -47.5279        -147.566       -0.0125636         147.867
0.55                    -1.34189         -142.84         -47.3654        -151.908         -47.3638        -151.886        -0.012674         147.798
0.551                   -1.34572        -143.216         -47.2372        -156.241         -47.2356        -156.222       -0.0127847         147.728
0.552                   -1.34825        -143.598         -47.1448        -160.556         -47.1431         -160.54       -0.0128958         147.659
0.553                   -1.34952        -143.986         -47.0872        -164.821         -47.0856        -164.807       -0.0130072         147.589
0.554                   -1.34955        -144.381         -47.0625        -169.005          -47.061        -168.994       -0.0131191         147.519
0.555                   -1.34838        -144.783         -47.0681        -173.082         -47.0668        -173.074       -0.0132314         147.449
0.556                   -1.34604        -145.193         -47.1008        -177.031         -47.0997        -177.025       -0.0133442         147.379
0.557                   -1.34258        -145.612          -47.157         179.165         -47.1561          179.17       -0.0134574         147.309
0.558                   -1.33805        -146.041         -47.2331         175.518         -47.2323         175.521       -0.0135712         147.239
0.559                   -1.33251        -146.479         -47.3252         172.033         -47.3247         172.035       -0.0136854         147.168
0.56                    -1.32601        -146.927           -47.43         168.714         -47.4297         168.715       -0.0138002         147.098
0.561                   -1.31862        -147.386         -47.5441         165.559          -47.544         165.559       -0.0139155         147.027
0.562                    -1.3104        -147.856         -47.6646         162.564         -47.6648         162.563       -0.0140315         146.956
0.563                   -1.30142        -148.338          -47.789         159.724         -47.7893         159.722        -0.014148         146.885
0.564                   -1.29176        -148.832          -47.915          157.03         -47.9156         157.029       -0.0142652         146.814
0.565                   -1.28148        -149.339         -48.0408         154.476         -48.0415         154.474       -0.0143831         146.743
0.566                   -1.27069        -149.858         -48.1648         152.052         -48.1656          152.05       -0.0145016         146.672
0.567                   -1.25944        -150.391         -48.2856         149.749         -48.2866         149.748       -0.0146209           146.6
0.568                   -1.24783        -150.937         -48.4022          147.56         -48.4033         147.558       -0.0147409         146.529
0.569                   -1.23593        -151.497         -48.5138         145.474         -48.5149         145.473       -0.0148618         146.457
0.57                    -1.22385        -152.071         -48.6196         143.485         -48.6209         143.484       -0.0149834         146.385
0.571                   -1.21165         -152.66         -48.7192         141.584         -48.7205         141.584       -0.0151059         146.313
0.572                   -1.19943        -153.263         -48.8122         139.765         -48.8135         139.764       -0.0152293         146.241
0.573                   -1.18728        -153.881         -48.8982         138.019         -48.8995         138.019       -0.0153536         146.169
0.574                   -1.17529        -154.514          -48.977         136.342         -48.9784         136.342       -0.0154789         146.096
0.575                   -1.16355        -155.162         -49.0486         134.727           -49.05         134.727       -0.0156052         146.024
0.576                   -1.15213        -155.825         -49.1128         133.168         -49.1142         133.169       -0.0157325         145.951
0.577                   -1.14114        -156.503         -49.1696         131.661          -49.171         131.662        -0.015861         145.878
0.578                   -1.13066        -157.197          -49.219           130.2         -49.2204         130.202       -0.0159905         145.805
0.579                   -1.12077        -157.907          -49.261         128.782         -49.2624         128.784       -0.0161213         145.732
0.58                    -1.11157        -158.632         -49.2958         127.403         -49.2971         127.405       -0.0162533         145.659
0.581                   -1.10313        -159.372         -49.3233         126.058         -49.3246          126.06       -0.0163865         145.586
0.582                   -1.09556        -160.128         -49.3437         124.744          -49.345         124.747       -0.0165211         145.512
0.583                   -1.08892          -160.9          -49.357         123.459         -49.3583         123.461       -0.0166571         145.438
0.584                   -1.08331        -161.688         -49.3635         122.198         -49.3647         122.201       -0.0167945         145.364
0.585                   -1.07881        -162.491         -49.3631          120.96         -49.3643         120.962       -0.0169334          145.29
0.586                   -1.07551         -163.31         -49.3561         119.741         -49.3572         119.744       -0.0170738         145.216
0.587                   -1.07348        -164.144         -49.3425         118.539         -49.3435         118.542       -0.0172159         145.142
0.588                   -1.07282        -164.995         -49.3225         117.352         -49.3235         117.355       -0.0173596         145.067
0.589                    -1.0736        -165.861         -49.2961         116.178         -49.2971         116.181       -0.0175051         144.992
0.59                    -1.07592        -166.742         -49.2637         115.015         -49.2646         115.017       -0.0176523         144.918
0.591                   -1.07985        -167.639         -49.2251          113.86          -49.226         113.862       -0.0178015         144.843
0.592                   -1.08548        -168.552         -49.1807         112.712         -49.1815         112.714       -0.0179525         144.767
0.593                   -1.09291         -169.48         -49.1305         111.569         -49.1312         111.571       -0.0181056         144.692
0.594                   -1.10221        -170.424         -49.0746         110.429         -49.0752         110.432       -0.0182608         144.616
0.595                   -1.11347        -171.384         -49.0131         109.292         -49.0138         109.294       -0.0184181         144.541
0.596                    -1.1268        -172.359         -48.9463         108.154         -48.9469         108.157       -0.0185776         144.465
0.597                   -1.14229        -173.349         -48.8742         107.016         -48.8747         107.018       -0.0187395         144.389
0.598                   -1.16003        -174.355         -48.7969         105.875         -48.7974         105.877       -0.0189038         144.312
0.599                   -1.18013        -175.377         -48.7146          104.73          -48.715         104.732       -0.0190705         144.236
0.6                     -1.20268        -176.414         -48.6273          103.58         -48.6277         103.582       -0.0192398         144.159
0.601                   -1.22781        -177.467         -48.5353         102.424         -48.5356         102.426       -0.0194118         144.082
0.602                   -1.25562        -178.536         -48.4386          101.26         -48.4389         101.262       -0.0195865         144.005
0.603                   -1.28624         -179.62         -48.3373         100.087         -48.3376         100.088        -0.019764         143.928
0.604                   -1.31979         179.281         -48.2316         98.9039         -48.2318         98.9051       -0.0199445          143.85
0.605                   -1.35641         178.165         -48.1216         97.7095         -48.1218         97.7106        -0.020128         143.773
0.606                   -1.39623         177.035         -48.0074         96.5028         -48.0076         96.5037       -0.0203145         143.695
0.607                    -1.4394         175.888         -47.8892         95.2826         -47.8893         95.2834       -0.0205043         143.617
0.608                   -1.48608         174.727          -47.767         94.0478         -47.7672         94.0484       -0.0206974         143.539
0.609                   -1.53644         173.549         -47.6411         92.7973         -47.6412         92.7978       -0.0208939          143.46
0.61                    -1.59064         172.356         -47.5115         91.5302         -47.5116         91.5304       -0.0210938         143.381
0.611                   -1.64888         171.148         -47.3785         90.2453         -47.3785         90.2454       -0.0212974         143.303
0.612                   -1.71136         169.925          -47.242         88.9416          -47.242         88.9415       -0.0215046         143.223
0.613                   -1.77829         168.687         -47.1024         87.6181         -47.1024         87.6179       -0.0217156         143.144
0.614                   -1.84989         167.433         -46.9596         86.2739         -46.9597         86.2735       -0.0219305         143.065
0.615                    -1.9264         166.165          -46.814         84.9079          -46.814         84.9074       -0.0221493         142.985
0.616                   -2.00809         164.883         -46.6657         83.5193         -46.6657         83.5186       -0.0223722         142.905
0.617                   -2.09521         163.587         -46.5148          82.107         -46.5148         82.1062       -0.0225993         142.824
0.618                   -2.18807         162.277         -46.3616         80.6702         -46.3615         80.6693       -0.0228306         142.744
0.619                   -2.28696         160.955         -46.2061         79.2081         -46.2061          79.207       -0.0230663         142.663
0.62                    -2.39223          159.62         -46.0487         77.7198         -46.0487         77.7186       -0.0233063         142.582
0.621                   -2.50421         158.273         -45.8895         76.2045         -45.8895         76.2032       -0.0235509         142.501
0.622                   -2.62329         156.916         -45.7288         74.6615         -45.7288         74.6601          -0.0238          142.42
0.623                   -2.74985         155.549         -45.5667           73.09         -45.5667         73.0886       -0.0240539         142.338
0.624                   -2.88432         154.174         -45.4035         71.4896         -45.4035          71.488       -0.0243124         142.256
0.625                   -3.02715         152.792         -45.2395         69.8595         -45.2395         69.8579       -0.0245758         142.174
0.626                   -3.17881         151.405         -45.0749         68.1994         -45.0749         68.1977       -0.0248441         142.092
0.627                   -3.33979         150.015           -44.91         66.5087           -44.91         66.5071       -0.0251173         142.009
0.628                   -3.51063         148.624          -44.745         64.7873         -44.7451         64.7856       -0.0253956         141.926
0.629                   -3.69188         147.235         -44.5803         63.0349         -44.5803         63.0332       -0.0256789         141.843
