! TOUCHSTONE file generated by CST MICROWAVE STUDIO
! Date and time: Sat Nov 14 20:01:40 2020
! Project name: Scenario_1_Planar_Body_Tissue_Out_of_Line.cst
! Parameters = {dy1=-51.9; L_HA=400; Ltissue=700; MT=2.54; Rad_Dielectric=30; Rad_Lower=7.3; Rad_Upper=30; Wtissue=700; a_HA=580; a_WG=246; b_HA=500; b_WG=121; c_HA=0; c_WG=187; d_feed=85; dx1=693; h_feed=15; h_lower=18; h_upper=40; hfat=3; hgap=25; hmuscle=50; hskin=1.5}
! Header version: 2018
! Port assignment regex: !\s*Touchstone port\s*([0-9]+)\s*=\s*(CST MWS port|CST DS port)\s*([0-9]+|Zmin|Zmax)\s*\(\"(.*)\"\)(\s*mode\s*([0-9]+))?.*
! Touchstone port assignment:
! Touchstone port 1 = CST MWS port 1 ("")
! Touchstone port 2 = CST MWS port 2 ("")
# GHz S DB R 50
0.5                    -0.208818         -121.52          -60.809        -170.023         -60.8089        -170.024      -0.00778125         151.147
0.501                  -0.209257        -121.933         -60.8347        -171.375         -60.8345        -171.375      -0.00784315         151.082
0.502                  -0.209749        -122.348         -60.8572         -172.76         -60.8568         -172.76       -0.0079056         151.017
0.503                  -0.210299        -122.766         -60.8762        -174.179         -60.8756        -174.179      -0.00796859         150.952
0.504                  -0.210908        -123.187         -60.8913        -175.632         -60.8906        -175.631      -0.00803213         150.886
0.505                  -0.211579        -123.612         -60.9025        -177.117         -60.9016        -177.116      -0.00809623         150.821
0.506                  -0.212315        -124.039         -60.9094        -178.635         -60.9084        -178.634       -0.0081609         150.755
0.507                  -0.213121         -124.47         -60.9117         179.815         -60.9106         179.816      -0.00822613          150.69
0.508                  -0.213999        -124.903         -60.9091         178.233          -60.908         178.235      -0.00829193         150.624
0.509                  -0.214952         -125.34         -60.9015         176.621         -60.9003         176.623      -0.00835831         150.558
0.51                   -0.215986         -125.78         -60.8886          174.98         -60.8873         174.982      -0.00842526         150.492
0.511                  -0.217104        -126.224         -60.8701          173.31         -60.8687         173.313      -0.00849281         150.426
0.512                   -0.21831        -126.671         -60.8458         171.613         -60.8444         171.616      -0.00856094          150.36
0.513                  -0.219609        -127.121         -60.8154          169.89          -60.814         169.894      -0.00862968         150.294
0.514                  -0.221006        -127.575         -60.7789         168.143         -60.7775         168.147      -0.00869901         150.228
0.515                  -0.222507        -128.033         -60.7359         166.373         -60.7345         166.377      -0.00876894         150.162
0.516                  -0.224116        -128.494         -60.6864         164.582          -60.685         164.586      -0.00883949         150.095
0.517                   -0.22584        -128.959         -60.6302         162.771         -60.6289         162.776      -0.00891065         150.029
0.518                  -0.227686        -129.428         -60.5671         160.943         -60.5659         160.948      -0.00898243         149.962
0.519                  -0.229659        -129.901         -60.4972           159.1          -60.496         159.104      -0.00905484         149.896
0.52                   -0.231767        -130.378         -60.4202         157.242         -60.4191         157.247      -0.00912788         149.829
0.521                  -0.234018        -130.859         -60.3362         155.372         -60.3352         155.377      -0.00920154         149.762
0.522                   -0.23642        -131.344         -60.2452         153.492         -60.2443         153.497      -0.00927585         149.695
0.523                  -0.238982        -131.833         -60.1471         151.604         -60.1463         151.608       -0.0093508         149.628
0.524                  -0.241712        -132.327         -60.0421         149.709         -60.0413         149.713       -0.0094264         149.561
0.525                  -0.244622        -132.826         -59.9301         147.809         -59.9294         147.813      -0.00950265         149.494
0.526                  -0.247721        -133.328         -59.8112         145.906         -59.8107         145.909      -0.00957956         149.427
0.527                  -0.251022        -133.836         -59.6856         144.001         -59.6852         144.004      -0.00965713          149.36
0.528                  -0.254537        -134.348         -59.5533         142.096          -59.553         142.098      -0.00973537         149.292
0.529                  -0.258279        -134.866         -59.4145         140.192         -59.4144         140.194      -0.00981428         149.225
0.53                   -0.262263        -135.388         -59.2694          138.29         -59.2694         138.291      -0.00989386         149.157
0.531                  -0.266503        -135.916         -59.1182         136.391         -59.1182         136.391      -0.00997413         149.089
0.532                  -0.271018        -136.449         -58.9609         134.496         -58.9611         134.496       -0.0100551         149.022
0.533                  -0.275824        -136.987         -58.7978         132.606         -58.7981         132.605       -0.0101367         148.954
0.534                  -0.280942        -137.531         -58.6292         130.722         -58.6296         130.719       -0.0102191         148.886
0.535                  -0.286392        -138.081         -58.4551         128.843         -58.4556         128.839       -0.0103021         148.818
0.536                  -0.292197        -138.636         -58.2759          126.97         -58.2765         126.965       -0.0103859         148.749
0.537                  -0.298382        -139.198         -58.0917         125.103         -58.0924         125.097       -0.0104703         148.681
0.538                  -0.304973        -139.766         -57.9027         123.242         -57.9034         123.235       -0.0105555         148.613
0.539                  -0.312001         -140.34         -57.7091         121.387           -57.71         121.379       -0.0106414         148.544
0.54                   -0.319497         -140.92         -57.5112         119.537         -57.5121         119.528       -0.0107281         148.475
0.541                  -0.327494        -141.508         -57.3091         117.692         -57.3101         117.682       -0.0108155         148.407
0.542                  -0.336032        -142.102          -57.103         115.852         -57.1041         115.841       -0.0109036         148.338
0.543                   -0.34515        -142.704         -56.8932         114.016         -56.8944         114.003       -0.0109925         148.269
0.544                  -0.354894        -143.313         -56.6798         112.183          -56.681         112.169       -0.0110822           148.2
0.545                  -0.365313        -143.929          -56.463         110.352         -56.4643         110.336       -0.0111727         148.131
0.546                   -0.37646        -144.554         -56.2429         108.521         -56.2443         108.505        -0.011264         148.061
0.547                  -0.388395        -145.186         -56.0198         106.691         -56.0212         106.674       -0.0113561         147.992
0.548                  -0.401181        -145.826         -55.7938          104.86         -55.7953         104.841        -0.011449         147.922
0.549                  -0.414889        -146.475         -55.5651         103.026         -55.5666         103.006       -0.0115429         147.853
0.55                   -0.429598        -147.132         -55.3338         101.188         -55.3354         101.167       -0.0116376         147.783
0.551                  -0.445392        -147.798         -55.1001         99.3449         -55.1017         99.3228       -0.0117333         147.713
0.552                  -0.462366        -148.473         -54.8642          97.495         -54.8658         97.4718       -0.0118299         147.643
0.553                  -0.480623        -149.158         -54.6261         95.6368         -54.6278         95.6126       -0.0119276         147.573
0.554                  -0.500277        -149.852         -54.3861         93.7687         -54.3878         93.7435       -0.0120264         147.503
0.555                  -0.521453        -150.555         -54.1443          91.889         -54.1461         91.8628       -0.0121263         147.432
0.556                  -0.544291        -151.268         -53.9009          89.996         -53.9027         89.9689       -0.0122275         147.362
0.557                  -0.568943        -151.991          -53.656         88.0879         -53.6579           88.06       -0.0123299         147.291
0.558                  -0.595578        -152.724         -53.4098          86.163         -53.4117         86.1343       -0.0124339          147.22
0.559                   -0.62438        -153.467         -53.1625         84.2195         -53.1645           84.19       -0.0125393         147.149
0.56                   -0.655555        -154.219         -52.9143         82.2555         -52.9163         82.2253       -0.0126465         147.078
0.561                  -0.689327        -154.981         -52.6653         80.2691         -52.6674         80.2383       -0.0127556         147.007
0.562                  -0.725941        -155.753         -52.4158         78.2585          -52.418         78.2272       -0.0128668         146.936
0.563                  -0.765669        -156.533         -52.1661         76.2218         -52.1683           76.19       -0.0129803         146.864
0.564                  -0.808805        -157.322         -51.9163         74.1572         -51.9186          74.125       -0.0130963         146.793
0.565                  -0.855668        -158.118         -51.6668         72.0629         -51.6691         72.0303       -0.0132153         146.721
0.566                  -0.906605         -158.92         -51.4177         69.9369         -51.4202         69.9041       -0.0133375         146.649
0.567                  -0.961986        -159.727         -51.1695         67.7778         -51.1721         67.7447       -0.0134633         146.577
0.568                   -1.02221        -160.538         -50.9225         65.5837         -50.9251         65.5505       -0.0135932         146.505
0.569                   -1.08768        -161.348          -50.677         63.3531         -50.6797         63.3199       -0.0137276         146.432
0.57                    -1.15883        -162.157         -50.4334         61.0847         -50.4362         61.0516        -0.013867          146.36
0.571                   -1.23608        -162.959         -50.1922         58.7771         -50.1951         58.7442       -0.0140119         146.287
0.572                   -1.31986        -163.752         -49.9537         56.4294         -49.9567         56.3968       -0.0141629         146.214
0.573                   -1.41055        -164.528         -49.7185         54.0406         -49.7215         54.0084       -0.0143205         146.141
0.574                   -1.50848        -165.283          -49.487         51.6102         -49.4901         51.5785       -0.0144851         146.068
0.575                   -1.61389        -166.009         -49.2597         49.1379          -49.263         49.1067       -0.0146572         145.995
0.576                   -1.72685        -166.697         -49.0373         46.6236         -49.0406         46.5932        -0.014837         145.922
0.577                   -1.84728        -167.338         -48.8202         44.0678         -48.8236         44.0382       -0.0150248         145.848
0.578                    -1.9748         -167.92          -48.609         41.4713         -48.6124         41.4425       -0.0152205         145.774
0.579                   -2.10871        -168.433         -48.4043         38.8351         -48.4078         38.8074        -0.015424         145.701
0.58                    -2.24789        -168.864         -48.2066         36.1611         -48.2101         36.1344       -0.0156347         145.627
0.581                   -2.39074        -169.201         -48.0165         33.4512         -48.0201         33.4256        -0.015852         145.553
0.582                   -2.53511        -169.435         -47.8345          30.708         -47.8381         30.6837       -0.0160751         145.478
0.583                   -2.67831        -169.555         -47.6611         27.9346         -47.6648         27.9116        -0.016303         145.404
0.584                   -2.81713        -169.558         -47.4968         25.1344         -47.5004         25.1128       -0.0165344          145.33
0.585                   -2.94794        -169.443         -47.3419         22.3113         -47.3456         22.2912       -0.0167682         145.255
0.586                   -3.06692        -169.215         -47.1969         19.4697         -47.2005         19.4509       -0.0170033         145.181
0.587                   -3.17033        -168.887         -47.0619          16.614         -47.0655         16.5967       -0.0172384         145.106
0.588                   -3.25481        -168.478         -46.9371         13.7491         -46.9407         13.7334       -0.0174726         145.031
0.589                   -3.31776        -168.012         -46.8227         10.8802         -46.8262         10.8659       -0.0177052         144.956
0.59                    -3.35757        -167.519         -46.7187         8.01224         -46.7221         7.99939       -0.0179355         144.881
0.591                   -3.37381        -167.029         -46.6249         5.15053         -46.6282          5.1391       -0.0181631         144.806
0.592                   -3.36724        -166.572         -46.5413         2.30015         -46.5445         2.29008       -0.0183878          144.73
0.593                   -3.33968        -166.175         -46.4676       -0.533931         -46.4706         -0.5427       -0.0186095         144.655
0.594                   -3.29377        -165.861         -46.4034        -3.34696         -46.4063         -3.3545       -0.0188283         144.579
0.595                   -3.23266        -165.644         -46.3483        -6.13448         -46.3511        -6.14086       -0.0190445         144.503
0.596                   -3.15969        -165.536         -46.3019        -8.89238         -46.3045        -8.89769       -0.0192584         144.427
0.597                   -3.07817         -165.54         -46.2636        -11.6169          -46.266        -11.6213       -0.0194702         144.351
0.598                   -2.99113        -165.657         -46.2328        -14.3049         -46.2351        -14.3083       -0.0196804         144.274
0.599                   -2.90127        -165.884          -46.209        -16.9534         -46.2111         -16.956       -0.0198894         144.198
0.6                     -2.81081        -166.213         -46.1914          -19.56         -46.1934         -19.562       -0.0200976         144.121
0.601                   -2.72157        -166.638         -46.1795         -22.123         -46.1812        -22.1243       -0.0203053         144.044
0.602                   -2.63495         -167.15         -46.1725        -24.6408         -46.1741        -24.6415        -0.020513         143.967
0.603                   -2.55202        -167.741         -46.1698        -27.1124         -46.1713        -27.1127       -0.0207211         143.889
0.604                   -2.47351        -168.402         -46.1707        -29.5372         -46.1721        -29.5372       -0.0209298         143.811
0.605                   -2.39992        -169.126         -46.1747         -31.915         -46.1759        -31.9147       -0.0211394         143.733
0.606                   -2.33156        -169.906          -46.181        -34.2459         -46.1821        -34.2454       -0.0213504         143.655
0.607                   -2.26859        -170.735         -46.1891        -36.5304           -46.19        -36.5296       -0.0215628         143.577
0.608                   -2.21105        -171.609         -46.1985        -38.7691         -46.1992        -38.7682        -0.021777         143.499
0.609                   -2.15891        -172.523         -46.2085         -40.963         -46.2091        -40.9621       -0.0219932          143.42
0.61                    -2.11208        -173.472         -46.2186        -43.1133         -46.2192        -43.1124       -0.0222115         143.341
0.611                   -2.07044        -174.452         -46.2285        -45.2214          -46.229        -45.2205       -0.0224322         143.262
0.612                   -2.03383        -175.463         -46.2376        -47.2886          -46.238        -47.2878       -0.0226554         143.182
0.613                   -2.00212          -176.5         -46.2456        -49.3168         -46.2459         -49.316       -0.0228814         143.102
0.614                   -1.97514        -177.562          -46.252        -51.3076         -46.2523        -51.3068       -0.0231101         143.022
0.615                   -1.95276        -178.647         -46.2566        -53.2627         -46.2568        -53.2621       -0.0233418         142.942
0.616                   -1.93482        -179.754         -46.2589        -55.1843          -46.259        -55.1838       -0.0235767         142.862
0.617                   -1.92122         179.117         -46.2588         -57.074         -46.2588        -57.0737       -0.0238147         142.781
0.618                   -1.91183         177.968         -46.2559        -58.9341         -46.2559        -58.9338       -0.0240561           142.7
0.619                   -1.90658         176.799         -46.2499        -60.7664         -46.2499        -60.7662       -0.0243009         142.619
0.62                    -1.90538         175.611         -46.2408         -62.573         -46.2407         -62.573       -0.0245492         142.538
0.621                   -1.90819         174.403         -46.2282        -64.3559         -46.2282         -64.356       -0.0248012         142.456
0.622                   -1.91497         173.176         -46.2121        -66.1173          -46.212        -66.1175        -0.025057         142.375
0.623                    -1.9257          171.93         -46.1922        -67.8592         -46.1921        -67.8595       -0.0253166         142.292
0.624                   -1.94039         170.663         -46.1685        -69.5836         -46.1684        -69.5839       -0.0255802          142.21
0.625                   -1.95905         169.377         -46.1408        -71.2925         -46.1407         -71.293       -0.0258478         142.127
0.626                   -1.98174         168.071         -46.1091        -72.9882          -46.109        -72.9887       -0.0261196         142.044
0.627                   -2.00852         166.745         -46.0732        -74.6725         -46.0731         -74.673       -0.0263956         141.961
0.628                   -2.03947         165.398         -46.0332        -76.3475         -46.0331        -76.3481        -0.026676         141.878
0.629                   -2.07469         164.029          -45.989        -78.0152         -45.9888        -78.0159       -0.0269607         141.794
