! TOUCHSTONE file generated by CST MICROWAVE STUDIO
! Date and time: Mon Nov 30 08:11:36 2020
! Project name: Scenario_1_Planar_Body_Tissue_Out_of_Line.cst
! Parameters = {dy1=51.9; L_HA=400; Ltissue=700; MT=2.54; Rad_Dielectric=30; Rad_Lower=7.3; Rad_Upper=30; Wtissue=700; a_HA=580; a_WG=246; b_HA=500; b_WG=121; c_HA=0; c_WG=187; d_feed=85; dx1=866; h_feed=15; h_lower=18; h_upper=40; hfat=3; hgap=25; hmuscle=50; hskin=1.5}
! Header version: 2018
! Port assignment regex: !\s*Touchstone port\s*([0-9]+)\s*=\s*(CST MWS port|CST DS port)\s*([0-9]+|Zmin|Zmax)\s*\(\"(.*)\"\)(\s*mode\s*([0-9]+))?.*
! Touchstone port assignment:
! Touchstone port 1 = CST MWS port 1 ("")
! Touchstone port 2 = CST MWS port 2 ("")
# GHz S DB R 50
0.5                   -0.0990752         -122.12         -63.5277         106.278         -63.5271         106.281      -0.00749913         151.147
0.501                  -0.103757        -122.581         -63.2473         104.739         -63.2462         104.741      -0.00756272         151.081
0.502                  -0.108822        -123.046         -62.9625         103.155         -62.9609         103.155      -0.00762733         151.016
0.503                  -0.114313        -123.516         -62.6733         101.522         -62.6712         101.521       -0.0076931         150.951
0.504                  -0.120279         -123.99         -62.3797         99.8386         -62.3773         99.8366      -0.00776018         150.885
0.505                  -0.126774        -124.469          -62.082         98.1011         -62.0791         98.0978      -0.00782873          150.82
0.506                  -0.133857        -124.952         -61.7801         96.3065         -61.7769         96.3017      -0.00789894         150.754
0.507                  -0.141595         -125.44         -61.4742         94.4513         -61.4707          94.445        -0.007971         150.688
0.508                  -0.150061        -125.932         -61.1647         92.5319         -61.1609         92.5242      -0.00804513         150.622
0.509                  -0.159336        -126.428         -60.8517         90.5447         -60.8476         90.5353      -0.00812156         150.556
0.51                   -0.169509        -126.929         -60.5355         88.4855         -60.5313         88.4745       -0.0082005          150.49
0.511                  -0.180676        -127.433         -60.2167         86.3503         -60.2124         86.3377      -0.00828218         150.424
0.512                  -0.192941        -127.942         -59.8957          84.135         -59.8913         84.1207      -0.00836679         150.358
0.513                  -0.206415        -128.453         -59.5731         81.8352         -59.5686         81.8193       -0.0084545         150.292
0.514                  -0.221215        -128.967         -59.2496         79.4467         -59.2451         79.4292      -0.00854542         150.226
0.515                  -0.237457        -129.484          -58.926         76.9653         -58.9215         76.9463       -0.0086396         150.159
0.516                  -0.255261        -130.001         -58.6033         74.3871         -58.5988         74.3666      -0.00873701         150.093
0.517                  -0.274738        -130.518         -58.2825         71.7085         -58.2781         71.6865       -0.0088375         150.026
0.518                  -0.295988        -131.034         -57.9648         68.9263         -57.9605          68.903      -0.00894085          149.96
0.519                  -0.319088        -131.546         -57.6517          66.038         -57.6476         66.0137       -0.0090467         149.893
0.52                   -0.344081        -132.054         -57.3445         63.0423         -57.3407          63.017      -0.00915463         149.826
0.521                  -0.370963        -132.554         -57.0451         59.9386         -57.0415         59.9126      -0.00926413         149.759
0.522                  -0.399667        -133.045         -56.7551         56.7281         -56.7517         56.7015      -0.00937465         149.692
0.523                  -0.430047        -133.524         -56.4763         53.4132         -56.4733         53.3864      -0.00948562         149.625
0.524                  -0.461862        -133.987         -56.2107         49.9985          -56.208         49.9718       -0.0095965         149.558
0.525                  -0.494764        -134.433         -55.9601         46.4905         -55.9577         46.4642      -0.00970679         149.491
0.526                  -0.528294         -134.86         -55.7263         42.8979         -55.7243         42.8723       -0.0098161         149.424
0.527                  -0.561885        -135.265         -55.5111         39.2313         -55.5094         39.2068      -0.00992409         149.357
0.528                   -0.59488        -135.649         -55.3158         35.5036         -55.3145         35.4804       -0.0100305          149.29
0.529                  -0.626566         -136.01         -55.1417         31.7293         -55.1407         31.7079       -0.0101353         149.222
0.53                   -0.656217        -136.351         -54.9896         27.9245         -54.9889          27.905       -0.0102384         149.155
0.531                  -0.683147        -136.674           -54.86         24.1061         -54.8595         24.0887       -0.0103399         149.087
0.532                  -0.706768        -136.982         -54.7529         20.2914         -54.7527         20.2763       -0.0104398          149.02
0.533                  -0.726634        -137.281          -54.668         16.4976         -54.6679         16.4849       -0.0105383         148.952
0.534                  -0.742478        -137.574         -54.6045         12.7411         -54.6046         12.7309       -0.0106355         148.884
0.535                  -0.754225        -137.869         -54.5613         9.03704         -54.5614         9.02918       -0.0107317         148.816
0.536                  -0.761982        -138.168         -54.5369         5.39886         -54.5371         5.39333       -0.0108271         148.748
0.537                  -0.766016        -138.478         -54.5297          1.8381         -54.5299         1.83477       -0.0109218          148.68
0.538                  -0.766716        -138.801         -54.5379        -1.63585          -54.538        -1.63714       -0.0110161         148.611
0.539                   -0.76455        -139.141         -54.5596        -5.01574         -54.5596        -5.01519       -0.0111101         148.543
0.54                   -0.760024          -139.5         -54.5927        -8.29643         -54.5926        -8.29424        -0.011204         148.475
0.541                  -0.753645        -139.879         -54.6354        -11.4747         -54.6352        -11.4711        -0.011298         148.406
0.542                  -0.745899        -140.278         -54.6858         -14.549         -54.6855        -14.5442       -0.0113922         148.337
0.543                  -0.737227        -140.699         -54.7422        -17.5194         -54.7417        -17.5136       -0.0114867         148.268
0.544                  -0.728019        -141.139         -54.8029        -20.3871         -54.8024        -20.3805       -0.0115817         148.199
0.545                  -0.718607        -141.599         -54.8665        -23.1544         -54.8658        -23.1472       -0.0116772          148.13
0.546                  -0.709269        -142.078         -54.9316        -25.8243         -54.9308        -25.8167       -0.0117734         148.061
0.547                   -0.70023        -142.575         -54.9971        -28.4004         -54.9962        -28.3926       -0.0118703         147.992
0.548                  -0.691672        -143.088         -55.0618        -30.8868         -55.0608        -30.8789        -0.011968         147.923
0.549                  -0.683736        -143.616         -55.1248        -33.2878         -55.1237        -33.2799       -0.0120667         147.853
0.55                    -0.67653         -144.16         -55.1854        -35.6078         -55.1842           -35.6       -0.0121662         147.783
0.551                  -0.670136        -144.717         -55.2428        -37.8513         -55.2416        -37.8437       -0.0122667         147.714
0.552                  -0.664617        -145.287         -55.2964        -40.0228         -55.2952        -40.0155       -0.0123683         147.644
0.553                  -0.660018         -145.87         -55.3458        -42.1267         -55.3445        -42.1197        -0.012471         147.574
0.554                   -0.65637        -146.464         -55.3903        -44.1673          -55.389        -44.1608       -0.0125749         147.504
0.555                  -0.653699         -147.07         -55.4298        -46.1489         -55.4285        -46.1427       -0.0126799         147.433
0.556                  -0.652022        -147.686         -55.4639        -48.0753         -55.4626        -48.0696       -0.0127861         147.363
0.557                  -0.651354        -148.313         -55.4923        -49.9504         -55.4911        -49.9452       -0.0128936         147.292
0.558                  -0.651707        -148.949         -55.5149         -51.778         -55.5136        -51.7732       -0.0130024         147.222
0.559                  -0.653092        -149.596         -55.5313        -53.5615         -55.5301        -53.5572       -0.0131125         147.151
0.56                   -0.655523        -150.252         -55.5415        -55.3043         -55.5403        -55.3004       -0.0132239          147.08
0.561                  -0.659013        -150.918         -55.5453        -57.0095         -55.5442         -57.006       -0.0133368         147.009
0.562                  -0.663579        -151.594         -55.5427        -58.6802         -55.5416        -58.6771       -0.0134511         146.938
0.563                  -0.669241        -152.279         -55.5336        -60.3194         -55.5326        -60.3167       -0.0135668         146.867
0.564                  -0.676021        -152.973         -55.5178        -61.9297         -55.5169        -61.9274        -0.013684         146.795
0.565                  -0.683948        -153.677         -55.4954         -63.514         -55.4945        -63.5119       -0.0138027         146.724
0.566                  -0.693054         -154.39         -55.4662        -65.0746         -55.4654        -65.0729        -0.013923         146.652
0.567                  -0.703375        -155.113         -55.4303        -66.6142         -55.4296        -66.6127       -0.0140449          146.58
0.568                  -0.714955        -155.845         -55.3877        -68.1351          -55.387        -68.1339       -0.0141684         146.508
0.569                  -0.727841        -156.587         -55.3382        -69.6397         -55.3376        -69.6386       -0.0142935         146.436
0.57                   -0.742088        -157.339          -55.282        -71.1302         -55.2814        -71.1293       -0.0144203         146.364
0.571                  -0.757758        -158.101         -55.2189        -72.6089         -55.2184        -72.6081       -0.0145488         146.292
0.572                  -0.774918        -158.873          -55.149         -74.078         -55.1486        -74.0773       -0.0146791         146.219
0.573                  -0.793645        -159.656         -55.0723        -75.5395         -55.0719        -75.5389       -0.0148112         146.147
0.574                  -0.814023        -160.448         -54.9887        -76.9957         -54.9884        -76.9952       -0.0149451         146.074
0.575                  -0.836146        -161.252         -54.8984        -78.4488         -54.8981        -78.4483       -0.0150809         146.001
0.576                  -0.860114        -162.065         -54.8012        -79.9008          -54.801        -79.9003       -0.0152186         145.928
0.577                  -0.886041         -162.89         -54.6973        -81.3539         -54.6972        -81.3533       -0.0153583         145.854
0.578                  -0.914049        -163.725         -54.5867        -82.8102         -54.5866        -82.8097          -0.0155         145.781
0.579                  -0.944272        -164.571         -54.4693         -84.272         -54.4692        -84.2714       -0.0156437         145.707
0.58                   -0.976858        -165.428         -54.3452        -85.7414         -54.3452        -85.7408       -0.0157895         145.634
0.581                   -1.01197        -166.296         -54.2145        -87.2207         -54.2145        -87.2201       -0.0159375          145.56
0.582                   -1.04977        -167.175         -54.0772        -88.7123         -54.0772        -88.7116       -0.0160877         145.486
0.583                   -1.09045        -168.064         -53.9334        -90.2183         -53.9335        -90.2176       -0.0162401         145.412
0.584                   -1.13423        -168.964         -53.7832        -91.7413         -53.7833        -91.7406       -0.0163949         145.337
0.585                    -1.1813        -169.873         -53.6267        -93.2836         -53.6267        -93.2829        -0.016552         145.263
0.586                   -1.23192        -170.792         -53.4639        -94.8477          -53.464         -94.847       -0.0167115         145.188
0.587                   -1.28634         -171.72          -53.295        -96.4362         -53.2951        -96.4355       -0.0168735         145.113
0.588                   -1.34482        -172.657         -53.1202        -98.0516         -53.1203        -98.0509       -0.0170381         145.038
0.589                   -1.40766          -173.6         -52.9396        -99.6967         -52.9397         -99.696       -0.0172054         144.963
0.59                    -1.47516         -174.55         -52.7535        -101.374         -52.7536        -101.373       -0.0173753         144.888
0.591                   -1.54764        -175.505          -52.562        -103.086         -52.5621        -103.086        -0.017548         144.812
0.592                   -1.62545        -176.463         -52.3655        -104.836         -52.3656        -104.836       -0.0177236         144.736
0.593                   -1.70892        -177.421         -52.1642        -106.627         -52.1642        -106.627        -0.017902          144.66
0.594                   -1.79842        -178.379         -51.9584        -108.461         -51.9585         -108.46       -0.0180835         144.584
0.595                   -1.89431        -179.332         -51.7486         -110.34         -51.7487         -110.34       -0.0182681         144.508
0.596                   -1.99693         179.723         -51.5352        -112.269         -51.5353        -112.268       -0.0184558         144.431
0.597                   -2.10663          178.79         -51.3186        -114.248         -51.3187        -114.248       -0.0186468         144.355
0.598                   -2.22372         177.873         -51.0994        -116.281         -51.0994         -116.28       -0.0188411         144.278
0.599                   -2.34848         176.977         -50.8781        -118.369         -50.8781        -118.369       -0.0190388         144.201
0.6                     -2.48112         176.109         -50.6553        -120.515         -50.6553        -120.515       -0.0192401         144.124
0.601                   -2.62175         175.275         -50.4317         -122.72         -50.4318         -122.72       -0.0194449         144.046
0.602                    -2.7704         174.483         -50.2081        -124.986         -50.2082        -124.986       -0.0196534         143.969
0.603                   -2.92692         173.742         -49.9852        -127.314         -49.9853        -127.314       -0.0198656         143.891
0.604                   -3.09101          173.06         -49.7638        -129.704         -49.7639        -129.704       -0.0200816         143.813
0.605                   -3.26211         172.447         -49.5448        -132.156         -49.5449        -132.155       -0.0203014         143.735
0.606                    -3.4394         171.913          -49.329        -134.669          -49.329        -134.668       -0.0205252         143.656
0.607                   -3.62177         171.469         -49.1173        -137.241         -49.1173        -137.241        -0.020753         143.578
0.608                   -3.80772         171.123         -48.9105        -139.872         -48.9105        -139.872       -0.0209848         143.499
0.609                   -3.99538         170.886         -48.7096        -142.558         -48.7096        -142.558       -0.0212206          143.42
0.61                    -4.18249         170.765         -48.5153        -145.296         -48.5153        -145.295       -0.0214604         143.341
0.611                   -4.36639         170.765         -48.3285        -148.081         -48.3284        -148.081       -0.0217043         143.261
0.612                   -4.54409          170.89         -48.1497        -150.909         -48.1497        -150.909       -0.0219523         143.182
0.613                   -4.71234         171.136         -47.9797        -153.775         -47.9796        -153.774       -0.0222042         143.102
0.614                   -4.86776         171.499         -47.8189        -156.671         -47.8188         -156.67       -0.0224601         143.022
0.615                   -5.00704         171.968         -47.6677        -159.592         -47.6676        -159.591       -0.0227199         142.941
0.616                   -5.12713         172.526         -47.5264        -162.532         -47.5263        -162.531       -0.0229836         142.861
0.617                   -5.22544         173.154         -47.3951        -165.482          -47.395        -165.482        -0.023251          142.78
0.618                   -5.30006         173.827         -47.2738        -168.438         -47.2737        -168.437       -0.0235222         142.699
0.619                   -5.34991         174.518         -47.1624        -171.391         -47.1622         -171.39       -0.0237969         142.618
0.62                    -5.37481           175.2         -47.0605        -174.335         -47.0604        -174.335       -0.0240752         142.537
0.621                   -5.37549         175.845         -46.9678        -177.266         -46.9677        -177.265       -0.0243569         142.455
0.622                   -5.35347         176.429         -46.8838         179.824         -46.8837         179.825       -0.0246419         142.373
0.623                   -5.31096         176.931          -46.808         176.939         -46.8079          176.94       -0.0249302         142.291
0.624                   -5.25063         177.333         -46.7396         174.083         -46.7396         174.084       -0.0252217         142.209
0.625                   -5.17541         177.623         -46.6782         171.259         -46.6782         171.261       -0.0255164         142.126
0.626                   -5.08833         177.794         -46.6228         168.471         -46.6228         168.473       -0.0258142         142.043
0.627                   -4.99232         177.841         -46.5728         165.721         -46.5729         165.723       -0.0261151          141.96
0.628                   -4.89012         177.765         -46.5275          163.01         -46.5276         163.013       -0.0264192         141.876
0.629                   -4.78421         177.566         -46.4862         160.339         -46.4862         160.343       -0.0267264         141.793
