! TOUCHSTONE file generated by CST MICROWAVE STUDIO
! Date and time: Thu Feb 11 19:34:18 2021
! Project name: Scenario_1_Planar_Body_Tissue_Out_of_Line.cst
! Parameters = {L_HA=400; Ltissue=1000; MT=2.54; Rad_Dielectric=30; Rad_Lower=7.3; Rad_Upper=30; Wtissue=1000; a_HA=580; a_WG=246; b_HA=500; b_WG=121; c_HA=0; c_WG=187; d_feed=85; dx1=346; dy1=69.2; h_feed=15; h_lower=18; h_upper=40; hfat=3; hgap=25; hmuscle=50; hskin=1.5}
! Header version: 2018
! Port assignment regex: !\s*Touchstone port\s*([0-9]+)\s*=\s*(CST MWS port|CST DS port)\s*([0-9]+|Zmin|Zmax)\s*\(\"(.*)\"\)(\s*mode\s*([0-9]+))?.*
! Touchstone port assignment:
! Touchstone port 1 = CST MWS port 1 ("")
! Touchstone port 2 = CST MWS port 2 ("")
# GHz S DB R 50
0.5                    -0.270951        -121.494         -55.5076         34.8251         -55.5074         34.8251      -0.00800779         151.145
0.501                  -0.275299        -121.889         -55.4894         33.9923         -55.4884         34.0394       -0.0080136          151.08
0.502                  -0.279578        -122.287         -55.4705           33.15         -55.4688         33.2444      -0.00802199         151.015
0.503                   -0.28379        -122.687         -55.4507         32.2978         -55.4485         32.4399      -0.00803292          150.95
0.504                  -0.287938         -123.09         -55.4301         31.4358         -55.4275         31.6257      -0.00804637         150.884
0.505                  -0.292024        -123.495         -55.4086         30.5638         -55.4059         30.8018      -0.00806231         150.819
0.506                  -0.296049        -123.903         -55.3862         29.6816         -55.3835         29.9679      -0.00808072         150.753
0.507                  -0.300017        -124.313         -55.3628         28.7891         -55.3604         29.1238      -0.00810157         150.688
0.508                  -0.303931        -124.726         -55.3385         27.8863         -55.3364         28.2694      -0.00812484         150.622
0.509                  -0.307792        -125.142         -55.3131         26.9728         -55.3117         27.4045       -0.0081505         150.556
0.51                   -0.311603         -125.56         -55.2867         26.0487         -55.2861          26.529      -0.00817852          150.49
0.511                  -0.315368        -125.981         -55.2592         25.1138         -55.2596         25.6426      -0.00820889         150.425
0.512                  -0.319089        -126.405         -55.2305         24.1679         -55.2322         24.7452      -0.00824158         150.359
0.513                   -0.32277        -126.832         -55.2007          23.211         -55.2039         23.8366      -0.00827656         150.292
0.514                  -0.326412        -127.262         -55.1696          22.243         -55.1745         22.9167      -0.00831382         150.226
0.515                   -0.33002        -127.695         -55.1373         21.2636         -55.1442         21.9852      -0.00835332          150.16
0.516                  -0.333598        -128.132         -55.1037         20.2728         -55.1127          21.042      -0.00839506         150.094
0.517                  -0.337147        -128.571         -55.0687         19.2705         -55.0802         20.0868        -0.008439         150.027
0.518                  -0.340673        -129.013         -55.0324         18.2565         -55.0466         19.1196      -0.00848513         149.961
0.519                  -0.344179        -129.459         -54.9946         17.2308         -55.0117         18.1401      -0.00853342         149.894
0.52                   -0.347668        -129.908         -54.9553         16.1933         -54.9756         17.1481      -0.00858385         149.827
0.521                  -0.351146        -130.361         -54.9145         15.1438         -54.9383         16.1435       -0.0086364         149.761
0.522                  -0.354616        -130.817         -54.8721         14.0822         -54.8996         15.1261      -0.00869105         149.694
0.523                  -0.358082        -131.276          -54.828         13.0086         -54.8595         14.0956      -0.00874779         149.627
0.524                   -0.36155        -131.739         -54.7823         11.9227          -54.818          13.052      -0.00880658          149.56
0.525                  -0.365025        -132.206         -54.7348         10.8246          -54.775          11.995      -0.00886742         149.492
0.526                   -0.36851        -132.677         -54.6855         9.71403         -54.7305         10.9245      -0.00893028         149.425
0.527                  -0.372013        -133.151         -54.6344         8.59109         -54.6844         9.84023      -0.00899514         149.358
0.528                  -0.375537         -133.63         -54.5814         7.45565         -54.6366         8.74213      -0.00906199          149.29
0.529                   -0.37909        -134.112         -54.5263         6.30768         -54.5871         7.62998       -0.0091308         149.223
0.53                   -0.382677        -134.599         -54.4693         5.14713         -54.5358         6.50363      -0.00920157         149.155
0.531                  -0.386304        -135.089         -54.4102         3.97395         -54.4827         5.36292      -0.00927426         149.088
0.532                  -0.389978        -135.584         -54.3489         2.78812         -54.4277          4.2077      -0.00934887          149.02
0.533                  -0.393707        -136.083         -54.2854         1.58962         -54.3707         3.03783      -0.00942538         148.952
0.534                  -0.397497        -136.587         -54.2196        0.378423         -54.3117         1.85316      -0.00950376         148.884
0.535                  -0.401356        -137.095         -54.1515       -0.845466         -54.2505        0.653571      -0.00958401         148.816
0.536                  -0.405293        -137.608          -54.081        -2.08205         -54.1872       -0.561068       -0.0096661         148.747
0.537                  -0.409316        -138.126         -54.0081        -3.33131         -54.1216        -1.79087      -0.00975003         148.679
0.538                  -0.413434        -138.648         -53.9326        -4.59324         -54.0536        -3.03594      -0.00983577         148.611
0.539                  -0.417656        -139.176         -53.8546         -5.8678         -53.9832        -4.29637      -0.00992331         148.542
0.54                   -0.421992        -139.708         -53.7739        -7.15495         -53.9103        -5.57225       -0.0100126         148.474
0.541                  -0.426454        -140.246         -53.6904        -8.45466         -53.8348        -6.86364       -0.0101037         148.405
0.542                  -0.431051        -140.789         -53.6043        -9.76687         -53.7566        -8.17061       -0.0101966         148.336
0.543                  -0.435797        -141.338         -53.5152        -11.0915         -53.6756         -9.4932       -0.0102912         148.267
0.544                  -0.440702        -141.892         -53.4233        -12.4285         -53.5918        -10.8314       -0.0103875         148.198
0.545                  -0.445781        -142.451         -53.3284        -13.7778         -53.5051        -12.1853       -0.0104855         148.129
0.546                  -0.451046        -143.017         -53.2305        -15.1393         -53.4153        -13.5549       -0.0105852          148.06
0.547                  -0.456514        -143.588         -53.1295         -16.513         -53.3224        -14.9401       -0.0106866          147.99
0.548                  -0.462198        -144.166         -53.0253        -17.8986         -53.2262         -16.341       -0.0107897         147.921
0.549                  -0.468117         -144.75         -52.9179        -19.2961         -53.1268        -17.7573       -0.0108945         147.851
0.55                   -0.474286         -145.34         -52.8073        -20.7055         -53.0239        -19.1892       -0.0110008         147.781
0.551                  -0.480725        -145.937         -52.6934        -22.1265         -52.9176        -20.6364       -0.0111088         147.712
0.552                  -0.487454         -146.54          -52.576        -23.5591         -52.8076        -22.0989       -0.0112185         147.642
0.553                  -0.494492        -147.151         -52.4553        -25.0031          -52.694        -23.5765       -0.0113297         147.572
0.554                  -0.501864        -147.768          -52.331        -26.4585         -52.5766        -25.0691       -0.0114425         147.501
0.555                  -0.509591        -148.393         -52.2032        -27.9251         -52.4553        -26.5765        -0.011557         147.431
0.556                    -0.5177        -149.025         -52.0719        -29.4027           -52.33        -28.0984       -0.0116729         147.361
0.557                  -0.526217        -149.665         -51.9369        -30.8912         -52.2007        -29.6347       -0.0117905          147.29
0.558                  -0.535171        -150.313         -51.7982        -32.3906         -52.0673         -31.185       -0.0119096          147.22
0.559                  -0.544593        -150.968         -51.6559        -33.9007         -51.9296        -32.7492       -0.0120302         147.149
0.56                   -0.554515        -151.632         -51.5097        -35.4213         -51.7876        -34.3268       -0.0121523         147.078
0.561                  -0.564972        -152.305         -51.3598        -36.9525         -51.6413        -35.9176        -0.012276         147.007
0.562                  -0.576002        -152.986         -51.2061         -38.494         -51.4905        -37.5213       -0.0124011         146.936
0.563                  -0.587645        -153.676         -51.0485        -40.0457         -51.3352        -39.1375       -0.0125278         146.864
0.564                  -0.599943        -154.375          -50.887        -41.6076         -51.1753        -40.7657       -0.0126559         146.793
0.565                  -0.612943        -155.084         -50.7216        -43.1797         -51.0107        -42.4057       -0.0127855         146.721
0.566                  -0.626693        -155.802         -50.5523        -44.7617         -50.8415         -44.057       -0.0129165          146.65
0.567                  -0.641248         -156.53         -50.3791        -46.3538         -50.6676        -45.7191        -0.013049         146.578
0.568                  -0.656663        -157.269         -50.2019        -47.9558          -50.489        -47.3917       -0.0131829         146.506
0.569                     -0.673        -158.018         -50.0207        -49.5677         -50.3055        -49.0744       -0.0133182         146.434
0.57                   -0.690324        -158.778         -49.8356        -51.1895         -50.1174        -50.7667        -0.013455         146.362
0.571                  -0.708707        -159.548         -49.6465        -52.8213         -49.9244        -52.4682       -0.0135932         146.289
0.572                  -0.728225        -160.331         -49.4535        -54.4631         -49.7267        -54.1784       -0.0137327         146.217
0.573                  -0.748959        -161.124         -49.2565        -56.1149         -49.5242        -55.8972       -0.0138736         146.144
0.574                  -0.770999         -161.93         -49.0556        -57.7769          -49.317         -57.624       -0.0140159         146.071
0.575                  -0.794441        -162.748         -48.8508        -59.4491         -49.1052        -59.3585       -0.0141596         145.998
0.576                  -0.819387        -163.579         -48.6422        -61.1317         -48.8888        -61.1005       -0.0143047         145.925
0.577                   -0.84595        -164.423         -48.4297        -62.8249          -48.668        -62.8498        -0.014451         145.852
0.578                  -0.874251        -165.279         -48.2135        -64.5289         -48.4427        -64.6061       -0.0145988         145.779
0.579                  -0.904419         -166.15         -47.9935        -66.2439         -48.2131        -66.3694       -0.0147478         145.705
0.58                   -0.936597        -167.034         -47.7699        -67.9703         -47.9794        -68.1397       -0.0148982         145.631
0.581                  -0.970937        -167.932         -47.5428        -69.7083         -47.7417        -69.9169         -0.01505         145.558
0.582                   -1.00761        -168.845         -47.3121        -71.4584         -47.5001        -71.7012       -0.0152031         145.484
0.583                   -1.04678        -169.772         -47.0781         -73.221         -47.2548         -73.493       -0.0153575         145.409
0.584                   -1.08866        -170.714         -46.8408        -74.9965         -47.0061        -75.2925       -0.0155133         145.335
0.585                   -1.13345        -171.671         -46.6004        -76.7855         -46.7541        -77.1001       -0.0156704         145.261
0.586                   -1.18139        -172.643          -46.357        -78.5886         -46.4991        -78.9166       -0.0158289         145.186
0.587                   -1.23271        -173.631         -46.1107        -80.4064         -46.2413        -80.7426       -0.0159888         145.111
0.588                    -1.2877        -174.634         -45.8618        -82.2395         -45.9809        -82.5789       -0.0161502         145.036
0.589                   -1.34663        -175.652         -45.6104        -84.0889         -45.7183        -84.4265        -0.016313         144.961
0.59                    -1.40982        -176.685         -45.3568        -85.9553         -45.4537        -86.2865       -0.0164773         144.885
0.591                   -1.47762        -177.734         -45.1011        -87.8396         -45.1874        -88.1601       -0.0166431          144.81
0.592                   -1.55039        -178.796         -44.8437        -89.7428         -44.9197        -90.0487       -0.0168106         144.734
0.593                   -1.62853        -179.873         -44.5847        -91.6659          -44.651        -91.9536       -0.0169799         144.658
0.594                   -1.71247         179.038         -44.3245        -93.6099         -44.3817        -93.8765       -0.0171509         144.582
0.595                   -1.80266         177.936         -44.0633        -95.5761          -44.112         -95.819        -0.017324         144.506
0.596                    -1.8996         176.823         -43.8016        -97.5656         -43.8423        -97.7827       -0.0174991         144.429
0.597                   -2.00382         175.701         -43.5397        -99.5796         -43.5731        -99.7695       -0.0176765         144.352
0.598                   -2.11588         174.572         -43.2779        -101.619         -43.3046        -101.781       -0.0178564         144.276
0.599                   -2.23637         173.438         -43.0167        -103.686         -43.0374        -103.819       -0.0180391         144.198
0.6                     -2.36593         172.302         -42.7565        -105.781         -42.7718        -105.886       -0.0182248         144.121
0.601                   -2.50522         171.168         -42.4977        -107.906         -42.5083        -107.982       -0.0184138         144.044
0.602                   -2.65492         170.039         -42.2408        -110.061         -42.2473        -110.111       -0.0186065         143.966
0.603                   -2.81574         168.921         -41.9863        -112.248         -41.9893        -112.272       -0.0188034         143.888
0.604                   -2.98839         167.821         -41.7348        -114.468         -41.7347        -114.468       -0.0190049          143.81
0.605                   -3.17359         166.744         -41.4866        -116.721         -41.4841          -116.7       -0.0192115         143.731
0.606                   -3.37201         165.699         -41.2424        -119.009          -41.238        -118.968       -0.0194238         143.653
0.607                   -3.58431         164.697         -41.0028        -121.332         -40.9968        -121.273       -0.0196423         143.574
0.608                   -3.81104         163.747         -40.7682        -123.689          -40.761        -123.616       -0.0198676         143.495
0.609                   -4.05266         162.863         -40.5393        -126.081         -40.5312        -125.996       -0.0201004         143.415
0.61                    -4.30943          162.06         -40.3165        -128.508         -40.3079        -128.413       -0.0203413         143.336
0.611                   -4.58138         161.354         -40.1005        -130.968         -40.0916        -130.866       -0.0205907         143.256
0.612                   -4.86823         160.764         -39.8918        -133.461         -39.8828        -133.355       -0.0208493         143.176
0.613                   -5.16925         160.311         -39.6908        -135.984         -39.6819        -135.876       -0.0211174         143.096
0.614                    -5.4832         160.016         -39.4981        -138.537         -39.4895        -138.429       -0.0213953         143.015
0.615                   -5.80812         159.904         -39.3141        -141.116         -39.3058         -141.01       -0.0216831         142.935
0.616                   -6.14122             160         -39.1392         -143.72         -39.1314        -143.617       -0.0219807         142.854
0.617                   -6.47871         160.327         -38.9737        -146.344         -38.9664        -146.246        -0.022288         142.773
0.618                   -6.81566         160.908         -38.8179        -148.985         -38.8112        -148.894       -0.0226045         142.691
0.619                   -7.14591          161.76         -38.6721         -151.64          -38.666        -151.556       -0.0229296          142.61
0.62                     -7.4621         162.894         -38.5363        -154.304         -38.5308        -154.228       -0.0232627         142.528
0.621                   -7.75585         164.308         -38.4107        -156.973         -38.4058        -156.905       -0.0236027         142.446
0.622                   -8.01818         165.991         -38.2952        -159.643          -38.291        -159.584       -0.0239489         142.364
0.623                   -8.24014          167.91         -38.1897         -162.31         -38.1861        -162.259       -0.0243002         142.282
0.624                   -8.41372         170.019         -38.0941        -164.968         -38.0911        -164.925       -0.0246557         142.199
0.625                   -8.53273         172.255         -38.0082        -167.614         -38.0057        -167.579       -0.0250145         142.117
0.626                   -8.59368         174.546         -37.9316        -170.243         -37.9296        -170.216       -0.0253758         142.034
0.627                   -8.59625         176.813         -37.8639        -172.851         -37.8624        -172.831       -0.0257388          141.95
0.628                   -8.54326         178.983         -37.8047        -175.435         -37.8036        -175.421       -0.0261031         141.867
0.629                   -8.44022        -179.007         -37.7535        -177.991         -37.7529        -177.983       -0.0264681         141.783
