! TOUCHSTONE file generated by CST MICROWAVE STUDIO
! Date and time: Fri Dec 11 14:13:49 2020
! Project name: Scenario_1_Planar_Body_Tissue_Out_of_Line_v2.cst
! Parameters = {dy1=69.2; L_HA=400; Ltissue=700; MT=2.54; Rad_Dielectric=30; Rad_Lower=7.3; Rad_Upper=30; Wtissue=700; a_HA=580; a_WG=246; b_HA=500; b_WG=121; c_HA=0; c_WG=187; d_feed=85; dx1=520; h_feed=15; h_lower=18; h_upper=40; hfat=3; hgap=25; hmuscle=50; hskin=1.5}
! Header version: 2018
! Port assignment regex: !\s*Touchstone port\s*([0-9]+)\s*=\s*(CST MWS port|CST DS port)\s*([0-9]+|Zmin|Zmax)\s*\(\"(.*)\"\)(\s*mode\s*([0-9]+))?.*
! Touchstone port assignment:
! Touchstone port 1 = CST MWS port 1 ("")
! Touchstone port 2 = CST MWS port 2 ("")
# GHz S DB R 50
0.5                   -0.0760589        -121.951         -61.5618        -50.1952         -61.5622        -50.1925      -0.00742132         151.156
0.501                 -0.0788196         -122.41         -61.3501         -51.198         -61.3505        -51.1953       -0.0074823         151.091
0.502                 -0.0817723        -122.872         -61.1342        -52.2147         -61.1345        -52.2121      -0.00754395         151.025
0.503                 -0.0849327        -123.339          -60.914         -53.246         -60.9143        -53.2435       -0.0076063          150.96
0.504                 -0.0883183        -123.809         -60.6893        -54.2927         -60.6896        -54.2903      -0.00766936         150.894
0.505                 -0.0919484        -124.284         -60.4602        -55.3555         -60.4604        -55.3532      -0.00773314         150.829
0.506                 -0.0958442        -124.763         -60.2265        -56.4353         -60.2266        -56.4331      -0.00779767         150.763
0.507                  -0.100029        -125.247         -59.9881        -57.5331         -59.9882        -57.5309      -0.00786298         150.697
0.508                  -0.104529        -125.735         -59.7449        -58.6498          -59.745        -58.6477      -0.00792908         150.631
0.509                  -0.109374        -126.229         -59.4969        -59.7866         -59.4969        -59.7846        -0.007996         150.565
0.51                   -0.114594        -126.727         -59.2439        -60.9446         -59.2439        -60.9427      -0.00806377         150.499
0.511                  -0.120225         -127.23         -58.9859        -62.1252         -58.9859        -62.1234      -0.00813243         150.433
0.512                  -0.126306        -127.739         -58.7228        -63.3298         -58.7227        -63.3281      -0.00820201         150.367
0.513                  -0.132882        -128.252         -58.4545        -64.5599         -58.4544        -64.5582      -0.00827255         150.301
0.514                  -0.140001        -128.772         -58.1809        -65.8171         -58.1807        -65.8156      -0.00834409         150.235
0.515                  -0.147716        -129.297         -57.9019        -67.1034         -57.9017        -67.1019       -0.0084167         150.168
0.516                  -0.156088        -129.828         -57.6174        -68.4206         -57.6173        -68.4193      -0.00849042         150.102
0.517                  -0.165184        -130.365         -57.3275         -69.771         -57.3273        -69.7697      -0.00856531         150.035
0.518                   -0.17508        -130.909          -57.032        -71.1568         -57.0317        -71.1556      -0.00864146         149.968
0.519                  -0.185858        -131.458         -56.7308        -72.5806         -56.7306        -72.5795      -0.00871894         149.902
0.52                   -0.197611        -132.014          -56.424        -74.0451         -56.4237        -74.0441      -0.00879783         149.835
0.521                  -0.210443        -132.577         -56.1115        -75.5534         -56.1112        -75.5524      -0.00887826         149.768
0.522                  -0.224469        -133.145         -55.7933        -77.1086          -55.793        -77.1078      -0.00896031         149.701
0.523                  -0.239818        -133.721         -55.4695        -78.7143         -55.4692        -78.7136      -0.00904414         149.633
0.524                  -0.256631        -134.302         -55.1401        -80.3743         -55.1398        -80.3737      -0.00912988         149.566
0.525                  -0.275065         -134.89         -54.8052        -82.0927         -54.8049        -82.0922       -0.0092177         149.499
0.526                  -0.295293        -135.484          -54.465         -83.874         -54.4646        -83.8735      -0.00930777         149.431
0.527                  -0.317503        -136.083         -54.1196        -85.7228         -54.1193        -85.7224      -0.00940031         149.364
0.528                  -0.341903        -136.687         -53.7694        -87.6444         -53.7691        -87.6441      -0.00949555         149.296
0.529                  -0.368712        -137.295         -53.4147         -89.644         -53.4143        -89.6438      -0.00959372         149.228
0.53                   -0.398167        -137.906         -53.0559        -91.7275         -53.0556        -91.7273      -0.00969512          149.16
0.531                  -0.430516        -138.519         -52.6936        -93.9008         -52.6933        -93.9008      -0.00980004         149.092
0.532                  -0.466009        -139.131         -52.3286        -96.1702         -52.3283        -96.1703       -0.0099088         149.024
0.533                  -0.504899        -139.741         -51.9615        -98.5422         -51.9612        -98.5423       -0.0100217         148.956
0.534                  -0.547423        -140.347         -51.5936        -101.023         -51.5933        -101.023       -0.0101392         148.888
0.535                  -0.593787        -140.943         -51.2259        -103.619         -51.2256        -103.619       -0.0102616         148.819
0.536                   -0.64415        -141.528         -50.8599        -106.337         -50.8596        -106.337       -0.0103893         148.751
0.537                  -0.698591        -142.096         -50.4972        -109.181          -50.497        -109.181       -0.0105225         148.682
0.538                  -0.757079        -142.643         -50.1398        -112.156         -50.1396        -112.156       -0.0106615         148.614
0.539                  -0.819435        -143.162         -49.7897        -115.266         -49.7895        -115.266       -0.0108065         148.545
0.54                    -0.88529        -143.647         -49.4494        -118.511         -49.4493        -118.512       -0.0109576         148.476
0.541                  -0.954043        -144.092         -49.1214        -121.893         -49.1213        -121.893       -0.0111146         148.407
0.542                   -1.02483        -144.491         -48.8084        -125.406         -48.8084        -125.406       -0.0112773         148.338
0.543                   -1.09651        -144.839         -48.5134        -129.045         -48.5134        -129.045       -0.0114451         148.269
0.544                   -1.16766        -145.132          -48.239          -132.8         -48.2391          -132.8       -0.0116173           148.2
0.545                   -1.23662        -145.367          -47.988        -136.658         -47.9881        -136.657       -0.0117929         148.131
0.546                    -1.3016        -145.547         -47.7628        -140.602         -47.7629        -140.601       -0.0119705         148.062
0.547                   -1.36077        -145.674         -47.5654        -144.611         -47.5655         -144.61       -0.0121488         147.992
0.548                    -1.4124        -145.756         -47.3973        -148.663         -47.3974        -148.662       -0.0123262         147.923
0.549                   -1.45507        -145.802         -47.2593        -152.733         -47.2594        -152.732       -0.0125013         147.854
0.55                    -1.48775        -145.825         -47.1516        -156.796         -47.1517        -156.795       -0.0126725         147.784
0.551                    -1.5099        -145.838         -47.0736        -160.827         -47.0738        -160.825       -0.0128386         147.715
0.552                   -1.52153        -145.855         -47.0242        -164.801         -47.0244        -164.799       -0.0129987         147.645
0.553                   -1.52315        -145.889         -47.0015        -168.697         -47.0017        -168.695       -0.0131521         147.575
0.554                   -1.51568        -145.951         -47.0034        -172.497         -47.0035        -172.494       -0.0132986         147.505
0.555                   -1.50031         -146.05         -47.0272        -176.185         -47.0273        -176.183       -0.0134382         147.436
0.556                   -1.47843        -146.191         -47.0701        -179.751         -47.0702        -179.748       -0.0135711         147.366
0.557                   -1.45145        -146.379         -47.1294         176.813         -47.1295         176.816       -0.0136981         147.295
0.558                   -1.42074        -146.616         -47.2022         173.513         -47.2023         173.516       -0.0138197         147.225
0.559                   -1.38753          -146.9         -47.2858         170.349         -47.2859         170.352       -0.0139368         147.155
0.56                    -1.35291        -147.231         -47.3778         167.321         -47.3779         167.324       -0.0140503         147.084
0.561                    -1.3178        -147.607         -47.4759         164.427          -47.476          164.43       -0.0141609         147.013
0.562                   -1.28291        -148.023         -47.5781         161.662         -47.5781         161.665       -0.0142694         146.942
0.563                   -1.24884        -148.476         -47.6826         159.021         -47.6826         159.024       -0.0143766         146.871
0.564                   -1.21601        -148.964         -47.7879         156.498         -47.7879         156.501       -0.0144831           146.8
0.565                   -1.18475        -149.484         -47.8926         154.087         -47.8926          154.09       -0.0145896         146.729
0.566                   -1.15526        -150.031         -47.9957         151.781         -47.9957         151.784       -0.0146964         146.657
0.567                    -1.1277        -150.604         -48.0962         149.573         -48.0962         149.576       -0.0148039         146.585
0.568                   -1.10214        -151.199         -48.1933         147.458         -48.1933          147.46       -0.0149126         146.514
0.569                   -1.07862        -151.816         -48.2865         145.428         -48.2865          145.43       -0.0150228         146.442
0.57                    -1.05714        -152.451         -48.3751         143.477         -48.3751         143.479       -0.0151346         146.369
0.571                   -1.03768        -153.103         -48.4588           141.6         -48.4588         141.602       -0.0152482         146.297
0.572                    -1.0202        -153.771         -48.5373         139.791         -48.5373         139.794       -0.0153638         146.225
0.573                   -1.00465        -154.453         -48.6103         138.045         -48.6103         138.047       -0.0154816         146.152
0.574                  -0.990979        -155.149         -48.6777         136.357         -48.6777         136.359       -0.0156016         146.079
0.575                  -0.979131        -155.857         -48.7392         134.723         -48.7392         134.725       -0.0157239         146.006
0.576                  -0.969047        -156.577         -48.7948         133.138         -48.7949         133.139       -0.0158485         145.933
0.577                  -0.960673        -157.309         -48.8445         131.597         -48.8445         131.599       -0.0159756          145.86
0.578                  -0.953958        -158.052         -48.8882         130.099         -48.8883           130.1       -0.0161051         145.786
0.579                  -0.948855        -158.805         -48.9259         128.638          -48.926         128.639       -0.0162371         145.713
0.58                   -0.945323        -159.569         -48.9577         127.212         -48.9577         127.213       -0.0163716         145.639
0.581                  -0.943324        -160.343         -48.9834         125.817         -48.9835         125.818       -0.0165086         145.565
0.582                  -0.942827        -161.127         -49.0033         124.452         -49.0034         124.453       -0.0166482         145.491
0.583                  -0.943807        -161.921         -49.0174         123.112         -49.0174         123.113       -0.0167903         145.417
0.584                  -0.946244        -162.724         -49.0256         121.796         -49.0257         121.797        -0.016935         145.342
0.585                  -0.950125        -163.538         -49.0281         120.501         -49.0282         120.502       -0.0170823         145.268
0.586                  -0.955441        -164.362         -49.0249         119.225          -49.025         119.226       -0.0172322         145.193
0.587                  -0.962191        -165.197         -49.0161         117.966         -49.0162         117.967       -0.0173847         145.118
0.588                  -0.970378        -166.041         -49.0018         116.722         -49.0019         116.723       -0.0175398         145.043
0.589                  -0.980012        -166.896          -48.982         115.491         -48.9821         115.491       -0.0176975         144.968
0.59                   -0.991107        -167.762         -48.9568         114.271         -48.9569         114.272        -0.017858         144.892
0.591                   -1.00369        -168.638         -48.9263         113.061         -48.9264         113.061       -0.0180211         144.817
0.592                   -1.01778        -169.525         -48.8905         111.859         -48.8906         111.858       -0.0181869         144.741
0.593                   -1.03341        -170.424         -48.8495         110.662         -48.8496         110.662       -0.0183554         144.665
0.594                   -1.05062        -171.334         -48.8035         109.471         -48.8036          109.47       -0.0185267         144.589
0.595                   -1.06946        -172.257         -48.7523         108.282         -48.7524         108.282       -0.0187007         144.512
0.596                   -1.08998        -173.191         -48.6962         107.096         -48.6963         107.095       -0.0188775         144.436
0.597                   -1.11224        -174.137         -48.6352          105.91         -48.6353         105.909       -0.0190572         144.359
0.598                    -1.1363        -175.096         -48.5693         104.723         -48.5694         104.722       -0.0192397         144.282
0.599                   -1.16224        -176.068         -48.4987         103.533         -48.4988         103.533       -0.0194251         144.205
0.6                     -1.19013        -177.054         -48.4233         102.341         -48.4233         102.341       -0.0196134         144.128
0.601                   -1.22006        -178.053         -48.3432         101.144         -48.3433         101.143       -0.0198046          144.05
0.602                   -1.25212        -179.065         -48.2585         99.9407         -48.2586         99.9403       -0.0199989         143.973
0.603                   -1.28643         179.908         -48.1693         98.7306         -48.1693         98.7303       -0.0201962         143.895
0.604                    -1.3231         178.866         -48.0756         97.5124         -48.0756         97.5121       -0.0203966         143.817
0.605                   -1.36223          177.81         -47.9774          96.285         -47.9775         96.2847       -0.0206001         143.738
0.606                   -1.40398         176.739          -47.875         95.0471          -47.875          95.047       -0.0208067          143.66
0.607                   -1.44849         175.652         -47.7682         93.7979         -47.7682         93.7978       -0.0210166         143.581
0.608                    -1.4959          174.55         -47.6572         92.5362         -47.6572         92.5361       -0.0212297         143.502
0.609                   -1.54638         173.432         -47.5421          91.261         -47.5421          91.261       -0.0214462         143.423
0.61                    -1.60012         172.297         -47.4229         89.9712         -47.4229         89.9714        -0.021666         143.344
0.611                   -1.65731         171.147         -47.2998          88.666         -47.2997         88.6663       -0.0218893         143.264
0.612                   -1.71816          169.98         -47.1727         87.3443         -47.1727         87.3447        -0.022116         143.184
0.613                   -1.78289         168.796          -47.042         86.0052          -47.042         86.0057       -0.0223463         143.104
0.614                   -1.85174         167.595         -46.9076         84.6478         -46.9075         84.6483       -0.0225802         143.024
0.615                   -1.92497         166.378         -46.7696          83.271         -46.7696         83.2716       -0.0228178         142.943
0.616                   -2.00285         165.144         -46.6283          81.874         -46.6283         81.8747       -0.0230591         142.863
0.617                   -2.08568         163.893         -46.4837         80.4559         -46.4837         80.4566       -0.0233042         142.782
0.618                   -2.17378         162.626          -46.336         79.0157          -46.336         79.0165       -0.0235533         142.701
0.619                   -2.26749         161.342         -46.1855         77.5527         -46.1854         77.5535       -0.0238062         142.619
0.62                    -2.36716         160.043         -46.0321         76.0658         -46.0321         76.0667       -0.0240633         142.537
0.621                   -2.47318         158.728         -45.8763         74.5544         -45.8763         74.5552       -0.0243244         142.455
0.622                   -2.58596         157.399         -45.7182         73.0174         -45.7182         73.0183       -0.0245897         142.373
0.623                   -2.70593         156.056         -45.5579         71.4542         -45.5579          71.455       -0.0248594         142.291
0.624                   -2.83357         154.701         -45.3958         69.8638         -45.3958         69.8647       -0.0251334         142.208
0.625                   -2.96937         153.334         -45.2322         68.2457         -45.2322         68.2465       -0.0254118         142.125
0.626                   -3.11384         151.957         -45.0672          66.599         -45.0672         66.5997       -0.0256949         142.042
0.627                   -3.26755         150.573         -44.9012         64.9231         -44.9012         64.9237       -0.0259825         141.958
0.628                   -3.43107         149.183         -44.7345         63.2174         -44.7345          63.218        -0.026275         141.874
0.629                   -3.60502          147.79         -44.5673         61.4815         -44.5673          61.482       -0.0265722          141.79
