! TOUCHSTONE file generated by CST MICROWAVE STUDIO
! Date and time: Sat Nov 14 20:01:48 2020
! Project name: Scenario_1_Planar_Body_Tissue_Out_of_Line.cst
! Parameters = {dy1=-69.2; L_HA=400; Ltissue=700; MT=2.54; Rad_Dielectric=30; Rad_Lower=7.3; Rad_Upper=30; Wtissue=700; a_HA=580; a_WG=246; b_HA=500; b_WG=121; c_HA=0; c_WG=187; d_feed=85; dx1=693; h_feed=15; h_lower=18; h_upper=40; hfat=3; hgap=25; hmuscle=50; hskin=1.5}
! Header version: 2018
! Port assignment regex: !\s*Touchstone port\s*([0-9]+)\s*=\s*(CST MWS port|CST DS port)\s*([0-9]+|Zmin|Zmax)\s*\(\"(.*)\"\)(\s*mode\s*([0-9]+))?.*
! Touchstone port assignment:
! Touchstone port 1 = CST MWS port 1 ("")
! Touchstone port 2 = CST MWS port 2 ("")
# GHz S DB R 50
0.5                    -0.206738        -121.547         -60.9296        -170.389         -60.9297        -170.388      -0.00775515         151.161
0.501                  -0.207979        -121.953         -60.8306          -172.9         -60.8307        -172.901      -0.00781801         151.096
0.502                  -0.209214        -122.363         -60.7438        -175.369         -60.7439        -175.372      -0.00788132         151.031
0.503                  -0.210444        -122.776         -60.6681        -177.791         -60.6683        -177.796      -0.00794509         150.965
0.504                  -0.211674        -123.192         -60.6024         179.842         -60.6027         179.836      -0.00800932           150.9
0.505                  -0.212908        -123.611         -60.5453         177.534         -60.5457         177.527      -0.00807402         150.834
0.506                   -0.21415        -124.034         -60.4957         175.289         -60.4962         175.281      -0.00813921         150.769
0.507                  -0.215405         -124.46         -60.4521         173.109         -60.4527         173.101      -0.00820488         150.703
0.508                  -0.216677        -124.889         -60.4135         170.996         -60.4142         170.987      -0.00827105         150.638
0.509                  -0.217972        -125.322         -60.3785         168.949         -60.3793          168.94      -0.00833773         150.572
0.51                   -0.219294        -125.758         -60.3461         166.969          -60.347         166.961      -0.00840493         150.506
0.511                  -0.220649        -126.198         -60.3152         165.054         -60.3161         165.046      -0.00847264          150.44
0.512                  -0.222044        -126.641         -60.2848         163.202         -60.2858         163.195      -0.00854089         150.374
0.513                  -0.223484        -127.089         -60.2541         161.412         -60.2551         161.405      -0.00860968         150.308
0.514                  -0.224976         -127.54         -60.2223         159.679         -60.2233         159.673      -0.00867903         150.242
0.515                  -0.226527        -127.995         -60.1887         158.002         -60.1897         157.997      -0.00874893         150.176
0.516                  -0.228145        -128.454         -60.1526         156.378         -60.1535         156.373      -0.00881941          150.11
0.517                  -0.229837        -128.917         -60.1134         154.802         -60.1143         154.798      -0.00889046         150.043
0.518                  -0.231613        -129.384         -60.0708         153.273         -60.0717          153.27       -0.0089621         149.977
0.519                  -0.233481        -129.856         -60.0244         151.786         -60.0251         151.783      -0.00903435          149.91
0.52                    -0.23545        -130.332         -59.9736         150.338         -59.9743         150.337       -0.0091072         149.843
0.521                  -0.237532        -130.813         -59.9183         148.927         -59.9189         148.926      -0.00918068         149.777
0.522                  -0.239736        -131.298         -59.8582         147.549         -59.8587         147.548      -0.00925479          149.71
0.523                  -0.242075        -131.788         -59.7931         146.201         -59.7935         146.201      -0.00932954         149.643
0.524                  -0.244561        -132.282         -59.7228          144.88         -59.7231         144.881      -0.00940494         149.576
0.525                  -0.247207        -132.782         -59.6472         143.583         -59.6473         143.585      -0.00948101         149.509
0.526                  -0.250027        -133.286          -59.566         142.309         -59.5661         142.311      -0.00955776         149.441
0.527                  -0.253036        -133.796         -59.4794         141.053         -59.4793         141.056      -0.00963521         149.374
0.528                  -0.256251        -134.311          -59.387         139.815         -59.3869         139.817      -0.00971335         149.307
0.529                  -0.259689        -134.831          -59.289         138.591         -59.2888         138.594      -0.00979222         149.239
0.53                   -0.263369        -135.357         -59.1853         137.379         -59.1849         137.382      -0.00987181         149.172
0.531                   -0.26731        -135.889         -59.0757         136.177         -59.0752         136.181      -0.00995215         149.104
0.532                  -0.271534        -136.426         -58.9604         134.984         -58.9598         134.987       -0.0100332         149.036
0.533                  -0.276065         -136.97         -58.8393         133.796         -58.8386           133.8       -0.0101151         148.968
0.534                  -0.280926        -137.519         -58.7123         132.613         -58.7115         132.617       -0.0101978           148.9
0.535                  -0.286145        -138.075         -58.5795         131.432         -58.5786         131.436       -0.0102813         148.832
0.536                  -0.291751        -138.637         -58.4409         130.252         -58.4399         130.256       -0.0103656         148.764
0.537                  -0.297775        -139.206         -58.2965         129.071         -58.2954         129.075       -0.0104507         148.696
0.538                  -0.304251        -139.782         -58.1463         127.888         -58.1451         127.891       -0.0105367         148.627
0.539                  -0.311215        -140.364         -57.9902           126.7          -57.989         126.703       -0.0106236         148.559
0.54                   -0.318707        -140.954         -57.8284         125.506         -57.8271         125.509       -0.0107115          148.49
0.541                  -0.326769        -141.551         -57.6608         124.304         -57.6594         124.308       -0.0108002         148.421
0.542                  -0.335449        -142.155         -57.4874         123.094          -57.486         123.097       -0.0108899         148.353
0.543                  -0.344796        -142.767         -57.3082         121.873         -57.3068         121.876       -0.0109806         148.284
0.544                  -0.354866        -143.387         -57.1234          120.64         -57.1219         120.642       -0.0110723         148.215
0.545                  -0.365719        -144.015         -56.9327         119.393         -56.9312         119.395       -0.0111651         148.145
0.546                  -0.377419        -144.651         -56.7364         118.131         -56.7348         118.133       -0.0112589         148.076
0.547                  -0.390038        -145.296         -56.5344         116.852         -56.5328         116.854       -0.0113539         148.007
0.548                  -0.403653        -145.949         -56.3266         115.554          -56.325         115.556         -0.01145         147.937
0.549                  -0.418349        -146.611         -56.1132         114.236         -56.1116         114.238       -0.0115473         147.868
0.55                   -0.434219        -147.282         -55.8942         112.896         -55.8925         112.897       -0.0116459         147.798
0.551                  -0.451363        -147.962         -55.6695         111.532         -55.6678         111.533       -0.0117458         147.728
0.552                  -0.469892        -148.652         -55.4392         110.143         -55.4375         110.143       -0.0118471         147.658
0.553                  -0.489928         -149.35         -55.2033         108.726         -55.2017         108.726       -0.0119498         147.588
0.554                  -0.511602        -150.059          -54.962         107.279         -54.9603         107.278       -0.0120539         147.518
0.555                  -0.535059        -150.776         -54.7151           105.8         -54.7135         105.799       -0.0121597         147.447
0.556                  -0.560458        -151.504         -54.4628         104.287         -54.4612         104.286       -0.0122671         147.377
0.557                  -0.587972         -152.24         -54.2052         102.737         -54.2036         102.736       -0.0123762         147.306
0.558                  -0.617789        -152.986         -53.9423         101.149         -53.9408         101.148       -0.0124872         147.235
0.559                  -0.650116        -153.742         -53.6743         99.5186         -53.6728         99.5172       -0.0126001         147.165
0.56                   -0.685176        -154.506         -53.4012         97.8442         -53.3998         97.8426       -0.0127151         147.094
0.561                  -0.723211        -155.278         -53.1233         96.1227         -53.1219         96.1208       -0.0128322         147.022
0.562                  -0.764486        -156.057         -52.8406         94.3509         -52.8393         94.3489       -0.0129517         146.951
0.563                  -0.809281        -156.844         -52.5535         92.5258         -52.5522         92.5235       -0.0130737          146.88
0.564                  -0.857898        -157.636         -52.2622         90.6439         -52.2609         90.6415       -0.0131983         146.808
0.565                   -0.91066        -158.433         -51.9669          88.702         -51.9657         88.6994       -0.0133257         146.736
0.566                  -0.967901        -159.232          -51.668         86.6964         -51.6669         86.6937       -0.0134561         146.665
0.567                   -1.02997        -160.032          -51.366         84.6235         -51.3649         84.6207       -0.0135898         146.593
0.568                   -1.09723        -160.829         -51.0613         82.4796         -51.0603         82.4767       -0.0137268         146.521
0.569                   -1.17003        -161.622         -50.7545          80.261         -50.7535          80.258       -0.0138674         146.448
0.57                    -1.24871        -162.405         -50.4462         77.9639         -50.4453         77.9608       -0.0140118         146.376
0.571                   -1.33359        -163.175         -50.1371         75.5847         -50.1363         75.5816       -0.0141603         146.303
0.572                   -1.42493        -163.926         -49.8282         73.1199         -49.8274         73.1168        -0.014313         146.231
0.573                   -1.52292        -164.652         -49.5202         70.5664         -49.5196         70.5633       -0.0144701         146.158
0.574                   -1.62764        -165.346         -49.2143         67.9213         -49.2138         67.9183       -0.0146318         146.085
0.575                   -1.73902        -166.001         -48.9117         65.1825         -48.9112         65.1796       -0.0147984         146.012
0.576                    -1.8568        -166.607         -48.6135         62.3483         -48.6131         62.3455       -0.0149698         145.938
0.577                   -1.98047        -167.155         -48.3213          59.418         -48.3209         59.4154       -0.0151462         145.865
0.578                   -2.10921        -167.636         -48.0363         56.3919          -48.036         56.3896       -0.0153276         145.791
0.579                   -2.24187         -168.04         -47.7603         53.2717         -47.7601         53.2696       -0.0155139         145.718
0.58                    -2.37688        -168.358         -47.4948         50.0602         -47.4946         50.0584       -0.0157051         145.644
0.581                   -2.51226        -168.582         -47.2414          46.762         -47.2412         46.7604        -0.015901          145.57
0.582                   -2.64562        -168.705         -47.0016         43.3831         -47.0015         43.3819       -0.0161013         145.496
0.583                   -2.77423        -168.726         -46.7771         39.9314          -46.777         39.9305       -0.0163058         145.422
0.584                   -2.89507        -168.646          -46.569         36.4163          -46.569         36.4158       -0.0165139         145.347
0.585                   -3.00507         -168.47         -46.3787         32.8489         -46.3787         32.8487       -0.0167253         145.273
0.586                   -3.10122         -168.21         -46.2071         29.2415         -46.2071         29.2416       -0.0169394         145.198
0.587                    -3.1809        -167.881         -46.0549         25.6075         -46.0549          25.608       -0.0171559         145.123
0.588                   -3.24203        -167.504         -45.9223          21.961         -45.9224         21.9617        -0.017374         145.049
0.589                   -3.28331        -167.101         -45.8096         18.3163         -45.8096         18.3173       -0.0175933         144.974
0.59                    -3.30428        -166.698         -45.7164         14.6875         -45.7164         14.6888       -0.0178133         144.898
0.591                   -3.30541        -166.318          -45.642         11.0884          -45.642         11.0898       -0.0180336         144.823
0.592                   -3.28798        -165.985         -45.5856         7.53133         -45.5857         7.53296       -0.0182537         144.748
0.593                    -3.2539        -165.716         -45.5462         4.02783         -45.5462         4.02958       -0.0184734         144.672
0.594                   -3.20557        -165.527         -45.5222        0.587667         -45.5222         0.58951       -0.0186924         144.596
0.595                   -3.14563        -165.428         -45.5124        -2.78096         -45.5123        -2.77906       -0.0189105          144.52
0.596                   -3.07674        -165.425          -45.515        -6.07156          -45.515        -6.06964       -0.0191278         144.444
0.597                   -3.00148        -165.521         -45.5286        -9.27932         -45.5286        -9.27741        -0.019344         144.368
0.598                   -2.92218        -165.713         -45.5515         -12.401         -45.5515        -12.3991       -0.0195595         144.291
0.599                   -2.84091        -165.999         -45.5822        -15.4348         -45.5821         -15.433       -0.0197741         144.214
0.6                     -2.75938        -166.374         -45.6192        -18.3801         -45.6191        -18.3784       -0.0199881         144.138
0.601                   -2.67902        -166.832          -45.661        -21.2377         -45.6609         -21.236       -0.0202017         144.061
0.602                   -2.60094        -167.366         -45.7064        -24.0089         -45.7063        -24.0074       -0.0204151         143.983
0.603                     -2.526        -167.969         -45.7542         -26.696         -45.7541        -26.6946       -0.0206285         143.906
0.604                   -2.45483        -168.636         -45.8034        -29.3019         -45.8033        -29.3005       -0.0208422         143.828
0.605                   -2.38788         -169.36         -45.8529        -31.8297         -45.8528        -31.8285       -0.0210564          143.75
0.606                   -2.32545        -170.135          -45.902         -34.283         -45.9019        -34.2819       -0.0212714         143.672
0.607                    -2.2677        -170.957         -45.9499        -36.6656         -45.9498        -36.6646       -0.0214875         143.594
0.608                   -2.21473         -171.82         -45.9959        -38.9814         -45.9958        -38.9805       -0.0217048         143.515
0.609                   -2.16655        -172.722         -46.0395        -41.2342         -46.0394        -41.2335       -0.0219237         143.437
0.61                    -2.12313        -173.658         -46.0801        -43.4281         -46.0801        -43.4275       -0.0221443         143.358
0.611                   -2.08441        -174.625         -46.1175        -45.5669         -46.1175        -45.5664       -0.0223669         143.278
0.612                    -2.0503        -175.622         -46.1512        -47.6544         -46.1512        -47.6539       -0.0225917         143.199
0.613                    -2.0207        -176.646          -46.181        -49.6943         -46.1809        -49.6939       -0.0228188         143.119
0.614                   -1.99552        -177.694         -46.2065        -51.6901         -46.2065        -51.6897       -0.0230485          143.04
0.615                   -1.97465        -178.767         -46.2277        -53.6453         -46.2277         -53.645       -0.0232809         142.959
0.616                   -1.95799        -179.862         -46.2444        -55.5631         -46.2444        -55.5629       -0.0235162         142.879
0.617                   -1.94547         179.021         -46.2564        -57.4469         -46.2564        -57.4467       -0.0237545         142.798
0.618                   -1.93701         177.884         -46.2636        -59.2995         -46.2637        -59.2994        -0.023996         142.718
0.619                   -1.93254         176.726          -46.266        -61.1239         -46.2661        -61.1238       -0.0242408         142.637
0.62                    -1.93201         175.547         -46.2636         -62.923         -46.2636        -62.9229        -0.024489         142.555
0.621                    -1.9354         174.349         -46.2562        -64.6993         -46.2563        -64.6992       -0.0247409         142.474
0.622                   -1.94268         173.132         -46.2439        -66.4554          -46.244        -66.4553       -0.0249964         142.392
0.623                   -1.95386         171.894         -46.2268        -68.1937         -46.2269        -68.1937       -0.0252558          142.31
0.624                   -1.96895         170.637         -46.2047        -69.9167         -46.2048        -69.9166       -0.0255191         142.227
0.625                   -1.98798          169.36         -46.1778        -71.6266          -46.178        -71.6265       -0.0257864         142.145
0.626                   -2.01101         168.062         -46.1461        -73.3255         -46.1463        -73.3254       -0.0260579         142.062
0.627                   -2.03811         166.744         -46.1097        -75.0155         -46.1099        -75.0154       -0.0263337         141.979
0.628                   -2.06936         165.405         -46.0686        -76.6987         -46.0688        -76.6986       -0.0266139         141.895
0.629                   -2.10487         164.045         -46.0229         -78.377         -46.0231        -78.3769       -0.0268985         141.812
