! TOUCHSTONE file generated by CST MICROWAVE STUDIO
! Date and time: Tue Nov 24 13:44:23 2020
! Project name: Scenario_1_Planar_Body_Tissue_Out_of_Line.cst
! Parameters = {dy1=69.2; L_HA=400; Ltissue=700; MT=2.54; Rad_Dielectric=30; Rad_Lower=7.3; Rad_Upper=30; Wtissue=700; a_HA=580; a_WG=246; b_HA=500; b_WG=121; c_HA=0; c_WG=187; d_feed=85; dx1=1039; h_feed=15; h_lower=18; h_upper=40; hfat=3; hgap=25; hmuscle=50; hskin=1.5}
! Header version: 2018
! Port assignment regex: !\s*Touchstone port\s*([0-9]+)\s*=\s*(CST MWS port|CST DS port)\s*([0-9]+|Zmin|Zmax)\s*\(\"(.*)\"\)(\s*mode\s*([0-9]+))?.*
! Touchstone port assignment:
! Touchstone port 1 = CST MWS port 1 ("")
! Touchstone port 2 = CST MWS port 2 ("")
# GHz S DB R 50
0.5                    -0.161597        -121.572         -63.4579        -16.5591         -63.4582        -16.5583      -0.00762064         151.153
0.501                   -0.16238        -122.004         -63.3303        -17.8871         -63.3315        -17.8884      -0.00768353         151.087
0.502                  -0.163274        -122.439         -63.1997        -19.2385          -63.202        -19.2418      -0.00774719         151.022
0.503                  -0.164285        -122.877         -63.0662        -20.6139         -63.0695         -20.619      -0.00781162         150.957
0.504                  -0.165417        -123.318         -62.9297        -22.0143          -62.934        -22.0211      -0.00787683         150.891
0.505                  -0.166679        -123.763         -62.7902        -23.4405         -62.7956        -23.4488      -0.00794283         150.826
0.506                  -0.168075        -124.212         -62.6475        -24.8935          -62.654        -24.9032       -0.0080096          150.76
0.507                  -0.169614        -124.664         -62.5018        -26.3743         -62.5094        -26.3851      -0.00807716         150.695
0.508                  -0.171303        -125.119         -62.3528         -27.884         -62.3616        -27.8956      -0.00814551         150.629
0.509                  -0.173151        -125.578         -62.2007        -29.4237         -62.2107        -29.4359      -0.00821466         150.563
0.51                   -0.175167        -126.041         -62.0455        -30.9947         -62.0567        -31.0071      -0.00828459         150.497
0.511                   -0.17736        -126.508          -61.887        -32.5982         -61.8995        -32.6104      -0.00835533         150.431
0.512                  -0.179741        -126.979         -61.7254        -34.2356         -61.7392        -34.2472      -0.00842686         150.365
0.513                  -0.182321        -127.453         -61.5607        -35.9083         -61.5758        -35.9189       -0.0084992         150.299
0.514                  -0.185114        -127.932         -61.3929        -37.6179         -61.4094        -37.6268      -0.00857235         150.233
0.515                  -0.188132        -128.415         -61.2222         -39.366           -61.24        -39.3726      -0.00864631         150.167
0.516                  -0.191391        -128.902         -61.0486        -41.1542         -61.0679        -41.1578      -0.00872107           150.1
0.517                  -0.194905        -129.394         -60.8723        -42.9843          -60.893        -42.9842      -0.00879666         150.034
0.518                  -0.198694         -129.89         -60.6935         -44.858         -60.7156        -44.8532      -0.00887306         149.967
0.519                  -0.202775        -130.391         -60.5124        -46.7771         -60.5359        -46.7668      -0.00895029         149.901
0.52                   -0.207169        -130.897         -60.3293        -48.7435         -60.3542        -48.7265      -0.00902834         149.834
0.521                    -0.2119        -131.407         -60.1446        -50.7589         -60.1708        -50.7342      -0.00910722         149.767
0.522                  -0.216993        -131.923         -59.9586        -52.8249         -59.9861        -52.7912      -0.00918693           149.7
0.523                  -0.222474        -132.443         -59.7719        -54.9431         -59.8005        -54.8991      -0.00926748         149.633
0.524                  -0.228374        -132.969          -59.585        -57.1148         -59.6147         -57.059      -0.00934887         149.566
0.525                  -0.234726          -133.5         -59.3985        -59.3406         -59.4291        -59.2717      -0.00943111         149.499
0.526                  -0.241567        -134.037         -59.2133        -61.6211         -59.2445        -61.5376      -0.00951419         149.432
0.527                  -0.248936         -134.58         -59.0301        -63.9558         -59.0618        -63.8563      -0.00959814         149.364
0.528                  -0.256878        -135.128         -58.8499        -66.3434         -58.8816        -66.2267      -0.00968295         149.297
0.529                  -0.265443        -135.682         -58.6738        -68.7815         -58.7051        -68.6465      -0.00976864         149.229
0.53                   -0.274684        -136.243         -58.5026        -71.2663         -58.5333        -71.1123      -0.00985521         149.162
0.531                  -0.284661        -136.809         -58.3376         -73.792          -58.367        -73.6187      -0.00994267         149.094
0.532                   -0.29544        -137.382         -58.1798        -76.3511         -58.2073        -76.1588       -0.0100311         149.026
0.533                  -0.307096        -137.961         -58.0301        -78.9337         -58.0551        -78.7236       -0.0101204         148.958
0.534                   -0.31971        -138.547         -57.8891        -81.5275         -57.9111        -81.3016       -0.0102106          148.89
0.535                  -0.333371         -139.14         -57.7573        -84.1179         -57.7756        -83.8794       -0.0103019         148.822
0.536                  -0.348181        -139.739         -57.6346        -86.6883         -57.6487        -86.4413       -0.0103941         148.754
0.537                  -0.364249        -140.345         -57.5202        -89.2204         -57.5297        -88.9703       -0.0104874         148.686
0.538                  -0.381699        -140.957         -57.4127        -91.6957         -57.4174        -91.4488       -0.0105818         148.617
0.539                  -0.400665        -141.576         -57.3096        -94.0965         -57.3095        -93.8596       -0.0106774         148.549
0.54                   -0.421296        -142.202         -57.2078         -96.408         -57.2033        -96.1881       -0.0107742          148.48
0.541                  -0.443756        -142.833         -57.1032        -98.6203         -57.0948        -98.4236       -0.0108724         148.411
0.542                  -0.468223         -143.47          -56.991         -100.73         -56.9798        -100.562        -0.010972         148.342
0.543                  -0.494891        -144.112         -56.8663        -102.744         -56.8532        -102.607       -0.0110732         148.273
0.544                  -0.523968        -144.758         -56.7239        -104.676         -56.7102        -104.572       -0.0111761         148.204
0.545                  -0.555677        -145.407         -56.5595        -106.552         -56.5464        -106.479        -0.011281         148.135
0.546                  -0.590252        -146.058         -56.3696        -108.405         -56.3582        -108.359       -0.0113881         148.066
0.547                  -0.627932         -146.71         -56.1522        -110.275         -56.1433         -110.25       -0.0114976         147.996
0.548                  -0.668959         -147.36         -55.9069        -112.204         -55.9009        -112.194       -0.0116098         147.927
0.549                  -0.713565        -148.005         -55.6349        -114.234         -55.6319        -114.232        -0.011725         147.857
0.55                   -0.761957        -148.644         -55.3391        -116.405         -55.3389        -116.405       -0.0118437         147.787
0.551                  -0.814303        -149.271         -55.0235        -118.749         -55.0256        -118.747        -0.011966         147.717
0.552                  -0.870704        -149.883         -54.6931        -121.294          -54.697        -121.284       -0.0120922         147.647
0.553                  -0.931165        -150.475         -54.3536        -124.056         -54.3585        -124.038       -0.0122227         147.577
0.554                  -0.995557        -151.042         -54.0109        -127.046         -54.0163        -127.019       -0.0123573         147.507
0.555                   -1.06358        -151.576         -53.6711        -130.265         -53.6764         -130.23       -0.0124961         147.437
0.556                    -1.1347        -152.072         -53.3399        -133.708         -53.3448        -133.667       -0.0126388         147.366
0.557                   -1.20814        -152.523         -53.0231        -137.364         -53.0271        -137.318       -0.0127847         147.296
0.558                   -1.28282        -152.925         -52.7255        -141.213         -52.7284        -141.165       -0.0129333         147.225
0.559                   -1.35735         -153.27         -52.4515        -145.232         -52.4534        -145.184       -0.0130837         147.154
0.56                    -1.43008        -153.558         -52.2047        -149.393         -52.2057        -149.348        -0.013235         147.084
0.561                   -1.49911        -153.788         -51.9879        -153.665          -51.988        -153.623       -0.0133864         147.013
0.562                   -1.56246        -153.961         -51.8028        -158.014         -51.8023        -157.977       -0.0135371         146.942
0.563                   -1.61817        -154.086         -51.6502        -162.406         -51.6492        -162.375       -0.0136868         146.871
0.564                   -1.66452        -154.171         -51.5299        -166.808         -51.5286        -166.783        -0.013835         146.799
0.565                   -1.70018         -154.23         -51.4408        -171.189         -51.4395         -171.17       -0.0139815         146.728
0.566                   -1.72436        -154.278         -51.3812        -175.522         -51.3799        -175.508       -0.0141265         146.656
0.567                   -1.73689         -154.33         -51.3485        -179.781         -51.3475        -179.772       -0.0142702         146.585
0.568                    -1.7382        -154.401         -51.3401         176.051         -51.3394         176.057       -0.0144127         146.513
0.569                   -1.72928        -154.506          -51.353         171.991         -51.3526         171.994       -0.0145544         146.441
0.57                     -1.7115        -154.656         -51.3838         168.049         -51.3838         168.049       -0.0146957         146.369
0.571                    -1.6865        -154.857         -51.4297         164.232         -51.4301         164.231       -0.0148367         146.297
0.572                     -1.656        -155.116         -51.4877         160.543         -51.4884          160.54       -0.0149779         146.225
0.573                   -1.62168        -155.434         -51.5551         156.982          -51.556         156.979       -0.0151194         146.152
0.574                   -1.58506        -155.811         -51.6294         153.548         -51.6305         153.545       -0.0152615          146.08
0.575                    -1.5475        -156.245         -51.7084         150.238         -51.7097         150.235       -0.0154045         146.007
0.576                   -1.51011        -156.732         -51.7902         147.047         -51.7917         147.044       -0.0155484         145.934
0.577                   -1.47379        -157.269         -51.8732         143.969         -51.8748         143.967       -0.0156935         145.861
0.578                   -1.43923        -157.852         -51.9558         140.998         -51.9575         140.997       -0.0158399         145.787
0.579                   -1.40694        -158.477          -52.037         138.128         -52.0388         138.128       -0.0159876         145.714
0.58                     -1.3773        -159.138         -52.1157         135.353         -52.1175         135.353       -0.0161368         145.641
0.581                   -1.35054        -159.834         -52.1911         132.666         -52.1928         132.667       -0.0162876         145.567
0.582                   -1.32683        -160.559         -52.2625         130.061         -52.2641         130.062         -0.01644         145.493
0.583                   -1.30624        -161.312         -52.3292         127.532         -52.3308         127.534       -0.0165941         145.419
0.584                   -1.28881        -162.089         -52.3909         125.074         -52.3924         125.075       -0.0167499         145.345
0.585                   -1.27454         -162.89         -52.4472          122.68         -52.4486         122.682       -0.0169075          145.27
0.586                   -1.26341         -163.71         -52.4977         120.345          -52.499         120.347       -0.0170669         145.196
0.587                   -1.25538         -164.55         -52.5423         118.065         -52.5435         118.068       -0.0172283         145.121
0.588                   -1.25042        -165.408         -52.5808         115.836         -52.5818         115.838       -0.0173916         145.046
0.589                   -1.24849        -166.283         -52.6129         113.652         -52.6139         113.655       -0.0175568         144.971
0.59                    -1.24955        -167.173         -52.6388          111.51         -52.6396         111.513       -0.0177241         144.896
0.591                   -1.25359         -168.08         -52.6582         109.406          -52.659         109.408       -0.0178934         144.821
0.592                   -1.26058        -169.001         -52.6712         107.335         -52.6718         107.338       -0.0180648         144.745
0.593                   -1.27054        -169.936         -52.6777         105.296         -52.6782         105.298       -0.0182384         144.669
0.594                   -1.28346        -170.886         -52.6777         103.283         -52.6782         103.285       -0.0184142         144.593
0.595                   -1.29938         -171.85         -52.6712         101.295         -52.6716         101.297       -0.0185921         144.517
0.596                   -1.31835        -172.827         -52.6584         99.3285         -52.6587         99.3301       -0.0187724         144.441
0.597                   -1.34041        -173.819         -52.6391           97.38         -52.6394         97.3813        -0.018955         144.365
0.598                   -1.36565        -174.825         -52.6135          95.447         -52.6137         95.4481         -0.01914         144.288
0.599                   -1.39415        -175.844         -52.5817         93.5268         -52.5818         93.5277       -0.0193274         144.211
0.6                     -1.42604        -176.877         -52.5436         91.6169         -52.5437         91.6175       -0.0195173         144.134
0.601                   -1.46143        -177.924         -52.4994         89.7148         -52.4995         89.7152       -0.0197098         144.057
0.602                   -1.50048        -178.985         -52.4493         87.8179         -52.4493         87.8181       -0.0199049         143.979
0.603                   -1.54336          179.94         -52.3931         85.9239         -52.3932         85.9239       -0.0201027         143.902
0.604                   -1.59027         178.851         -52.3312         84.0305         -52.3312         84.0303       -0.0203032         143.824
0.605                    -1.6414         177.749         -52.2636         82.1352         -52.2636         82.1349       -0.0205065         143.746
0.606                     -1.697         176.634         -52.1904         80.2359         -52.1904         80.2355       -0.0207128         143.668
0.607                   -1.75733         175.505         -52.1118         78.3303         -52.1118         78.3298        -0.020922         143.589
0.608                   -1.82267         174.364         -52.0279         76.4162         -52.0279         76.4156       -0.0211343         143.511
0.609                   -1.89333         173.211         -51.9389         74.4915         -51.9389         74.4907       -0.0213497         143.432
0.61                    -1.96965         172.047          -51.845         72.5539          -51.845         72.5531       -0.0215683         143.353
0.611                   -2.05198         170.873         -51.7464         70.6014         -51.7464         70.6007       -0.0217903         143.273
0.612                   -2.14071          169.69         -51.6433          68.632         -51.6434         68.6313       -0.0220157         143.194
0.613                   -2.23626           168.5          -51.536         66.6437         -51.5361          66.643       -0.0222445         143.114
0.614                   -2.33906         167.304         -51.4247         64.6346         -51.4248          64.634        -0.022477         143.034
0.615                   -2.44958         166.105         -51.3097         62.6028         -51.3098         62.6023       -0.0227132         142.954
0.616                   -2.56828         164.905         -51.1913         60.5466         -51.1914         60.5462       -0.0229531         142.873
0.617                   -2.69566         163.708         -51.0698         58.4644         -51.0699         58.4641       -0.0231969         142.793
0.618                   -2.83224         162.518         -50.9456         56.3546         -50.9457         56.3545       -0.0234447         142.712
0.619                    -2.9785         161.339          -50.819         54.2159         -50.8192         54.2159       -0.0236966         142.631
0.62                    -3.13495         160.176         -50.6905         52.0471         -50.6906         52.0473       -0.0239526         142.549
0.621                   -3.30205         159.035         -50.5605         49.8473         -50.5606         49.8477       -0.0242129         142.468
0.622                   -3.48023         157.924         -50.4293         47.6156         -50.4294         47.6161       -0.0244775         142.386
0.623                   -3.66985          156.85         -50.2975         45.3516         -50.2976         45.3523       -0.0247465         142.304
0.624                   -3.87118         155.823         -50.1655         43.0549         -50.1656         43.0558         -0.02502         142.221
0.625                   -4.08436         154.852         -50.0337         40.7257         -50.0338         40.7266       -0.0252981         142.139
0.626                   -4.30936          153.95         -49.9028         38.3642         -49.9028         38.3653       -0.0255809         142.056
0.627                   -4.54592         153.128          -49.773         35.9711         -49.7731         35.9723       -0.0258684         141.973
0.628                   -4.79353         152.401         -49.6451         33.5475         -49.6451         33.5488       -0.0261606         141.889
0.629                    -5.0513         151.783         -49.5192         31.0948         -49.5193         31.0961       -0.0264577         141.805
