! TOUCHSTONE file generated by CST MICROWAVE STUDIO
! Date and time: Sat Nov 14 20:01:56 2020
! Project name: Scenario_1_Planar_Body_Tissue_Out_of_Line.cst
! Parameters = {dy1=-86.5; L_HA=400; Ltissue=700; MT=2.54; Rad_Dielectric=30; Rad_Lower=7.3; Rad_Upper=30; Wtissue=700; a_HA=580; a_WG=246; b_HA=500; b_WG=121; c_HA=0; c_WG=187; d_feed=85; dx1=693; h_feed=15; h_lower=18; h_upper=40; hfat=3; hgap=25; hmuscle=50; hskin=1.5}
! Header version: 2018
! Port assignment regex: !\s*Touchstone port\s*([0-9]+)\s*=\s*(CST MWS port|CST DS port)\s*([0-9]+|Zmin|Zmax)\s*\(\"(.*)\"\)(\s*mode\s*([0-9]+))?.*
! Touchstone port assignment:
! Touchstone port 1 = CST MWS port 1 ("")
! Touchstone port 2 = CST MWS port 2 ("")
# GHz S DB R 50
0.5                    -0.204248        -121.565         -61.0864         -170.91         -61.0862         -170.91      -0.00776312         151.158
0.501                   -0.20479        -121.982         -61.0871        -172.725         -61.0977        -172.745      -0.00782559         151.093
0.502                  -0.205402        -122.401         -61.0849        -174.526         -61.1055        -174.564      -0.00788861         151.027
0.503                  -0.206086        -122.823         -61.0797        -176.312         -61.1096        -176.365      -0.00795218         150.962
0.504                  -0.206846        -123.249         -61.0713        -178.083         -61.1097         -178.15      -0.00801631         150.897
0.505                  -0.207684        -123.677         -61.0596         -179.84         -61.1058        -179.918        -0.008081         150.831
0.506                  -0.208606        -124.109         -61.0446         178.418         -61.0978          178.33      -0.00814626         150.766
0.507                  -0.209613        -124.543         -61.0261         176.691         -61.0857         176.596      -0.00821211           150.7
0.508                  -0.210709        -124.981          -61.004          174.98         -61.0694         174.877      -0.00827854         150.634
0.509                    -0.2119        -125.422         -60.9783         173.283         -61.0488         173.175      -0.00834556         150.569
0.51                   -0.213188        -125.867         -60.9489           171.6         -61.0238          171.49      -0.00841318         150.503
0.511                  -0.214579        -126.315         -60.9157         169.933         -60.9945          169.82       -0.0084814         150.437
0.512                  -0.216077        -126.766         -60.8785         168.281         -60.9607         168.166      -0.00855024         150.371
0.513                  -0.217687        -127.221         -60.8375         166.643         -60.9224         166.528       -0.0086197         150.305
0.514                  -0.219416        -127.679         -60.7924         165.019         -60.8797         164.905      -0.00868979         150.239
0.515                  -0.221268        -128.141         -60.7432          163.41         -60.8323         163.297      -0.00876052         150.172
0.516                   -0.22325        -128.607           -60.69         161.815         -60.7804         161.705      -0.00883189         150.106
0.517                  -0.225368        -129.077         -60.6325         160.234         -60.7239         160.126      -0.00890392          150.04
0.518                   -0.22763         -129.55         -60.5708         158.667         -60.6627         158.563       -0.0089766         149.973
0.519                  -0.230043        -130.028         -60.5047         157.113         -60.5968         157.013      -0.00904995         149.906
0.52                   -0.232615         -130.51         -60.4344         155.573         -60.5263         155.477      -0.00912399          149.84
0.521                  -0.235355        -130.995         -60.3596         154.045          -60.451         153.954       -0.0091987         149.773
0.522                  -0.238272        -131.485         -60.2805          152.53          -60.371         152.444      -0.00927412         149.706
0.523                  -0.241375         -131.98         -60.1968         151.027         -60.2862         150.946      -0.00935023         149.639
0.524                  -0.244675        -132.478         -60.1087         149.536         -60.1967          149.46      -0.00942707         149.572
0.525                  -0.248183        -132.982         -60.0159         148.056         -60.1024         147.986      -0.00950462         149.505
0.526                  -0.251912         -133.49         -59.9186         146.587         -60.0033         146.523      -0.00958291         149.438
0.527                  -0.255874        -134.002         -59.8167         145.128         -59.8993          145.07      -0.00966195         149.371
0.528                  -0.260084         -134.52         -59.7101         143.679         -59.7906         143.626      -0.00974173         149.303
0.529                  -0.264557        -135.042         -59.5987         142.239         -59.6769         142.192      -0.00982229         149.236
0.53                   -0.269308         -135.57         -59.4827         140.808         -59.5584         140.767      -0.00990362         149.168
0.531                  -0.274355        -136.102         -59.3618         139.385          -59.435         139.349      -0.00998574           149.1
0.532                  -0.279717        -136.641         -59.2362         137.969         -59.3067         137.939       -0.0100687         149.033
0.533                  -0.285415        -137.184         -59.1057         136.559         -59.1734         136.535       -0.0101524         148.965
0.534                   -0.29147        -137.733         -58.9703         135.156         -59.0352         135.136        -0.010237         148.897
0.535                  -0.297905        -138.288         -58.8299         133.757          -58.892         133.743       -0.0103224         148.829
0.536                  -0.304747        -138.849         -58.6847         132.363         -58.7438         132.353       -0.0104086          148.76
0.537                  -0.312024        -139.416         -58.5344         130.972         -58.5906         130.966       -0.0104957         148.692
0.538                  -0.319766        -139.989          -58.379         129.583         -58.4324         129.581       -0.0105837         148.624
0.539                  -0.328004        -140.569         -58.2186         128.195          -58.269         128.198       -0.0106727         148.555
0.54                   -0.336776        -141.155         -58.0531         126.808         -58.1006         126.814       -0.0107625         148.487
0.541                   -0.34612        -141.747         -57.8825          125.42         -57.9271         125.429       -0.0108533         148.418
0.542                  -0.356077        -142.347         -57.7066          124.03         -57.7483         124.042        -0.010945         148.349
0.543                  -0.366694        -142.953         -57.5255         122.637         -57.5645         122.651       -0.0110377          148.28
0.544                   -0.37802        -143.567         -57.3392         121.239         -57.3753         121.255       -0.0111314         148.211
0.545                   -0.39011        -144.189         -57.1475         119.835          -57.181         119.854       -0.0112262         148.142
0.546                  -0.403024        -144.817         -56.9505         118.425         -56.9814         118.444        -0.011322         148.073
0.547                  -0.416826        -145.454         -56.7482         117.005         -56.7765         117.026       -0.0114189         148.003
0.548                  -0.431588        -146.099         -56.5404         115.575         -56.5662         115.597       -0.0115169         147.934
0.549                  -0.447386        -146.751         -56.3273         114.133         -56.3507         114.155       -0.0116161         147.864
0.55                   -0.464307        -147.412         -56.1087         112.678         -56.1297           112.7       -0.0117164         147.795
0.551                  -0.482443        -148.081         -55.8846         111.206         -55.9035         111.228        -0.011818         147.725
0.552                  -0.501896        -148.759          -55.655         109.718         -55.6718         109.739       -0.0119208         147.655
0.553                  -0.522778        -149.446         -55.4199         108.209         -55.4347          108.23        -0.012025         147.585
0.554                  -0.545211        -150.141         -55.1794         106.679         -55.1923         106.698       -0.0121306         147.514
0.555                  -0.569328        -150.845         -54.9334         105.125         -54.9444         105.143       -0.0122376         147.444
0.556                  -0.595276        -151.558         -54.6819         103.544         -54.6913         103.561       -0.0123461         147.374
0.557                  -0.623216         -152.28          -54.425         101.934         -54.4328         101.949       -0.0124561         147.303
0.558                  -0.653322         -153.01         -54.1627         100.292         -54.1691         100.305       -0.0125679         147.232
0.559                  -0.685784        -153.749         -53.8952         98.6159         -53.9003          98.627       -0.0126813         147.162
0.56                   -0.720812        -154.496         -53.6225         96.9018         -53.6263         96.9107       -0.0127966         147.091
0.561                  -0.758629         -155.25         -53.3447         95.1468         -53.3474         95.1536       -0.0129139         147.019
0.562                   -0.79948        -156.012          -53.062         93.3477         -53.0637         93.3522       -0.0130332         146.948
0.563                  -0.843628         -156.78         -52.7746         91.5009         -52.7754         91.5031       -0.0131547         146.877
0.564                  -0.891352        -157.553         -52.4827         89.6029         -52.4828         89.6027       -0.0132785         146.805
0.565                  -0.942953        -158.331         -52.1866         87.6497          -52.186         87.6472       -0.0134048         146.734
0.566                  -0.998743        -159.111         -51.8866         85.6375         -51.8855         85.6328       -0.0135338         146.662
0.567                   -1.05905        -159.891         -51.5832         83.5623         -51.5816         83.5554       -0.0136656          146.59
0.568                   -1.12421         -160.67         -51.2768         81.4199         -51.2749          81.411       -0.0138004         146.518
0.569                   -1.19455        -161.444         -50.9679         79.2062         -50.9658         79.1955       -0.0139385         146.446
0.57                     -1.2704        -162.209         -50.6573         76.9171         -50.6549         76.9048         -0.01408         146.373
0.571                   -1.35206        -162.963         -50.3456         74.5484         -50.3431         74.5348       -0.0142251         146.301
0.572                   -1.43977        -163.699         -50.0336         72.0964         -50.0312         72.0817       -0.0143742         146.228
0.573                   -1.53374        -164.412         -49.7223         69.5574           -49.72         69.5418       -0.0145273         146.155
0.574                   -1.63404        -165.096         -49.4129         66.9281         -49.4106         66.9121       -0.0146848         146.082
0.575                   -1.74064        -165.743         -49.1064         64.2059         -49.1043         64.1897       -0.0148469         146.009
0.576                   -1.85331        -166.346         -48.8042         61.3888         -48.8023         61.3729       -0.0150137         145.936
0.577                    -1.9716        -166.896         -48.5077         58.4757         -48.5061         58.4604       -0.0151853         145.863
0.578                   -2.09479        -167.382         -48.2184         55.4667         -48.2171         55.4523       -0.0153619         145.789
0.579                   -2.22183        -167.797          -47.938          52.363         -47.9369         52.3499       -0.0155435         145.716
0.58                     -2.3513        -168.132          -47.668         49.1673         -47.6671         49.1558       -0.0157301         145.642
0.581                   -2.48139        -168.378         -47.4102         45.8839         -47.4095         45.8745       -0.0159216         145.568
0.582                    -2.6099        -168.531         -47.1661         42.5191         -47.1657         42.5118       -0.0161178         145.494
0.583                   -2.73429        -168.586         -46.9374         39.0806         -46.9371         39.0756       -0.0163185          145.42
0.584                   -2.85173        -168.545         -46.7254          35.578         -46.7253         35.5754       -0.0165232         145.345
0.585                   -2.95931        -168.412         -46.5315         32.0225         -46.5314         32.0224       -0.0167316         145.271
0.586                   -3.05416        -168.198         -46.3565         28.4268         -46.3565         28.4292       -0.0169431         145.196
0.587                    -3.1337        -167.915         -46.2012         24.8045         -46.2012         24.8092       -0.0171572         145.121
0.588                   -3.19585        -167.582          -46.066         21.1702         -46.0659          21.177       -0.0173733         145.046
0.589                   -3.23923        -167.222         -45.9508         17.5384         -45.9507          17.547       -0.0175908         144.971
0.59                    -3.26325        -166.857         -45.8555         13.9236         -45.8552         13.9338       -0.0178091         144.896
0.591                   -3.26818        -166.511         -45.7793         10.3398         -45.7789         10.3511       -0.0180278         144.821
0.592                   -3.25508        -166.206         -45.7212          6.7996         -45.7207         6.81176       -0.0182464         144.745
0.593                   -3.22568        -165.959         -45.6802         3.31454         -45.6796         3.32715       -0.0184644          144.67
0.594                   -3.18218        -165.787         -45.6549       -0.105547         -45.6541      -0.0928392       -0.0186816         144.594
0.595                   -3.12706          -165.7         -45.6436        -3.45256         -45.6427        -3.44007       -0.0188979         144.518
0.596                   -3.06286        -165.704         -45.6449        -6.72014         -45.6439        -6.70817        -0.019113         144.442
0.597                   -2.99207        -165.803          -45.657        -9.90369         -45.6559        -9.89247       -0.0193271         144.366
0.598                   -2.91699        -165.996         -45.6783        -13.0002         -45.6772        -12.9899       -0.0195401         144.289
0.599                   -2.83963         -166.28         -45.7072        -16.0082         -45.7061         -15.999       -0.0197523         144.213
0.6                     -2.76172         -166.65         -45.7422        -18.9275         -45.7411        -18.9195       -0.0199637         144.136
0.601                   -2.68468        -167.102         -45.7819        -21.7589         -45.7809        -21.7522       -0.0201746         144.059
0.602                   -2.60965        -167.629         -45.8251        -24.5042         -45.8241        -24.4988       -0.0203853         143.982
0.603                    -2.5375        -168.224         -45.8704        -27.1661         -45.8696        -27.1619        -0.020596         143.904
0.604                   -2.46889        -168.882         -45.9169        -29.7475         -45.9162        -29.7446        -0.020807         143.826
0.605                   -2.40427        -169.597         -45.9636        -32.2521          -45.963        -32.2503       -0.0210187         143.749
0.606                   -2.34397        -170.362         -46.0096        -34.6835         -46.0092        -34.6828       -0.0212311         143.671
0.607                   -2.28817        -171.174         -46.0543        -37.0457         -46.0541         -37.046       -0.0214448         143.592
0.608                   -2.23699        -172.028          -46.097        -39.3429          -46.097         -39.344       -0.0216598         143.514
0.609                   -2.19046        -172.919         -46.1372         -41.579         -46.1373        -41.5809       -0.0218765         143.435
0.61                    -2.14855        -173.845         -46.1743        -43.7582         -46.1747        -43.7608       -0.0220951         143.356
0.611                   -2.11122        -174.802         -46.2081        -45.8844         -46.2087        -45.8875       -0.0223157         143.277
0.612                   -2.07839        -175.789         -46.2382        -47.9616          -46.239         -47.965       -0.0225387         143.198
0.613                   -2.04998        -176.802         -46.2644        -49.9933         -46.2653        -49.9971       -0.0227642         143.118
0.614                   -2.02588        -177.841         -46.2863        -51.9834         -46.2874        -51.9873       -0.0229923         143.038
0.615                   -2.00602        -178.903         -46.3039        -53.9351         -46.3051        -53.9391       -0.0232233         142.958
0.616                    -1.9903        -179.988          -46.317        -55.8519         -46.3183        -55.8559       -0.0234573         142.878
0.617                   -1.97865         178.905         -46.3255        -57.7369         -46.3269        -57.7408       -0.0236945         142.797
0.618                   -1.97099         177.777         -46.3294        -59.5931         -46.3309        -59.5968       -0.0239349         142.716
0.619                   -1.96727         176.628         -46.3285        -61.4233           -46.33        -61.4268       -0.0241788         142.635
0.62                    -1.96745          175.46         -46.3229        -63.2304         -46.3245        -63.2336       -0.0244262         142.554
0.621                    -1.9715         174.271         -46.3125        -65.0169         -46.3142        -65.0198       -0.0246772         142.472
0.622                   -1.97942         173.063         -46.2974        -66.7853         -46.2991        -66.7878        -0.024932         142.391
0.623                   -1.99119         171.835         -46.2776        -68.5379         -46.2792          -68.54       -0.0251908         142.308
0.624                   -2.00686         170.588         -46.2531         -70.277         -46.2547        -70.2788       -0.0254535         142.226
0.625                   -2.02644          169.32          -46.224        -72.0048         -46.2256        -72.0062       -0.0257203         142.144
0.626                   -2.05001         168.032         -46.1904        -73.7233         -46.1918        -73.7243       -0.0259914         142.061
0.627                   -2.07763         166.723         -46.1522        -75.4345         -46.1535        -75.4352       -0.0262667         141.978
0.628                   -2.10939         165.394         -46.1096        -77.1402         -46.1108        -77.1406       -0.0265465         141.894
0.629                   -2.14541         164.044         -46.0627        -78.8423         -46.0638        -78.8425       -0.0268308         141.811
