! TOUCHSTONE file generated by CST MICROWAVE STUDIO
! Date and time: Thu Feb 11 19:34:37 2021
! Project name: Scenario_1_Planar_Body_Tissue_Out_of_Line.cst
! Parameters = {L_HA=400; Ltissue=1000; MT=2.54; Rad_Dielectric=30; Rad_Lower=7.3; Rad_Upper=30; Wtissue=1000; a_HA=580; a_WG=246; b_HA=500; b_WG=121; c_HA=0; c_WG=187; d_feed=85; dx1=346; dy1=103.8; h_feed=15; h_lower=18; h_upper=40; hfat=3; hgap=25; hmuscle=50; hskin=1.5}
! Header version: 2018
! Port assignment regex: !\s*Touchstone port\s*([0-9]+)\s*=\s*(CST MWS port|CST DS port)\s*([0-9]+|Zmin|Zmax)\s*\(\"(.*)\"\)(\s*mode\s*([0-9]+))?.*
! Touchstone port assignment:
! Touchstone port 1 = CST MWS port 1 ("")
! Touchstone port 2 = CST MWS port 2 ("")
# GHz S DB R 50
0.5                    -0.272627        -121.525         -55.6797         32.7992         -55.6796         32.7991      -0.00810035         151.144
0.501                  -0.273243        -121.919           -55.73         31.3289         -55.7301         31.3289      -0.00816931         151.079
0.502                  -0.273887        -122.316         -55.7761         29.8504         -55.7764         29.8504      -0.00823871         151.013
0.503                  -0.274559        -122.716         -55.8179          28.364         -55.8184         28.3641      -0.00830856         150.948
0.504                  -0.275262        -123.118         -55.8553         26.8703          -55.856         26.8704      -0.00837886         150.883
0.505                  -0.275997        -123.523         -55.8884           25.37         -55.8893           25.37      -0.00844959         150.817
0.506                  -0.276767        -123.932          -55.917         23.8635         -55.9181         23.8635      -0.00852078         150.752
0.507                  -0.277574        -124.343         -55.9412         22.3516         -55.9424         22.3514      -0.00859241         150.686
0.508                   -0.27842        -124.756         -55.9609         20.8347         -55.9622         20.8344      -0.00866449          150.62
0.509                  -0.279307        -125.173          -55.976         19.3137         -55.9775         19.3132      -0.00873702         150.554
0.51                   -0.280238        -125.593         -55.9866         17.7891         -55.9883         17.7884      -0.00880999         150.489
0.511                  -0.281214        -126.017         -55.9926         16.2615         -55.9944         16.2607      -0.00888342         150.423
0.512                  -0.282239        -126.443         -55.9941         14.7318          -55.996         14.7307       -0.0089573         150.357
0.513                  -0.283315        -126.872         -55.9909         13.2005         -55.9929         13.1991      -0.00903163         150.291
0.514                  -0.284444        -127.305         -55.9832         11.6683         -55.9853         11.6667      -0.00910641         150.224
0.515                  -0.285631        -127.741         -55.9709         10.1359         -55.9731          10.134      -0.00918165         150.158
0.516                  -0.286877         -128.18         -55.9541         8.60392         -55.9564          8.6018      -0.00925735         150.092
0.517                  -0.288186        -128.622         -55.9327         7.07307          -55.935         7.07068       -0.0093335         150.025
0.518                  -0.289561        -129.068         -55.9068         5.54398         -55.9092         5.54131      -0.00941012         149.959
0.519                  -0.291006        -129.518         -55.8764         4.01724         -55.8789          4.0143      -0.00948719         149.892
0.52                   -0.292523        -129.971         -55.8416         2.49348         -55.8441         2.49027      -0.00956473         149.826
0.521                  -0.294118        -130.428         -55.8024        0.973264         -55.8049        0.969791      -0.00964273         149.759
0.522                  -0.295793        -130.888         -55.7588       -0.542849         -55.7613       -0.546579       -0.0097212         149.692
0.523                  -0.297553        -131.352         -55.7108        -2.05433         -55.7134        -2.05831      -0.00980014         149.625
0.524                  -0.299402         -131.82         -55.6587        -3.56068         -55.6613         -3.5649      -0.00987955         149.558
0.525                  -0.301344        -132.292         -55.6023        -5.06144         -55.6049        -5.06588      -0.00995943         149.491
0.526                  -0.303385        -132.767         -55.5418        -6.55616         -55.5444        -6.56081       -0.0100398         149.424
0.527                  -0.305529        -133.247         -55.4772        -8.04445         -55.4798         -8.0493       -0.0101206         149.356
0.528                  -0.307781         -133.73         -55.4086        -9.52594         -55.4112        -9.53097        -0.010202         149.289
0.529                  -0.310147        -134.218         -55.3361        -11.0003         -55.3386        -11.0055       -0.0102838         149.222
0.53                   -0.312632         -134.71         -55.2596        -12.4672         -55.2622        -12.4726       -0.0103661         149.154
0.531                  -0.315242        -135.206         -55.1794        -13.9265         -55.1819        -13.9319       -0.0104488         149.086
0.532                  -0.317984        -135.707         -55.0954        -15.3778         -55.0979        -15.3834       -0.0105321         149.019
0.533                  -0.320864        -136.212         -55.0078         -16.821         -55.0103        -16.8267       -0.0106159         148.951
0.534                  -0.323889        -136.721         -54.9166         -18.256          -54.919        -18.2618       -0.0107002         148.883
0.535                  -0.327066        -137.236         -54.8218        -19.6827         -54.8242        -19.6885       -0.0107849         148.815
0.536                  -0.330403        -137.754         -54.7236        -21.1009          -54.726        -21.1068       -0.0108702         148.747
0.537                  -0.333909        -138.278         -54.6221        -22.5106         -54.6243        -22.5165        -0.010956         148.678
0.538                  -0.337591        -138.807         -54.5172        -23.9118         -54.5194        -23.9177       -0.0110424          148.61
0.539                  -0.341459         -139.34          -54.409        -25.3046         -54.4112        -25.3105       -0.0111292         148.542
0.54                   -0.345522        -139.879         -54.2977         -26.689         -54.2998        -26.6948       -0.0112166         148.473
0.541                   -0.34979        -140.423         -54.1833         -28.065         -54.1854        -28.0708       -0.0113045         148.405
0.542                  -0.354274        -140.972         -54.0658        -29.4328         -54.0678        -29.4386       -0.0113929         148.336
0.543                  -0.358985        -141.526         -53.9453        -30.7925         -53.9473        -30.7982       -0.0114819         148.267
0.544                  -0.363934        -142.086         -53.8219        -32.1444         -53.8238          -32.15       -0.0115714         148.198
0.545                  -0.369135        -142.652         -53.6956        -33.4885         -53.6975         -33.494       -0.0116615         148.129
0.546                  -0.374601        -143.224         -53.5665        -34.8252         -53.5683        -34.8306       -0.0117521          148.06
0.547                  -0.380346        -143.801         -53.4346        -36.1546         -53.4364          -36.16       -0.0118433          147.99
0.548                  -0.386384        -144.384            -53.3        -37.4771         -53.3017        -37.4823       -0.0119351         147.921
0.549                  -0.392732        -144.974         -53.1627         -38.793         -53.1643         -38.798       -0.0120275         147.851
0.55                   -0.399406         -145.57         -53.0228        -40.1025         -53.0243        -40.1074       -0.0121204         147.782
0.551                  -0.406425        -146.172         -52.8802         -41.406         -52.8817        -41.4108        -0.012214         147.712
0.552                  -0.413806        -146.781         -52.7351        -42.7039         -52.7366        -42.7085       -0.0123082         147.642
0.553                  -0.421572        -147.397         -52.5875        -43.9965         -52.5889         -44.001       -0.0124029         147.572
0.554                  -0.429742         -148.02         -52.4374        -45.2843         -52.4387        -45.2886       -0.0124984         147.502
0.555                   -0.43834         -148.65         -52.2848        -46.5677          -52.286        -46.5717       -0.0125944         147.432
0.556                   -0.44739        -149.287         -52.1297         -47.847         -52.1309        -47.8509       -0.0126911         147.362
0.557                  -0.456918        -149.932         -51.9723        -49.1228         -51.9734        -49.1265       -0.0127885         147.291
0.558                  -0.466953        -150.584         -51.8124        -50.3956         -51.8135        -50.3991       -0.0128865         147.221
0.559                  -0.477523        -151.244         -51.6502        -51.6657         -51.6513        -51.6691       -0.0129853          147.15
0.56                   -0.488661        -151.912         -51.4856        -52.9339         -51.4866         -52.937       -0.0130848         147.079
0.561                    -0.5004        -152.588         -51.3187        -54.2004         -51.3196        -54.2034        -0.013185         147.008
0.562                  -0.512776        -153.273         -51.1495         -55.466         -51.1503        -55.4688       -0.0132859         146.937
0.563                  -0.525829        -153.967         -50.9779        -56.7312         -50.9787        -56.7338       -0.0133877         146.866
0.564                  -0.539599        -154.669          -50.804        -57.9966         -50.8048         -57.999       -0.0134902         146.794
0.565                  -0.554132         -155.38         -50.6279        -59.2627         -50.6286        -59.2649       -0.0135935         146.723
0.566                  -0.569475        -156.101         -50.4494        -60.5303         -50.4501        -60.5323       -0.0136977         146.651
0.567                   -0.58568        -156.832         -50.2687        -61.7998         -50.2693        -61.8017       -0.0138028         146.579
0.568                  -0.602801        -157.572         -50.0857        -63.0721         -50.0863        -63.0738       -0.0139088         146.507
0.569                  -0.620898        -158.322         -49.9004        -64.3478         -49.9009        -64.3493       -0.0140158         146.435
0.57                   -0.640035        -159.083         -49.7128        -65.6276         -49.7133        -65.6289       -0.0141237         146.363
0.571                   -0.66028        -159.854          -49.523        -66.9122         -49.5235        -66.9134       -0.0142327         146.291
0.572                  -0.681707        -160.637         -49.3309        -68.2025         -49.3314        -68.2035       -0.0143428         146.218
0.573                  -0.704396         -161.43         -49.1366        -69.4991          -49.137           -69.5        -0.014454         146.146
0.574                  -0.728432        -162.235           -48.94        -70.8029         -48.9404        -70.8036       -0.0145663         146.073
0.575                  -0.753908        -163.052         -48.7412        -72.1147         -48.7415        -72.1153         -0.01468             146
0.576                  -0.780923        -163.881         -48.5401        -73.4355         -48.5404         -73.436        -0.014795         145.927
0.577                  -0.809587        -164.722         -48.3369         -74.766         -48.3371        -74.7664       -0.0149113         145.853
0.578                  -0.840015        -165.576         -48.1314        -76.1073         -48.1316        -76.1076       -0.0150292          145.78
0.579                  -0.872334        -166.443         -47.9237        -77.4603         -47.9239        -77.4604       -0.0151486         145.706
0.58                   -0.906679        -167.323         -47.7138        -78.8259         -47.7139         -78.826       -0.0152698         145.633
0.581                  -0.943199        -168.216         -47.5018        -80.2053         -47.5019        -80.2052       -0.0153926         145.559
0.582                  -0.982054        -169.123         -47.2876        -81.5995         -47.2877        -81.5993       -0.0155174         145.485
0.583                   -1.02341        -170.044         -47.0713        -83.0095         -47.0714        -83.0092       -0.0156443          145.41
0.584                   -1.06747        -170.979          -46.853        -84.4365          -46.853        -84.4362       -0.0157732         145.336
0.585                   -1.11442        -171.928         -46.6326        -85.8817         -46.6326        -85.8814       -0.0159045         145.261
0.586                   -1.16449        -172.892         -46.4102        -87.3464         -46.4102        -87.3459       -0.0160383         145.186
0.587                   -1.21792         -173.87          -46.186        -88.8317         -46.1859        -88.8312       -0.0161748         145.111
0.588                   -1.27495        -174.863         -45.9599        -90.3389         -45.9598        -90.3384        -0.016314         145.036
0.589                   -1.33588         -175.87          -45.732        -91.8694         -45.7319        -91.8688       -0.0164564         144.961
0.59                      -1.401        -176.891         -45.5025        -93.4245         -45.5024        -93.4239       -0.0166019         144.885
0.591                   -1.47064        -177.926         -45.2714        -95.0056         -45.2713        -95.0049        -0.016751          144.81
0.592                   -1.54514        -178.975         -45.0388        -96.6141         -45.0387        -96.6134       -0.0169038         144.734
0.593                    -1.6249         179.963          -44.805        -98.2514         -44.8048        -98.2508       -0.0170606         144.658
0.594                   -1.71032         178.889         -44.5699        -99.9191         -44.5698        -99.9184       -0.0172216         144.581
0.595                   -1.80183         177.803         -44.3339        -101.618         -44.3337        -101.618       -0.0173871         144.505
0.596                   -1.89992         176.708         -44.0971        -103.351         -44.0969        -103.351       -0.0175574         144.428
0.597                   -2.00508         175.604         -43.8597        -105.118         -43.8595        -105.118       -0.0177328         144.351
0.598                   -2.11785         174.494          -43.622        -106.922         -43.6217        -106.921       -0.0179135         144.274
0.599                    -2.2388         173.379         -43.3841        -108.763         -43.3839        -108.762       -0.0180999         144.197
0.6                     -2.36853         172.263         -43.1465        -110.642         -43.1462        -110.642       -0.0182922         144.119
0.601                   -2.50768         171.148         -42.9094        -112.562         -42.9091        -112.562       -0.0184907         144.042
0.602                    -2.6569          170.04         -42.6731        -114.524         -42.6729        -114.523       -0.0186956         143.964
0.603                   -2.81687         168.943         -42.4381        -116.527         -42.4379        -116.527       -0.0189072         143.886
0.604                   -2.98826         167.862         -42.2047        -118.574         -42.2045        -118.574       -0.0191256         143.807
0.605                   -3.17177         166.804         -41.9734        -120.665         -41.9732        -120.664        -0.019351         143.729
0.606                   -3.36805         165.778         -41.7446          -122.8         -41.7444          -122.8       -0.0195836          143.65
0.607                   -3.57773         164.792         -41.5188         -124.98         -41.5186         -124.98       -0.0198234         143.571
0.608                   -3.80135         163.857         -41.2966        -127.205         -41.2963        -127.205       -0.0200705         143.492
0.609                   -4.03936         162.985         -41.0784        -129.474         -41.0781        -129.474       -0.0203248         143.413
0.61                    -4.29204          162.19         -40.8647        -131.788         -40.8645        -131.788       -0.0205862         143.334
0.611                   -4.55945         161.489         -40.6563        -134.144          -40.656        -134.144       -0.0208548         143.254
0.612                   -4.84135         160.898         -40.4535        -136.542         -40.4533        -136.542       -0.0211301         143.174
0.613                    -5.1371         160.438          -40.257         -138.98         -40.2568         -138.98       -0.0214121         143.094
0.614                   -5.44557          160.13         -40.0673        -141.455         -40.0671        -141.455       -0.0217005         143.014
0.615                   -5.76498         159.997         -39.8849        -143.965         -39.8847        -143.966       -0.0219948         142.933
0.616                   -6.09275         160.062         -39.7103        -146.507         -39.7102        -146.508       -0.0222949         142.852
0.617                   -6.42536          160.35         -39.5441        -149.077         -39.5439        -149.078       -0.0226002         142.772
0.618                   -6.75823         160.883         -39.3865        -151.672         -39.3863        -151.672       -0.0229104          142.69
0.619                   -7.08559         161.677         -39.2379        -154.287         -39.2378        -154.287       -0.0232251         142.609
0.62                     -7.4005         162.745         -39.0986        -156.917         -39.0985        -156.917       -0.0235438         142.528
0.621                   -7.69498         164.089         -38.9688        -159.558         -38.9688        -159.558       -0.0238662         142.446
0.622                   -7.96038         165.697         -38.8487        -162.205         -38.8486        -162.205       -0.0241919         142.364
0.623                   -8.18795         167.544         -38.7382        -164.853         -38.7382        -164.853       -0.0245204         142.282
0.624                   -8.36963         169.588         -38.6374        -167.496         -38.6373        -167.496       -0.0248516         142.199
0.625                   -8.49895          171.77          -38.546         -170.13         -38.5459        -170.131        -0.025185         142.117
0.626                   -8.57188          174.02         -38.4639         -172.75         -38.4639        -172.751       -0.0255205         142.034
0.627                   -8.58737         176.265         -38.3908        -175.352         -38.3908        -175.352       -0.0258579         141.951
0.628                   -8.54747         178.431         -38.3263         -177.93         -38.3263         -177.93       -0.0261969         141.867
0.629                   -8.45696        -179.548           -38.27         179.518           -38.27         179.518       -0.0265374         141.784
