! TOUCHSTONE file generated by CST MICROWAVE STUDIO
! Date and time: Fri Dec 11 14:15:20 2020
! Project name: Scenario_1_Planar_Body_Tissue_Out_of_Line_v2.cst
! Parameters = {dy1=103.8; L_HA=400; Ltissue=700; MT=2.54; Rad_Dielectric=30; Rad_Lower=7.3; Rad_Upper=30; Wtissue=700; a_HA=580; a_WG=246; b_HA=500; b_WG=121; c_HA=0; c_WG=187; d_feed=85; dx1=520; h_feed=15; h_lower=18; h_upper=40; hfat=3; hgap=25; hmuscle=50; hskin=1.5}
! Header version: 2018
! Port assignment regex: !\s*Touchstone port\s*([0-9]+)\s*=\s*(CST MWS port|CST DS port)\s*([0-9]+|Zmin|Zmax)\s*\(\"(.*)\"\)(\s*mode\s*([0-9]+))?.*
! Touchstone port assignment:
! Touchstone port 1 = CST MWS port 1 ("")
! Touchstone port 2 = CST MWS port 2 ("")
# GHz S DB R 50
0.5                   -0.0783151        -121.949         -61.8117        -52.4792         -61.8119        -52.4776      -0.00738697         151.155
0.501                 -0.0813146        -122.415         -61.5878        -53.4585         -61.5881        -53.4569      -0.00744703          151.09
0.502                 -0.0845523        -122.885         -61.3602        -54.4537         -61.3604        -54.4521      -0.00750782         151.025
0.503                 -0.0880447        -123.359         -61.1287        -55.4656         -61.1289         -55.464      -0.00756936         150.959
0.504                 -0.0918098        -123.837         -60.8933        -56.4949         -60.8936        -56.4933      -0.00763167         150.894
0.505                 -0.0958676        -124.319          -60.654        -57.5425         -60.6542        -57.5409      -0.00769476         150.828
0.506                   -0.10024        -124.805         -60.4106        -58.6094         -60.4108        -58.6078      -0.00775867         150.762
0.507                   -0.10495        -125.295          -60.163        -59.6965         -60.1632         -59.695      -0.00782342         150.697
0.508                  -0.110025        -125.789         -59.9113        -60.8051         -59.9115        -60.8036      -0.00788903         150.631
0.509                  -0.115494        -126.288         -59.6552        -61.9363         -59.6554        -61.9347      -0.00795554         150.565
0.51                   -0.121388        -126.791         -59.3948        -63.0912          -59.395        -63.0897      -0.00802298         150.499
0.511                  -0.127742        -127.299           -59.13        -64.2714         -59.1302        -64.2699      -0.00809139         150.433
0.512                  -0.134596        -127.812         -58.8606        -65.4782         -58.8608        -65.4768      -0.00816081         150.367
0.513                  -0.141992        -128.329         -58.5867        -66.7134         -58.5869        -66.7119      -0.00823128           150.3
0.514                  -0.149978        -128.852         -58.3081        -67.9785         -58.3083         -67.977      -0.00830285         150.234
0.515                  -0.158606         -129.38         -58.0249        -69.2754         -58.0251        -69.2739      -0.00837558         150.168
0.516                  -0.167934        -129.913         -57.7369        -70.6061         -57.7371        -70.6047      -0.00844954         150.101
0.517                  -0.178025        -130.451         -57.4441        -71.9728         -57.4443        -71.9714      -0.00852478         150.035
0.518                  -0.188951        -130.994         -57.1466        -73.3779         -57.1467        -73.3765      -0.00860139         149.968
0.519                   -0.20079        -131.543         -56.8442        -74.8237         -56.8443        -74.8223      -0.00867944         149.901
0.52                   -0.213627        -132.098          -56.537         -76.313         -56.5371        -76.3116      -0.00875904         149.834
0.521                  -0.227558        -132.658         -56.2249        -77.8487         -56.2251        -77.8474      -0.00884028         149.767
0.522                  -0.242688        -133.223         -55.9082        -79.4339         -55.9083        -79.4326      -0.00892329           149.7
0.523                  -0.259132        -133.794         -55.5867         -81.072         -55.5868        -81.0707      -0.00900819         149.633
0.524                  -0.277015        -134.369         -55.2607        -82.7665         -55.2608        -82.7653      -0.00909512         149.566
0.525                  -0.296475         -134.95         -54.9303        -84.5214         -54.9304        -84.5201      -0.00918425         149.499
0.526                  -0.317662        -135.534         -54.5957        -86.3406         -54.5958        -86.3394      -0.00927573         149.431
0.527                  -0.340737        -136.123         -54.2572        -88.2285         -54.2573        -88.2273      -0.00936977         149.364
0.528                   -0.36587        -136.715         -53.9151        -90.1897         -53.9152        -90.1885      -0.00946658         149.296
0.529                  -0.393245         -137.31         -53.5698        -92.2289         -53.5698        -92.2278      -0.00956636         149.228
0.53                    -0.42305        -137.906         -53.2218        -94.3512         -53.2219        -94.3501      -0.00966937          149.16
0.531                   -0.45548        -138.501         -52.8718        -96.5616         -52.8718        -96.5606      -0.00977586         149.093
0.532                  -0.490726        -139.095         -52.5204        -98.8654         -52.5204        -98.8644      -0.00988608         149.025
0.533                  -0.528972        -139.686         -52.1686        -101.268         -52.1686        -101.267       -0.0100003         148.956
0.534                  -0.570382         -140.27         -51.8174        -103.774         -51.8174        -103.773       -0.0101188         148.888
0.535                  -0.615087        -140.845         -51.4679        -106.388         -51.4679        -106.387       -0.0102418          148.82
0.536                  -0.663172        -141.408         -51.1215        -109.115         -51.1215        -109.114       -0.0103696         148.751
0.537                  -0.714646        -141.954         -50.7798        -111.958         -50.7798        -111.957       -0.0105023         148.683
0.538                  -0.769426        -142.481         -50.4444        -114.919         -50.4444        -114.919         -0.01064         148.614
0.539                  -0.827306        -142.982         -50.1174        -118.001         -50.1174            -118       -0.0107828         148.546
0.54                   -0.887925        -143.453         -49.8008        -121.202         -49.8007        -121.202       -0.0109306         148.477
0.541                  -0.950745        -143.889         -49.4967        -124.521         -49.4966        -124.521       -0.0110831         148.408
0.542                   -1.01503        -144.286         -49.2074        -127.953         -49.2073        -127.953       -0.0112399         148.339
0.543                   -1.07982        -144.639         -48.9352        -131.491         -48.9351        -131.491       -0.0114005          148.27
0.544                   -1.14398        -144.947         -48.6823        -135.125         -48.6823        -135.125       -0.0115642         148.201
0.545                   -1.20618        -145.206         -48.4508        -138.842         -48.4507        -138.842       -0.0117299         148.132
0.546                     -1.265        -145.419         -48.2424        -142.629         -48.2424        -142.629       -0.0118968         148.063
0.547                   -1.31897        -145.588         -48.0586        -146.466         -48.0586        -146.466       -0.0120636         147.994
0.548                   -1.36671        -145.718         -47.9005        -150.337         -47.9005        -150.337       -0.0122291         147.924
0.549                   -1.40703        -145.817         -47.7686        -154.219         -47.7686        -154.219       -0.0123922         147.855
0.55                    -1.43903        -145.895         -47.6628        -158.092         -47.6628        -158.092       -0.0125518         147.786
0.551                   -1.46215        -145.961         -47.5826        -161.937         -47.5826        -161.937       -0.0127072         147.716
0.552                   -1.47627        -146.028         -47.5271        -165.733         -47.5271        -165.733       -0.0128575         147.646
0.553                   -1.48163        -146.106         -47.4947        -169.464         -47.4947        -169.465       -0.0130025         147.577
0.554                   -1.47884        -146.205         -47.4837        -173.115         -47.4837        -173.115        -0.013142         147.507
0.555                   -1.46878        -146.332         -47.4919        -176.673          -47.492        -176.673       -0.0132759         147.437
0.556                   -1.45251        -146.495         -47.5173         179.873         -47.5173         179.873       -0.0134048         147.367
0.557                   -1.43117        -146.696         -47.5573         176.528         -47.5574         176.528       -0.0135288         147.297
0.558                   -1.40592         -146.94         -47.6099         173.297           -47.61         173.297       -0.0136488         147.226
0.559                   -1.37784        -147.226         -47.6728         170.184         -47.6728         170.184       -0.0137652         147.156
0.56                    -1.34793        -147.554         -47.7438         167.187         -47.7438         167.187       -0.0138787         147.085
0.561                   -1.31706        -147.923          -47.821         164.306         -47.8211         164.306       -0.0139901         147.015
0.562                   -1.28596        -148.331         -47.9028         161.539         -47.9028         161.539          -0.0141         146.944
0.563                   -1.25522        -148.774         -47.9874          158.88         -47.9875          158.88       -0.0142089         146.873
0.564                    -1.2253        -149.251         -48.0736         156.327         -48.0737         156.327       -0.0143173         146.802
0.565                   -1.19658        -149.759         -48.1601         153.874         -48.1602         153.874       -0.0144259          146.73
0.566                   -1.16931        -150.294         -48.2459         151.516         -48.2459         151.516       -0.0145349         146.659
0.567                   -1.14369        -150.855           -48.33         149.248           -48.33         149.248       -0.0146448         146.587
0.568                   -1.11984        -151.438         -48.4117         147.065         -48.4118         147.065       -0.0147559         146.515
0.569                   -1.09784        -152.043         -48.4904          144.96         -48.4904          144.96       -0.0148683         146.443
0.57                    -1.07772        -152.667         -48.5655          142.93         -48.5655          142.93       -0.0149825         146.371
0.571                   -1.05949        -153.308         -48.6366         140.968         -48.6366         140.969       -0.0150984         146.299
0.572                   -1.04314        -153.965         -48.7033         139.071         -48.7034         139.071       -0.0152163         146.226
0.573                   -1.02864        -154.637         -48.7654         137.234         -48.7655         137.234       -0.0153363         146.154
0.574                   -1.01596        -155.322         -48.8226         135.452         -48.8227         135.452       -0.0154585         146.081
0.575                   -1.00505        -156.021         -48.8748         133.722         -48.8748         133.722       -0.0155829         146.008
0.576                  -0.995869        -156.731         -48.9217         132.039         -48.9217         132.039       -0.0157097         145.935
0.577                   -0.98837        -157.453         -48.9633           130.4         -48.9634           130.4       -0.0158389         145.862
0.578                   -0.98251        -158.186         -48.9996         128.802         -48.9997         128.802       -0.0159705         145.788
0.579                  -0.978246         -158.93         -49.0305         127.241         -49.0305         127.241       -0.0161046         145.715
0.58                   -0.975539        -159.684         -49.0559         125.714          -49.056         125.714       -0.0162411         145.641
0.581                  -0.974355        -160.448         -49.0759          124.22          -49.076          124.22       -0.0163802         145.567
0.582                  -0.974664        -161.222         -49.0905         122.754         -49.0905         122.754       -0.0165219         145.493
0.583                  -0.976442        -162.005         -49.0996         121.315         -49.0997         121.315       -0.0166661         145.419
0.584                  -0.979667        -162.799         -49.1034           119.9         -49.1034           119.9       -0.0168129         145.345
0.585                  -0.984325        -163.602         -49.1018         118.508         -49.1018         118.508       -0.0169623          145.27
0.586                  -0.990406        -164.415         -49.0949         117.135         -49.0949         117.135       -0.0171143         145.196
0.587                  -0.997907        -165.238         -49.0828         115.781         -49.0828         115.781       -0.0172689         145.121
0.588                   -1.00683         -166.07         -49.0654         114.443         -49.0654         114.443       -0.0174262         145.046
0.589                   -1.01718        -166.913         -49.0429         113.119          -49.043         113.119       -0.0175862         144.971
0.59                    -1.02897        -167.766         -49.0153         111.808         -49.0154         111.808       -0.0177489         144.895
0.591                   -1.04221         -168.63         -48.9827         110.509         -48.9828         110.509       -0.0179142          144.82
0.592                   -1.05694        -169.504         -48.9451         109.219         -48.9452         109.219       -0.0180823         144.744
0.593                   -1.07317        -170.389         -48.9026         107.938         -48.9027         107.938       -0.0182532         144.668
0.594                   -1.09095        -171.285         -48.8553         106.663         -48.8554         106.663       -0.0184268         144.592
0.595                   -1.11031        -172.192         -48.8032         105.394         -48.8033         105.394       -0.0186033         144.516
0.596                    -1.1313        -173.111         -48.7464         104.129         -48.7465         104.129       -0.0187826         144.439
0.597                   -1.15398        -174.041         -48.6849         102.867          -48.685         102.867       -0.0189647         144.363
0.598                    -1.1784        -174.984         -48.6189         101.606          -48.619         101.606       -0.0191497         144.286
0.599                   -1.20463        -175.939         -48.5484         100.346         -48.5484         100.346       -0.0193377         144.209
0.6                     -1.23274        -176.907         -48.4734         99.0856         -48.4734         99.0855       -0.0195286         144.132
0.601                   -1.26282        -177.888          -48.394         97.8231         -48.3941          97.823       -0.0197225         144.054
0.602                   -1.29496        -178.882         -48.3103         96.5575         -48.3104         96.5574       -0.0199194         143.977
0.603                   -1.32924         -179.89         -48.2224         95.2877         -48.2225         95.2876       -0.0201194         143.899
0.604                   -1.36577         179.089         -48.1304         94.0127         -48.1305         94.0126       -0.0203225         143.821
0.605                   -1.40468         178.053         -48.0343         92.7313         -48.0343         92.7312       -0.0205287         143.743
0.606                   -1.44608         177.003         -47.9341         91.4424         -47.9342         91.4423       -0.0207382         143.664
0.607                   -1.49012         175.937         -47.8301          90.145         -47.8302         90.1449       -0.0209508         143.586
0.608                   -1.53692         174.857         -47.7222          88.838         -47.7223         88.8379       -0.0211668         143.507
0.609                   -1.58666         173.762         -47.6106         87.5203         -47.6107         87.5202       -0.0213861         143.428
0.61                     -1.6395         172.651         -47.4954         86.1908         -47.4954         86.1907       -0.0216087         143.349
0.611                   -1.69562         171.524         -47.3765         84.8485         -47.3766         84.8484       -0.0218348         143.269
0.612                   -1.75523         170.381         -47.2543         83.4923         -47.2544         83.4922       -0.0220644         143.189
0.613                   -1.81852         169.222         -47.1287         82.1212         -47.1288         82.1211       -0.0222975          143.11
0.614                   -1.88574         168.046         -46.9999          80.734         -46.9999         80.7339       -0.0225342         143.029
0.615                   -1.95712         166.854         -46.8679         79.3298          -46.868         79.3298       -0.0227746         142.949
0.616                   -2.03292         165.646          -46.733         77.9076         -46.7331         77.9075       -0.0230187         142.868
0.617                   -2.11342         164.422         -46.5953         76.4662         -46.5954         76.4661       -0.0232666         142.788
0.618                   -2.19893         163.181         -46.4549         75.0047          -46.455         75.0046       -0.0235183         142.707
0.619                   -2.28977         161.925         -46.3119          73.522          -46.312          73.522       -0.0237739         142.625
0.62                    -2.38627         160.652         -46.1666         72.0173         -46.1667         72.0172       -0.0240335         142.544
0.621                   -2.48881         159.365          -46.019         70.4894         -46.0191         70.4894       -0.0242972         142.462
0.622                   -2.59777         158.063         -45.8695         68.9376         -45.8696         68.9376        -0.024565          142.38
0.623                   -2.71358         156.748         -45.7181          67.361         -45.7182          67.361        -0.024837         142.298
0.624                   -2.83667         155.419         -45.5652         65.7585         -45.5653         65.7586       -0.0251132         142.215
0.625                   -2.96751         154.079         -45.4108         64.1296         -45.4109         64.1297       -0.0253939         142.132
0.626                   -3.10661         152.729         -45.2553         62.4735         -45.2554         62.4735       -0.0256789         142.049
0.627                   -3.25449          151.37         -45.0989         60.7894          -45.099         60.7895       -0.0259685         141.966
0.628                    -3.4117         150.005         -44.9419         59.0769          -44.942          59.077       -0.0262627         141.882
0.629                   -3.57884         148.636         -44.7845         57.3354         -44.7846         57.3355       -0.0265615         141.798
