! TOUCHSTONE file generated by CST MICROWAVE STUDIO
! Date and time: Mon Nov 30 08:10:54 2020
! Project name: Scenario_1_Planar_Body_Tissue_Out_of_Line.cst
! Parameters = {dy1=103.8; L_HA=400; Ltissue=700; MT=2.54; Rad_Dielectric=30; Rad_Lower=7.3; Rad_Upper=30; Wtissue=700; a_HA=580; a_WG=246; b_HA=500; b_WG=121; c_HA=0; c_WG=187; d_feed=85; dx1=866; h_feed=15; h_lower=18; h_upper=40; hfat=3; hgap=25; hmuscle=50; hskin=1.5}
! Header version: 2018
! Port assignment regex: !\s*Touchstone port\s*([0-9]+)\s*=\s*(CST MWS port|CST DS port)\s*([0-9]+|Zmin|Zmax)\s*\(\"(.*)\"\)(\s*mode\s*([0-9]+))?.*
! Touchstone port assignment:
! Touchstone port 1 = CST MWS port 1 ("")
! Touchstone port 2 = CST MWS port 2 ("")
# GHz S DB R 50
0.5                    -0.103205        -122.126         -63.7715         103.759         -63.7702         103.764      -0.00748188         151.158
0.501                  -0.108401         -122.59         -63.5236         102.109         -63.5223         102.113       -0.0075504         151.093
0.502                  -0.114052        -123.057         -63.2706         100.421         -63.2692         100.424      -0.00761993         151.028
0.503                  -0.120204        -123.528         -63.0124         98.6904         -63.0111         98.6933      -0.00769052         150.962
0.504                  -0.126905        -124.003         -62.7492         96.9163          -62.748         96.9187      -0.00776225         150.897
0.505                  -0.134209        -124.483         -62.4811         95.0957           -62.48         95.0976      -0.00783519         150.831
0.506                  -0.142174        -124.966         -62.2081         93.2256         -62.2071         93.2271      -0.00790941         150.766
0.507                  -0.150862        -125.452         -61.9305         91.3033         -61.9296         91.3043        -0.007985           150.7
0.508                   -0.16034        -125.943         -61.6484         89.3254         -61.6477          89.326      -0.00806204         150.634
0.509                   -0.17068        -126.437         -61.3622         87.2887         -61.3616         87.2889      -0.00814063         150.568
0.51                   -0.181956        -126.933         -61.0721         85.1896         -61.0716         85.1896      -0.00822085         150.502
0.511                  -0.194245        -127.433         -60.7784         83.0245         -60.7781         83.0243      -0.00830278         150.436
0.512                  -0.207629        -127.935         -60.4817         80.7898         -60.4816         80.7895      -0.00838652          150.37
0.513                  -0.222184        -128.438         -60.1825         78.4815         -60.1825         78.4811      -0.00847212         150.304
0.514                  -0.237987        -128.943         -59.8814          76.096         -59.8815         76.0956      -0.00855966         150.238
0.515                  -0.255109        -129.447          -59.579         73.6293         -59.5793          73.629      -0.00864916         150.172
0.516                  -0.273609        -129.951         -59.2762         71.0779         -59.2767         71.0778      -0.00874067         150.105
0.517                   -0.29353        -130.453         -58.9741         68.4384         -58.9747         68.4386      -0.00883416         150.039
0.518                  -0.314895        -130.951         -58.6735         65.7077         -58.6743         65.7083      -0.00892959         149.972
0.519                  -0.337696        -131.445         -58.3757         62.8834         -58.3767         62.8844      -0.00902688         149.905
0.52                    -0.36189        -131.933         -58.0821         59.9636         -58.0832         59.9651      -0.00912592         149.839
0.521                  -0.387387        -132.412         -57.7941         56.9475         -57.7952         56.9495      -0.00922653         149.772
0.522                  -0.414045        -132.882         -57.5131         53.8351         -57.5143         53.8378      -0.00932852         149.705
0.523                  -0.441663        -133.341         -57.2409         50.6279         -57.2422         50.6313      -0.00943163         149.638
0.524                  -0.469978        -133.787         -56.9791          47.329         -56.9804          47.333      -0.00953559         149.571
0.525                  -0.498662        -134.218         -56.7295         43.9429         -56.7308         43.9475      -0.00964012         149.504
0.526                  -0.527335        -134.635         -56.4938         40.4761          -56.495         40.4812       -0.0097449         149.437
0.527                  -0.555566        -135.037         -56.2735         36.9369         -56.2747         36.9425      -0.00984965          149.37
0.528                  -0.582898        -135.423         -56.0702         33.3354         -56.0713         33.3413      -0.00995409         149.302
0.529                  -0.608869        -135.796         -55.8851         29.6835         -55.8862         29.6896        -0.010058         149.235
0.53                   -0.633034        -136.155         -55.7193         25.9945         -55.7203         26.0007       -0.0101611         149.167
0.531                     -0.655        -136.504         -55.5736          22.283         -55.5744         22.2892       -0.0102633           149.1
0.532                  -0.674441        -136.844         -55.4482         18.5642         -55.4489         18.5701       -0.0103646         149.032
0.533                  -0.691126         -137.18         -55.3432         14.8538         -55.3438         14.8593       -0.0104648         148.964
0.534                  -0.704925        -137.514         -55.2583         11.1671         -55.2587          11.172        -0.010564         148.896
0.535                  -0.715815        -137.849         -55.1927         7.51882         -55.1931           7.523       -0.0106621         148.829
0.536                  -0.723873         -138.19         -55.1456         3.92251         -55.1458         3.92581       -0.0107594          148.76
0.537                  -0.729265        -138.538         -55.1155        0.390289         -55.1157        0.392613        -0.010856         148.692
0.538                  -0.732222        -138.897          -55.101        -3.06743         -55.1012        -3.06615       -0.0109519         148.624
0.539                  -0.733031        -139.268         -55.1006        -6.44208         -55.1006         -6.4419       -0.0110473         148.556
0.54                   -0.732002        -139.653         -55.1123        -9.72699         -55.1124        -9.72793       -0.0111424         148.487
0.541                  -0.729461        -140.054         -55.1346        -12.9173         -55.1347        -12.9194       -0.0112373         148.419
0.542                  -0.725727         -140.47         -55.1657          -16.01         -55.1658        -16.0132       -0.0113323          148.35
0.543                  -0.721106        -140.902         -55.2038        -19.0035         -55.2039        -19.0077       -0.0114273         148.281
0.544                  -0.715877        -141.351         -55.2474        -21.8976         -55.2476        -21.9028       -0.0115227         148.212
0.545                  -0.710295        -141.815          -55.295        -24.6934         -55.2952        -24.6994       -0.0116185         148.143
0.546                  -0.704582        -142.296         -55.3451        -27.3927         -55.3454        -27.3995       -0.0117149         148.074
0.547                  -0.698933        -142.791         -55.3966        -29.9983         -55.3969        -30.0057       -0.0118119         148.005
0.548                  -0.693511        -143.302         -55.4482        -32.5134         -55.4486        -32.5214       -0.0119097         147.935
0.549                  -0.688456        -143.826          -55.499        -34.9418         -55.4996        -34.9503       -0.0120084         147.866
0.55                   -0.683883        -144.364         -55.5482        -37.2875         -55.5488        -37.2964       -0.0121079         147.796
0.551                   -0.67989        -144.915         -55.5948        -39.5546         -55.5955        -39.5638       -0.0122085         147.726
0.552                  -0.676555        -145.478         -55.6382        -41.7475          -55.639        -41.7568       -0.0123102         147.657
0.553                  -0.673944        -146.054         -55.6779        -43.8705         -55.6788        -43.8798        -0.012413         147.587
0.554                  -0.672111        -146.641         -55.7133        -45.9278         -55.7142        -45.9371        -0.012517         147.516
0.555                  -0.671101        -147.239         -55.7439        -47.9236          -55.745        -47.9328       -0.0126223         147.446
0.556                  -0.670952        -147.847         -55.7695        -49.8621         -55.7706        -49.8711       -0.0127288         147.376
0.557                  -0.671698        -148.466         -55.7897        -51.7472         -55.7908         -51.756       -0.0128367         147.305
0.558                   -0.67337        -149.096         -55.8042        -53.5828         -55.8054        -53.5913        -0.012946         147.235
0.559                  -0.675995        -149.735         -55.8128        -55.3727          -55.814        -55.3808       -0.0130566         147.164
0.56                   -0.679601        -150.384         -55.8153        -57.1203         -55.8165         -57.128       -0.0131687         147.093
0.561                  -0.684215        -151.042         -55.8116        -58.8291         -55.8128        -58.8364       -0.0132823         147.022
0.562                  -0.689865         -151.71         -55.8015        -60.5025         -55.8027        -60.5093       -0.0133974         146.951
0.563                  -0.696581        -152.388         -55.7849        -62.1436         -55.7862        -62.1499       -0.0135141          146.88
0.564                  -0.704396        -153.075         -55.7618        -63.7555          -55.763        -63.7613       -0.0136323         146.808
0.565                  -0.713344        -153.771          -55.732         -65.341         -55.7333        -65.3463       -0.0137521         146.737
0.566                  -0.723464        -154.477         -55.6956        -66.9031         -55.6968        -66.9078       -0.0138736         146.665
0.567                  -0.734798        -155.192         -55.6525        -68.4444         -55.6537        -68.4487       -0.0139967         146.593
0.568                  -0.747393        -155.916         -55.6027        -69.9676         -55.6038        -69.9714       -0.0141215         146.522
0.569                    -0.7613         -156.65         -55.5461        -71.4754         -55.5472        -71.4786        -0.014248         146.449
0.57                   -0.776576        -157.394         -55.4828        -72.9701         -55.4838        -72.9729       -0.0143764         146.377
0.571                  -0.793284        -158.147         -55.4127        -74.4543         -55.4137        -74.4567       -0.0145065         146.305
0.572                   -0.81149        -158.909          -55.336        -75.9304         -55.3369        -75.9323       -0.0146384         146.232
0.573                  -0.831271        -159.682         -55.2525        -77.4006         -55.2533        -77.4022       -0.0147722          146.16
0.574                  -0.852709        -160.464         -55.1623        -78.8675          -55.163        -78.8687       -0.0149079         146.087
0.575                  -0.875892        -161.256         -55.0654        -80.3331         -55.0661         -80.334       -0.0150456         146.014
0.576                  -0.900918        -162.058          -54.962        -81.7999         -54.9626        -81.8005       -0.0151852         145.941
0.577                  -0.927895        -162.869          -54.852        -83.2701         -54.8526        -83.2704       -0.0153268         145.868
0.578                  -0.956936        -163.691         -54.7355        -84.7459          -54.736         -84.746       -0.0154705         145.794
0.579                  -0.988166        -164.522         -54.6126        -86.2295          -54.613        -86.2295       -0.0156164         145.721
0.58                    -1.02172        -165.363         -54.4833        -87.7233         -54.4836        -87.7232       -0.0157643         145.647
0.581                   -1.05775        -166.214         -54.3478        -89.2295          -54.348        -89.2293       -0.0159145         145.573
0.582                   -1.09641        -167.074          -54.206        -90.7504         -54.2062        -90.7501       -0.0160669         145.499
0.583                   -1.13786        -167.943         -54.0582        -92.2881         -54.0583        -92.2878       -0.0162216         145.425
0.584                   -1.18229        -168.821         -53.9045        -93.8451         -53.9045        -93.8448       -0.0163787         145.351
0.585                    -1.2299        -169.707         -53.7449        -95.4236         -53.7449        -95.4234       -0.0165381         145.276
0.586                    -1.2809        -170.602         -53.5797         -97.026         -53.5796        -97.0258       -0.0167001         145.202
0.587                   -1.33549        -171.503          -53.409        -98.6545         -53.4088        -98.6544       -0.0168645         145.127
0.588                   -1.39392        -172.411          -53.233        -100.311         -53.2328        -100.311       -0.0170315         145.052
0.589                   -1.45643        -173.324         -53.0519        -101.999         -53.0516        -101.999       -0.0172012         144.977
0.59                    -1.52329        -174.242         -52.8659         -103.72         -52.8656        -103.721       -0.0173736         144.901
0.591                   -1.59475        -175.162         -52.6754        -105.477          -52.675        -105.477       -0.0175487         144.826
0.592                   -1.67108        -176.083         -52.4805        -107.271         -52.4801        -107.272       -0.0177267          144.75
0.593                   -1.75258        -177.004         -52.2816        -109.105         -52.2813        -109.106       -0.0179076         144.674
0.594                   -1.83952        -177.921         -52.0791        -110.982         -52.0787        -110.983       -0.0180915         144.598
0.595                   -1.93218        -178.832         -51.8733        -112.903         -51.8729        -112.904       -0.0182784         144.522
0.596                   -2.03081        -179.734         -51.6646         -114.87         -51.6642        -114.871       -0.0184684         144.445
0.597                   -2.13567         179.377         -51.4535        -116.886         -51.4531        -116.887       -0.0186617         144.369
0.598                   -2.24696         178.505         -51.2404        -118.952         -51.2401        -118.953       -0.0188582         144.292
0.599                   -2.36485         177.654          -51.026         -121.07         -51.0256        -121.071        -0.019058         144.215
0.6                     -2.48944          176.83         -50.8107         -123.24         -50.8103        -123.242       -0.0192612         144.138
0.601                   -2.62078         176.038         -50.5951        -125.465         -50.5948        -125.467       -0.0194678         144.061
0.602                   -2.75876         175.285         -50.3798        -127.745         -50.3796        -127.747        -0.019678         143.983
0.603                   -2.90321         174.577         -50.1656        -130.081         -50.1654        -130.082       -0.0198918         143.905
0.604                   -3.05375         173.922         -49.9531        -132.472         -49.9528        -132.473       -0.0201092         143.827
0.605                   -3.20984         173.328          -49.743        -134.918         -49.7427        -134.919       -0.0203303         143.749
0.606                   -3.37074         172.803         -49.5359        -137.419         -49.5357         -137.42       -0.0205551         143.671
0.607                   -3.53544         172.353         -49.3328        -139.973         -49.3326        -139.974       -0.0207837         143.592
0.608                   -3.70267         171.987         -49.1342        -142.578          -49.134        -142.578        -0.021016         143.513
0.609                   -3.87089         171.712         -48.9408        -145.231         -48.9406        -145.232       -0.0212522         143.435
0.61                    -4.03825         171.532         -48.7534        -147.931         -48.7532        -147.931       -0.0214921         143.355
0.611                   -4.20267         171.451         -48.5725        -150.673         -48.5723        -150.673       -0.0217358         143.276
0.612                   -4.36179         171.471         -48.3987        -153.453         -48.3986        -153.453       -0.0219833         143.196
0.613                   -4.51312         171.591         -48.2327        -156.267         -48.2325        -156.267       -0.0222345         143.117
0.614                   -4.65406         171.805         -48.0747         -159.11         -48.0745         -159.11       -0.0224895         143.037
0.615                   -4.78208         172.105         -47.9251        -161.976         -47.9249        -161.976       -0.0227481         142.956
0.616                   -4.89479          172.48         -47.7842        -164.861          -47.784        -164.861       -0.0230102         142.876
0.617                   -4.99016         172.914         -47.6522        -167.758         -47.6519        -167.758        -0.023276         142.795
0.618                   -5.06659          173.39          -47.529        -170.662         -47.5287        -170.662       -0.0235452         142.714
0.619                   -5.12304         173.887         -47.4146        -173.567         -47.4144        -173.567       -0.0238178         142.633
0.62                    -5.15912         174.384         -47.3089        -176.468         -47.3087        -176.467       -0.0240938         142.552
0.621                   -5.17507          174.86         -47.2116        -179.359         -47.2113        -179.358        -0.024373          142.47
0.622                   -5.17177         175.295         -47.1224         177.765         -47.1221         177.766       -0.0246555         142.388
0.623                   -5.15061         175.671         -47.0407         174.909         -47.0404         174.909       -0.0249411         142.306
0.624                   -5.11342         175.972         -46.9662         172.075         -46.9659         172.075       -0.0252298         142.224
0.625                   -5.06233         176.187         -46.8983         169.269          -46.898         169.269       -0.0255217         142.141
0.626                   -4.99963         176.306         -46.8363         166.493         -46.8361         166.492       -0.0258166         142.058
0.627                   -4.92762         176.324         -46.7798         163.749         -46.7795         163.749       -0.0261147         141.975
0.628                   -4.84858         176.238          -46.728          161.04         -46.7277         161.039       -0.0264159         141.892
0.629                   -4.76462         176.047         -46.6803         158.367         -46.6801         158.366       -0.0267202         141.808
