! TOUCHSTONE file generated by CST MICROWAVE STUDIO
! Date and time: Tue Nov 24 13:44:56 2020
! Project name: Scenario_1_Planar_Body_Tissue_Out_of_Line.cst
! Parameters = {dy1=121.1; L_HA=400; Ltissue=700; MT=2.54; Rad_Dielectric=30; Rad_Lower=7.3; Rad_Upper=30; Wtissue=700; a_HA=580; a_WG=246; b_HA=500; b_WG=121; c_HA=0; c_WG=187; d_feed=85; dx1=1039; h_feed=15; h_lower=18; h_upper=40; hfat=3; hgap=25; hmuscle=50; hskin=1.5}
! Header version: 2018
! Port assignment regex: !\s*Touchstone port\s*([0-9]+)\s*=\s*(CST MWS port|CST DS port)\s*([0-9]+|Zmin|Zmax)\s*\(\"(.*)\"\)(\s*mode\s*([0-9]+))?.*
! Touchstone port assignment:
! Touchstone port 1 = CST MWS port 1 ("")
! Touchstone port 2 = CST MWS port 2 ("")
# GHz S DB R 50
0.5                    -0.156755        -121.584         -64.0011         -18.667          -64.001        -18.6668      -0.00760534         151.158
0.501                  -0.158128        -122.012         -63.9356        -20.7378         -63.9358         -20.738      -0.00766718         151.093
0.502                  -0.159585        -122.444         -63.8689        -22.8062         -63.8694        -22.8066      -0.00772973         151.027
0.503                  -0.161133        -122.879         -63.8011        -24.8707         -63.8018        -24.8713        -0.007793         150.962
0.504                  -0.162777        -123.318         -63.7319        -26.9301         -63.7329        -26.9307      -0.00785699         150.897
0.505                  -0.164525        -123.759         -63.6613         -28.983         -63.6625        -28.9836      -0.00792172         150.831
0.506                  -0.166384        -124.205         -63.5891        -31.0282         -63.5904        -31.0286      -0.00798719         150.766
0.507                  -0.168361        -124.654         -63.5153        -33.0645         -63.5167        -33.0647      -0.00805341           150.7
0.508                  -0.170466        -125.106         -63.4395        -35.0908          -63.441        -35.0906      -0.00812039         150.634
0.509                  -0.172708        -125.562         -63.3617        -37.1059         -63.3633        -37.1054      -0.00818813         150.568
0.51                   -0.175096        -126.022         -63.2818        -39.1088         -63.2834         -39.108      -0.00825666         150.503
0.511                  -0.177642        -126.486         -63.1993        -41.0988          -63.201        -41.0976      -0.00832596         150.437
0.512                  -0.180357        -126.954         -63.1143        -43.0749         -63.1159        -43.0733      -0.00839607         150.371
0.513                  -0.183254        -127.426         -63.0264        -45.0366          -63.028        -45.0347      -0.00846698         150.304
0.514                  -0.186347        -127.902         -62.9354        -46.9833         -62.9369        -46.9811      -0.00853871         150.238
0.515                   -0.18965        -128.383          -62.841        -48.9146         -62.8425        -48.9121      -0.00861126         150.172
0.516                  -0.193181        -128.868          -62.743        -50.8304         -62.7444        -50.8276      -0.00868466         150.106
0.517                  -0.196956        -129.357         -62.6411        -52.7305         -62.6424        -52.7276       -0.0087589         150.039
0.518                  -0.200996        -129.851         -62.5351        -54.6152         -62.5362        -54.6121      -0.00883401         149.973
0.519                  -0.205321         -130.35         -62.4245        -56.4847         -62.4256        -56.4815         -0.00891         149.906
0.52                   -0.209955        -130.853         -62.3093        -58.3395         -62.3102        -58.3364      -0.00898688         149.839
0.521                  -0.214924        -131.362          -62.189        -60.1804         -62.1897        -60.1773      -0.00906467         149.772
0.522                  -0.220254        -131.876         -62.0633        -62.0083         -62.0639        -62.0054      -0.00914339         149.705
0.523                  -0.225976        -132.395          -61.932        -63.8244         -61.9325        -63.8217      -0.00922304         149.638
0.524                  -0.232124        -132.919         -61.7948        -65.6301         -61.7951        -65.6276      -0.00930366         149.571
0.525                  -0.238734        -133.449         -61.6513         -67.427         -61.6515        -67.4248      -0.00938526         149.504
0.526                  -0.245848        -133.984         -61.5013         -69.217         -61.5014        -69.2152      -0.00946787         149.437
0.527                  -0.253508        -134.526         -61.3446        -71.0022         -61.3446        -71.0007       -0.0095515          149.37
0.528                  -0.261764        -135.073         -61.1808        -72.7849         -61.1807        -72.7838      -0.00963619         149.302
0.529                   -0.27067        -135.626         -61.0098        -74.5678         -61.0096        -74.5671      -0.00972196         149.235
0.53                   -0.280284        -136.185         -60.8312        -76.3537          -60.831        -76.3534      -0.00980885         149.167
0.531                  -0.290673        -136.751          -60.645        -78.1458         -60.6447        -78.1459      -0.00989689         149.099
0.532                  -0.301908        -137.322         -60.4509        -79.9473         -60.4505        -79.9479      -0.00998611         149.031
0.533                  -0.314068          -137.9         -60.2487         -81.762         -60.2483         -81.763       -0.0100766         148.963
0.534                   -0.32724        -138.485         -60.0384        -83.5938         -60.0379        -83.5951       -0.0101683         148.895
0.535                  -0.341521        -139.076         -59.8198        -85.4467         -59.8193        -85.4483       -0.0102613         148.827
0.536                  -0.357016        -139.673         -59.5929        -87.3253         -59.5924        -87.3271       -0.0103558         148.759
0.537                  -0.373839        -140.277         -59.3577        -89.2341         -59.3573        -89.2361       -0.0104516         148.691
0.538                  -0.392117        -140.886         -59.1143        -91.1781         -59.1139        -91.1802        -0.010549         148.622
0.539                  -0.411987        -141.502         -58.8628        -93.1624         -58.8623        -93.1646        -0.010648         148.554
0.54                   -0.433598        -142.123         -58.6032        -95.1924         -58.6028        -95.1947       -0.0107486         148.485
0.541                   -0.45711        -142.749         -58.3359        -97.2739         -58.3356         -97.276        -0.010851         148.416
0.542                  -0.482694         -143.38         -58.0612        -99.4126         -58.0609        -99.4146       -0.0109552         148.347
0.543                   -0.51053        -144.014         -57.7794        -101.615         -57.7791        -101.616       -0.0110613         148.278
0.544                  -0.540808         -144.65         -57.4911        -103.886         -57.4908        -103.888       -0.0111695         148.209
0.545                  -0.573718        -145.288         -57.1969        -106.233         -57.1966        -106.234       -0.0112799          148.14
0.546                  -0.609454        -145.926         -56.8975        -108.662         -56.8972        -108.663       -0.0113925         148.071
0.547                    -0.6482        -146.562         -56.5937         -111.18         -56.5935         -111.18       -0.0115075         148.001
0.548                  -0.690123        -147.192         -56.2866        -113.792         -56.2864        -113.792       -0.0116249         147.932
0.549                  -0.735361        -147.816         -55.9773        -116.504         -55.9771        -116.504        -0.011745         147.862
0.55                   -0.784005        -148.429         -55.6673        -119.323          -55.667        -119.322       -0.0118677         147.792
0.551                  -0.836082        -149.028         -55.3579        -122.251         -55.3577        -122.251        -0.011993         147.723
0.552                  -0.891529        -149.609         -55.0509        -125.294         -55.0507        -125.293       -0.0121212         147.653
0.553                  -0.950166        -150.166         -54.7482        -128.455         -54.7479        -128.453        -0.012252         147.583
0.554                   -1.01167        -150.697         -54.4518        -131.733         -54.4515        -131.731       -0.0123855         147.512
0.555                   -1.07555        -151.195         -54.1638        -135.129         -54.1635        -135.127       -0.0125215         147.442
0.556                   -1.14111        -151.656         -53.8865         -138.64         -53.8862        -138.638       -0.0126598         147.372
0.557                   -1.20746        -152.076         -53.6222        -142.261         -53.6219        -142.259       -0.0128002         147.301
0.558                    -1.2735        -152.451         -53.3732        -145.985         -53.3729        -145.983       -0.0129424         147.231
0.559                   -1.33796        -152.782         -53.1416        -149.801         -53.1413        -149.799       -0.0130861          147.16
0.56                    -1.39943        -153.066         -52.9294        -153.697         -52.9291        -153.696       -0.0132309         147.089
0.561                   -1.45646        -153.308         -52.7383        -157.658         -52.7379        -157.657       -0.0133765         147.018
0.562                   -1.50763        -153.511         -52.5695        -161.666         -52.5692        -161.665       -0.0135224         146.947
0.563                   -1.55171        -153.683         -52.4239        -165.704         -52.4236        -165.703       -0.0136683         146.876
0.564                   -1.58771        -153.834         -52.3019        -169.751         -52.3017         -169.75       -0.0138141         146.805
0.565                   -1.61498        -153.973         -52.2034        -173.788         -52.2033        -173.788       -0.0139593         146.733
0.566                    -1.6333        -154.111         -52.1278        -177.797         -52.1277        -177.797       -0.0141041         146.662
0.567                   -1.64282        -154.261         -52.0739         178.239         -52.0739          178.24       -0.0142481          146.59
0.568                   -1.64408        -154.432         -52.0403         174.338         -52.0404         174.338       -0.0143916         146.518
0.569                   -1.63792        -154.633         -52.0253         170.512         -52.0254         170.512       -0.0145345         146.446
0.57                    -1.62539         -154.87         -52.0268         166.771         -52.0271         166.772       -0.0146769         146.374
0.571                   -1.60766         -155.15         -52.0429         163.125         -52.0432         163.126        -0.014819         146.302
0.572                   -1.58593        -155.475         -52.0713         159.579         -52.0717          159.58       -0.0149611          146.23
0.573                   -1.56134        -155.846         -52.1099         156.137         -52.1104         156.138       -0.0151033         146.157
0.574                   -1.53498        -156.264         -52.1568           152.8         -52.1573         152.802       -0.0152457         146.085
0.575                   -1.50779        -156.726         -52.2099         149.568         -52.2104          149.57       -0.0153887         146.012
0.576                   -1.48057        -157.232         -52.2675          146.44         -52.2681         146.443       -0.0155324         145.939
0.577                     -1.454        -157.778          -52.328         143.412         -52.3287         143.415        -0.015677         145.866
0.578                   -1.42861        -158.363           -52.39         140.481         -52.3907         140.485       -0.0158226         145.793
0.579                   -1.40485        -158.983         -52.4523         137.643          -52.453         137.647       -0.0159695         145.719
0.58                    -1.38303        -159.635         -52.5136         134.893         -52.5143         134.897       -0.0161177         145.646
0.581                    -1.3634        -160.318         -52.5732         132.225         -52.5739          132.23       -0.0162674         145.572
0.582                   -1.34614        -161.027         -52.6301         129.635         -52.6307          129.64       -0.0164187         145.498
0.583                   -1.33137        -161.763         -52.6836         127.118         -52.6843         127.123       -0.0165716         145.424
0.584                   -1.31919        -162.522         -52.7333         124.667         -52.7339         124.673       -0.0167264          145.35
0.585                   -1.30965        -163.302         -52.7785          122.28         -52.7791         122.285        -0.016883         145.275
0.586                   -1.30279        -164.103          -52.819         119.949         -52.8195         119.955       -0.0170415         145.201
0.587                   -1.29863        -164.924         -52.8543         117.672         -52.8548         117.678        -0.017202         145.126
0.588                   -1.29718        -165.762         -52.8843         115.443         -52.8847         115.449       -0.0173646         145.051
0.589                   -1.29848        -166.617         -52.9086         113.258          -52.909         113.264       -0.0175293         144.976
0.59                    -1.30252        -167.489         -52.9272         111.113         -52.9276         111.119       -0.0176962         144.901
0.591                   -1.30933        -168.376         -52.9399         109.005         -52.9403         109.011       -0.0178652         144.825
0.592                   -1.31893        -169.279         -52.9467         106.929          -52.947         106.935       -0.0180366          144.75
0.593                   -1.33137        -170.197         -52.9474         104.882         -52.9477         104.888       -0.0182102         144.674
0.594                   -1.34667        -171.129         -52.9421         102.861         -52.9423         102.867       -0.0183863         144.598
0.595                    -1.3649        -172.075         -52.9307         100.862         -52.9309         100.868       -0.0185647         144.522
0.596                   -1.38612        -173.035         -52.9133         98.8835         -52.9134         98.8887       -0.0187455         144.446
0.597                   -1.41042        -174.008         -52.8898         96.9213         -52.8899         96.9263       -0.0189289         144.369
0.598                   -1.43787        -174.996         -52.8604         94.9731         -52.8604         94.9779       -0.0191148         144.293
0.599                   -1.46859        -175.996          -52.825         93.0363          -52.825         93.0408       -0.0193033         144.216
0.6                      -1.5027         -177.01         -52.7837         91.1083         -52.7837         91.1125       -0.0194944         144.139
0.601                   -1.54034        -178.037         -52.7366         89.1866         -52.7366         89.1905       -0.0196882         144.061
0.602                   -1.58165        -179.076         -52.6838         87.2688         -52.6838         87.2724       -0.0198848         143.984
0.603                   -1.62681         179.873         -52.6254         85.3528         -52.6254         85.3561       -0.0200842         143.906
0.604                     -1.676         178.809         -52.5615         83.4362         -52.5615         83.4391       -0.0202864         143.828
0.605                   -1.72943         177.734         -52.4923         81.5168         -52.4922         81.5195       -0.0204916          143.75
0.606                   -1.78732         176.647         -52.4177         79.5927         -52.4177          79.595       -0.0206998         143.672
0.607                   -1.84992          175.55         -52.3381         77.6616          -52.338         77.6637        -0.020911         143.594
0.608                   -1.91747         174.444         -52.2536         75.7217         -52.2535         75.7235       -0.0211254         143.515
0.609                   -1.99025         173.329         -52.1642          73.771         -52.1641         73.7724       -0.0213429         143.436
0.61                    -2.06857         172.206         -52.0703         71.8075         -52.0702         71.8087       -0.0215638         143.357
0.611                   -2.15274         171.077          -51.972         69.8295         -51.9719         69.8305        -0.021788         143.278
0.612                   -2.24308         169.943         -51.8695         67.8352         -51.8694          67.836       -0.0220156         143.198
0.613                   -2.33993         168.806          -51.763         65.8229         -51.7629         65.8235       -0.0222467         143.118
0.614                   -2.44366         167.669         -51.6529          63.791         -51.6528         63.7914       -0.0224815         143.038
0.615                   -2.55462         166.533         -51.5393          61.738         -51.5392         61.7381       -0.0227199         142.958
0.616                   -2.67318         165.403         -51.4226         59.6624         -51.4225         59.6624       -0.0229621         142.878
0.617                   -2.79971          164.28          -51.303         57.5628         -51.3029         57.5627       -0.0232081         142.797
0.618                   -2.93455         163.169         -51.1808         55.4382         -51.1808         55.4379       -0.0234581         142.716
0.619                   -3.07805         162.075         -51.0565         53.2873         -51.0565          53.287       -0.0237122         142.635
0.62                    -3.23051         161.002         -50.9303         51.1094         -50.9303         51.1091       -0.0239704         142.553
0.621                   -3.39219         159.957         -50.8026         48.9036         -50.8026         48.9033       -0.0242327         142.472
0.622                   -3.56328         158.945         -50.6738         46.6695         -50.6738         46.6691       -0.0244994          142.39
0.623                   -3.74391         157.975         -50.5442         44.4067         -50.5443         44.4063       -0.0247704         142.308
0.624                   -3.93408         157.053         -50.4144         42.1149         -50.4144         42.1146       -0.0250459         142.225
0.625                   -4.13367         156.188         -50.2846         39.7945         -50.2846         39.7941       -0.0253259         142.143
0.626                   -4.34238          155.39         -50.1553         37.4456         -50.1553         37.4453       -0.0256105          142.06
0.627                   -4.55972         154.668         -50.0268         35.0689         -50.0269         35.0686       -0.0258997         141.976
0.628                   -4.78494         154.034         -49.8997         32.6653         -49.8997         32.6651       -0.0261936         141.893
0.629                   -5.01703         153.497         -49.7742          30.236         -49.7742         30.2358       -0.0264923         141.809
