! TOUCHSTONE file generated by CST MICROWAVE STUDIO
! Date and time: Sat Nov 14 20:40:01 2020
! Project name: Scenario_1_Planar_Body_Tissue_Out_of_Line_v2.cst
! Parameters = {dy1=-138.4; L_HA=400; Ltissue=700; MT=2.54; Rad_Dielectric=30; Rad_Lower=7.3; Rad_Upper=30; Wtissue=700; a_HA=580; a_WG=246; b_HA=500; b_WG=121; c_HA=0; c_WG=187; d_feed=85; dx1=173; h_feed=15; h_lower=18; h_upper=40; hfat=3; hgap=25; hmuscle=50; hskin=1.5}
! Header version: 2018
! Port assignment regex: !\s*Touchstone port\s*([0-9]+)\s*=\s*(CST MWS port|CST DS port)\s*([0-9]+|Zmin|Zmax)\s*\(\"(.*)\"\)(\s*mode\s*([0-9]+))?.*
! Touchstone port assignment:
! Touchstone port 1 = CST MWS port 1 ("")
! Touchstone port 2 = CST MWS port 2 ("")
# GHz S DB R 50
0.5                    -0.046145        -121.752         -58.6287         130.633         -58.6287         130.634      -0.00692602         151.146
0.501                 -0.0462353        -122.212         -58.4491         129.953         -58.4489         129.954       -0.0069511         151.081
0.502                  -0.046456        -122.675         -58.2674         129.272         -58.2671         129.273      -0.00697034         151.017
0.503                 -0.0468104        -123.142         -58.0837         128.589         -58.0832         128.591      -0.00698373         150.952
0.504                 -0.0473023        -123.612         -57.8979         127.906         -57.8973         127.908      -0.00699131         150.888
0.505                 -0.0479357        -124.085           -57.71         127.221         -57.7093         127.223      -0.00699312         150.823
0.506                 -0.0487149        -124.562           -57.52         126.534          -57.519         126.537      -0.00698925         150.758
0.507                 -0.0496447        -125.042         -57.3277         125.846         -57.3266         125.849      -0.00697981         150.693
0.508                 -0.0507303        -125.526         -57.1331         125.156         -57.1319         125.159      -0.00696495         150.628
0.509                 -0.0519772        -126.014         -56.9362         124.463          -56.935         124.467      -0.00694485         150.563
0.51                  -0.0533915        -126.506          -56.737         123.769         -56.7356         123.773      -0.00691975         150.497
0.511                 -0.0549798        -127.002         -56.5354         123.072         -56.5339         123.076      -0.00688993         150.432
0.512                 -0.0567492        -127.502         -56.3313         122.372         -56.3297         122.376      -0.00685571         150.366
0.513                 -0.0587076        -128.007         -56.1247         121.669          -56.123         121.674      -0.00681748           150.3
0.514                 -0.0608635        -128.516         -55.9155         120.964         -55.9137         120.968      -0.00677566         150.234
0.515                 -0.0632262        -129.029         -55.7036         120.254         -55.7017         120.259      -0.00673077         150.168
0.516                 -0.0658057        -129.548          -55.489         119.541         -55.4871         119.546      -0.00668336         150.102
0.517                 -0.0686131        -130.071         -55.2717         118.824         -55.2697         118.828      -0.00663404         150.036
0.518                 -0.0716605        -130.599         -55.0515         118.102         -55.0494         118.107      -0.00658351         149.969
0.519                  -0.074961        -131.133         -54.8284         117.375         -54.8262          117.38       -0.0065325         149.902
0.52                   -0.078529        -131.672         -54.6023         116.644            -54.6         116.648      -0.00648181         149.835
0.521                 -0.0823804        -132.216         -54.3731         115.906         -54.3708         115.911      -0.00643232         149.768
0.522                 -0.0865324        -132.767         -54.1408         115.163         -54.1384         115.168      -0.00638492         149.701
0.523                 -0.0910041        -133.323         -53.9052         114.413         -53.9028         114.418      -0.00634058         149.634
0.524                 -0.0958164        -133.886         -53.6663         113.656         -53.6638         113.661      -0.00630028         149.566
0.525                  -0.100992        -134.455         -53.4239         112.892         -53.4214         112.896      -0.00626506         149.499
0.526                  -0.106557        -135.031          -53.178         112.119         -53.1755         112.123      -0.00623593         149.431
0.527                  -0.112538        -135.614         -52.9285         111.338         -52.9259         111.342      -0.00621396         149.363
0.528                  -0.118968        -136.204         -52.6752         110.547         -52.6726         110.551      -0.00620016         149.294
0.529                  -0.125878        -136.803         -52.4181         109.746         -52.4155         109.749      -0.00619554         149.226
0.53                   -0.133309        -137.409          -52.157         108.934         -52.1544         108.937      -0.00620107         149.158
0.531                    -0.1413        -138.023         -51.8918         108.111         -51.8892         108.113      -0.00621767         149.089
0.532                    -0.1499        -138.646         -51.6224         107.274         -51.6198         107.276      -0.00624616          149.02
0.533                  -0.159159        -139.278         -51.3487         106.424          -51.346         106.426      -0.00628732         148.951
0.534                  -0.169136         -139.92         -51.0705         105.559         -51.0678          105.56       -0.0063418         148.882
0.535                  -0.179894        -140.571         -50.7876         104.677          -50.785         104.679      -0.00641016         148.813
0.536                  -0.191506        -141.234            -50.5         103.779         -50.4974          103.78      -0.00649283         148.743
0.537                  -0.204052        -141.907         -50.2075         102.862         -50.2049         102.862      -0.00659013         148.674
0.538                  -0.217622        -142.591         -49.9098         101.924         -49.9073         101.925      -0.00670224         148.604
0.539                  -0.232318        -143.287          -49.607         100.965         -49.6045         100.965      -0.00682922         148.534
0.54                   -0.248255        -143.996         -49.2987         99.9821         -49.2963         99.9816      -0.00697099         148.465
0.541                  -0.265561        -144.719         -48.9849         98.9734         -48.9825         98.9725      -0.00712735         148.395
0.542                  -0.284382        -145.455         -48.6654         97.9368          -48.663         97.9356        -0.007298         148.325
0.543                  -0.304883        -146.206         -48.3399           96.87         -48.3376         96.8685       -0.0074825         148.254
0.544                  -0.327252        -146.972         -48.0084         95.7704         -48.0062         95.7685      -0.00768033         148.184
0.545                  -0.351702        -147.755         -47.6706         94.6351         -47.6685         94.6329      -0.00789088         148.114
0.546                  -0.378475        -148.554         -47.3264         93.4609         -47.3244         93.4584      -0.00811346         148.044
0.547                  -0.407849        -149.371         -46.9756         92.2444         -46.9737         92.2416      -0.00834733         147.973
0.548                   -0.44014        -150.207         -46.6181         90.9818         -46.6163         90.9788       -0.0085917         147.903
0.549                  -0.475711        -151.062         -46.2538         89.6689          -46.252         89.6657      -0.00884574         147.833
0.55                   -0.514979        -151.938         -45.8824         88.3011         -45.8808         88.2977      -0.00910861         147.762
0.551                  -0.558421        -152.834         -45.5041         86.8733         -45.5026         86.8697      -0.00937945         147.691
0.552                  -0.606588        -153.752         -45.1186         85.3798         -45.1172         85.3762      -0.00965742         147.621
0.553                  -0.660113        -154.691          -44.726         83.8147         -44.7248          83.811      -0.00994168          147.55
0.554                  -0.719725        -155.654         -44.3264         82.1709         -44.3253         82.1673       -0.0102314         147.479
0.555                  -0.786266        -156.638         -43.9199         80.4413         -43.9189         80.4377       -0.0105259         147.409
0.556                  -0.860702        -157.644         -43.5067         78.6176         -43.5059         78.6142       -0.0108242         147.338
0.557                  -0.944142         -158.67         -43.0873         76.6911         -43.0866         76.6879       -0.0111259         147.267
0.558                   -1.03786        -159.715         -42.6621         74.6522         -42.6615         74.6494       -0.0114301         147.196
0.559                   -1.14329        -160.774         -42.2319         72.4908         -42.2315         72.4884       -0.0117362         147.125
0.56                    -1.26209        -161.844         -41.7976          70.196         -41.7973         70.1941       -0.0120438         147.054
0.561                   -1.39607        -162.916         -41.3605         67.7565         -41.3603         67.7552       -0.0123523         146.983
0.562                   -1.54724        -163.981         -40.9221         65.1608          -40.922         65.1601       -0.0126611         146.912
0.563                   -1.71775        -165.026         -40.4844         62.3973         -40.4844         62.3974         -0.01297          146.84
0.564                   -1.90984         -166.03         -40.0498          59.455         -40.0499          59.456       -0.0132784         146.769
0.565                   -2.12565        -166.971         -39.6212         56.3242         -39.6213         56.3261       -0.0135861         146.697
0.566                   -2.36707        -167.816          -39.202          52.997         -39.2021         52.9998       -0.0138928         146.626
0.567                   -2.63531        -168.525          -38.796         49.4686         -38.7962         49.4724       -0.0141982         146.554
0.568                   -2.93045        -169.048         -38.4079         45.7384          -38.408          45.743       -0.0145021         146.483
0.569                   -3.25069        -169.325         -38.0422         41.8109         -38.0423         41.8164       -0.0148042         146.411
0.57                    -3.59144         -169.29         -37.7039         37.6973          -37.704         37.7036       -0.0151045         146.339
0.571                   -3.94431        -168.874         -37.3981         33.4163          -37.398         33.4231       -0.0154028         146.267
0.572                   -4.29621        -168.016         -37.1291         28.9939         -37.1289         29.0012       -0.0156989         146.195
0.573                   -4.62909        -166.677         -36.9008         24.4637         -36.9005         24.4711       -0.0159929         146.123
0.574                   -4.92087        -164.861         -36.7159         19.8651         -36.7155         19.8725       -0.0162846         146.051
0.575                   -5.14835        -162.628         -36.5757         15.2415         -36.5752         15.2485        -0.016574         145.978
0.576                   -5.29175        -160.106         -36.4803         10.6375         -36.4797         10.6441       -0.0168612         145.906
0.577                   -5.33972        -157.467         -36.4281         6.09623         -36.4274         6.10213       -0.0171459         145.833
0.578                   -5.29241        -154.906         -36.4162         1.65658         -36.4155         1.66169       -0.0174282         145.761
0.579                   -5.16107         -152.59         -36.4407        -2.64881           -36.44        -2.64454       -0.0177079         145.688
0.58                    -4.96442        -150.639         -36.4971        -6.79464         -36.4963        -6.79123        -0.017985         145.615
0.581                   -4.72369         -149.11         -36.5804        -10.7633         -36.5797        -10.7607       -0.0182592         145.542
0.582                   -4.45867        -148.008         -36.6856        -14.5445          -36.685        -14.5427       -0.0185302         145.469
0.583                   -4.18538        -147.304         -36.8081        -18.1344         -36.8076        -18.1331       -0.0187976         145.396
0.584                   -3.91553        -146.948         -36.9436        -21.5342         -36.9431        -21.5335       -0.0190609         145.322
0.585                   -3.65683        -146.887          -37.088        -24.7495         -37.0877        -24.7492       -0.0193193         145.249
0.586                   -3.41386        -147.066         -37.2382        -27.7885          -37.238        -27.7884       -0.0195719         145.175
0.587                   -3.18889        -147.437         -37.3913        -30.6614         -37.3912        -30.6614        -0.019817         145.102
0.588                   -2.98264        -147.961          -37.545        -33.3794          -37.545        -33.3795       -0.0200529         145.028
0.589                   -2.79482        -148.604         -37.6973        -35.9544         -37.6974        -35.9543       -0.0202767         144.954
0.59                    -2.62457        -149.338         -37.8469        -38.3981         -37.8471        -38.3978       -0.0204848         144.881
0.591                    -2.4707        -150.142         -37.9926        -40.7219         -37.9929        -40.7213       -0.0206719         144.807
0.592                   -2.33188            -151         -38.1335        -42.9368         -38.1339        -42.9359       -0.0208312         144.733
0.593                   -2.20675        -151.898          -38.269        -45.0529         -38.2694        -45.0516       -0.0209531         144.659
0.594                   -2.09402        -152.826         -38.3986        -47.0799          -38.399        -47.0783       -0.0210255         144.585
0.595                   -1.99246        -153.777          -38.522        -49.0266         -38.5225        -49.0245       -0.0210333         144.511
0.596                   -1.90095        -154.744         -38.6391        -50.9009         -38.6397        -50.8983       -0.0209596         144.436
0.597                   -1.81846        -155.724         -38.7499        -52.7101         -38.7505        -52.7072       -0.0207902         144.362
0.598                   -1.74408        -156.712         -38.8544        -54.4609         -38.8549        -54.4576       -0.0205217         144.286
0.599                   -1.67698        -157.706         -38.9526        -56.1592         -38.9531        -56.1555       -0.0201744         144.209
0.6                     -1.61645        -158.705         -39.0447        -57.8103         -39.0452        -57.8063       -0.0198032         144.131
0.601                   -1.56184        -159.708         -39.1308        -59.4191         -39.1313        -59.4148       -0.0194937         144.052
0.602                   -1.51257        -160.712         -39.2112        -60.9898         -39.2116        -60.9853       -0.0193328         143.971
0.603                   -1.46815        -161.719          -39.286        -62.5261         -39.2865        -62.5215       -0.0193691          143.89
0.604                   -1.42813        -162.727         -39.3556        -64.0316         -39.3559        -64.0268       -0.0195957         143.808
0.605                    -1.3921        -163.737           -39.42         -65.509         -39.4203        -65.5042       -0.0199662         143.727
0.606                   -1.35974        -164.748         -39.4796         -66.961         -39.4799        -66.9562       -0.0204237         143.647
0.607                   -1.33072        -165.762         -39.5346          -68.39         -39.5348        -68.3852       -0.0209208         143.566
0.608                   -1.30478        -166.777         -39.5851        -69.7978         -39.5853        -69.7932       -0.0214261         143.487
0.609                   -1.28168        -167.794         -39.6315        -71.1863         -39.6316        -71.1818       -0.0219216         143.407
0.61                     -1.2612        -168.814         -39.6738        -72.5569         -39.6739        -72.5526       -0.0223988         143.328
0.611                   -1.24316        -169.838         -39.7124        -73.9109         -39.7124        -73.9069       -0.0228547         143.248
0.612                   -1.22739        -170.865         -39.7473        -75.2495         -39.7473        -75.2458       -0.0232896         143.169
0.613                   -1.21375        -171.895         -39.7787        -76.5737         -39.7787        -76.5702        -0.023705         143.089
0.614                    -1.2021        -172.931         -39.8068        -77.8842         -39.8068        -77.8811       -0.0241032         143.009
0.615                   -1.19233        -173.971         -39.8318        -79.1818         -39.8317         -79.179       -0.0244865          142.93
0.616                   -1.18435        -175.017         -39.8537        -80.4671         -39.8536        -80.4647       -0.0248571         142.849
0.617                   -1.17806        -176.068         -39.8726        -81.7406         -39.8725        -81.7386       -0.0252169         142.769
0.618                   -1.17338        -177.126         -39.8887        -83.0029         -39.8886        -83.0012       -0.0255678         142.689
0.619                   -1.17026        -178.192         -39.9019        -84.2543         -39.9019         -84.253       -0.0259114         142.608
0.62                    -1.16862        -179.264         -39.9125        -85.4953         -39.9125        -85.4943       -0.0262489         142.527
0.621                   -1.16844         179.655         -39.9205        -86.7261         -39.9205        -86.7255       -0.0265815         142.446
0.622                   -1.16965         178.566         -39.9258        -87.9472         -39.9258        -87.9469       -0.0269103         142.364
0.623                   -1.17223         177.467         -39.9286        -89.1588         -39.9287        -89.1588       -0.0272362         142.283
0.624                   -1.17616          176.36         -39.9289        -90.3613          -39.929        -90.3616       -0.0275599         142.201
0.625                    -1.1814         175.241         -39.9267         -91.555         -39.9268        -91.5555       -0.0278821         142.118
0.626                   -1.18795         174.113         -39.9219        -92.7402         -39.9221        -92.7409       -0.0282034         142.036
0.627                   -1.19579         172.973         -39.9148        -93.9173         -39.9149        -93.9181       -0.0285244         141.953
0.628                   -1.20493         171.821         -39.9051        -95.0865         -39.9053        -95.0875       -0.0288455          141.87
0.629                   -1.21535         170.656          -39.893        -96.2484         -39.8932        -96.2495       -0.0291672         141.787
