! TOUCHSTONE file generated by CST MICROWAVE STUDIO
! Date and time: Thu Feb 11 19:34:54 2021
! Project name: Scenario_1_Planar_Body_Tissue_Out_of_Line.cst
! Parameters = {L_HA=400; Ltissue=1000; MT=2.54; Rad_Dielectric=30; Rad_Lower=7.3; Rad_Upper=30; Wtissue=1000; a_HA=580; a_WG=246; b_HA=500; b_WG=121; c_HA=0; c_WG=187; d_feed=85; dx1=346; dy1=138.4; h_feed=15; h_lower=18; h_upper=40; hfat=3; hgap=25; hmuscle=50; hskin=1.5}
! Header version: 2018
! Port assignment regex: !\s*Touchstone port\s*([0-9]+)\s*=\s*(CST MWS port|CST DS port)\s*([0-9]+|Zmin|Zmax)\s*\(\"(.*)\"\)(\s*mode\s*([0-9]+))?.*
! Touchstone port assignment:
! Touchstone port 1 = CST MWS port 1 ("")
! Touchstone port 2 = CST MWS port 2 ("")
# GHz S DB R 50
0.5                    -0.273807         -121.54          -55.967         29.8731          -55.967         29.8731      -0.00812892         151.149
0.501                  -0.273017        -121.946         -55.9919         29.2211         -55.9894         29.2228      -0.00818639         151.084
0.502                  -0.272301        -122.355         -56.0174         28.5506         -56.0122         28.5546      -0.00824463         151.018
0.503                  -0.271661        -122.767         -56.0433         27.8607         -56.0356         27.8678      -0.00830363         150.953
0.504                  -0.271098        -123.181         -56.0696         27.1509         -56.0594         27.1617      -0.00836341         150.888
0.505                  -0.270613        -123.597         -56.0962         26.4202         -56.0835         26.4355      -0.00842395         150.822
0.506                  -0.270209        -124.017         -56.1232          25.668         -56.1079         25.6886      -0.00848527         150.757
0.507                  -0.269887        -124.439         -56.1503         24.8934         -56.1326         24.9201      -0.00854737         150.691
0.508                   -0.26965        -124.863         -56.1775         24.0958         -56.1574         24.1292      -0.00861025         150.625
0.509                  -0.269498        -125.291         -56.2046         23.2743         -56.1822         23.3153      -0.00867392          150.56
0.51                   -0.269435        -125.722         -56.2317         22.4282         -56.2069         22.4776      -0.00873837         150.494
0.511                  -0.269462        -126.155         -56.2585         21.5566         -56.2314         21.6153      -0.00880361         150.428
0.512                  -0.269582        -126.591         -56.2849         20.6589         -56.2557         20.7275      -0.00886965         150.362
0.513                  -0.269796         -127.03         -56.3108         19.7343         -56.2795         19.8137      -0.00893648         150.296
0.514                  -0.270108        -127.473         -56.3361          18.782         -56.3027          18.873      -0.00900411         150.229
0.515                   -0.27052        -127.918         -56.3604         17.8014         -56.3252         17.9047      -0.00907255         150.163
0.516                  -0.271034        -128.366         -56.3838         16.7919         -56.3468         16.9083       -0.0091418         150.097
0.517                  -0.271653        -128.818          -56.406         15.7528         -56.3673         15.8829      -0.00921185          150.03
0.518                  -0.272381        -129.273         -56.4267         14.6835         -56.3865          14.828      -0.00928272         149.964
0.519                   -0.27322        -129.731         -56.4459         13.5836         -56.4043         13.7432      -0.00935441         149.897
0.52                   -0.274173        -130.192         -56.4632         12.4526         -56.4204         12.6278      -0.00942692         149.831
0.521                  -0.275244        -130.657         -56.4784         11.2902         -56.4345         11.4816      -0.00950026         149.764
0.522                  -0.276437        -131.125         -56.4913         10.0961         -56.4466          10.304      -0.00957443         149.697
0.523                  -0.277754        -131.597         -56.5017         8.87017         -56.4562         9.09501      -0.00964943          149.63
0.524                  -0.279201        -132.072         -56.5092         7.61229         -56.4632         7.85435      -0.00972527         149.563
0.525                   -0.28078        -132.551         -56.5136         6.32255         -56.4673         6.58201      -0.00980195         149.496
0.526                  -0.282497        -133.034         -56.5146         5.00113         -56.4682         5.27808      -0.00987947         149.429
0.527                  -0.284355         -133.52          -56.512         3.64833         -56.4657         3.94276      -0.00995785         149.361
0.528                  -0.286359         -134.01         -56.5054         2.26462         -56.4594         2.57639       -0.0100371         149.294
0.529                  -0.288515        -134.504         -56.4946        0.850594         -56.4491         1.17945       -0.0101172         149.226
0.53                   -0.290828        -135.002         -56.4793        -0.59299         -56.4346       -0.247423       -0.0101981         149.159
0.531                  -0.293302        -135.504         -56.4592        -2.06523         -56.4154        -1.70345       -0.0102799         149.091
0.532                  -0.295944         -136.01         -56.4341        -3.56505         -56.3915        -3.18769       -0.0103626         149.023
0.533                   -0.29876        -136.521         -56.4037        -5.09126         -56.3624        -4.69907       -0.0104462         148.956
0.534                  -0.301757        -137.035         -56.3677        -6.64248          -56.328        -6.23634       -0.0105306         148.888
0.535                   -0.30494        -137.554         -56.3259        -8.21722          -56.288        -7.79811        -0.010616          148.82
0.536                  -0.308318        -138.078         -56.2781        -9.81382         -56.2421        -9.38286       -0.0107022         148.751
0.537                  -0.311897        -138.606         -56.2242        -11.4306         -56.1903        -10.9889       -0.0107893         148.683
0.538                  -0.315686        -139.138         -56.1639        -13.0655         -56.1322        -12.6146       -0.0108773         148.615
0.539                  -0.319693        -139.676         -56.0971        -14.7168         -56.0677        -14.2579       -0.0109663         148.546
0.54                   -0.323927        -140.218         -56.0237        -16.3824         -55.9967        -15.9169       -0.0110561         148.478
0.541                  -0.328397        -140.765         -55.9436        -18.0602         -55.9191        -17.5897       -0.0111468         148.409
0.542                  -0.333114        -141.317         -55.8567        -19.7481         -55.8348        -19.2741       -0.0112385          148.34
0.543                  -0.338087        -141.874         -55.7631        -21.4441         -55.7438         -20.968       -0.0113311         148.271
0.544                  -0.343328        -142.437         -55.6627        -23.1459          -55.646        -22.6694       -0.0114246         148.202
0.545                  -0.348848        -143.005         -55.5555        -24.8517         -55.5414        -24.3762       -0.0115191         148.133
0.546                  -0.354661        -143.578         -55.4416        -26.5593           -55.43        -26.0863       -0.0116145         148.064
0.547                   -0.36078        -144.157         -55.3211        -28.2669          -55.312        -27.7979       -0.0117109         147.995
0.548                  -0.367217        -144.742         -55.1941        -29.9727         -55.1875         -29.509       -0.0118082         147.925
0.549                   -0.37399        -145.333         -55.0607         -31.675         -55.0565        -31.2179       -0.0119064         147.856
0.55                   -0.381113         -145.93         -54.9211        -33.3722         -54.9191        -32.9228       -0.0120057         147.786
0.551                  -0.388603        -146.533         -54.7755        -35.0629         -54.7756        -34.6224       -0.0121059         147.716
0.552                  -0.396479        -147.142         -54.6239        -36.7459         -54.6261        -36.3153       -0.0122071         147.647
0.553                  -0.404759        -147.757         -54.4667          -38.42         -54.4708        -38.0001       -0.0123092         147.577
0.554                  -0.413464         -148.38         -54.3041        -40.0843         -54.3099        -39.6759       -0.0124124         147.506
0.555                  -0.422616        -149.009         -54.1362         -41.738         -54.1436        -41.3418       -0.0125166         147.436
0.556                  -0.432238        -149.645         -53.9633        -43.3804         -53.9721        -42.9971       -0.0126217         147.366
0.557                  -0.442355        -150.288         -53.7856        -45.0112         -53.7957        -44.6411       -0.0127279         147.295
0.558                  -0.452992        -150.939         -53.6033          -46.63         -53.6146        -46.2734       -0.0128351         147.225
0.559                  -0.464179        -151.597         -53.4167        -48.2367         -53.4289        -47.8939       -0.0129433         147.154
0.56                   -0.475946        -152.262         -53.2259        -49.8312          -53.239        -49.5025       -0.0130526         147.083
0.561                  -0.488325        -152.936         -53.0312        -51.4138          -53.045         -51.099       -0.0131629         147.012
0.562                   -0.50135        -153.618         -52.8328        -52.9846         -52.8472        -52.6839       -0.0132743         146.941
0.563                  -0.515059        -154.308         -52.6309         -54.544         -52.6457        -54.2573       -0.0133867          146.87
0.564                  -0.529491        -155.006         -52.4256        -56.0925         -52.4407        -55.8196       -0.0135002         146.799
0.565                  -0.544689        -155.713         -52.2172        -57.6308         -52.2326        -57.3716       -0.0136148         146.727
0.566                  -0.560699         -156.43         -52.0059        -59.1595         -52.0213        -58.9136       -0.0137305         146.655
0.567                  -0.577569        -157.155         -51.7917        -60.6793         -51.8071        -60.4466       -0.0138473         146.584
0.568                  -0.595353         -157.89         -51.5749        -62.1912         -51.5902        -61.9713       -0.0139652         146.512
0.569                  -0.614108        -158.635         -51.3555        -63.6961         -51.3707        -63.4886       -0.0140843          146.44
0.57                   -0.633894         -159.39         -51.1338         -65.195         -51.1487        -64.9995       -0.0142045         146.368
0.571                  -0.654777        -160.155         -50.9098        -66.6889         -50.9244         -66.505       -0.0143259         146.295
0.572                  -0.676827         -160.93         -50.6837        -68.1788         -50.6979        -68.0063       -0.0144484         146.223
0.573                  -0.700123        -161.717         -50.4555        -69.6661         -50.4693        -69.5043       -0.0145722          146.15
0.574                  -0.724744        -162.514         -50.2255        -71.1518         -50.2388        -71.0005       -0.0146972         146.077
0.575                  -0.750781        -163.323         -49.9935        -72.6373         -50.0064        -72.4959       -0.0148235         146.004
0.576                   -0.77833        -164.143         -49.7599        -74.1237         -49.7722        -73.9918       -0.0149511         145.931
0.577                  -0.807494        -164.976         -49.5246        -75.6123         -49.5363        -75.4896       -0.0150799         145.858
0.578                  -0.838385         -165.82         -49.2877        -77.1046         -49.2988        -76.9906       -0.0152101         145.785
0.579                  -0.871124        -166.677         -49.0493        -78.6019         -49.0598        -78.4962       -0.0153418         145.711
0.58                   -0.905842        -167.547         -48.8094        -80.1055         -48.8193        -80.0077       -0.0154748         145.638
0.581                  -0.942682         -168.43         -48.5682         -81.617         -48.5775        -81.5266       -0.0156093         145.564
0.582                  -0.981797        -169.326         -48.3257        -83.1376         -48.3344        -83.0544       -0.0157454          145.49
0.583                   -1.02335        -170.236         -48.0819        -84.6689           -48.09        -84.5924        -0.015883         145.416
0.584                   -1.06753        -171.159          -47.837        -86.2124         -47.8445        -86.1423       -0.0160223         145.341
0.585                   -1.11453        -172.096         -47.5911        -87.7696          -47.598        -87.7056       -0.0161634         145.267
0.586                   -1.16455        -173.048         -47.3441         -89.342         -47.3504        -89.2836       -0.0163062         145.192
0.587                   -1.21783        -174.013         -47.0962         -90.931          -47.102        -90.8781        -0.016451         145.117
0.588                   -1.27462        -174.993         -46.8475        -92.5384         -46.8527        -92.4906       -0.0165978         145.042
0.589                   -1.33518        -175.986         -46.5981        -94.1657         -46.6027        -94.1227       -0.0167468         144.967
0.59                    -1.39981        -176.994          -46.348        -95.8144         -46.3522        -95.7759        -0.016898         144.892
0.591                   -1.46882        -178.015         -46.0974        -97.4861         -46.1011        -97.4519       -0.0170516         144.816
0.592                   -1.54255         -179.05         -45.8465        -99.1824         -45.8497        -99.1523       -0.0172079          144.74
0.593                   -1.62137         179.902         -45.5954        -100.905         -45.5982        -100.879       -0.0173669         144.664
0.594                   -1.70568         178.842         -45.3441        -102.655         -45.3465        -102.632       -0.0175288         144.588
0.595                   -1.79589         177.771          -45.093        -104.435         -45.0951        -104.415        -0.017694         144.512
0.596                   -1.89248         176.689         -44.8422        -106.245         -44.8439        -106.229       -0.0178626         144.435
0.597                   -1.99593         175.599          -44.592        -108.088         -44.5933        -108.075       -0.0180349         144.359
0.598                   -2.10676         174.502         -44.3425        -109.965         -44.3435        -109.954       -0.0182111         144.282
0.599                   -2.22552           173.4          -44.094        -111.877         -44.0947        -111.868       -0.0183916         144.204
0.6                     -2.35282         172.296         -43.8468        -113.825         -43.8473        -113.819       -0.0185766         144.127
0.601                   -2.48926         171.192         -43.6012        -115.811         -43.6015        -115.807       -0.0187665          144.05
0.602                    -2.6355         170.094         -43.3575        -117.836         -43.3577        -117.834       -0.0189617         143.972
0.603                   -2.79219         169.005         -43.1161          -119.9         -43.1161          -119.9       -0.0191623         143.894
0.604                   -2.96002          167.93         -42.8774        -122.005         -42.8773        -122.006       -0.0193689         143.816
0.605                   -3.13968         166.877         -42.6418        -124.151         -42.6416        -124.154       -0.0195816         143.737
0.606                   -3.33182         165.852         -42.4097        -126.338         -42.4094        -126.342       -0.0198008         143.659
0.607                   -3.53708         164.865         -42.1815        -128.567         -42.1811        -128.572       -0.0200267          143.58
0.608                   -3.75604         163.925         -41.9577        -130.837         -41.9573        -130.843       -0.0202595         143.501
0.609                   -3.98917         163.044         -41.7389        -133.147         -41.7384        -133.154       -0.0204994         143.422
0.61                     -4.2368         162.236         -41.5254        -135.498         -41.5249        -135.505       -0.0207465         143.342
0.611                   -4.49908         161.516         -41.3177        -137.887         -41.3173        -137.895       -0.0210007         143.263
0.612                   -4.77584           160.9         -41.1165        -140.313          -41.116        -140.322       -0.0212621         143.183
0.613                    -5.0666         160.408          -40.922        -142.775         -40.9216        -142.783       -0.0215305         143.103
0.614                   -5.37037         160.062         -40.7349         -145.27         -40.7345        -145.278       -0.0218055         143.023
0.615                   -5.68558         159.882         -40.5555        -147.795         -40.5552        -147.803        -0.022087         142.942
0.616                   -6.00989         159.894         -40.3842        -150.347          -40.384        -150.355       -0.0223746         142.862
0.617                    -6.3401          160.12         -40.2215        -152.922         -40.2213         -152.93       -0.0226677         142.781
0.618                   -6.67195         160.583         -40.0676        -155.518         -40.0674        -155.525       -0.0229659           142.7
0.619                   -7.00003         161.301         -39.9227         -158.13         -39.9226        -158.136       -0.0232686         142.618
0.62                    -7.31777          162.29         -39.7871        -160.753         -39.7871        -160.758       -0.0235754         142.537
0.621                   -7.61749         163.552          -39.661        -163.383         -39.6609        -163.388       -0.0238857         142.455
0.622                   -7.89076         165.082         -39.5442        -166.015         -39.5442         -166.02       -0.0241991         142.373
0.623                   -8.12883         166.858         -39.4369        -168.646         -39.4369         -168.65        -0.024515         142.291
0.624                   -8.32343         168.842         -39.3389         -171.27         -39.3389        -171.273        -0.024833         142.209
0.625                   -8.46762         170.981           -39.25        -173.883           -39.25        -173.885       -0.0251529         142.126
0.626                   -8.55665         173.208           -39.17         -176.48           -39.17        -176.482       -0.0254743         142.044
0.627                   -8.58862         175.451         -39.0987        -179.058         -39.0987        -179.059        -0.025797         141.961
0.628                   -8.56473         177.634         -39.0355         178.388         -39.0355         178.388       -0.0261208         141.877
0.629                   -8.48901         179.691         -38.9802         175.861         -38.9802         175.862       -0.0264458         141.794
