! TOUCHSTONE file generated by CST MICROWAVE STUDIO
! Date and time: Fri Dec 11 14:15:48 2020
! Project name: Scenario_1_Planar_Body_Tissue_Out_of_Line_v2.cst
! Parameters = {dy1=138.4; L_HA=400; Ltissue=700; MT=2.54; Rad_Dielectric=30; Rad_Lower=7.3; Rad_Upper=30; Wtissue=700; a_HA=580; a_WG=246; b_HA=500; b_WG=121; c_HA=0; c_WG=187; d_feed=85; dx1=520; h_feed=15; h_lower=18; h_upper=40; hfat=3; hgap=25; hmuscle=50; hskin=1.5}
! Header version: 2018
! Port assignment regex: !\s*Touchstone port\s*([0-9]+)\s*=\s*(CST MWS port|CST DS port)\s*([0-9]+|Zmin|Zmax)\s*\(\"(.*)\"\)(\s*mode\s*([0-9]+))?.*
! Touchstone port assignment:
! Touchstone port 1 = CST MWS port 1 ("")
! Touchstone port 2 = CST MWS port 2 ("")
# GHz S DB R 50
0.5                   -0.0810237        -121.971         -62.1757        -55.7241         -62.1759        -55.7235      -0.00739162         151.153
0.501                 -0.0840217        -122.428         -61.9704        -56.6942         -61.9706        -56.6937      -0.00745276         151.087
0.502                 -0.0872136        -122.888         -61.7605        -57.6825         -61.7607         -57.682      -0.00751464         151.022
0.503                 -0.0906156        -123.353          -61.546        -58.6893         -61.5462        -58.6889      -0.00757726         150.957
0.504                 -0.0942457        -123.822         -61.3268        -59.7156         -61.3269        -59.7152      -0.00764066         150.891
0.505                 -0.0981232        -124.295         -61.1028        -60.7619         -61.1029        -60.7616      -0.00770484         150.826
0.506                   -0.10227        -124.772         -60.8739        -61.8291         -60.8741        -61.8288      -0.00776983          150.76
0.507                  -0.106709        -125.254         -60.6402        -62.9181         -60.6403        -62.9179      -0.00783565         150.694
0.508                  -0.111467         -125.74         -60.4015        -64.0299         -60.4016        -64.0297      -0.00790232         150.629
0.509                  -0.116572        -126.231         -60.1577        -65.1654         -60.1578        -65.1653      -0.00796988         150.563
0.51                   -0.122056        -126.726         -59.9089        -66.3259          -59.909        -66.3257      -0.00803836         150.497
0.511                  -0.127954        -127.227         -59.6549        -67.5125          -59.655        -67.5124      -0.00810778         150.431
0.512                  -0.134304        -127.732         -59.3957        -68.7265         -59.3958        -68.7264      -0.00817818         150.365
0.513                   -0.14115        -128.243         -59.1313        -69.9695         -59.1314        -69.9694       -0.0082496         150.298
0.514                  -0.148538        -128.758         -58.8617        -71.2429         -58.8617        -71.2428       -0.0083221         150.232
0.515                   -0.15652         -129.28         -58.5867        -72.5485         -58.5868        -72.5484       -0.0083957         150.166
0.516                  -0.165155        -129.806         -58.3064         -73.888         -58.3065         -73.888      -0.00847048         150.099
0.517                  -0.174505        -130.339         -58.0208        -75.2635         -58.0209        -75.2635      -0.00854649         150.033
0.518                  -0.184642        -130.877         -57.7299        -76.6772         -57.7299        -76.6772      -0.00862379         149.966
0.519                  -0.195644         -131.42         -57.4336        -78.1312         -57.4337        -78.1313      -0.00870247         149.899
0.52                   -0.207597         -131.97         -57.1321        -79.6282         -57.1322        -79.6283       -0.0087826         149.833
0.521                  -0.220595        -132.525         -56.8254        -81.1709         -56.8255        -81.1709      -0.00886427         149.766
0.522                  -0.234744        -133.086         -56.5135         -82.762         -56.5136        -82.7621      -0.00894759         149.699
0.523                  -0.250158        -133.653         -56.1967        -84.4048         -56.1967        -84.4049      -0.00903268         149.632
0.524                  -0.266963        -134.225         -55.8749        -86.1025          -55.875        -86.1026      -0.00911965         149.564
0.525                  -0.285295        -134.802         -55.5485        -87.8588         -55.5486        -87.8589      -0.00920865         149.497
0.526                  -0.305304        -135.384         -55.2177        -89.6773         -55.2178        -89.6774      -0.00929983          149.43
0.527                  -0.327147        -135.971         -54.8827        -91.5621         -54.8828        -91.5622      -0.00939335         149.362
0.528                  -0.350995        -136.561          -54.544        -93.5174         -54.5441        -93.5175      -0.00948941         149.295
0.529                  -0.377027        -137.154         -54.2019        -95.5475          -54.202        -95.5476       -0.0095882         149.227
0.53                   -0.405428        -137.749         -53.8571         -97.657         -53.8571        -97.6571      -0.00968994         149.159
0.531                  -0.436385        -138.344           -53.51        -99.8504         -53.5101        -99.8506      -0.00979485         149.091
0.532                  -0.470085        -138.939         -53.1615        -102.133         -53.1616        -102.133      -0.00990317         149.023
0.533                    -0.5067        -139.529         -52.8124        -104.508         -52.8125        -104.508       -0.0100151         148.955
0.534                  -0.546384        -140.115         -52.4637        -106.981         -52.4638        -106.982        -0.010131         148.887
0.535                  -0.589257        -140.692         -52.1166        -109.557         -52.1167        -109.557        -0.010251         148.819
0.536                  -0.635386        -141.257         -51.7723        -112.238         -51.7724        -112.238       -0.0103753          148.75
0.537                  -0.684769        -141.808         -51.4323        -115.027         -51.4324        -115.027       -0.0105041         148.682
0.538                   -0.73731        -142.339         -51.0982        -117.928         -51.0983        -117.928       -0.0106375         148.614
0.539                  -0.792793        -142.847         -50.7718         -120.94         -50.7719         -120.94       -0.0107756         148.545
0.54                   -0.850862        -143.326          -50.455        -124.064         -50.4551        -124.064       -0.0109181         148.476
0.541                  -0.910991        -143.773         -50.1498        -127.297         -50.1498        -127.297       -0.0110651         148.407
0.542                  -0.972477        -144.184         -49.8582        -130.635         -49.8583        -130.635        -0.011216         148.339
0.543                   -1.03443        -144.554         -49.5823        -134.071         -49.5824        -134.071       -0.0113704          148.27
0.544                    -1.0958        -144.882         -49.3242        -137.598         -49.3243        -137.598       -0.0115277         148.201
0.545                   -1.15538        -145.167         -49.0857        -141.204         -49.0857        -141.203       -0.0116869         148.132
0.546                   -1.21189        -145.409         -48.8685        -144.875         -48.8685        -144.875        -0.011847         148.062
0.547                   -1.26405        -145.612         -48.6739        -148.596         -48.6739        -148.596       -0.0120072         147.993
0.548                   -1.31066         -145.78         -48.5029        -152.351         -48.5029        -152.351       -0.0121662         147.924
0.549                   -1.35068        -145.919         -48.3562        -156.121         -48.3562        -156.121       -0.0123229         147.855
0.55                    -1.38334        -146.039         -48.2337        -159.887         -48.2337        -159.887       -0.0124766         147.785
0.551                   -1.40815        -146.149         -48.1353        -163.632         -48.1353        -163.632       -0.0126263         147.716
0.552                     -1.425        -146.257         -48.0601        -167.338         -48.0601        -167.338       -0.0127715         147.646
0.553                   -1.43407        -146.374         -48.0069        -170.989         -48.0069        -170.989       -0.0129119         147.576
0.554                   -1.43584        -146.507         -47.9742         -174.57         -47.9742         -174.57       -0.0130474         147.507
0.555                   -1.43103        -146.664         -47.9602         -178.07         -47.9602         -178.07        -0.013178         147.437
0.556                   -1.42051         -146.85         -47.9631         178.522          -47.963         178.522       -0.0133041         147.367
0.557                   -1.40523         -147.07         -47.9807         175.212         -47.9807         175.212       -0.0134262         147.296
0.558                   -1.38615        -147.326          -48.011         172.006          -48.011         172.006       -0.0135447         147.226
0.559                   -1.36421        -147.618          -48.052         168.908          -48.052         168.908       -0.0136604         147.156
0.56                    -1.34026        -147.948         -48.1018         165.917         -48.1017         165.917       -0.0137738         147.085
0.561                   -1.31506        -148.314         -48.1585         163.033         -48.1584         163.033       -0.0138856         147.014
0.562                   -1.28927        -148.715         -48.2204         160.256         -48.2204         160.255       -0.0139963         146.944
0.563                   -1.26344        -149.149         -48.2861         157.581         -48.2861         157.581       -0.0141065         146.873
0.564                     -1.238        -149.614         -48.3542         155.006         -48.3542         155.006       -0.0142166         146.801
0.565                   -1.21333        -150.107         -48.4235         152.526         -48.4235         152.526       -0.0143272          146.73
0.566                   -1.18968        -150.627         -48.4929         150.137         -48.4929         150.136       -0.0144385         146.659
0.567                   -1.16727        -151.171         -48.5616         147.833         -48.5616         147.833        -0.014551         146.587
0.568                   -1.14625        -151.738         -48.6287         145.611         -48.6287         145.611       -0.0146647         146.515
0.569                   -1.12671        -152.325         -48.6936         143.465         -48.6936         143.465       -0.0147801         146.443
0.57                    -1.10872        -152.931         -48.7558         141.391         -48.7558         141.391       -0.0148972         146.371
0.571                   -1.09233        -153.555         -48.8147         139.383         -48.8147         139.383       -0.0150163         146.299
0.572                   -1.07754        -154.195         -48.8701         137.438           -48.87         137.438       -0.0151374         146.226
0.573                   -1.06437        -154.851         -48.9214          135.55         -48.9214          135.55       -0.0152606         146.154
0.574                    -1.0528         -155.52         -48.9686         133.717         -48.9686         133.717       -0.0153861         146.081
0.575                   -1.04281        -156.203         -49.0114         131.933         -49.0114         131.933       -0.0155138         146.008
0.576                   -1.03438        -156.899         -49.0497         130.195         -49.0497         130.195       -0.0156439         145.935
0.577                   -1.02748        -157.607         -49.0832           128.5         -49.0832           128.5       -0.0157764         145.862
0.578                    -1.0221        -158.326          -49.112         126.844          -49.112         126.844       -0.0159113         145.789
0.579                   -1.01819        -159.057         -49.1359         125.224          -49.136         125.224       -0.0160487         145.715
0.58                    -1.01576        -159.798          -49.155         123.637          -49.155         123.637       -0.0161885         145.642
0.581                   -1.01476         -160.55         -49.1691         122.081         -49.1692         122.081       -0.0163309         145.568
0.582                   -1.01518        -161.313         -49.1784         120.552         -49.1784         120.553       -0.0164757         145.494
0.583                   -1.01702        -162.086         -49.1827          119.05         -49.1827          119.05       -0.0166232          145.42
0.584                   -1.02025        -162.869         -49.1821          117.57         -49.1822          117.57       -0.0167731         145.346
0.585                   -1.02488        -163.662         -49.1767         116.111         -49.1767         116.111       -0.0169257         145.271
0.586                    -1.0309        -164.466         -49.1664         114.671         -49.1664         114.671       -0.0170808         145.197
0.587                   -1.03831         -165.28         -49.1513         113.248         -49.1514         113.248       -0.0172386         145.122
0.588                   -1.04713        -166.104         -49.1314          111.84         -49.1315         111.841        -0.017399         145.047
0.589                   -1.05736        -166.939         -49.1069         110.446          -49.107         110.447        -0.017562         144.972
0.59                    -1.06903        -167.784         -49.0777         109.064         -49.0778         109.064       -0.0177277         144.897
0.591                   -1.08215         -168.64         -49.0438         107.692         -49.0439         107.692       -0.0178961         144.821
0.592                   -1.09675        -169.506         -49.0055         106.328         -49.0056         106.329       -0.0180672         144.746
0.593                   -1.11286        -170.384         -48.9626         104.972         -48.9627         104.973       -0.0182411          144.67
0.594                   -1.13053        -171.273         -48.9153         103.622         -48.9154         103.623       -0.0184177         144.594
0.595                   -1.14979        -172.173         -48.8636         102.277         -48.8637         102.277       -0.0185971         144.518
0.596                    -1.1707        -173.085         -48.8076         100.935         -48.8077         100.936       -0.0187793         144.441
0.597                    -1.1933        -174.008         -48.7473         99.5954         -48.7474         99.5959       -0.0189643         144.365
0.598                   -1.21766        -174.944         -48.6828         98.2568          -48.683         98.2573       -0.0191522         144.288
0.599                   -1.24385        -175.892         -48.6143         96.9182         -48.6144         96.9187       -0.0193431         144.211
0.6                     -1.27194        -176.853         -48.5416         95.5784         -48.5418         95.5789       -0.0195368         144.134
0.601                     -1.302        -177.826          -48.465         94.2363         -48.4651         94.2368       -0.0197336         144.057
0.602                   -1.33414        -178.812         -48.3844         92.8909         -48.3845         92.8914       -0.0199333         143.979
0.603                   -1.36844        -179.812         -48.2999         91.5412         -48.3001         91.5417       -0.0201361         143.902
0.604                   -1.40501         179.175         -48.2117         90.1861         -48.2118         90.1866        -0.020342         143.824
0.605                   -1.44396         178.148         -48.1197         88.8247         -48.1199         88.8252        -0.020551         143.746
0.606                   -1.48541         177.107         -48.0241          87.456         -48.0243         87.4565       -0.0207632         143.667
0.607                   -1.52949         176.051          -47.925          86.079         -47.9251         86.0795       -0.0209786         143.589
0.608                   -1.57634         174.982         -47.8223         84.6927         -47.8225         84.6933       -0.0211972          143.51
0.609                   -1.62612         173.897         -47.7163         83.2963         -47.7165         83.2969       -0.0214191         143.431
0.61                    -1.67899         172.798         -47.6069         81.8888         -47.6071         81.8893       -0.0216444         143.352
0.611                   -1.73511         171.684         -47.4944         80.4692         -47.4946         80.4697       -0.0218731         143.273
0.612                   -1.79469         170.555         -47.3787         79.0366         -47.3789         79.0372       -0.0221053         143.193
0.613                   -1.85791          169.41           -47.26         77.5902         -47.2602         77.5908       -0.0223409         143.113
0.614                   -1.92499          168.25         -47.1384         76.1291         -47.1386         76.1296       -0.0225801         143.033
0.615                   -1.99617         167.076          -47.014         74.6522         -47.0142         74.6528       -0.0228229         142.953
0.616                   -2.07169         165.886         -46.8869         73.1589         -46.8871         73.1594       -0.0230693         142.873
0.617                   -2.15181          164.68         -46.7573         71.6481         -46.7575         71.6486       -0.0233195         142.792
0.618                    -2.2368         163.461         -46.6252         70.1191         -46.6254         70.1196       -0.0235735         142.711
0.619                   -2.32698         162.226         -46.4909         68.5709         -46.4911         68.5715       -0.0238312          142.63
0.62                    -2.42264         160.978         -46.3545         67.0029         -46.3547         67.0034       -0.0240929         142.549
0.621                   -2.52414         159.716         -46.2161         65.4141         -46.2163         65.4147       -0.0243586         142.467
0.622                   -2.63183         158.441         -46.0759         63.8039         -46.0761         63.8045       -0.0246282         142.385
0.623                   -2.74608         157.154         -45.9341         62.1716         -45.9343         62.1721        -0.024902         142.303
0.624                   -2.86731         155.857         -45.7909         60.5163         -45.7911         60.5168       -0.0251799         142.221
0.625                   -2.99593         154.549         -45.6464         58.8375         -45.6466         58.8381        -0.025462         142.138
0.626                   -3.13239         153.233         -45.5009         57.1347         -45.5011         57.1352       -0.0257484         142.055
0.627                   -3.27717          151.91         -45.3546         55.4072         -45.3548         55.4077       -0.0260391         141.972
0.628                   -3.43076         150.583         -45.2077         53.6546         -45.2079         53.6551       -0.0263343         141.888
0.629                   -3.59367         149.254         -45.0605         51.8765         -45.0606          51.877        -0.026634         141.805
