! TOUCHSTONE file generated by CST MICROWAVE STUDIO
! Date and time: Sat Nov 14 20:31:33 2020
! Project name: Scenario_1_Planar_Body_Tissue_Out_of_Line_v2.cst
! Parameters = {dy1=328.7; L_HA=400; Ltissue=700; MT=2.54; Rad_Dielectric=30; Rad_Lower=7.3; Rad_Upper=30; Wtissue=700; a_HA=580; a_WG=246; b_HA=500; b_WG=121; c_HA=0; c_WG=187; d_feed=85; dx1=173; h_feed=15; h_lower=18; h_upper=40; hfat=3; hgap=25; hmuscle=50; hskin=1.5}
! Header version: 2018
! Port assignment regex: !\s*Touchstone port\s*([0-9]+)\s*=\s*(CST MWS port|CST DS port)\s*([0-9]+|Zmin|Zmax)\s*\(\"(.*)\"\)(\s*mode\s*([0-9]+))?.*
! Touchstone port assignment:
! Touchstone port 1 = CST MWS port 1 ("")
! Touchstone port 2 = CST MWS port 2 ("")
# GHz S DB R 50
0.5                    -0.073949        -121.834         -69.1429         106.321         -69.1395         106.326      -0.00713685          151.15
0.501                 -0.0766398        -122.282         -68.9495         105.773         -68.9461         105.777      -0.00719903         151.084
0.502                 -0.0794324        -122.733         -68.7534         105.217         -68.7502         105.222      -0.00726186         151.019
0.503                 -0.0823335        -123.188         -68.5548         104.655         -68.5516         104.659      -0.00732535         150.954
0.504                 -0.0853502        -123.646         -68.3534         104.085         -68.3503         104.089      -0.00738951         150.888
0.505                 -0.0884902        -124.107         -68.1494         103.507         -68.1463         103.512      -0.00745436         150.823
0.506                 -0.0917615        -124.572         -67.9425         102.922         -67.9396         102.926       -0.0075199         150.757
0.507                 -0.0951731        -125.041          -67.733         102.327           -67.73         102.331      -0.00758615         150.691
0.508                 -0.0987342        -125.513         -67.5206         101.724         -67.5177         101.728      -0.00765311         150.626
0.509                  -0.102455        -125.988         -67.3054         101.112         -67.3026         101.116      -0.00772082          150.56
0.51                   -0.106346        -126.468         -67.0873         100.491         -67.0846         100.495      -0.00778926         150.494
0.511                  -0.110419        -126.952         -66.8663         99.8597         -66.8637         99.8633      -0.00785847         150.428
0.512                  -0.114687        -127.439         -66.6424         99.2182         -66.6398         99.2217      -0.00792846         150.362
0.513                  -0.119162        -127.931         -66.4155         98.5661          -66.413         98.5695      -0.00799923         150.296
0.514                  -0.123858        -128.427         -66.1856         97.9029         -66.1832         97.9062      -0.00807081         150.229
0.515                  -0.128793        -128.927         -65.9527         97.2282         -65.9503         97.2314      -0.00814321         150.163
0.516                   -0.13398        -129.432         -65.7168         96.5415         -65.7144         96.5446      -0.00821645         150.096
0.517                   -0.13944        -129.941         -65.4777         95.8423         -65.4754         95.8453      -0.00829054          150.03
0.518                   -0.14519        -130.455         -65.2355         95.1301         -65.2333         95.1329       -0.0083655         149.963
0.519                   -0.15125        -130.973         -64.9902         94.4044         -64.9881         94.4071      -0.00844134         149.897
0.52                   -0.157644        -131.497         -64.7417         93.6645         -64.7396         93.6671       -0.0085181          149.83
0.521                  -0.164395        -132.025         -64.4899           92.91          -64.488         92.9125      -0.00859578         149.763
0.522                  -0.171529        -132.559          -64.235         92.1401         -64.2331         92.1425       -0.0086744         149.696
0.523                  -0.179073        -133.098         -63.9767         91.3542         -63.9749         91.3565        -0.008754         149.629
0.524                  -0.187057        -133.643         -63.7152         90.5517         -63.7135         90.5539      -0.00883458         149.562
0.525                  -0.195513        -134.193         -63.4504         89.7318         -63.4487         89.7339      -0.00891616         149.495
0.526                  -0.204476        -134.748         -63.1822         88.8938         -63.1806         88.8957      -0.00899879         149.427
0.527                  -0.213984         -135.31         -62.9107         88.0369         -62.9091         88.0387      -0.00908247          149.36
0.528                  -0.224077        -135.877         -62.6358         87.1603         -62.6343          87.162      -0.00916723         149.292
0.529                  -0.234798        -136.451         -62.3574          86.263          -62.356         86.2646       -0.0092531         149.225
0.53                   -0.246197        -137.031         -62.0757         85.3443         -62.0743         85.3458       -0.0093401         149.157
0.531                  -0.258323        -137.617         -61.7906         84.4032         -61.7893         84.4046      -0.00942827         149.089
0.532                  -0.271232        -138.209          -61.502         83.4386         -61.5007         83.4399      -0.00951764         149.021
0.533                  -0.284984        -138.809           -61.21         82.4495         -61.2088         82.4507      -0.00960823         148.953
0.534                  -0.299645        -139.415         -60.9146         81.4348         -60.9134          81.436      -0.00970009         148.885
0.535                  -0.315284        -140.027         -60.6157         80.3934         -60.6146         80.3945      -0.00979324         148.817
0.536                  -0.331977        -140.647         -60.3134         79.3241         -60.3124         79.3251      -0.00988773         148.749
0.537                  -0.349806        -141.274         -60.0077         78.2256         -60.0068         78.2265      -0.00998359         148.681
0.538                  -0.368862        -141.908         -59.6987         77.0966         -59.6978         77.0975       -0.0100809         148.612
0.539                  -0.389239        -142.549         -59.3863         75.9356         -59.3854         75.9365       -0.0101796         148.543
0.54                   -0.411041        -143.196         -59.0706         74.7414         -59.0698         74.7422       -0.0102798         148.475
0.541                  -0.434381        -143.852         -58.7517         73.5122         -58.7509          73.513       -0.0103816         148.406
0.542                  -0.459379        -144.514         -58.4296         72.2466         -58.4289         72.2473        -0.010485         148.337
0.543                  -0.486165        -145.183         -58.1044         70.9429         -58.1038         70.9436       -0.0105901         148.268
0.544                  -0.514878        -145.858         -57.7762         69.5994         -57.7756         69.6001       -0.0106969         148.199
0.545                  -0.545669         -146.54         -57.4452         68.2143         -57.4446          68.215       -0.0108054          148.13
0.546                  -0.578698        -147.229         -57.1114         66.7858         -57.1109         66.7864       -0.0109159          148.06
0.547                  -0.614135        -147.922         -56.7749         65.3119         -56.7745         65.3125       -0.0110282         147.991
0.548                  -0.652161        -148.622         -56.4361         63.7907         -56.4357         63.7913       -0.0111425         147.921
0.549                  -0.692967        -149.325         -56.0951         62.2201         -56.0947         62.2207       -0.0112588         147.851
0.55                   -0.736756        -150.032          -55.752         60.5981         -55.7517         60.5987       -0.0113773         147.782
0.551                  -0.783735        -150.742         -55.4072         58.9227         -55.4069         58.9233        -0.011498         147.712
0.552                  -0.834123        -151.453          -55.061         57.1917         -55.0608         57.1923       -0.0116209         147.642
0.553                  -0.888139        -152.165         -54.7137          55.403         -54.7135         55.4037       -0.0117463         147.571
0.554                  -0.946007        -152.874         -54.3657         53.5546         -54.3655         53.5553       -0.0118741         147.501
0.555                   -1.00795         -153.58         -54.0174         51.6444         -54.0172         51.6451       -0.0120044         147.431
0.556                   -1.07417         -154.28         -53.6692         49.6706          -53.669         49.6713       -0.0121373          147.36
0.557                   -1.14487        -154.971         -53.3216         47.6313         -53.3215          47.632       -0.0122729          147.29
0.558                   -1.22023         -155.65         -52.9753         45.5248         -52.9752         45.5256       -0.0124112         147.219
0.559                   -1.30038        -156.314         -52.6308         43.3498         -52.6308         43.3506       -0.0125523         147.148
0.56                    -1.38541        -156.958         -52.2888         41.1051         -52.2888         41.1059       -0.0126963         147.077
0.561                   -1.47534        -157.579           -51.95         38.7898           -51.95         38.7906       -0.0128431         147.006
0.562                   -1.57014        -158.172         -51.6151         36.4035         -51.6151         36.4044       -0.0129929         146.935
0.563                   -1.66963        -158.731          -51.285         33.9463          -51.285         33.9471       -0.0131455         146.863
0.564                   -1.77356        -159.251         -50.9604         31.4185         -50.9604         31.4194       -0.0133009         146.792
0.565                   -1.88151        -159.726         -50.6423         28.8214         -50.6423         28.8223       -0.0134592          146.72
0.566                   -1.99291         -160.15         -50.3314         26.1567         -50.3314         26.1575       -0.0136202         146.648
0.567                   -2.10699        -160.519         -50.0288         23.4266         -50.0288         23.4275       -0.0137838         146.577
0.568                   -2.22281        -160.825         -49.7351         20.6345         -49.7351         20.6353       -0.0139499         146.505
0.569                   -2.33921        -161.066         -49.4513         17.7841         -49.4513         17.7849       -0.0141183         146.432
0.57                    -2.45485        -161.237         -49.1781           14.88         -49.1781         14.8808       -0.0142889          146.36
0.571                   -2.56821        -161.335         -48.9163         11.9275         -48.9163         11.9283       -0.0144614         146.288
0.572                   -2.67762        -161.361         -48.6665          8.9326         -48.6665          8.9333       -0.0146356         146.215
0.573                   -2.78134        -161.316         -48.4292         5.90169         -48.4293         5.90234       -0.0148113         146.143
0.574                   -2.87758        -161.203         -48.2049         2.84178         -48.2049         2.84237       -0.0149884          146.07
0.575                   -2.96465        -161.028         -47.9937       -0.239834         -47.9938       -0.239297       -0.0151665         145.997
0.576                   -3.04096          -160.8          -47.796        -3.33564          -47.796        -3.33516       -0.0153454         145.924
0.577                    -3.1052         -160.53         -47.6116        -6.43807         -47.6116        -6.43766       -0.0155251         145.851
0.578                   -3.15635        -160.228         -47.4404        -9.53968         -47.4404        -9.53933       -0.0157054         145.778
0.579                   -3.19377         -159.91         -47.2822        -12.6333         -47.2822         -12.633       -0.0158862         145.704
0.58                    -3.21722        -159.587         -47.1366         -15.712         -47.1366        -15.7117       -0.0160674         145.631
0.581                   -3.22686        -159.274          -47.003        -18.7695          -47.003        -18.7693       -0.0162489         145.557
0.582                   -3.22326        -158.985         -46.8808        -21.8001         -46.8809           -21.8       -0.0164308         145.483
0.583                   -3.20727        -158.729         -46.7695        -24.7987         -46.7695        -24.7986       -0.0166131         145.409
0.584                   -3.18004        -158.518         -46.6681        -27.7609         -46.6682        -27.7609       -0.0167959         145.335
0.585                   -3.14287        -158.358          -46.576        -30.6832          -46.576        -30.6832       -0.0169793         145.261
0.586                   -3.09719        -158.257         -46.4923        -33.5626         -46.4923        -33.5626       -0.0171633         145.186
0.587                   -3.04443        -158.217         -46.4162        -36.3968         -46.4163        -36.3969       -0.0173481         145.112
0.588                   -2.98603        -158.242         -46.3469        -39.1844          -46.347        -39.1845       -0.0175339         145.037
0.589                   -2.92332        -158.332         -46.2837        -41.9244         -46.2837        -41.9246       -0.0177207         144.962
0.59                    -2.85753        -158.486         -46.2256        -44.6164         -46.2257        -44.6166       -0.0179088         144.887
0.591                   -2.78978        -158.702         -46.1722        -47.2605         -46.1722        -47.2607       -0.0180982         144.811
0.592                   -2.72104        -158.979         -46.1225        -49.8573         -46.1226        -49.8575       -0.0182892         144.736
0.593                   -2.65213        -159.313         -46.0761        -52.4075         -46.0762        -52.4077       -0.0184818          144.66
0.594                   -2.58375        -159.701         -46.0324        -54.9125         -46.0324        -54.9127       -0.0186762         144.584
0.595                   -2.51647         -160.14         -45.9907        -57.3735         -45.9907        -57.3737       -0.0188725         144.508
0.596                   -2.45077        -160.626         -45.9507        -59.7922         -45.9507        -59.7925       -0.0190708         144.432
0.597                   -2.38701        -161.156         -45.9119        -62.1704         -45.9119        -62.1707       -0.0192713         144.356
0.598                   -2.32547        -161.726         -45.8739        -64.5099         -45.8739        -64.5102        -0.019474         144.279
0.599                   -2.26636        -162.335         -45.8363        -66.8126         -45.8363        -66.8129        -0.019679         144.202
0.6                     -2.20984        -162.978          -45.799        -69.0805         -45.7989        -69.0808       -0.0198864         144.125
0.601                   -2.15599        -163.653         -45.7615        -71.3156         -45.7615        -71.3158       -0.0200963         144.048
0.602                    -2.1049        -164.358         -45.7237        -73.5197         -45.7237          -73.52       -0.0203088         143.971
0.603                   -2.05658        -165.091         -45.6855        -75.6948         -45.6854        -75.6951       -0.0205238         143.893
0.604                   -2.01104         -165.85         -45.6465        -77.8428         -45.6464        -77.8432       -0.0207415         143.816
0.605                   -1.96826        -166.632         -45.6067        -79.9656         -45.6067         -79.966        -0.020962         143.738
0.606                   -1.92822        -167.438         -45.5661        -82.0648          -45.566        -82.0652       -0.0211851         143.659
0.607                   -1.89088        -168.264         -45.5244        -84.1423         -45.5243        -84.1427       -0.0214111         143.581
0.608                   -1.85619         -169.11         -45.4816        -86.1995         -45.4815           -86.2         -0.02164         143.503
0.609                   -1.82409        -169.975         -45.4377        -88.2382         -45.4376        -88.2387       -0.0218716         143.424
0.61                    -1.79455        -170.858         -45.3926        -90.2597         -45.3925        -90.2602       -0.0221062         143.345
0.611                   -1.76749        -171.759         -45.3464        -92.2654         -45.3463         -92.266       -0.0223437         143.266
0.612                   -1.74288        -172.676         -45.2989        -94.2568         -45.2988        -94.2574       -0.0225842         143.186
0.613                   -1.72066         -173.61         -45.2503        -96.2349         -45.2501        -96.2357       -0.0228276         143.106
0.614                   -1.70078        -174.559         -45.2005        -98.2012         -45.2003        -98.2019        -0.023074         143.027
0.615                    -1.6832        -175.523         -45.1495        -100.156         -45.1493        -100.157       -0.0233234         142.947
0.616                   -1.66788        -176.502         -45.0973        -102.102         -45.0971        -102.103       -0.0235758         142.866
0.617                   -1.65478        -177.497          -45.044        -104.039         -45.0438         -104.04       -0.0238313         142.786
0.618                   -1.64387        -178.505         -44.9896        -105.967         -44.9894        -105.968       -0.0240898         142.705
0.619                   -1.63512        -179.529         -44.9342        -107.889          -44.934         -107.89       -0.0243514         142.624
0.62                    -1.62852         179.433         -44.8778        -109.804         -44.8776        -109.805       -0.0246161         142.543
0.621                   -1.62405          178.38         -44.8204        -111.714         -44.8202        -111.715       -0.0248839         142.461
0.622                    -1.6217         177.313         -44.7621        -113.618         -44.7619         -113.62       -0.0251549          142.38
0.623                   -1.62145         176.231         -44.7029        -115.519         -44.7027         -115.52        -0.025429         142.298
0.624                   -1.62331         175.135         -44.6429        -117.415         -44.6427        -117.417       -0.0257062         142.215
0.625                   -1.62729         174.023         -44.5821        -119.309         -44.5819         -119.31       -0.0259867         142.133
0.626                    -1.6334         172.897         -44.5206          -121.2         -44.5204        -121.201       -0.0262704          142.05
0.627                   -1.64164         171.755         -44.4584        -123.088         -44.4582         -123.09       -0.0265573         141.967
0.628                   -1.65204         170.598         -44.3956        -124.975         -44.3954        -124.977       -0.0268475         141.884
0.629                   -1.66462         169.425         -44.3322        -126.861          -44.332        -126.862        -0.027141         141.801
