! TOUCHSTONE file generated by CST MICROWAVE STUDIO
! Date and time: Thu Feb 11 19:30:57 2021
! Project name: Scenario_1_Planar_Body_Tissue_Out_of_Line.cst
! Parameters = {L_HA=400; Ltissue=1000; MT=2.54; Rad_Dielectric=30; Rad_Lower=7.3; Rad_Upper=30; Wtissue=1000; a_HA=580; a_WG=246; b_HA=500; b_WG=121; c_HA=0; c_WG=187; d_feed=85; dx1=346; dy1=-328.7; h_feed=15; h_lower=18; h_upper=40; hfat=3; hgap=25; hmuscle=50; hskin=1.5}
! Header version: 2018
! Port assignment regex: !\s*Touchstone port\s*([0-9]+)\s*=\s*(CST MWS port|CST DS port)\s*([0-9]+|Zmin|Zmax)\s*\(\"(.*)\"\)(\s*mode\s*([0-9]+))?.*
! Touchstone port assignment:
! Touchstone port 1 = CST MWS port 1 ("")
! Touchstone port 2 = CST MWS port 2 ("")
# GHz S DB R 50
0.5                    -0.253661        -121.695         -59.1962        -10.3797         -59.1965        -10.3767      -0.00801659         151.146
0.501                  -0.254525        -122.118         -59.2408        -11.4891         -59.2411        -11.4865      -0.00807266         151.081
0.502                  -0.255471        -122.544         -59.2845        -12.6153         -59.2849         -12.613      -0.00812952         151.016
0.503                    -0.2565        -122.971         -59.3274        -13.7583         -59.3278        -13.7565      -0.00818718         150.951
0.504                  -0.257614        -123.401         -59.3692        -14.9186         -59.3698        -14.9172      -0.00824565         150.885
0.505                  -0.258814        -123.833         -59.4101        -16.0963         -59.4107        -16.0953      -0.00830493          150.82
0.506                  -0.260102        -124.268         -59.4498        -17.2916         -59.4505         -17.291      -0.00836502         150.754
0.507                  -0.261479        -124.704         -59.4884        -18.5047         -59.4891        -18.5046      -0.00842594         150.688
0.508                  -0.262947        -125.143         -59.5257        -19.7359         -59.5264        -19.7362      -0.00848769         150.622
0.509                  -0.264507        -125.585         -59.5616        -20.9852         -59.5624         -20.986      -0.00855027         150.557
0.51                   -0.266162        -126.029         -59.5962        -22.2529          -59.597        -22.2542       -0.0086137         150.491
0.511                  -0.267913        -126.475         -59.6292        -23.5392           -59.63        -23.5409      -0.00867797         150.425
0.512                  -0.269762        -126.924         -59.6606         -24.844         -59.6615        -24.8463      -0.00874309         150.359
0.513                  -0.271711        -127.376         -59.6903        -26.1676         -59.6912        -26.1704      -0.00880907         150.292
0.514                  -0.273762         -127.83         -59.7182        -27.5101         -59.7191        -27.5133      -0.00887593         150.226
0.515                  -0.275918        -128.287         -59.7442        -28.8714         -59.7452        -28.8752      -0.00894365          150.16
0.516                  -0.278181        -128.746         -59.7683        -30.2516         -59.7692        -30.2559      -0.00901226         150.093
0.517                  -0.280553        -129.208         -59.7902        -31.6508         -59.7912        -31.6556      -0.00908175         150.027
0.518                  -0.283037        -129.673         -59.8099        -33.0689         -59.8109        -33.0741      -0.00915214          149.96
0.519                  -0.285635        -130.141         -59.8274        -34.5058         -59.8284        -34.5115      -0.00922343         149.894
0.52                    -0.28835        -130.612         -59.8424        -35.9614         -59.8434        -35.9677      -0.00929563         149.827
0.521                  -0.291186        -131.085         -59.8549        -37.4357         -59.8559        -37.4424      -0.00936875          149.76
0.522                  -0.294145        -131.562         -59.8647        -38.9284         -59.8658        -38.9357       -0.0094428         149.693
0.523                   -0.29723        -132.042         -59.8718        -40.4394         -59.8729        -40.4471      -0.00951779         149.626
0.524                  -0.300445        -132.524         -59.8761        -41.9684         -59.8772        -41.9767      -0.00959371         149.559
0.525                  -0.303793         -133.01         -59.8774        -43.5152         -59.8785        -43.5239      -0.00967059         149.492
0.526                  -0.307278        -133.499         -59.8757        -45.0794         -59.8767        -45.0886      -0.00974843         149.425
0.527                  -0.310904        -133.991         -59.8707        -46.6608         -59.8717        -46.6704      -0.00982724         149.357
0.528                  -0.314675        -134.487         -59.8625        -48.2588         -59.8635        -48.2689      -0.00990703          149.29
0.529                  -0.318596        -134.986         -59.8509        -49.8731         -59.8519        -49.8836      -0.00998781         149.222
0.53                    -0.32267        -135.488         -59.8359        -51.5031         -59.8368        -51.5141       -0.0100696         149.154
0.531                  -0.326902        -135.994         -59.8172        -53.1485         -59.8182        -53.1598       -0.0101524         149.087
0.532                  -0.331298        -136.504         -59.7949        -54.8086         -59.7958        -54.8203       -0.0102362         149.019
0.533                  -0.335863        -137.017         -59.7689        -56.4828         -59.7697        -56.4949        -0.010321         148.951
0.534                  -0.340602        -137.534          -59.739        -58.1706         -59.7398        -58.1831       -0.0104069         148.883
0.535                  -0.345521        -138.054         -59.7052        -59.8713          -59.706        -59.8841       -0.0104938         148.815
0.536                  -0.350627        -138.579         -59.6674        -61.5842         -59.6682        -61.5973       -0.0105818         148.746
0.537                  -0.355925        -139.108         -59.6256        -63.3087         -59.6263         -63.322       -0.0106709         148.678
0.538                  -0.361423         -139.64         -59.5797        -65.0439         -59.5803        -65.0576        -0.010761          148.61
0.539                  -0.367127        -140.177         -59.5296        -66.7893         -59.5302        -66.8031       -0.0108523         148.541
0.54                   -0.373046        -140.718         -59.4754        -68.5439          -59.476         -68.558       -0.0109446         148.473
0.541                  -0.379187        -141.263         -59.4169        -70.3072         -59.4174        -70.3215       -0.0110381         148.404
0.542                   -0.38556        -141.813         -59.3542        -72.0783         -59.3547        -72.0927       -0.0111327         148.335
0.543                  -0.392172        -142.367         -59.2873        -73.8564         -59.2877        -73.8709       -0.0112285         148.266
0.544                  -0.399033        -142.925         -59.2161        -75.6408         -59.2164        -75.6554       -0.0113254         148.197
0.545                  -0.406154        -143.489         -59.1406        -77.4307         -59.1409        -77.4454       -0.0114235         148.128
0.546                  -0.413546        -144.057         -59.0608        -79.2255          -59.061        -79.2402       -0.0115228         148.058
0.547                  -0.421218         -144.63         -58.9768        -81.0243          -58.977        -81.0391       -0.0116233         147.989
0.548                  -0.429184        -145.208         -58.8886        -82.8266         -58.8887        -82.8414        -0.011725          147.92
0.549                  -0.437456        -145.791         -58.7962        -84.6315         -58.7963        -84.6463       -0.0118279          147.85
0.55                   -0.446048         -146.38         -58.6996        -86.4386         -58.6996        -86.4533       -0.0119321          147.78
0.551                  -0.454974        -146.974         -58.5989        -88.2471         -58.5989        -88.2617       -0.0120375          147.71
0.552                  -0.464248        -147.573         -58.4942        -90.0566         -58.4942        -90.0711       -0.0121443          147.64
0.553                  -0.473888        -148.178         -58.3855        -91.8664         -58.3854        -91.8808       -0.0122523          147.57
0.554                   -0.48391        -148.789         -58.2729        -93.6762         -58.2727        -93.6904       -0.0123616           147.5
0.555                  -0.494333        -149.406         -58.1563        -95.4853         -58.1562        -95.4994       -0.0124723          147.43
0.556                  -0.505175        -150.029         -58.0361        -97.2936         -58.0358        -97.3075       -0.0125843         147.359
0.557                  -0.516459        -150.658         -57.9121        -99.1006         -57.9118        -99.1142       -0.0126976         147.289
0.558                  -0.528205        -151.294         -57.7844        -100.906         -57.7841        -100.919       -0.0128124         147.218
0.559                  -0.540437        -151.936         -57.6533         -102.71         -57.6529        -102.723       -0.0129286         147.147
0.56                   -0.553181        -152.585         -57.5186        -104.511         -57.5183        -104.524       -0.0130461         147.076
0.561                  -0.566463        -153.241         -57.3807        -106.311         -57.3803        -106.323       -0.0131651         147.005
0.562                  -0.580312        -153.904         -57.2394        -108.108          -57.239         -108.12       -0.0132856         146.934
0.563                  -0.594758        -154.574          -57.095        -109.903         -57.0946        -109.915       -0.0134076         146.863
0.564                  -0.609834        -155.251         -56.9475        -111.696         -56.9471        -111.708        -0.013531         146.791
0.565                  -0.625575        -155.936          -56.797        -113.486         -56.7966        -113.498        -0.013656          146.72
0.566                  -0.642018         -156.63         -56.6436        -115.275         -56.6432        -115.286       -0.0137825         146.648
0.567                  -0.659205        -157.331         -56.4875        -117.062          -56.487        -117.072       -0.0139106         146.576
0.568                  -0.677177         -158.04         -56.3286        -118.847         -56.3282        -118.857       -0.0140403         146.504
0.569                   -0.69598        -158.758         -56.1672        -120.631         -56.1667        -120.641       -0.0141715         146.432
0.57                   -0.715666        -159.485         -56.0033        -122.413         -56.0028        -122.423       -0.0143044          146.36
0.571                  -0.736285         -160.22         -55.8369        -124.195         -55.8365        -124.204        -0.014439         146.288
0.572                  -0.757897        -160.965         -55.6683        -125.977         -55.6678        -125.986       -0.0145753         146.215
0.573                  -0.780562        -161.719         -55.4975        -127.759          -55.497        -127.767       -0.0147133         146.142
0.574                  -0.804346        -162.483         -55.3246        -129.541         -55.3241        -129.549        -0.014853          146.07
0.575                  -0.829321        -163.257         -55.1496        -131.324         -55.1491        -131.332       -0.0149944         145.997
0.576                  -0.855563        -164.041         -54.9728         -133.11         -54.9723        -133.117       -0.0151377         145.923
0.577                  -0.883155        -164.836         -54.7941        -134.897         -54.7936        -134.905       -0.0152828          145.85
0.578                  -0.912186        -165.641         -54.6137        -136.688         -54.6132        -136.695       -0.0154297         145.777
0.579                  -0.942752        -166.457         -54.4317        -138.482         -54.4312        -138.488       -0.0155785         145.703
0.58                   -0.974957        -167.285         -54.2481         -140.28         -54.2477        -140.286       -0.0157292          145.63
0.581                   -1.00891        -168.124         -54.0632        -142.083         -54.0628        -142.089       -0.0158818         145.556
0.582                   -1.04474        -168.974         -53.8769        -143.892         -53.8765        -143.898       -0.0160364         145.482
0.583                   -1.08257        -169.837         -53.6894        -145.708         -53.6891        -145.713        -0.016193         145.407
0.584                   -1.12254        -170.712         -53.5008         -147.53         -53.5005        -147.535       -0.0163516         145.333
0.585                   -1.16481        -171.599         -53.3113        -149.361         -53.3109        -149.366       -0.0165123         145.259
0.586                   -1.20954        -172.498         -53.1208        -151.201         -53.1205        -151.205       -0.0166751         145.184
0.587                   -1.25692        -173.411         -52.9295         -153.05         -52.9293        -153.054         -0.01684         145.109
0.588                   -1.30712        -174.336         -52.7376         -154.91         -52.7374        -154.914       -0.0170071         145.034
0.589                   -1.36037        -175.274         -52.5452        -156.782          -52.545        -156.785       -0.0171764         144.959
0.59                    -1.41688        -176.225         -52.3525        -158.665         -52.3522        -158.668       -0.0173479         144.884
0.591                    -1.4769        -177.188         -52.1594        -160.562         -52.1592        -160.565       -0.0175217         144.808
0.592                   -1.54071        -178.165         -51.9663        -162.473         -51.9661        -162.476       -0.0176979         144.732
0.593                   -1.60857        -179.154         -51.7732        -164.399         -51.7731        -164.401       -0.0178764         144.656
0.594                    -1.6808         179.845         -51.5803        -166.341         -51.5802        -166.342       -0.0180573          144.58
0.595                   -1.75772         178.832         -51.3878        -168.299         -51.3877          -168.3       -0.0182406         144.504
0.596                    -1.8397         177.808         -51.1959        -170.274         -51.1958        -170.275       -0.0184264         144.428
0.597                   -1.92712         176.773         -51.0047        -172.268         -51.0047        -172.269       -0.0186148         144.351
0.598                   -2.02038         175.729         -50.8145         -174.28         -50.8145        -174.281       -0.0188057         144.274
0.599                   -2.11993         174.678         -50.6255        -176.311         -50.6254        -176.312       -0.0189992         144.197
0.6                     -2.22623          173.62         -50.4378        -178.363         -50.4378        -178.364       -0.0191954          144.12
0.601                   -2.33978         172.557         -50.2517         179.564         -50.2517         179.564       -0.0193944         144.043
0.602                    -2.4611         171.492         -50.0675         177.471         -50.0675         177.471        -0.019596         143.965
0.603                   -2.59073         170.428         -49.8853         175.356         -49.8854         175.356       -0.0198005         143.888
0.604                   -2.72926         169.367         -49.7055         173.219         -49.7056          173.22       -0.0200079          143.81
0.605                   -2.87728         168.315         -49.5284          171.06         -49.5285         171.061       -0.0202182         143.731
0.606                   -3.03539         167.275         -49.3541          168.88         -49.3542         168.881       -0.0204314         143.653
0.607                   -3.20418         166.254          -49.183         166.677         -49.1831         166.678       -0.0206477         143.574
0.608                   -3.38427         165.257         -49.0154         164.453         -49.0155         164.454       -0.0208671         143.496
0.609                   -3.57622         164.292         -48.8516         162.208         -48.8517         162.209       -0.0210896         143.417
0.61                    -3.78055         163.368         -48.6918         159.942          -48.692         159.943       -0.0213153         143.337
0.611                   -3.99769         162.496         -48.5364         157.656         -48.5366         157.658       -0.0215443         143.258
0.612                   -4.22799         161.685         -48.3857         155.351         -48.3858         155.353       -0.0217766         143.178
0.613                   -4.47159         160.951         -48.2398         153.029           -48.24          153.03       -0.0220122         143.098
0.614                   -4.72845         160.306         -48.0992          150.69         -48.0993         150.691       -0.0222514         143.018
0.615                   -4.99821         159.768         -47.9641         148.335         -47.9642         148.337        -0.022494         142.938
0.616                   -5.28017         159.354         -47.8347         145.968         -47.8348         145.969       -0.0227402         142.857
0.617                   -5.57312         159.084         -47.7112         143.588         -47.7113          143.59       -0.0229901         142.777
0.618                   -5.87528         158.978         -47.5939           141.2          -47.594         141.201       -0.0232437         142.696
0.619                   -6.18414         159.056          -47.483         138.804         -47.4831         138.805       -0.0235011         142.614
0.62                     -6.4964         159.339         -47.3785         136.402         -47.3786         136.404       -0.0237624         142.533
0.621                   -6.80779         159.845         -47.2807         133.999         -47.2808             134       -0.0240276         142.451
0.622                   -7.11308         160.588         -47.1896         131.595         -47.1897         131.597       -0.0242969         142.369
0.623                   -7.40607         161.577         -47.1052         129.195         -47.1053         129.196       -0.0245702         142.287
0.624                   -7.67977         162.812         -47.0277         126.799         -47.0278           126.8       -0.0248478         142.204
0.625                   -7.92668         164.281         -46.9569         124.412          -46.957         124.413       -0.0251296         142.122
0.626                   -8.13931         165.961         -46.8928         122.036         -46.8929         122.036       -0.0254157         142.039
0.627                   -8.31079         167.815         -46.8353         119.673         -46.8355         119.673       -0.0257063         141.955
0.628                   -8.43559         169.792         -46.7844         117.326         -46.7845         117.326       -0.0260014         141.872
0.629                   -8.51021         171.834         -46.7397         114.998         -46.7398         114.998       -0.0263012         141.788
