! TOUCHSTONE file generated by CST MICROWAVE STUDIO
! Date and time: Tue Nov 17 07:09:48 2020
! Project name: Scenario_1_Planar_Body_Tissue_Out_of_Line.cst
! Header version: 2018
! Port assignment regex: !\s*Touchstone port\s*([0-9]+)\s*=\s*(CST MWS port|CST DS port)\s*([0-9]+|Zmin|Zmax)\s*\(\"(.*)\"\)(\s*mode\s*([0-9]+))?.*
! Touchstone port assignment:
! Touchstone port 1 = CST MWS port 1 ("")
! Touchstone port 2 = CST MWS port 2 ("")
# GHz S DB R 50
0.5                    -0.144482        -121.719         -66.0025        -32.9024         -66.0021        -32.9021      -0.00761926         151.159
0.501                  -0.147406        -122.151         -65.9067        -34.8484         -65.9063        -34.8473      -0.00768174         151.093
0.502                  -0.150448        -122.585         -65.8074         -36.815          -65.807        -36.8133      -0.00774501         151.028
0.503                  -0.153615        -123.023         -65.7045         -38.802         -65.7041        -38.7998      -0.00780907         150.963
0.504                  -0.156916        -123.465         -65.5979        -40.8093         -65.5976        -40.8066      -0.00787393         150.897
0.505                  -0.160361        -123.909         -65.4878        -42.8368         -65.4874        -42.8336      -0.00793961         150.832
0.506                   -0.16396        -124.357         -65.3739        -44.8841         -65.3735        -44.8806      -0.00800612         150.766
0.507                  -0.167724        -124.808         -65.2563        -46.9513          -65.256        -46.9474      -0.00807345         150.701
0.508                  -0.171666        -125.262         -65.1351         -49.038         -65.1348        -49.0339      -0.00814163         150.635
0.509                  -0.175797         -125.72         -65.0102        -51.1442         -65.0098        -51.1399      -0.00821066         150.569
0.51                   -0.180132        -126.182         -64.8815        -53.2696         -64.8812        -53.2653      -0.00828056         150.504
0.511                  -0.184684        -126.647         -64.7492        -55.4142         -64.7489        -55.4098      -0.00835132         150.438
0.512                   -0.18947        -127.115         -64.6133        -57.5777         -64.6129        -57.5733      -0.00842296         150.372
0.513                  -0.194507        -127.588         -64.4737          -59.76         -64.4733        -59.7558       -0.0084955         150.305
0.514                  -0.199813        -128.064         -64.3305        -61.9611         -64.3301         -61.957      -0.00856894         150.239
0.515                  -0.205406        -128.544         -64.1838        -64.1808         -64.1834         -64.177      -0.00864329         150.173
0.516                  -0.211309        -129.028         -64.0336         -66.419         -64.0332        -66.4155      -0.00871855         150.107
0.517                  -0.217543        -129.516           -63.88        -68.6757         -63.8796        -68.6725      -0.00879475          150.04
0.518                  -0.224132        -130.008         -63.7231        -70.9508         -63.7226         -70.948      -0.00887189         149.974
0.519                  -0.231102        -130.504         -63.5629        -73.2442         -63.5624         -73.242      -0.00894999         149.907
0.52                    -0.23848        -131.004         -63.3996        -75.5561          -63.399        -75.5544      -0.00902904          149.84
0.521                  -0.246296        -131.508         -63.2332        -77.8864         -63.2325        -77.8852      -0.00910907         149.774
0.522                   -0.25458        -132.016         -63.0638        -80.2351         -63.0631        -80.2346      -0.00919008         149.707
0.523                  -0.263366        -132.528         -62.8916        -82.6023         -62.8909        -82.6025      -0.00927208          149.64
0.524                  -0.272689        -133.044         -62.7168        -84.9881          -62.716        -84.9891      -0.00935509         149.573
0.525                  -0.282585        -133.565         -62.5394        -87.3926         -62.5386        -87.3943      -0.00943911         149.506
0.526                  -0.293096        -134.089         -62.3596        -89.8158         -62.3587        -89.8184      -0.00952416         149.438
0.527                   -0.30426        -134.617         -62.1775         -92.258         -62.1766        -92.2615      -0.00961025         149.371
0.528                  -0.316123         -135.15         -61.9934        -94.7192         -61.9924        -94.7237      -0.00969738         149.304
0.529                  -0.328729        -135.686         -61.8074        -97.1997         -61.8064         -97.205      -0.00978557         149.236
0.53                   -0.342124        -136.225         -61.6197        -99.6994         -61.6186        -99.7058      -0.00987483         149.168
0.531                  -0.356358        -136.769         -61.4306        -102.219         -61.4294        -102.226      -0.00996517         149.101
0.532                  -0.371477        -137.315         -61.2401        -104.758         -61.2389        -104.766       -0.0100566         149.033
0.533                  -0.387533        -137.864         -61.0486        -107.316         -61.0473        -107.326       -0.0101491         148.965
0.534                  -0.404574        -138.416         -60.8562        -109.894         -60.8549        -109.905       -0.0102428         148.897
0.535                  -0.422648         -138.97         -60.6632        -112.493         -60.6619        -112.505       -0.0103376         148.829
0.536                  -0.441802        -139.527         -60.4699        -115.111         -60.4685        -115.124       -0.0104335         148.761
0.537                  -0.462079        -140.084         -60.2764        -117.749          -60.275        -117.763       -0.0105306         148.693
0.538                  -0.483517        -140.643         -60.0831        -120.407         -60.0816        -120.422       -0.0106288         148.624
0.539                  -0.506149        -141.201         -59.8902        -123.085         -59.8886        -123.101       -0.0107282         148.556
0.54                   -0.529999         -141.76         -59.6979        -125.782         -59.6964          -125.8       -0.0108288         148.487
0.541                  -0.555082        -142.317         -59.5066        -128.499          -59.505        -128.517       -0.0109306         148.418
0.542                  -0.581401        -142.873         -59.3165        -131.234         -59.3149        -131.254       -0.0110336          148.35
0.543                  -0.608945        -143.425         -59.1278        -133.989         -59.1263        -134.009       -0.0111378         148.281
0.544                  -0.637684        -143.975         -58.9409        -136.761         -58.9394        -136.782       -0.0112433         148.212
0.545                  -0.667571        -144.519         -58.7561         -139.55         -58.7546        -139.573         -0.01135         148.143
0.546                  -0.698538        -145.059         -58.5735        -142.357          -58.572         -142.38        -0.011458         148.073
0.547                  -0.730493        -145.592         -58.3935        -145.179          -58.392        -145.203       -0.0115672         148.004
0.548                  -0.763319        -146.118         -58.2163        -148.016         -58.2149        -148.041       -0.0116778         147.935
0.549                  -0.796876        -146.635         -58.0421        -150.867         -58.0408        -150.892       -0.0117896         147.865
0.55                   -0.830996        -147.144         -57.8712         -153.73         -57.8699        -153.757       -0.0119027         147.796
0.551                  -0.865491        -147.644         -57.7038        -156.605         -57.7026        -156.632       -0.0120172         147.726
0.552                  -0.900149        -148.134         -57.5401         -159.49          -57.539        -159.518        -0.012133         147.656
0.553                  -0.934741        -148.614         -57.3803        -162.384         -57.3792        -162.412       -0.0122502         147.586
0.554                  -0.969026        -149.084         -57.2245        -165.284         -57.2235        -165.313       -0.0123687         147.516
0.555                   -1.00276        -149.545         -57.0729         -168.19          -57.072        -168.219       -0.0124886         147.446
0.556                   -1.03568        -149.996         -56.9256          -171.1         -56.9248        -171.129       -0.0126098         147.375
0.557                   -1.06757        -150.439         -56.7826        -174.012          -56.782         -174.04       -0.0127325         147.305
0.558                   -1.09818        -150.874         -56.6442        -176.924         -56.6437        -176.952       -0.0128566         147.234
0.559                   -1.12733        -151.304         -56.5102        -179.834         -56.5098        -179.862       -0.0129822         147.163
0.56                    -1.15483        -151.729         -56.3808         177.259         -56.3805         177.231       -0.0131091         147.093
0.561                   -1.18055         -152.15         -56.2559         174.357         -56.2557          174.33       -0.0132376         147.022
0.562                    -1.2044        -152.571         -56.1354         171.462         -56.1353         171.435       -0.0133674          146.95
0.563                    -1.2263        -152.992         -56.0193         168.575         -56.0193          168.55       -0.0134988         146.879
0.564                   -1.24625        -153.416         -55.9076         165.699         -55.9077         165.674       -0.0136317         146.808
0.565                   -1.26427        -153.844            -55.8         162.834         -55.8002         162.811        -0.013766         146.736
0.566                   -1.28042        -154.278         -55.6966         159.983         -55.6968         159.961       -0.0139019         146.665
0.567                   -1.29479        -154.721          -55.597         157.147         -55.5973         157.125       -0.0140393         146.593
0.568                   -1.30752        -155.172         -55.5012         154.326         -55.5016         154.306       -0.0141782         146.521
0.569                   -1.31876        -155.634          -55.409         151.522         -55.4094         151.503       -0.0143187         146.449
0.57                    -1.32866        -156.108         -55.3201         148.737         -55.3205         148.719       -0.0144607         146.377
0.571                   -1.33741        -156.595         -55.2344          145.97         -55.2348         145.954       -0.0146043         146.305
0.572                    -1.3452        -157.096         -55.1516         143.223         -55.1521         143.208       -0.0147494         146.232
0.573                   -1.35223        -157.611         -55.0715         140.497          -55.072         140.483       -0.0148961          146.16
0.574                   -1.35868        -158.141         -54.9939         137.791         -54.9943         137.779       -0.0150444         146.087
0.575                   -1.36474        -158.687         -54.9185         135.106         -54.9189         135.096       -0.0151943         146.014
0.576                   -1.37061        -159.248         -54.8451         132.443         -54.8455         132.434       -0.0153457         145.941
0.577                   -1.37645        -159.825         -54.7735         129.802         -54.7738         129.794       -0.0154987         145.868
0.578                   -1.38244        -160.417         -54.7034         127.182         -54.7036         127.176       -0.0156533         145.795
0.579                   -1.38873        -161.025         -54.6345         124.583         -54.6347         124.579       -0.0158094         145.722
0.58                    -1.39549        -161.649         -54.5667         122.006         -54.5668         122.003        -0.015967         145.648
0.581                   -1.40284        -162.288         -54.4997         119.449         -54.4997         119.448       -0.0161262         145.574
0.582                   -1.41094        -162.942         -54.4334         116.913         -54.4332         116.913       -0.0162869           145.5
0.583                    -1.4199        -163.611         -54.3674         114.397         -54.3672         114.398        -0.016449         145.426
0.584                   -1.42984        -164.296         -54.3017           111.9         -54.3013         111.903       -0.0166126         145.352
0.585                   -1.44089        -164.995         -54.2359         109.422         -54.2354         109.426       -0.0167776         145.278
0.586                   -1.45315        -165.708         -54.1699         106.962         -54.1693         106.967       -0.0169439         145.203
0.587                   -1.46673        -166.435         -54.1036         104.519         -54.1028         104.525       -0.0171115         145.129
0.588                   -1.48173        -167.176         -54.0368         102.092         -54.0358           102.1       -0.0172804         145.054
0.589                   -1.49826        -167.931         -53.9693         99.6812         -53.9681         99.6895       -0.0174504         144.979
0.59                    -1.51642        -168.699         -53.9009         97.2845         -53.8996         97.2937       -0.0176215         144.904
0.591                    -1.5363         -169.48         -53.8316         94.9013         -53.8301         94.9112       -0.0177937         144.828
0.592                   -1.55801        -170.274         -53.7612         92.5306         -53.7595         92.5412        -0.017967         144.753
0.593                   -1.58166        -171.081         -53.6895         90.1712         -53.6877         90.1825       -0.0181412         144.677
0.594                   -1.60735          -171.9         -53.6166         87.8222         -53.6146          87.834       -0.0183165         144.601
0.595                   -1.63518        -172.731         -53.5422         85.4825           -53.54         85.4946       -0.0184929         144.525
0.596                   -1.66527        -173.573         -53.4664         83.1508          -53.464         83.1632       -0.0186706         144.449
0.597                   -1.69773        -174.427         -53.3889          80.826         -53.3864         80.8387         -0.01885         144.373
0.598                   -1.73267        -175.292         -53.3099          78.507         -53.3072         78.5199       -0.0190313         144.296
0.599                   -1.77024        -176.167         -53.2292         76.1926         -53.2263         76.2055        -0.019215         144.219
0.6                     -1.81054        -177.053         -53.1467         73.8817         -53.1437         73.8945        -0.019402         144.142
0.601                   -1.85371        -177.948         -53.0625         71.5729         -53.0594         71.5856       -0.0195927         144.065
0.602                   -1.89989        -178.852         -52.9765         69.2652         -52.9733         69.2777        -0.019788         143.987
0.603                   -1.94922        -179.765         -52.8888         66.9573         -52.8854         66.9695       -0.0199884          143.91
0.604                   -2.00185         179.315         -52.7993          64.648         -52.7958         64.6598       -0.0201943         143.832
0.605                   -2.05791         178.387         -52.7081         62.3361         -52.7044         62.3475       -0.0204061         143.754
0.606                   -2.11757         177.454         -52.6151         60.0206         -52.6114         60.0314       -0.0206238         143.675
0.607                   -2.18098         176.515         -52.5205         57.7002         -52.5167         57.7103       -0.0208471         143.597
0.608                   -2.24829         175.572         -52.4242         55.3737         -52.4204         55.3832       -0.0210757         143.518
0.609                   -2.31966         174.626         -52.3265         53.0401         -52.3225         53.0489       -0.0213091         143.439
0.61                    -2.39523         173.679         -52.2272         50.6984         -52.2232         50.7063       -0.0215469          143.36
0.611                   -2.47516         172.732         -52.1266         48.3474         -52.1226         48.3545       -0.0217885         143.281
0.612                   -2.55958         171.787         -52.0248         45.9862         -52.0207         45.9924       -0.0220336         143.201
0.613                   -2.64864         170.845         -51.9218         43.6139         -51.9178         43.6192       -0.0222819         143.122
0.614                   -2.74243         169.909         -51.8178         41.2296         -51.8138         41.2339       -0.0225331         143.042
0.615                   -2.84107         168.981          -51.713         38.8324          -51.709         38.8358       -0.0227871         142.962
0.616                   -2.94463         168.063         -51.6076         36.4218         -51.6036         36.4242       -0.0230438         142.881
0.617                   -3.05317         167.158         -51.5016          33.997         -51.4977         33.9985       -0.0233031         142.801
0.618                    -3.1667         166.269         -51.3953         31.5576         -51.3915         31.5582       -0.0235651          142.72
0.619                    -3.2852         165.399         -51.2889         29.1032         -51.2852         29.1028       -0.0238298         142.639
0.62                    -3.40862         164.551         -51.1826         26.6334          -51.179         26.6322       -0.0240972         142.558
0.621                   -3.53682         163.728         -51.0766         24.1482         -51.0731         24.1461       -0.0243674         142.476
0.622                   -3.66965         162.934         -50.9712         21.6474         -50.9678         21.6446       -0.0246405         142.394
0.623                   -3.80685         162.173         -50.8665         19.1314         -50.8632         19.1278       -0.0249166         142.312
0.624                    -3.9481         161.448         -50.7627         16.6002         -50.7596          16.596       -0.0251958          142.23
0.625                   -4.09302         160.763         -50.6602         14.0545         -50.6573         14.0497       -0.0254782         142.148
0.626                   -4.24111         160.121          -50.559         11.4948         -50.5563         11.4895        -0.025764         142.065
0.627                    -4.3918         159.526         -50.4595         8.92187         -50.4569         8.91615       -0.0260531         141.982
0.628                   -4.54443          158.98         -50.3618         6.33668         -50.3594         6.33065       -0.0263457         141.898
0.629                   -4.69822         158.487         -50.2662         3.74033          -50.264         3.73407        -0.026642         141.815
0.63                    -4.85233         158.048         -50.1727         1.13406         -50.1707         1.12766       -0.0269419         141.731
0.631                   -5.00583         157.665         -50.0816        -1.48074         -50.0797        -1.48719       -0.0272458         141.647
