! TOUCHSTONE file generated by CST MICROWAVE STUDIO
! Date and time: Thu Feb 11 19:35:04 2021
! Project name: Scenario_1_Planar_Body_Tissue_Out_of_Line.cst
! Parameters = {L_HA=400; Ltissue=1000; MT=2.54; Rad_Dielectric=30; Rad_Lower=7.3; Rad_Upper=30; Wtissue=1000; a_HA=580; a_WG=246; b_HA=500; b_WG=121; c_HA=0; c_WG=187; d_feed=85; dx1=346; dy1=155.7; h_feed=15; h_lower=18; h_upper=40; hfat=3; hgap=25; hmuscle=50; hskin=1.5}
! Header version: 2018
! Port assignment regex: !\s*Touchstone port\s*([0-9]+)\s*=\s*(CST MWS port|CST DS port)\s*([0-9]+|Zmin|Zmax)\s*\(\"(.*)\"\)(\s*mode\s*([0-9]+))?.*
! Touchstone port assignment:
! Touchstone port 1 = CST MWS port 1 ("")
! Touchstone port 2 = CST MWS port 2 ("")
# GHz S DB R 50
0.5                    -0.274068        -121.553         -56.1387         27.9724         -56.1386         27.9721      -0.00822188         151.142
0.501                  -0.274104        -121.952         -56.0558         26.9293          -56.057         26.9323      -0.00828796         151.077
0.502                  -0.274188        -122.353         -55.9719         25.8729         -55.9746         25.8794      -0.00835443         151.011
0.503                  -0.274322        -122.757         -55.8872         24.8032         -55.8912         24.8132      -0.00842128         150.946
0.504                  -0.274507        -123.164         -55.8015         23.7199          -55.807         23.7337      -0.00848854         150.881
0.505                  -0.274747        -123.574          -55.715         22.6229         -55.7219         22.6405      -0.00855619         150.815
0.506                  -0.275041        -123.986         -55.6276         21.5119         -55.6358         21.5336      -0.00862426          150.75
0.507                  -0.275393        -124.401         -55.5393         20.3868         -55.5489         20.4128      -0.00869273         150.684
0.508                  -0.275804        -124.819         -55.4501         19.2475         -55.4611          19.278      -0.00876162         150.618
0.509                  -0.276277         -125.24         -55.3601         18.0938         -55.3724         18.1288      -0.00883094         150.553
0.51                   -0.276813        -125.664         -55.2693         16.9255         -55.2829         16.9654      -0.00890068         150.487
0.511                  -0.277415        -126.091         -55.1776         15.7425         -55.1925         15.7874      -0.00897086         150.421
0.512                  -0.278085        -126.521         -55.0851         14.5447         -55.1013         14.5947      -0.00904148         150.355
0.513                  -0.278826        -126.954         -54.9919         13.3319         -55.0093         13.3872      -0.00911254         150.289
0.514                   -0.27964         -127.39         -54.8978          12.104         -54.9165         12.1649      -0.00918406         150.223
0.515                   -0.28053        -127.829          -54.803         10.8609         -54.8229         10.9275      -0.00925604         150.156
0.516                  -0.281499        -128.272         -54.7075         9.60246         -54.7286         9.67501      -0.00932848          150.09
0.517                  -0.282549        -128.718         -54.6114         8.32864         -54.6335         8.40731       -0.0094014         150.024
0.518                  -0.283685        -129.167         -54.5145         7.03935         -54.5378         7.12432      -0.00947479         149.957
0.519                  -0.284908        -129.619         -54.4171         5.73454         -54.4413         5.82598      -0.00954868         149.891
0.52                   -0.286222        -130.075          -54.319         4.41416         -54.3443         4.51226      -0.00962305         149.824
0.521                  -0.287632        -130.535         -54.2204         3.07821         -54.2466         3.18314      -0.00969793         149.757
0.522                   -0.28914        -130.998         -54.1214         1.72667         -54.1484         1.83859      -0.00977333          149.69
0.523                   -0.29075        -131.464         -54.0218        0.359584         -54.0497        0.478644      -0.00984923         149.623
0.524                  -0.292466        -131.934         -53.9218        -1.02301         -53.9505       -0.896665      -0.00992567         149.556
0.525                  -0.294293        -132.408         -53.8215        -2.42103         -53.8509        -2.28727       -0.0100026         149.489
0.526                  -0.296235        -132.886         -53.7209        -3.83438         -53.7509        -3.69308       -0.0100802         149.422
0.527                  -0.298296        -133.368           -53.62        -5.26291         -53.6506        -5.11399       -0.0101582         149.355
0.528                  -0.300482        -133.853         -53.5189        -6.70645           -53.55        -6.54982       -0.0102369         149.287
0.529                  -0.302797        -134.343         -53.4177        -8.16481         -53.4492        -8.00041       -0.0103161          149.22
0.53                   -0.305247        -134.836         -53.3163        -9.63773         -53.3482        -9.46553       -0.0103958         149.152
0.531                  -0.307838        -135.334          -53.215        -11.1249         -53.2471        -10.9449       -0.0104762         149.084
0.532                  -0.310575        -135.836         -53.1137        -12.6261         -53.1459        -12.4383       -0.0105572         149.017
0.533                  -0.313464        -136.342         -53.0125        -14.1409         -53.0448        -13.9453       -0.0106388         148.949
0.534                  -0.316513        -136.853         -52.9114        -15.6688         -52.9437        -15.4656        -0.010721         148.881
0.535                  -0.319728        -137.368         -52.8106        -17.2095         -52.8428        -16.9987       -0.0108038         148.813
0.536                  -0.323116        -137.887           -52.71        -18.7623          -52.742        -18.5441       -0.0108873         148.744
0.537                  -0.326686        -138.412         -52.6099        -20.3269         -52.6416        -20.1015       -0.0109715         148.676
0.538                  -0.330444        -138.941         -52.5101        -21.9024         -52.5414          -21.67       -0.0110563         148.608
0.539                    -0.3344        -139.475         -52.4107        -23.4884         -52.4415        -23.2493       -0.0111418         148.539
0.54                   -0.338563        -140.014         -52.3119         -25.084         -52.3421        -24.8385        -0.011228         148.471
0.541                  -0.342942        -140.558         -52.2137        -26.6886         -52.2432         -26.437        -0.011315         148.402
0.542                  -0.347548        -141.107          -52.116        -28.3012         -52.1447        -28.0441       -0.0114026         148.333
0.543                  -0.352391        -141.661          -52.019        -29.9211         -52.0469        -29.6588        -0.011491         148.264
0.544                  -0.357481        -142.221         -51.9227        -31.5474         -51.9496        -31.2803       -0.0115801         148.195
0.545                  -0.362833        -142.786          -51.827         -33.179         -51.8529        -32.9078       -0.0116701         148.126
0.546                  -0.368457        -143.356         -51.7321         -34.815         -51.7568        -34.5402       -0.0117608         148.057
0.547                  -0.374367        -143.933         -51.6379        -36.4544         -51.6614        -36.1767       -0.0118523         147.987
0.548                  -0.380578        -144.515         -51.5444        -38.0961         -51.5666        -37.8161       -0.0119446         147.918
0.549                  -0.387105        -145.104         -51.4517         -39.739         -51.4725        -39.4574       -0.0120377         147.848
0.55                   -0.393963        -145.698         -51.3596        -41.3821          -51.379        -41.0996       -0.0121318         147.779
0.551                  -0.401171        -146.299         -51.2681         -43.024         -51.2861        -42.7414       -0.0122267         147.709
0.552                  -0.408745        -146.906         -51.1773        -44.6639         -51.1938        -44.3819       -0.0123224         147.639
0.553                  -0.416706         -147.52         -51.0869        -46.3004          -51.102        -46.0199       -0.0124192         147.569
0.554                  -0.425073        -148.141         -50.9971        -47.9325         -51.0106        -47.6543       -0.0125168         147.499
0.555                   -0.43387        -148.768         -50.9076         -49.559         -50.9196        -49.2839       -0.0126154         147.428
0.556                  -0.443119        -149.403         -50.8184        -51.1788         -50.8289        -50.9076        -0.012715         147.358
0.557                  -0.452844        -150.045         -50.7294         -52.791         -50.7383        -52.5245       -0.0128156         147.287
0.558                  -0.463074        -150.694         -50.6404        -54.3944         -50.6478        -54.1334       -0.0129172         147.217
0.559                  -0.473836        -151.351         -50.5513        -55.9881         -50.5573        -55.7334         -0.01302         147.146
0.56                    -0.48516        -152.016          -50.462        -57.5711         -50.4665        -57.3234       -0.0131237         147.075
0.561                   -0.49708        -152.689         -50.3722        -59.1427         -50.3753        -58.9027       -0.0132286         147.004
0.562                  -0.509629         -153.37         -50.2818         -60.702         -50.2836        -60.4705       -0.0133347         146.933
0.563                  -0.522845        -154.059         -50.1906        -62.2483         -50.1912        -62.0259       -0.0134419         146.861
0.564                  -0.536768        -154.757         -50.0983        -63.7812         -50.0978        -63.5684       -0.0135504          146.79
0.565                  -0.551441        -155.464         -50.0049        -65.3001         -50.0034        -65.0973       -0.0136601         146.718
0.566                   -0.56691         -156.18         -49.9101        -66.8046         -49.9075        -66.6124       -0.0137711         146.646
0.567                  -0.583224        -156.906         -49.8135        -68.2945         -49.8102        -68.1132       -0.0138834         146.574
0.568                  -0.600435        -157.641         -49.7151        -69.7696          -49.711        -69.5996       -0.0139971         146.502
0.569                  -0.618602        -158.386         -49.6145          -71.23         -49.6098        -71.0715       -0.0141122          146.43
0.57                   -0.637784        -159.141         -49.5116        -72.6759         -49.5063        -72.5289       -0.0142287         146.358
0.571                  -0.658049        -159.907          -49.406        -74.1074         -49.4003        -73.9721       -0.0143467         146.285
0.572                  -0.679467        -160.683         -49.2975         -75.525         -49.2916        -75.4014       -0.0144663         146.213
0.573                  -0.702115         -161.47         -49.1859        -76.9294         -49.1798        -76.8174       -0.0145875          146.14
0.574                  -0.726075        -162.269          -49.071        -78.3212         -49.0648        -78.2206       -0.0147103         146.067
0.575                  -0.751437        -163.079         -48.9524        -79.7013         -48.9463        -79.6119       -0.0148349         145.994
0.576                  -0.778296        -163.901           -48.83        -81.0708         -48.8241        -80.9923       -0.0149612         145.921
0.577                  -0.806757        -164.735         -48.7036        -82.4309         -48.6979        -82.3628       -0.0150894         145.848
0.578                  -0.836931        -165.581         -48.5728        -83.7829         -48.5675        -83.7248       -0.0152195         145.774
0.579                  -0.868941         -166.44         -48.4376        -85.1283         -48.4327        -85.0798       -0.0153516           145.7
0.58                   -0.902918        -167.312         -48.2977        -86.4689         -48.2933        -86.4292       -0.0154858         145.627
0.581                  -0.939004        -168.197          -48.153        -87.8062         -48.1492         -87.775       -0.0156221         145.553
0.582                  -0.977352        -169.096         -48.0032        -89.1425         -48.0001        -89.1189       -0.0157606         145.478
0.583                   -1.01813        -170.008         -47.8484        -90.4796          -47.846         -90.463       -0.0159014         145.404
0.584                   -1.06152        -170.935         -47.6882        -91.8198         -47.6866        -91.8095       -0.0160447         145.329
0.585                   -1.10771        -171.875         -47.5227        -93.1655         -47.5219        -93.1608       -0.0161905         145.255
0.586                   -1.15693         -172.83         -47.3518        -94.5191         -47.3517        -94.5192       -0.0163389          145.18
0.587                   -1.20938        -173.799         -47.1754        -95.8832         -47.1762        -95.8874       -0.0164901         145.105
0.588                   -1.26534        -174.782         -46.9936        -97.2604         -46.9951         -97.268       -0.0166441          145.03
0.589                   -1.32506        -175.779         -46.8063        -98.6536         -46.8086        -98.6638       -0.0168011         144.954
0.59                    -1.38883        -176.791         -46.6135        -100.065         -46.6166        -100.078       -0.0169612         144.879
0.591                   -1.45698        -177.817         -46.4154        -101.499         -46.4192        -101.513       -0.0171245         144.803
0.592                   -1.52984        -178.857         -46.2121        -102.957         -46.2166        -102.971       -0.0172912         144.727
0.593                   -1.60778        -179.909         -46.0037        -104.443         -46.0088        -104.457       -0.0174615         144.651
0.594                   -1.69119         179.025         -45.7904         -105.96         -45.7961        -105.973       -0.0176354         144.575
0.595                    -1.7805         177.949         -45.5724         -107.51         -45.5787        -107.523       -0.0178131         144.498
0.596                   -1.87617         176.861         -45.3501        -109.097         -45.3568        -109.108       -0.0179949         144.422
0.597                   -1.97869         175.765         -45.1237        -110.724         -45.1308        -110.733       -0.0181807         144.345
0.598                   -2.08858         174.661         -44.8936        -112.393          -44.901        -112.401       -0.0183709         144.268
0.599                   -2.20639         173.553         -44.6602        -114.108         -44.6679        -114.114       -0.0185655          144.19
0.6                     -2.33272         172.441         -44.4241        -115.872         -44.4319        -115.874       -0.0187646         144.113
0.601                   -2.46817          171.33         -44.1856        -117.686         -44.1935        -117.686       -0.0189686         144.035
0.602                   -2.61339         170.224         -43.9453        -119.553         -43.9532        -119.551       -0.0191774         143.957
0.603                   -2.76905         169.127          -43.704        -121.476         -43.7118        -121.471       -0.0193913         143.879
0.604                   -2.93581         168.043         -43.4622        -123.456         -43.4698        -123.448       -0.0196102         143.801
0.605                   -3.11437         166.981         -43.2206        -125.495         -43.2281        -125.485       -0.0198345         143.723
0.606                   -3.30538         165.946         -42.9801        -127.594         -42.9872        -127.581        -0.020064         143.644
0.607                   -3.50948         164.948         -42.7414        -129.753         -42.7482        -129.739        -0.020299         143.565
0.608                   -3.72724         163.996         -42.5053        -131.974         -42.5117        -131.957       -0.0205394         143.486
0.609                   -3.95914         163.103         -42.2727        -134.254         -42.2787        -134.237       -0.0207852         143.407
0.61                    -4.20551          162.28         -42.0445        -136.595           -42.05        -136.576       -0.0210365         143.327
0.611                   -4.46649         161.545         -41.8216        -138.993         -41.8266        -138.973       -0.0212932         143.248
0.612                   -4.74196         160.912         -41.6048        -141.447         -41.6093        -141.426       -0.0215551         143.168
0.613                   -5.03143         160.401          -41.395        -143.953          -41.399        -143.933       -0.0218223         143.088
0.614                   -5.33398         160.033          -41.193        -146.509         -41.1965        -146.489       -0.0220946         143.008
0.615                   -5.64807         159.829         -40.9996        -149.109         -41.0026         -149.09       -0.0223717         142.927
0.616                   -5.97146         159.814         -40.8155        -151.749          -40.818        -151.731       -0.0226536         142.846
0.617                   -6.30104          160.01         -40.6413        -154.423         -40.6433        -154.407       -0.0229398         142.765
0.618                   -6.63269         160.439         -40.4774        -157.126         -40.4791        -157.111       -0.0232303         142.684
0.619                   -6.96116          161.12         -40.3244         -159.85         -40.3257        -159.837       -0.0235248         142.603
0.62                    -7.28005         162.069         -40.1824         -162.59         -40.1834        -162.578       -0.0238229         142.521
0.621                   -7.58191         163.289         -40.0516        -165.337         -40.0523        -165.328       -0.0241243          142.44
0.622                   -7.85845         164.776         -39.9321        -168.086         -39.9325        -168.078       -0.0244289         142.357
0.623                   -8.10107          166.51         -39.8236         -170.83         -39.8239        -170.824       -0.0247363         142.275
0.624                   -8.30153         168.456         -39.7261        -173.561         -39.7262        -173.557       -0.0250463         142.193
0.625                    -8.4528         170.562         -39.6391        -176.274         -39.6391        -176.272       -0.0253586          142.11
0.626                   -8.54993         172.764         -39.5622        -178.964         -39.5622        -178.963       -0.0256731         142.027
0.627                   -8.59069         174.991         -39.4948         178.376         -39.4948         178.375       -0.0259895         141.944
0.628                   -8.57585          177.17         -39.4364          175.75         -39.4364         175.747       -0.0263077          141.86
0.629                   -8.50904         179.233         -39.3864         173.161         -39.3864         173.157       -0.0266276         141.776
