! TOUCHSTONE file generated by CST MICROWAVE STUDIO
! Date and time: Sat Nov 14 20:02:28 2020
! Project name: Scenario_1_Planar_Body_Tissue_Out_of_Line.cst
! Parameters = {dy1=-155.7; L_HA=400; Ltissue=700; MT=2.54; Rad_Dielectric=30; Rad_Lower=7.3; Rad_Upper=30; Wtissue=700; a_HA=580; a_WG=246; b_HA=500; b_WG=121; c_HA=0; c_WG=187; d_feed=85; dx1=693; h_feed=15; h_lower=18; h_upper=40; hfat=3; hgap=25; hmuscle=50; hskin=1.5}
! Header version: 2018
! Port assignment regex: !\s*Touchstone port\s*([0-9]+)\s*=\s*(CST MWS port|CST DS port)\s*([0-9]+|Zmin|Zmax)\s*\(\"(.*)\"\)(\s*mode\s*([0-9]+))?.*
! Touchstone port assignment:
! Touchstone port 1 = CST MWS port 1 ("")
! Touchstone port 2 = CST MWS port 2 ("")
# GHz S DB R 50
0.5                    -0.193653        -121.617         -61.7796        -174.002         -61.7792        -174.002      -0.00777617         151.151
0.501                  -0.195984         -122.04         -61.7425        -175.197         -61.7421        -175.197      -0.00783493         151.086
0.502                  -0.198367        -122.466         -61.7033        -176.406          -61.703        -176.407      -0.00789462          151.02
0.503                  -0.200803        -122.894          -61.662        -177.629         -61.6617         -177.63      -0.00795524         150.955
0.504                  -0.203294        -123.325         -61.6185        -178.866         -61.6182        -178.867       -0.0080168          150.89
0.505                  -0.205844        -123.758         -61.5727         179.882         -61.5725         179.881       -0.0080793         150.824
0.506                  -0.208456        -124.194         -61.5246         178.617         -61.5244         178.616      -0.00814273         150.758
0.507                  -0.211132        -124.633         -61.4741         177.338         -61.4739         177.336      -0.00820711         150.693
0.508                  -0.213876        -125.075         -61.4211         176.044         -61.4209         176.042      -0.00827244         150.627
0.509                  -0.216691         -125.52         -61.3655         174.737         -61.3654         174.734      -0.00833872         150.561
0.51                    -0.21958        -125.968         -61.3074         173.415         -61.3072         173.413      -0.00840595         150.495
0.511                  -0.222549        -126.418         -61.2465         172.079         -61.2464         172.077      -0.00847414         150.429
0.512                  -0.225601        -126.872         -61.1829          170.73         -61.1828         170.727      -0.00854329         150.363
0.513                  -0.228741        -127.329         -61.1164         169.367         -61.1164         169.364      -0.00861339         150.297
0.514                  -0.231974        -127.789         -61.0471          167.99          -61.047         167.987      -0.00868446         150.231
0.515                  -0.235304        -128.253         -60.9747           166.6         -60.9747         166.596       -0.0087565         150.164
0.516                  -0.238738         -128.72         -60.8994         165.196         -60.8994         165.192       -0.0088295         150.098
0.517                  -0.242281         -129.19         -60.8209         163.778         -60.8209         163.774      -0.00890348         150.031
0.518                   -0.24594        -129.664         -60.7392         162.347         -60.7392         162.344      -0.00897843         149.965
0.519                  -0.249722        -130.141         -60.6543         160.904         -60.6543           160.9      -0.00905435         149.898
0.52                   -0.253634        -130.622         -60.5661         159.447         -60.5661         159.443      -0.00913126         149.831
0.521                  -0.257684        -131.107         -60.4745         157.977         -60.4746         157.973      -0.00920914         149.765
0.522                   -0.26188        -131.596         -60.3795         156.495         -60.3796          156.49        -0.009288         149.698
0.523                  -0.266232        -132.089          -60.281             155         -60.2811         154.995      -0.00936785         149.631
0.524                  -0.270748        -132.585         -60.1789         153.492          -60.179         153.487      -0.00944869         149.564
0.525                  -0.275441        -133.086         -60.0733         151.972         -60.0734         151.967       -0.0095305         149.496
0.526                   -0.28032        -133.591          -59.964          150.44         -59.9641         150.435      -0.00961331         149.429
0.527                  -0.285399        -134.101         -59.8509         148.896         -59.8511         148.891       -0.0096971         149.362
0.528                   -0.29069        -134.615         -59.7342          147.34         -59.7343         147.335      -0.00978188         149.294
0.529                  -0.296207        -135.133         -59.6136         145.772         -59.6137         145.767      -0.00986765         149.227
0.53                   -0.301965        -135.657         -59.4892         144.192         -59.4893         144.187       -0.0099544         149.159
0.531                  -0.307981        -136.185         -59.3609         142.601          -59.361         142.595       -0.0100421         149.091
0.532                  -0.314272        -136.718         -59.2287         140.998         -59.2288         140.992       -0.0101309         149.024
0.533                  -0.320858        -137.256         -59.0926         139.383         -59.0927         139.378       -0.0102206         148.956
0.534                  -0.327759        -137.799         -58.9524         137.757         -58.9526         137.752       -0.0103112         148.888
0.535                  -0.334997        -138.348         -58.8083         136.119         -58.8084         136.114       -0.0104029          148.82
0.536                  -0.342597        -138.902         -58.6601          134.47         -58.6603         134.465       -0.0104955         148.751
0.537                  -0.350584        -139.462         -58.5079         132.809          -58.508         132.804       -0.0105891         148.683
0.538                  -0.358988        -140.027         -58.3516         131.137         -58.3518         131.132       -0.0106836         148.615
0.539                  -0.367838        -140.599         -58.1913         129.452         -58.1914         129.447        -0.010779         148.546
0.54                   -0.377168        -141.176         -58.0268         127.756         -58.0269         127.751       -0.0108754         148.478
0.541                  -0.387015         -141.76         -57.8583         126.047         -57.8584         126.043       -0.0109727         148.409
0.542                  -0.397418        -142.351         -57.6856         124.326         -57.6857         124.321       -0.0110709          148.34
0.543                  -0.408419        -142.947         -57.5089         122.592          -57.509         122.588         -0.01117         148.271
0.544                  -0.420066        -143.551          -57.328         120.845         -57.3281         120.841       -0.0112699         148.202
0.545                   -0.43241        -144.161         -57.1431         119.084         -57.1432          119.08       -0.0113707         148.133
0.546                  -0.445505        -144.779         -56.9541         117.309         -56.9542         117.305       -0.0114722         148.064
0.547                  -0.459412        -145.404         -56.7611          115.52         -56.7612         115.516       -0.0115745         147.994
0.548                  -0.474197        -146.036          -56.564         113.716         -56.5641         113.712       -0.0116776         147.925
0.549                  -0.489932        -146.675         -56.3629         111.895          -56.363         111.892       -0.0117812         147.855
0.55                   -0.506696        -147.323         -56.1579         110.058          -56.158         110.055       -0.0118855         147.786
0.551                  -0.524574        -147.978         -55.9489         108.204          -55.949         108.201       -0.0119904         147.716
0.552                  -0.543659        -148.641         -55.7361         106.331         -55.7362         106.328       -0.0120957         147.646
0.553                  -0.564054        -149.312         -55.5195         104.439         -55.5195         104.437       -0.0122013         147.576
0.554                   -0.58587        -149.991         -55.2991         102.527         -55.2991         102.525       -0.0123072         147.506
0.555                  -0.609229        -150.678          -55.075         100.594         -55.0751         100.591       -0.0124132         147.436
0.556                  -0.634262        -151.374         -54.8474         98.6375         -54.8474         98.6356       -0.0125191         147.365
0.557                  -0.661114        -152.077         -54.6162         96.6575         -54.6163         96.6559       -0.0126248         147.295
0.558                  -0.689942        -152.788         -54.3817         94.6523         -54.3817         94.6509       -0.0127301         147.224
0.559                  -0.720913        -153.507         -54.1439         92.6203          -54.144         92.6193       -0.0128345         147.153
0.56                   -0.754213        -154.233         -53.9031         90.5601         -53.9031         90.5594       -0.0129379         147.082
0.561                  -0.790039        -154.966         -53.6593           88.47         -53.6593         88.4696       -0.0130399         147.011
0.562                  -0.828602        -155.705         -53.4127         86.3484         -53.4127         86.3482       -0.0131399          146.94
0.563                   -0.87013         -156.45         -53.1636         84.1934         -53.1636         84.1935       -0.0132374         146.869
0.564                  -0.914862        -157.199         -52.9122         82.0033         -52.9122         82.0037       -0.0133318         146.798
0.565                   -0.96305        -157.952         -52.6587         79.7761         -52.6587         79.7768       -0.0134224         146.726
0.566                   -1.01496        -158.707         -52.4035           77.51         -52.4034          77.511       -0.0135086         146.654
0.567                   -1.07085        -159.462         -52.1469         75.2031         -52.1468         75.2043       -0.0135897         146.582
0.568                   -1.13101        -160.215         -51.8892         72.8533          -51.889         72.8548       -0.0136658          146.51
0.569                   -1.19569        -160.964         -51.6308         70.4589         -51.6307         70.4606       -0.0137377         146.438
0.57                    -1.26514        -161.705         -51.3723         68.0179         -51.3721         68.0199        -0.013809         146.365
0.571                   -1.33958        -162.434          -51.114         65.5287         -51.1138         65.5309       -0.0138873         146.292
0.572                    -1.4192        -163.149         -50.8566         62.9896         -50.8563         62.9921       -0.0139875         146.218
0.573                   -1.50412        -163.844         -50.6006         60.3993         -50.6003         60.4019       -0.0141326         146.145
0.574                   -1.59435        -164.513         -50.3466         57.7565         -50.3463         57.7593       -0.0143489          146.07
0.575                   -1.68983        -165.151         -50.0954         55.0604         -50.0951         55.0633       -0.0146488         145.996
0.576                   -1.79032        -165.751         -49.8477         52.3104         -49.8473         52.3135        -0.015013         145.923
0.577                    -1.8954        -166.307         -49.6043         49.5065         -49.6039         49.5097       -0.0153947         145.849
0.578                   -2.00445        -166.811         -49.3659         46.6491         -49.3655         46.6524       -0.0157497         145.776
0.579                    -2.1166        -167.255         -49.1335         43.7392          -49.133         43.7425       -0.0160575         145.703
0.58                     -2.2307        -167.635         -48.9078         40.7783         -48.9072         40.7815       -0.0163188          145.63
0.581                   -2.34532        -167.943         -48.6897         37.7687         -48.6891         37.7719       -0.0165437         145.557
0.582                   -2.45874        -168.176         -48.4801         34.7133         -48.4795         34.7165       -0.0167435         145.484
0.583                   -2.56902        -168.331         -48.2798         31.6159         -48.2791          31.619       -0.0169272          145.41
0.584                   -2.67403        -168.409         -48.0895          28.481         -48.0889         28.4839       -0.0171012         145.337
0.585                   -2.77154        -168.413         -47.9101         25.3136         -47.9094         25.3164       -0.0172696         145.263
0.586                   -2.85938         -168.35          -47.742         22.1197         -47.7413         22.1223       -0.0174354         145.188
0.587                   -2.93556         -168.23         -47.5859         18.9057         -47.5852          18.908       -0.0176002         145.114
0.588                   -2.99841        -168.067         -47.4421         15.6785         -47.4414         15.6806       -0.0177654         145.039
0.589                   -3.04673        -167.875          -47.311         12.4455         -47.3102         12.4473       -0.0179315         144.964
0.59                    -3.07985        -167.672         -47.1925         9.21414         -47.1918         9.21573       -0.0180992         144.889
0.591                   -3.09771        -167.476         -47.0868         5.99215          -47.086         5.99347       -0.0182688         144.814
0.592                   -3.10081        -167.304         -46.9936         2.78706         -46.9929         2.78811       -0.0184404         144.739
0.593                   -3.09016         -167.17         -46.9126       -0.393818         -46.9119       -0.393026       -0.0186142         144.663
0.594                    -3.0672        -167.088         -46.8435        -3.54353         -46.8428        -3.54299       -0.0187903         144.587
0.595                   -3.03361        -167.067         -46.7855        -6.65566         -46.7848        -6.65535       -0.0189687         144.511
0.596                   -2.99126        -167.117          -46.738        -9.72439         -46.7374         -9.7243       -0.0191496         144.435
0.597                   -2.94202        -167.239         -46.7003        -12.7446         -46.6997        -12.7447       -0.0193329         144.359
0.598                   -2.88771        -167.438         -46.6716        -15.7119          -46.671        -15.7122       -0.0195187         144.282
0.599                   -2.83002        -167.712         -46.6508        -18.6228         -46.6503        -18.6232       -0.0197069         144.205
0.6                     -2.77044         -168.06         -46.6372        -21.4744         -46.6368        -21.4749       -0.0198977         144.128
0.601                   -2.71027        -168.478         -46.6298        -24.2647         -46.6294        -24.2653       -0.0200911         144.051
0.602                   -2.65061        -168.963         -46.6277        -26.9924         -46.6273        -26.9931        -0.020287         143.974
0.603                   -2.59235        -169.511         -46.6299        -29.6568         -46.6296        -29.6575       -0.0204854         143.896
0.604                   -2.53621        -170.117         -46.6357        -32.2579         -46.6353        -32.2586       -0.0206865         143.818
0.605                   -2.48274        -170.776          -46.644        -34.7962         -46.6437         -34.797       -0.0208903          143.74
0.606                   -2.43237        -171.485         -46.6543        -37.2729          -46.654        -37.2736       -0.0210967         143.662
0.607                   -2.38541        -172.239         -46.6656        -39.6892         -46.6654        -39.6899       -0.0213058         143.584
0.608                   -2.34207        -173.034         -46.6774         -42.047         -46.6772        -42.0477       -0.0215177         143.505
0.609                    -2.3025        -173.868          -46.689        -44.3484         -46.6888         -44.349       -0.0217324         143.426
0.61                    -2.26679        -174.737         -46.6997        -46.5957         -46.6996        -46.5963       -0.0219499         143.347
0.611                   -2.23498        -175.638         -46.7091        -48.7915          -46.709         -48.792       -0.0221703         143.268
0.612                   -2.20709         -176.57         -46.7167        -50.9384         -46.7167        -50.9389       -0.0223937         143.189
0.613                   -2.18311        -177.529         -46.7221        -53.0393          -46.722        -53.0397       -0.0226201         143.109
0.614                   -2.16302        -178.516         -46.7248        -55.0969         -46.7248        -55.0972       -0.0228495         143.029
0.615                    -2.1468        -179.527         -46.7246        -57.1143         -46.7246        -57.1145       -0.0230821         142.949
0.616                   -2.13441         179.438         -46.7211        -59.0943         -46.7211        -59.0945       -0.0233179         142.868
0.617                   -2.12583         178.381         -46.7141          -61.04         -46.7141        -61.0401        -0.023557         142.788
0.618                   -2.12102         177.301         -46.7034        -62.9542         -46.7034        -62.9542       -0.0237995         142.707
0.619                   -2.11998           176.2         -46.6888        -64.8398         -46.6888        -64.8399       -0.0240454         142.626
0.62                     -2.1227         175.079         -46.6702        -66.6999         -46.6702        -66.6999       -0.0242949         142.544
0.621                   -2.12917         173.937         -46.6474        -68.5371         -46.6474        -68.5371        -0.024548         142.463
0.622                   -2.13942         172.775         -46.6203        -70.3544         -46.6203        -70.3543       -0.0248049         142.381
0.623                   -2.15346         171.593         -46.5889        -72.1543         -46.5889        -72.1543       -0.0250656         142.299
0.624                   -2.17134         170.391         -46.5533        -73.9396         -46.5533        -73.9396       -0.0253302         142.216
0.625                   -2.19311         169.169         -46.5132        -75.7129         -46.5132        -75.7129        -0.025599         142.134
0.626                   -2.21883         167.928         -46.4689        -77.4766         -46.4689        -77.4766       -0.0258719         142.051
0.627                    -2.2486         166.667         -46.4203        -79.2332         -46.4203        -79.2333       -0.0261491         141.967
0.628                    -2.2825         165.386         -46.3675        -80.9851         -46.3675        -80.9852       -0.0264308         141.884
0.629                   -2.32065         164.084         -46.3105        -82.7345         -46.3105        -82.7347        -0.026717           141.8
