! TOUCHSTONE file generated by CST MICROWAVE STUDIO
! Date and time: Tue Nov 24 13:45:24 2020
! Project name: Scenario_1_Planar_Body_Tissue_Out_of_Line.cst
! Parameters = {dy1=155.7; L_HA=400; Ltissue=700; MT=2.54; Rad_Dielectric=30; Rad_Lower=7.3; Rad_Upper=30; Wtissue=700; a_HA=580; a_WG=246; b_HA=500; b_WG=121; c_HA=0; c_WG=187; d_feed=85; dx1=1039; h_feed=15; h_lower=18; h_upper=40; hfat=3; hgap=25; hmuscle=50; hskin=1.5}
! Header version: 2018
! Port assignment regex: !\s*Touchstone port\s*([0-9]+)\s*=\s*(CST MWS port|CST DS port)\s*([0-9]+|Zmin|Zmax)\s*\(\"(.*)\"\)(\s*mode\s*([0-9]+))?.*
! Touchstone port assignment:
! Touchstone port 1 = CST MWS port 1 ("")
! Touchstone port 2 = CST MWS port 2 ("")
# GHz S DB R 50
0.5                    -0.153841        -121.617          -64.376        -20.2165         -64.3755        -20.2133      -0.00762554         151.153
0.501                   -0.15568        -122.049         -63.9992        -22.5515         -64.0509        -22.6683       -0.0076897         151.088
0.502                  -0.157607        -122.485         -63.6272        -25.2615         -63.7408        -25.3936      -0.00775445         151.023
0.503                  -0.159629        -122.923         -63.2773        -28.3858         -63.4567        -28.3878       -0.0078198         150.957
0.504                  -0.161751        -123.365         -62.9719        -31.9204         -63.2117        -31.6207      -0.00788574         150.892
0.505                  -0.163979        -123.809         -62.7359        -35.7916          -63.018        -35.0267      -0.00795229         150.826
0.506                  -0.166319        -124.257         -62.5897        -39.8416         -62.8841        -38.5056      -0.00801945         150.761
0.507                  -0.168778        -124.708         -62.5421        -43.8467         -62.8124        -41.9352      -0.00808723         150.695
0.508                  -0.171363        -125.163         -62.5847        -47.5716          -62.798        -45.1923      -0.00815564         150.629
0.509                  -0.174083        -125.621         -62.6939        -50.8356          -62.829        -48.1769      -0.00822468         150.564
0.51                   -0.176946        -126.082         -62.8386        -53.5531         -62.8898        -50.8279      -0.00829436         150.498
0.511                  -0.179962        -126.547         -62.9889        -55.7336         -62.9637        -53.1281      -0.00836468         150.432
0.512                  -0.183141        -127.016         -63.1216         -57.452         -63.0356        -55.0969      -0.00843567         150.366
0.513                  -0.186494        -127.489         -63.2226        -58.8119         -63.0942        -56.7778      -0.00850731           150.3
0.514                  -0.190034        -127.965         -63.2849        -59.9185         -63.1317        -58.2263      -0.00857964         150.233
0.515                  -0.193774        -128.446         -63.3073         -60.863         -63.1439        -59.4991      -0.00865265         150.167
0.516                  -0.197728         -128.93         -63.2916        -61.7175          -63.129        -60.6485      -0.00872636         150.101
0.517                  -0.201912        -129.419         -63.2413        -62.5355         -63.0871         -61.719      -0.00880078         150.034
0.518                  -0.206344        -129.912         -63.1604        -63.3544         -63.0195        -62.7469      -0.00887593         149.968
0.519                  -0.211042         -130.41          -63.053        -64.1998         -62.9281        -63.7601      -0.00895181         149.901
0.52                   -0.216029        -130.912         -62.9228        -65.0884          -62.815        -64.7801      -0.00902846         149.834
0.521                  -0.221325        -131.419          -62.773        -66.0303         -62.6824        -65.8225      -0.00910588         149.767
0.522                  -0.226957         -131.93         -62.6062        -67.0318         -62.5323        -66.8987      -0.00918409           149.7
0.523                  -0.232953        -132.447         -62.4249        -68.0963         -62.3666         -68.017      -0.00926313         149.633
0.524                  -0.239342        -132.968         -62.2308        -69.2253         -62.1869         -69.183      -0.00934302         149.566
0.525                  -0.246158        -133.495         -62.0256        -70.4194         -61.9947        -70.4009      -0.00942378         149.499
0.526                  -0.253439        -134.027         -61.8104        -71.6785         -61.7912        -71.6734      -0.00950545         149.432
0.527                  -0.261224        -134.565         -61.5863        -73.0024         -61.5775        -73.0026      -0.00958806         149.364
0.528                   -0.26956        -135.108         -61.3542        -74.3907         -61.3545        -74.3901      -0.00967167         149.297
0.529                  -0.278495        -135.657         -61.1148        -75.8432         -61.1231        -75.8371      -0.00975631         149.229
0.53                   -0.288084        -136.212         -60.8687        -77.3597         -60.8838        -77.3446      -0.00984205         149.162
0.531                  -0.298389        -136.772         -60.6164        -78.9404         -60.6374        -78.9138      -0.00992893         149.094
0.532                  -0.309476        -137.339         -60.3584        -80.5856         -60.3844        -80.5458        -0.010017         149.026
0.533                   -0.32142        -137.912          -60.095        -82.2959         -60.1252        -82.2418       -0.0101064         148.958
0.534                  -0.334302        -138.491         -59.8267        -84.0723         -59.8603         -84.003       -0.0101972          148.89
0.535                  -0.348213        -139.076         -59.5538        -85.9158         -59.5901        -85.8311       -0.0102895         148.822
0.536                  -0.363253        -139.667         -59.2766        -87.8279          -59.315        -87.7278       -0.0103834         148.754
0.537                  -0.379531        -140.265         -58.9956        -89.8103         -59.0356        -89.6949       -0.0104789         148.685
0.538                  -0.397168        -140.868          -58.711        -91.8646         -58.7521        -91.7344       -0.0105763         148.617
0.539                  -0.416295        -141.478         -58.4234        -93.9931          -58.465        -93.8486       -0.0106756         148.548
0.54                   -0.437055        -142.092         -58.1331        -96.1979         -58.1748        -96.0398       -0.0107771          148.48
0.541                  -0.459603        -142.712         -57.8407        -98.4814         -57.8822        -98.3105       -0.0108808         148.411
0.542                  -0.484106        -143.337         -57.5467        -100.846         -57.5875        -100.663       -0.0109869         148.342
0.543                   -0.51074        -143.965         -57.2517        -103.294         -57.2915        -103.101       -0.0110955         148.273
0.544                   -0.53969        -144.596         -56.9563        -105.828          -56.995        -105.625       -0.0112068         148.204
0.545                  -0.571146        -145.228         -56.6615        -108.451         -56.6986        -108.239       -0.0113208         148.134
0.546                  -0.605299        -145.861         -56.3679        -111.164         -56.4033        -110.945       -0.0114378         148.065
0.547                  -0.642335        -146.492         -56.0766        -113.969           -56.11        -113.744       -0.0115576         147.996
0.548                  -0.682422        -147.119         -55.7886        -116.868         -55.8198        -116.639       -0.0116803         147.926
0.549                  -0.725702         -147.74          -55.505        -119.861         -55.5339         -119.63       -0.0118059         147.856
0.55                   -0.772271        -148.351         -55.2271        -122.949         -55.2535        -122.716       -0.0119342         147.787
0.551                  -0.822163        -148.948         -54.9561        -126.131           -54.98        -125.899       -0.0120651         147.717
0.552                   -0.87532        -149.528         -54.6933        -129.405         -54.7147        -129.175       -0.0121983         147.647
0.553                  -0.931572        -150.087         -54.4403        -132.768          -54.459        -132.542       -0.0123335         147.577
0.554                  -0.990602        -150.619         -54.1983        -136.216         -54.2145        -135.995       -0.0124703         147.507
0.555                   -1.05192         -151.12         -53.9688        -139.743         -53.9824         -139.53       -0.0126085         147.436
0.556                   -1.11485        -151.586         -53.7531        -143.343         -53.7643        -143.138       -0.0127476         147.366
0.557                   -1.17848        -152.012         -53.5525        -147.006         -53.5613        -146.812       -0.0128874         147.296
0.558                   -1.24175        -152.395         -53.3679        -150.724         -53.3746        -150.541       -0.0130274         147.225
0.559                   -1.30337        -152.735         -53.2003        -154.485          -53.205        -154.315       -0.0131675         147.154
0.56                    -1.36198        -153.032         -53.0503        -158.278         -53.0533         -158.12       -0.0133074         147.083
0.561                   -1.41615        -153.288         -52.9185        -162.089           -52.92        -161.946        -0.013447         147.013
0.562                   -1.46455        -153.509         -52.8048        -165.906          -52.805        -165.777       -0.0135861         146.941
0.563                   -1.50601        -153.701         -52.7091        -169.716         -52.7083        -169.602       -0.0137249          146.87
0.564                   -1.53964        -153.875          -52.631        -173.507         -52.6295        -173.406       -0.0138633         146.799
0.565                   -1.56493        -154.041         -52.5699        -177.266         -52.5679        -177.179       -0.0140013         146.728
0.566                   -1.58174        -154.209         -52.5248         179.018         -52.5224         179.091       -0.0141391         146.656
0.567                   -1.59035         -154.39         -52.4946         175.353         -52.4921         175.414       -0.0142768         146.584
0.568                   -1.59137        -154.594          -52.478         171.749         -52.4755         171.799       -0.0144146         146.513
0.569                   -1.58568        -154.828         -52.4738         168.212         -52.4714         168.252       -0.0145526         146.441
0.57                    -1.57434        -155.099         -52.4804         164.748         -52.4783         164.779       -0.0146909         146.368
0.571                   -1.55849        -155.411         -52.4964         161.362         -52.4947         161.384       -0.0148297         146.296
0.572                   -1.53928        -155.766         -52.5205         158.054         -52.5191          158.07       -0.0149692         146.224
0.573                   -1.51777        -156.165         -52.5511         154.829         -52.5501         154.838       -0.0151095         146.151
0.574                   -1.49496        -156.606         -52.5869         151.684         -52.5864         151.688       -0.0152507         146.079
0.575                    -1.4717         -157.09         -52.6267         148.621         -52.6266         148.621       -0.0153929         146.006
0.576                   -1.44869        -157.613         -52.6694         145.637         -52.6697         145.634       -0.0155363         145.933
0.577                   -1.42653        -158.174         -52.7137         142.732         -52.7144         142.726        -0.015681          145.86
0.578                   -1.40568        -158.769         -52.7589         139.902         -52.7599         139.894        -0.015827         145.786
0.579                   -1.38651        -159.396         -52.8039         137.144         -52.8052         137.135       -0.0159745         145.713
0.58                    -1.36929        -160.053          -52.848         134.456         -52.8496         134.446       -0.0161236         145.639
0.581                   -1.35422        -160.736         -52.8905         131.835         -52.8923         131.824       -0.0162742         145.565
0.582                   -1.34145        -161.445         -52.9308         129.276         -52.9328         129.265       -0.0164266         145.491
0.583                   -1.33107        -162.177         -52.9683         126.776         -52.9704         126.766       -0.0165807         145.417
0.584                   -1.32316        -162.929         -53.0025         124.332         -53.0048         124.322       -0.0167366         145.343
0.585                   -1.31776        -163.702         -53.0331         121.941         -53.0355         121.931       -0.0168945         145.269
0.586                    -1.3149        -164.493         -53.0598         119.598         -53.0621         119.589       -0.0170542         145.194
0.587                   -1.31461        -165.302         -53.0821         117.301         -53.0844         117.292        -0.017216         145.119
0.588                   -1.31689        -166.127         -53.0998         115.046         -53.1021         115.038       -0.0173798         145.044
0.589                   -1.32176        -166.968         -53.1129          112.83         -53.1151         112.823       -0.0175458         144.969
0.59                    -1.32924        -167.824         -53.1209         110.649          -53.123         110.643       -0.0177139         144.894
0.591                   -1.33936        -168.695         -53.1239         108.502         -53.1259         108.496       -0.0178842         144.819
0.592                   -1.35215         -169.58         -53.1216         106.384         -53.1235          106.38       -0.0180567         144.743
0.593                   -1.36763        -170.478         -53.1141         104.293         -53.1158          104.29       -0.0182316         144.667
0.594                   -1.38587         -171.39         -53.1012         102.227         -53.1028         102.224       -0.0184089         144.591
0.595                   -1.40692        -172.315         -53.0828         100.182         -53.0843          100.18       -0.0185885         144.515
0.596                   -1.43085        -173.253          -53.059         98.1562         -53.0603         98.1545       -0.0187707         144.439
0.597                   -1.45773        -174.204         -53.0298          96.147         -53.0308         96.1458       -0.0189553         144.362
0.598                   -1.48768        -175.167          -52.995         94.1519         -52.9959         94.1511       -0.0191426         144.285
0.599                   -1.52078        -176.143         -52.9548         92.1686         -52.9556         92.1681       -0.0193325         144.208
0.6                     -1.55717        -177.131         -52.9092         90.1947         -52.9098         90.1944       -0.0195251         144.131
0.601                   -1.59697         -178.13         -52.8582         88.2279         -52.8586         88.2279       -0.0197204         144.054
0.602                   -1.64034        -179.142         -52.8019         86.2662         -52.8021         86.2662       -0.0199185         143.977
0.603                   -1.68745         179.835         -52.7403         84.3072         -52.7404         84.3072       -0.0201196         143.899
0.604                   -1.73846         178.802         -52.6735         82.3488         -52.6735         82.3489       -0.0203235         143.821
0.605                   -1.79357         177.758         -52.6016         80.3891         -52.6015          80.389       -0.0205305         143.743
0.606                   -1.85299         176.704         -52.5248         78.4258         -52.5246         78.4257       -0.0207405         143.665
0.607                   -1.91695         175.641         -52.4431         76.4572         -52.4428         76.4569       -0.0209537         143.586
0.608                   -1.98568         174.569         -52.3567          74.481         -52.3563         74.4805         -0.02117         143.507
0.609                   -2.05943          173.49         -52.2657         72.4956         -52.2653         72.4949       -0.0213897         143.428
0.61                    -2.13848         172.405         -52.1704         70.4989         -52.1698          70.498       -0.0216127         143.349
0.611                    -2.2231         171.316         -52.0708         68.4892         -52.0702          68.488       -0.0218391          143.27
0.612                   -2.31357         170.223         -51.9672         66.4647         -51.9666         66.4633        -0.022069          143.19
0.613                    -2.4102         169.129         -51.8598         64.4237         -51.8592          64.422       -0.0223025          143.11
0.614                   -2.51328         168.036         -51.7489         62.3646         -51.7482         62.3627       -0.0225396          143.03
0.615                   -2.62312         166.947         -51.6346         60.2858          -51.634         60.2837       -0.0227804          142.95
0.616                   -2.74001         165.864         -51.5173         58.1859         -51.5167         58.1837       -0.0230251         142.869
0.617                   -2.86425         164.791         -51.3973         56.0636         -51.3967         56.0612       -0.0232736         142.789
0.618                    -2.9961         163.732         -51.2748         53.9177         -51.2742         53.9152        -0.023526         142.708
0.619                    -3.1358         162.691         -51.1502         51.7471         -51.1497         51.7445       -0.0237825         142.626
0.62                    -3.28355         161.672         -51.0238         49.5509         -51.0233         49.5482       -0.0240431         142.545
0.621                    -3.4395         160.681          -50.896         47.3283         -50.8955         47.3257       -0.0243079         142.463
0.622                   -3.60374         159.725         -50.7671         45.0788         -50.7667         45.0762       -0.0245769         142.381
0.623                   -3.77627         158.809         -50.6375          42.802         -50.6372         42.7995       -0.0248503         142.299
0.624                   -3.95695          157.94         -50.5076         40.4978         -50.5074         40.4955        -0.025128         142.217
0.625                   -4.14557         157.126         -50.3778         38.1663         -50.3776         38.1642       -0.0254102         142.134
0.626                   -4.34171         156.375         -50.2485         35.8078         -50.2484         35.8059       -0.0256968         142.051
0.627                   -4.54479         155.696         -50.1201         33.4229           -50.12         33.4212       -0.0259881         141.968
0.628                   -4.75402         155.096         -49.9929         31.0124         -49.9929          31.011        -0.026284         141.884
0.629                   -4.96836         154.585         -49.8674         28.5775         -49.8673         28.5764       -0.0265845           141.8
