! TOUCHSTONE file generated by CST MICROWAVE STUDIO
! Date and time: Thu Feb 18 07:36:12 2021
! Project name: Scenario_1_Planar_Body_Tissue_Out_of_Line.cst
! Parameters = {L_HA=400; Ltissue=1000; MT=2.54; Rad_Dielectric=30; Rad_Lower=7.3; Rad_Upper=30; Wtissue=1000; a_HA=580; a_WG=246; b_HA=500; b_WG=121; c_HA=0; c_WG=187; d_feed=85; dx1=346; dy1=173; h_feed=15; h_lower=18; h_upper=40; hfat=3; hgap=25; hmuscle=50; hskin=1.5}
! Header version: 2018
! Port assignment regex: !\s*Touchstone port\s*([0-9]+)\s*=\s*(CST MWS port|CST DS port)\s*([0-9]+|Zmin|Zmax)\s*\(\"(.*)\"\)(\s*mode\s*([0-9]+))?.*
! Touchstone port assignment:
! Touchstone port 1 = CST MWS port 1 ("")
! Touchstone port 2 = CST MWS port 2 ("")
# GHz S DB R 50
0.5                    -0.274083        -121.578         -56.3552         25.8944         -56.3551         25.8952      -0.00823962         151.141
0.501                  -0.274632        -121.973         -56.3794         24.3583         -56.3794         24.3594      -0.00829947         151.076
0.502                  -0.275216        -122.371          -56.401          22.807          -56.401         22.8085      -0.00835978         151.011
0.503                  -0.275838        -122.772         -56.4199         21.2409         -56.4199         21.2427      -0.00842057         150.946
0.504                  -0.276498        -123.175          -56.436         19.6604          -56.436         19.6625      -0.00848184         150.881
0.505                  -0.277198         -123.58         -56.4491          18.066         -56.4491         18.0684       -0.0085436         150.815
0.506                  -0.277939        -123.988         -56.4592         16.4583         -56.4593         16.4609      -0.00860586          150.75
0.507                  -0.278722        -124.399         -56.4661         14.8377         -56.4662         14.8406      -0.00866864         150.684
0.508                  -0.279549        -124.812         -56.4698          13.205           -56.47         13.2081      -0.00873192         150.618
0.509                  -0.280423        -125.228         -56.4702         11.5607         -56.4704          11.564      -0.00879573         150.553
0.51                   -0.281343        -125.647         -56.4671         9.90556         -56.4673         9.90908      -0.00886008         150.487
0.511                  -0.282313        -126.069         -56.4606          8.2403         -56.4608         8.24399      -0.00892497         150.421
0.512                  -0.283333        -126.493         -56.4505         6.56569         -56.4507         6.56953       -0.0089904         150.355
0.513                  -0.284407        -126.921         -56.4367         4.88252          -56.437         4.88649       -0.0090564         150.289
0.514                  -0.285535        -127.351         -56.4192         3.19162         -56.4195          3.1957      -0.00912297         150.223
0.515                  -0.286721        -127.784          -56.398         1.49385         -56.3983         1.49802      -0.00919011         150.157
0.516                  -0.287965        -128.221         -56.3729       -0.209931         -56.3732       -0.205685      -0.00925784          150.09
0.517                  -0.289272         -128.66          -56.344        -1.91882         -56.3443        -1.91452      -0.00932617         150.024
0.518                  -0.290642        -129.103         -56.3111        -3.63191         -56.3115        -3.62757      -0.00939511         149.958
0.519                  -0.292079        -129.549         -56.2744         -5.3483         -56.2748        -5.34394      -0.00946466         149.891
0.52                   -0.293586        -129.998         -56.2337        -7.06705         -56.2341        -7.06269      -0.00953485         149.824
0.521                  -0.295165         -130.45         -56.1891        -8.78725         -56.1895         -8.7829      -0.00960567         149.758
0.522                  -0.296819        -130.906         -56.1406         -10.508          -56.141        -10.5037      -0.00967713         149.691
0.523                  -0.298552        -131.365         -56.0881        -12.2284         -56.0886        -12.2241      -0.00974926         149.624
0.524                  -0.300366        -131.828         -56.0318        -13.9475         -56.0322        -13.9433      -0.00982206         149.557
0.525                  -0.302266        -132.295         -55.9715        -15.6645         -55.9719        -15.6603      -0.00989554          149.49
0.526                  -0.304255        -132.765         -55.9074        -17.3785         -55.9078        -17.3744      -0.00996971         149.423
0.527                  -0.306337        -133.238         -55.8395        -19.0887         -55.8399        -19.0847       -0.0100446         149.355
0.528                  -0.308516        -133.716         -55.7678        -20.7943         -55.7682        -20.7905       -0.0101202         149.288
0.529                  -0.310797        -134.197         -55.6924        -22.4946         -55.6928        -22.4909       -0.0101965         149.221
0.53                   -0.313183        -134.683         -55.6133        -24.1889         -55.6138        -24.1852       -0.0102736         149.153
0.531                  -0.315681        -135.172         -55.5307        -25.8763         -55.5311        -25.8728       -0.0103514         149.085
0.532                  -0.318294        -135.665         -55.4446        -27.5564          -55.445         -27.553         -0.01043         149.018
0.533                  -0.321029        -136.163          -55.355        -29.2285         -55.3554        -29.2253       -0.0105093          148.95
0.534                  -0.323891        -136.665         -55.2621        -30.8921         -55.2624         -30.889       -0.0105895         148.882
0.535                  -0.326887        -137.171         -55.1659        -32.5467         -55.1662        -32.5437       -0.0106705         148.814
0.536                  -0.330022        -137.682         -55.0664        -34.1918         -55.0667         -34.189       -0.0107522         148.745
0.537                  -0.333303        -138.197         -54.9639         -35.827         -54.9642        -35.8243       -0.0108349         148.677
0.538                  -0.336738        -138.717         -54.8584        -37.4519         -54.8586        -37.4494       -0.0109183         148.609
0.539                  -0.340334        -139.242         -54.7499        -39.0663         -54.7501        -39.0639       -0.0110027          148.54
0.54                     -0.3441        -139.771         -54.6385        -40.6698         -54.6388        -40.6676       -0.0110879         148.472
0.541                  -0.348043        -140.306         -54.5245        -42.2622         -54.5246        -42.2602        -0.011174         148.403
0.542                  -0.352174        -140.845         -54.4077        -43.8435         -54.4078        -43.8416        -0.011261         148.334
0.543                  -0.356501         -141.39         -54.2883        -45.4133         -54.2885        -45.4116       -0.0113489         148.265
0.544                  -0.361035         -141.94         -54.1665        -46.9717         -54.1666        -46.9702       -0.0114378         148.196
0.545                  -0.365787        -142.496         -54.0422        -48.5186         -54.0423        -48.5172       -0.0115277         148.127
0.546                  -0.370768        -143.057         -53.9156        -50.0539         -53.9156        -50.0527       -0.0116185         148.058
0.547                  -0.375992        -143.624         -53.7868        -51.5778         -53.7867        -51.5767       -0.0117104         147.989
0.548                   -0.38147        -144.196         -53.6557        -53.0902         -53.6557        -53.0893       -0.0118032         147.919
0.549                  -0.387217        -144.775         -53.5226        -54.5913         -53.5225        -54.5905       -0.0118971          147.85
0.55                   -0.393248         -145.36         -53.3874        -56.0811         -53.3873        -56.0805        -0.011992          147.78
0.551                  -0.399579        -145.951         -53.2502          -57.56         -53.2501        -57.5595        -0.012088          147.71
0.552                  -0.406227        -146.549         -53.1112        -59.0279          -53.111        -59.0276       -0.0121851          147.64
0.553                   -0.41321        -147.153         -52.9703        -60.4852           -52.97        -60.4851       -0.0122833          147.57
0.554                  -0.420548        -147.764         -52.8276        -61.9321         -52.8273        -61.9321       -0.0123827           147.5
0.555                   -0.42826        -148.382         -52.6831        -63.3688         -52.6828         -63.369       -0.0124832          147.43
0.556                   -0.43637        -149.007          -52.537        -64.7957         -52.5366         -64.796       -0.0125848         147.359
0.557                  -0.444901         -149.64         -52.3892        -66.2131         -52.3888        -66.2135       -0.0126877         147.289
0.558                  -0.453879         -150.28         -52.2398        -67.6212         -52.2394        -67.6218       -0.0127918         147.218
0.559                   -0.46333        -150.927         -52.0889        -69.0205         -52.0884        -69.0212       -0.0128972         147.147
0.56                   -0.473285        -151.583         -51.9364        -70.4113         -51.9359        -70.4122       -0.0130039         147.076
0.561                  -0.483774        -152.247         -51.7825         -71.794         -51.7819         -71.795       -0.0131118         147.005
0.562                  -0.494831         -152.92          -51.627         -73.169         -51.6265        -73.1701       -0.0132211         146.934
0.563                  -0.506492        -153.601         -51.4702        -74.5367         -51.4696         -74.538       -0.0133317         146.863
0.564                  -0.518797        -154.291         -51.3119        -75.8976         -51.3112         -75.899       -0.0134438         146.791
0.565                  -0.531786         -154.99         -51.1522        -77.2521         -51.1515        -77.2537       -0.0135572         146.719
0.566                  -0.545505        -155.698         -50.9911        -78.6007         -50.9904        -78.6024       -0.0136721         146.648
0.567                  -0.560003        -156.416         -50.8286        -79.9439         -50.8278        -79.9458       -0.0137885         146.576
0.568                  -0.575332        -157.145         -50.6647        -81.2822          -50.664        -81.2842       -0.0139064         146.504
0.569                  -0.591548        -157.883         -50.4995        -82.6161         -50.4987        -82.6183       -0.0140258         146.432
0.57                   -0.608712        -158.632         -50.3329        -83.9462         -50.3321        -83.9484       -0.0141469         146.359
0.571                  -0.626889        -159.392          -50.165        -85.2729         -50.1641        -85.2753       -0.0142695         146.287
0.572                  -0.646151        -160.163         -49.9956         -86.597         -49.9948        -86.5995       -0.0143939         146.214
0.573                  -0.666575        -160.945         -49.8249        -87.9188          -49.824        -87.9215       -0.0145199         146.142
0.574                  -0.688243        -161.739         -49.6528        -89.2392         -49.6519         -89.242       -0.0146477         146.069
0.575                  -0.711246        -162.546         -49.4794        -90.5587         -49.4785        -90.5616       -0.0147773         145.996
0.576                  -0.735679        -163.365         -49.3045        -91.8779         -49.3036         -91.881       -0.0149087         145.923
0.577                   -0.76165        -164.196         -49.1282        -93.1976         -49.1273        -93.2008       -0.0150421         145.849
0.578                  -0.789272        -165.041         -48.9505        -94.5184         -48.9495        -94.5217       -0.0151773         145.776
0.579                   -0.81867        -165.899         -48.7713         -95.841         -48.7704        -95.8444       -0.0153146         145.702
0.58                   -0.849976        -166.772         -48.5907        -97.1663         -48.5897        -97.1698       -0.0154539         145.628
0.581                  -0.883339        -167.658         -48.4086        -98.4949         -48.4076        -98.4986       -0.0155954         145.554
0.582                  -0.918916        -168.559          -48.225        -99.8278          -48.224        -99.8316        -0.015739          145.48
0.583                  -0.956878        -169.474         -48.0399        -101.166         -48.0389         -101.17       -0.0158849         145.406
0.584                  -0.997414        -170.405         -47.8532         -102.51         -47.8522        -102.514       -0.0160331         145.332
0.585                   -1.04073         -171.35          -47.665         -103.86         -47.6641        -103.864       -0.0161837         145.257
0.586                   -1.08704        -172.312         -47.4753        -105.219         -47.4743        -105.223       -0.0163367         145.182
0.587                   -1.13658        -173.289          -47.284        -106.586          -47.283         -106.59       -0.0164924         145.107
0.588                   -1.18962        -174.281         -47.0911        -107.963         -47.0901        -107.968       -0.0166506         145.032
0.589                   -1.24644         -175.29         -46.8966        -109.351         -46.8956        -109.356       -0.0168116         144.957
0.59                    -1.30735        -176.314         -46.7005        -110.752         -46.6996        -110.756       -0.0169755         144.881
0.591                   -1.37267        -177.354         -46.5028        -112.165         -46.5019         -112.17       -0.0171422         144.806
0.592                   -1.44277         -178.41         -46.3036        -113.593         -46.3027        -113.598       -0.0173121          144.73
0.593                   -1.51804         -179.48         -46.1027        -115.037         -46.1019        -115.042        -0.017485         144.654
0.594                    -1.5989         179.435         -45.9004        -116.499         -45.8995        -116.504       -0.0176613         144.578
0.595                   -1.68579         178.337         -45.6965        -117.979         -45.6957        -117.983        -0.017841         144.501
0.596                   -1.77922         177.226         -45.4911        -119.479         -45.4904        -119.484       -0.0180241         144.425
0.597                   -1.87969         176.105         -45.2844            -121         -45.2836        -121.005        -0.018211         144.348
0.598                   -1.98777         174.974         -45.0763        -122.545         -45.0756         -122.55       -0.0184017         144.271
0.599                   -2.10405         173.836         -44.8669        -124.115         -44.8663         -124.12       -0.0185963         144.194
0.6                     -2.22916         172.694         -44.6564        -125.712         -44.6558        -125.717       -0.0187951         144.116
0.601                   -2.36376          171.55         -44.4449        -127.338         -44.4443        -127.342        -0.018998         144.039
0.602                   -2.50855          170.41         -44.2325        -128.993          -44.232        -128.998       -0.0192054         143.961
0.603                   -2.66422         169.277         -44.0194        -130.681         -44.0189        -130.686       -0.0194174         143.883
0.604                    -2.8315         168.157         -43.8058        -132.403         -43.8053        -132.407       -0.0196341         143.805
0.605                   -3.01112         167.056          -43.592        -134.161         -43.5915        -134.165       -0.0198556         143.727
0.606                   -3.20379         165.983         -43.3781        -135.956         -43.3777        -135.961        -0.020082         143.648
0.607                   -3.41018         164.947         -43.1646        -137.792         -43.1642        -137.796       -0.0203136         143.569
0.608                   -3.63089         163.958         -42.9517        -139.669         -42.9514        -139.673       -0.0205504          143.49
0.609                   -3.86642         163.028         -42.7399        -141.589         -42.7396        -141.593       -0.0207924         143.411
0.61                    -4.11711         162.171         -42.5295        -143.554         -42.5293        -143.557       -0.0210398         143.332
0.611                   -4.38309         161.403         -42.3212        -145.565          -42.321        -145.568       -0.0212925         143.252
0.612                    -4.6642         160.742         -42.1153        -147.624         -42.1152        -147.627       -0.0215506         143.172
0.613                   -4.95989         160.207         -41.9125        -149.731         -41.9124        -149.733        -0.021814         143.092
0.614                   -5.26913         159.819         -41.7133        -151.887         -41.7133        -151.889       -0.0220825         143.012
0.615                   -5.59027         159.602         -41.5185        -154.093         -41.5185        -154.094       -0.0223561         142.932
0.616                   -5.92088          159.58         -41.3288        -156.347         -41.3288        -156.348       -0.0226346         142.851
0.617                   -6.25763         159.775         -41.1448        -158.649         -41.1448         -158.65       -0.0229176          142.77
0.618                   -6.59617         160.211         -40.9673        -160.999         -40.9673        -160.999        -0.023205         142.689
0.619                   -6.93098         160.906         -40.7971        -163.393         -40.7971        -163.393       -0.0234964         142.608
0.62                     -7.2554         161.873         -40.6348        -165.829         -40.6349        -165.829       -0.0237914         142.526
0.621                   -7.56174         163.115         -40.4814        -168.304         -40.4814        -168.303       -0.0240898         142.445
0.622                   -7.84156         164.626         -40.3374        -170.814         -40.3374        -170.813        -0.024391         142.363
0.623                   -8.08622         166.383         -40.2034        -173.353         -40.2034        -173.352       -0.0246946         142.281
0.624                   -8.28763         168.346         -40.0801        -175.918         -40.0801        -175.916       -0.0250004         142.198
0.625                   -8.43904         170.464         -39.9679          -178.5         -39.9678        -178.498        -0.025308         142.116
0.626                   -8.53593          172.67         -39.8671         178.905          -39.867         178.908        -0.025617         142.033
0.627                   -8.57658         174.892          -39.778         176.306         -39.7779         176.308       -0.0259272          141.95
0.628                   -8.56224         177.057         -39.7007         173.709         -39.7006         173.712       -0.0262385         141.866
0.629                   -8.49694         179.102         -39.6351         171.122         -39.6349         171.125       -0.0265506         141.783
