! TOUCHSTONE file generated by CST MICROWAVE STUDIO
! Date and time: Fri Dec 11 14:16:11 2020
! Project name: Scenario_1_Planar_Body_Tissue_Out_of_Line_v2.cst
! Parameters = {dy1=173; L_HA=400; Ltissue=700; MT=2.54; Rad_Dielectric=30; Rad_Lower=7.3; Rad_Upper=30; Wtissue=700; a_HA=580; a_WG=246; b_HA=500; b_WG=121; c_HA=0; c_WG=187; d_feed=85; dx1=520; h_feed=15; h_lower=18; h_upper=40; hfat=3; hgap=25; hmuscle=50; hskin=1.5}
! Header version: 2018
! Port assignment regex: !\s*Touchstone port\s*([0-9]+)\s*=\s*(CST MWS port|CST DS port)\s*([0-9]+|Zmin|Zmax)\s*\(\"(.*)\"\)(\s*mode\s*([0-9]+))?.*
! Touchstone port assignment:
! Touchstone port 1 = CST MWS port 1 ("")
! Touchstone port 2 = CST MWS port 2 ("")
# GHz S DB R 50
0.5                   -0.0842283        -121.946          -62.624        -59.8801         -62.6235        -59.8788      -0.00736577          151.15
0.501                 -0.0837305        -122.412         -62.3829         -60.893         -62.3824        -60.8916      -0.00749036         151.085
0.502                 -0.0834892        -122.882          -62.139        -61.9245         -62.1385        -61.9229      -0.00761649          151.02
0.503                 -0.0835279        -123.357         -61.8922        -62.9752         -61.8917        -62.9735      -0.00774429         150.955
0.504                 -0.0838724        -123.837         -61.6424         -64.046         -61.6419        -64.0442      -0.00787388         150.889
0.505                 -0.0845514        -124.323         -61.3895        -65.1378          -61.389        -65.1359      -0.00800538         150.824
0.506                 -0.0855963        -124.813         -61.1336        -66.2515         -61.1331        -66.2495      -0.00813892         150.759
0.507                 -0.0870419        -125.309         -60.8745         -67.388          -60.874         -67.386      -0.00827461         150.693
0.508                 -0.0889265        -125.811         -60.6122        -68.5485         -60.6118        -68.5464      -0.00841254         150.627
0.509                 -0.0912925        -126.318         -60.3468         -69.734         -60.3463        -69.7318      -0.00855278         150.562
0.51                  -0.0941866        -126.831          -60.078        -70.9458         -60.0776        -70.9435      -0.00869539         150.496
0.511                 -0.0976603         -127.35          -59.806         -72.185         -59.8055        -72.1827      -0.00884035          150.43
0.512                  -0.101771        -127.876         -59.5306        -73.4531         -59.5302        -73.4508      -0.00898759         150.364
0.513                   -0.10658        -128.407         -59.2519        -74.7516         -59.2515        -74.7492      -0.00913697         150.298
0.514                  -0.112158        -128.945         -58.9699        -76.0818         -58.9694        -76.0795      -0.00928824         150.232
0.515                   -0.11858        -129.489         -58.6845        -77.4456          -58.684        -77.4432      -0.00944102         150.165
0.516                   -0.12593         -130.04         -58.3957        -78.8446         -58.3952        -78.8423      -0.00959481         150.099
0.517                    -0.1343        -130.597         -58.1035        -80.2808          -58.103        -80.2784      -0.00974892         150.032
0.518                  -0.143789        -131.161          -57.808         -81.756         -57.8076        -81.7536       -0.0099025         149.966
0.519                  -0.154509        -131.731         -57.5093        -83.2724         -57.5088          -83.27       -0.0100545         149.899
0.52                   -0.166576        -132.307         -57.2074        -84.8322         -57.2069        -84.8299       -0.0102037         149.832
0.521                  -0.180121         -132.89         -56.9023        -86.4378         -56.9018        -86.4355       -0.0103488         149.765
0.522                  -0.195282        -133.478         -56.5942        -88.0916         -56.5938        -88.0893       -0.0104884         149.698
0.523                  -0.212207        -134.072         -56.2833        -89.7963         -56.2829        -89.7941       -0.0106211          149.63
0.524                  -0.231052         -134.67         -55.9697        -91.5546         -55.9693        -91.5524       -0.0107455         149.563
0.525                  -0.251982        -135.273         -55.6537        -93.3693         -55.6532        -93.3673       -0.0108607         149.495
0.526                  -0.275166        -135.879         -55.3354        -95.2435          -55.335        -95.2415       -0.0109659         149.428
0.527                  -0.300774        -136.487         -55.0153        -97.1802         -55.0148        -97.1783       -0.0110607          149.36
0.528                  -0.328976        -137.097         -54.6936        -99.1826         -54.6932        -99.1808       -0.0111453         149.292
0.529                  -0.359933        -137.705         -54.3709        -101.254         -54.3705        -101.252       -0.0112203         149.224
0.53                   -0.393792        -138.311         -54.0476        -103.397         -54.0472        -103.395       -0.0112867         149.156
0.531                  -0.430673        -138.911         -53.7243        -105.615         -53.7238        -105.614       -0.0113457         149.088
0.532                  -0.470662        -139.505         -53.4016        -107.912         -53.4012        -107.911       -0.0113989          149.02
0.533                  -0.513798        -140.088         -53.0803         -110.29         -53.0799        -110.288       -0.0114477         148.952
0.534                  -0.560054        -140.658         -52.7613        -112.751         -52.7609         -112.75       -0.0114938         148.883
0.535                  -0.609326        -141.211         -52.4454        -115.298          -52.445        -115.297       -0.0115386         148.815
0.536                  -0.661415        -141.744         -52.1338        -117.933         -52.1334        -117.932       -0.0115834         148.747
0.537                  -0.716014        -142.253         -51.8274        -120.657         -51.8271        -120.656       -0.0116291         148.678
0.538                  -0.772695        -142.734         -51.5277         -123.47         -51.5273        -123.469       -0.0116767          148.61
0.539                  -0.830907        -143.185         -51.2357        -126.371         -51.2354         -126.37       -0.0117269         148.542
0.54                   -0.889972        -143.603          -50.953        -129.359         -50.9527        -129.359         -0.01178         148.473
0.541                  -0.949104        -143.985         -50.6808        -132.431         -50.6806        -132.431       -0.0118364         148.404
0.542                   -1.00742        -144.332         -50.4207        -135.583         -50.4204        -135.583       -0.0118963         148.336
0.543                     -1.064        -144.642         -50.1739         -138.81         -50.1736         -138.81       -0.0119598         148.267
0.544                   -1.11789        -144.918         -49.9417        -142.104         -49.9415        -142.104       -0.0120269         148.198
0.545                   -1.16818        -145.162         -49.7255        -145.457         -49.7253        -145.457       -0.0120975         148.129
0.546                   -1.21405        -145.378         -49.5261        -148.859         -49.5259         -148.86       -0.0121716          148.06
0.547                   -1.25481        -145.572         -49.3445          -152.3         -49.3444        -152.301       -0.0122491         147.991
0.548                   -1.28993        -145.749         -49.1813        -155.768         -49.1812        -155.768       -0.0123298         147.921
0.549                   -1.31909        -145.915         -49.0369         -159.25         -49.0369         -159.25       -0.0124137         147.852
0.55                    -1.34216        -146.077         -48.9114        -162.734         -48.9114        -162.734       -0.0125005         147.782
0.551                   -1.35922        -146.241         -48.8046        -166.207         -48.8045        -166.207       -0.0125901         147.713
0.552                   -1.37049        -146.414          -48.716        -169.656          -48.716        -169.656       -0.0126825         147.643
0.553                   -1.37638          -146.6         -48.6449         -173.07         -48.6449        -173.071       -0.0127774         147.573
0.554                   -1.37736        -146.804         -48.5905        -176.439         -48.5905        -176.439       -0.0128749         147.503
0.555                   -1.37401         -147.03         -48.5515        -179.753         -48.5516        -179.753       -0.0129747         147.433
0.556                   -1.36693        -147.279         -48.5268         176.996         -48.5269         176.996       -0.0130769         147.363
0.557                   -1.35673        -147.555          -48.515         173.814         -48.5151         173.815       -0.0131812         147.293
0.558                   -1.34399        -147.857         -48.5147         170.708         -48.5149         170.708       -0.0132877         147.222
0.559                   -1.32927        -148.186         -48.5245          167.68         -48.5246          167.68       -0.0133963         147.151
0.56                    -1.31308        -148.543          -48.543         164.733         -48.5431         164.733       -0.0135069         147.081
0.561                   -1.29588        -148.927         -48.5687         161.868         -48.5688         161.869       -0.0136195          147.01
0.562                   -1.27807        -149.337         -48.6004         159.087         -48.6006         159.087        -0.013734         146.939
0.563                      -1.26        -149.772         -48.6369         156.387         -48.6371         156.388       -0.0138504         146.868
0.564                   -1.24196        -150.231          -48.677         153.768         -48.6772         153.769       -0.0139687         146.796
0.565                    -1.2242        -150.713         -48.7198         151.228         -48.7199         151.229       -0.0140889         146.725
0.566                   -1.20692        -151.217         -48.7641         148.765         -48.7643         148.766       -0.0142109         146.654
0.567                    -1.1903        -151.741         -48.8093         146.375         -48.8095         146.376       -0.0143347         146.582
0.568                   -1.17447        -152.285         -48.8546         144.056         -48.8547         144.057       -0.0144604          146.51
0.569                   -1.15953        -152.847         -48.8992         141.804         -48.8994         141.805       -0.0145878         146.438
0.57                    -1.14558        -153.427         -48.9427         139.616         -48.9428         139.617       -0.0147171         146.366
0.571                   -1.13268        -154.023         -48.9844         137.489         -48.9846         137.491       -0.0148482         146.294
0.572                   -1.12088        -154.635          -49.024          135.42         -49.0242         135.421       -0.0149811         146.221
0.573                   -1.11023        -155.262         -49.0611         133.405         -49.0613         133.406       -0.0151159         146.149
0.574                   -1.10075        -155.903         -49.0954         131.441         -49.0955         131.442       -0.0152525         146.076
0.575                   -1.09246        -156.558         -49.1265         129.525         -49.1266         129.526       -0.0153911         146.003
0.576                   -1.08538        -157.226         -49.1542         127.654         -49.1543         127.655       -0.0155315          145.93
0.577                   -1.07953        -157.907         -49.1784         125.824         -49.1785         125.825       -0.0156738         145.857
0.578                   -1.07491          -158.6         -49.1989         124.034          -49.199         124.035       -0.0158181         145.784
0.579                   -1.07154        -159.306         -49.2155          122.28         -49.2156         122.282       -0.0159643         145.711
0.58                    -1.06941        -160.023         -49.2282         120.561         -49.2283         120.562       -0.0161126         145.637
0.581                   -1.06855        -160.752         -49.2368         118.873         -49.2369         118.874       -0.0162628         145.563
0.582                   -1.06895        -161.492         -49.2413         117.214         -49.2414         117.215       -0.0164151         145.489
0.583                   -1.07063        -162.244         -49.2417         115.582         -49.2418         115.583       -0.0165695         145.415
0.584                    -1.0736        -163.007         -49.2378         113.975         -49.2379         113.976       -0.0167261         145.341
0.585                   -1.07787        -163.781         -49.2298         112.391         -49.2299         112.392       -0.0168848         145.267
0.586                   -1.08345        -164.566         -49.2175         110.828         -49.2176         110.829       -0.0170457         145.192
0.587                   -1.09038        -165.362          -49.201         109.284         -49.2011         109.285       -0.0172088         145.117
0.588                   -1.09867        -166.169         -49.1803         107.758         -49.1804         107.759       -0.0173742         145.042
0.589                   -1.10834        -166.988         -49.1554         106.248         -49.1555         106.249        -0.017542         144.967
0.59                    -1.11942        -167.817         -49.1263         104.752         -49.1263         104.753       -0.0177121         144.892
0.591                   -1.13195        -168.658          -49.093         103.268         -49.0931          103.27       -0.0178846         144.817
0.592                   -1.14596        -169.511         -49.0556         101.796         -49.0557         101.797       -0.0180595         144.741
0.593                    -1.1615        -170.375         -49.0141         100.334         -49.0141         100.335        -0.018237         144.665
0.594                    -1.1786         -171.25         -48.9685         98.8807         -48.9685         98.8817        -0.018417         144.589
0.595                   -1.19732        -172.137         -48.9189         97.4343         -48.9189         97.4353       -0.0185995         144.513
0.596                   -1.21771        -173.037         -48.8653         95.9939         -48.8653         95.9949       -0.0187847         144.437
0.597                   -1.23984        -173.948         -48.8077         94.5583         -48.8078         94.5592       -0.0189726          144.36
0.598                   -1.26375        -174.872         -48.7463         93.1262         -48.7464         93.1271       -0.0191633         144.284
0.599                   -1.28953        -175.808          -48.681         91.6964         -48.6811         91.6973       -0.0193567         144.207
0.6                     -1.31725        -176.757         -48.6119         90.2679          -48.612         90.2688       -0.0195529          144.13
0.601                     -1.347        -177.718         -48.5391         88.8396         -48.5392         88.8405        -0.019752         144.052
0.602                   -1.37885        -178.693         -48.4627         87.4103         -48.4627         87.4112       -0.0199541         143.975
0.603                   -1.41291        -179.681         -48.3826          85.979         -48.3826         85.9798       -0.0201591         143.897
0.604                   -1.44929         179.318         -48.2989         84.5446          -48.299         84.5454       -0.0203672         143.819
0.605                   -1.48808         178.303         -48.2118         83.1061         -48.2119         83.1069       -0.0205784         143.741
0.606                   -1.52942         177.275         -48.1213         81.6625         -48.1213         81.6633       -0.0207927         143.663
0.607                   -1.57342         176.233         -48.0274         80.2128         -48.0274         80.2136       -0.0210102         143.585
0.608                   -1.62022         175.177         -47.9302         78.7559         -47.9303         78.7567        -0.021231         143.506
0.609                   -1.66998         174.107         -47.8299         77.2909           -47.83         77.2917       -0.0214551         143.427
0.61                    -1.72284         173.023         -47.7265         75.8168         -47.7265         75.8176       -0.0216825         143.348
0.611                   -1.77898         171.924           -47.62         74.3327         -47.6201         74.3334       -0.0219134         143.269
0.612                   -1.83857         170.811         -47.5107         72.8376         -47.5108         72.8383       -0.0221477         143.189
0.613                    -1.9018         169.684         -47.3985         71.3305         -47.3986         71.3312       -0.0223855         143.109
0.614                   -1.96887         168.543         -47.2837         69.8105         -47.2837         69.8112        -0.022627         143.029
0.615                   -2.04001         167.388         -47.1662         68.2767         -47.1663         68.2774        -0.022872         142.949
0.616                   -2.11544         166.219         -47.0463         66.7282         -47.0464         66.7288       -0.0231208         142.869
0.617                    -2.1954         165.036         -46.9241         65.1641         -46.9241         65.1647       -0.0233733         142.788
0.618                   -2.28016         163.839         -46.7996         63.5835         -46.7996         63.5842       -0.0236296         142.707
0.619                   -2.36999          162.63         -46.6731         61.9857         -46.6731         61.9863       -0.0238897         142.626
0.62                    -2.46518         161.409         -46.5446         60.3697         -46.5446         60.3703       -0.0241538         142.545
0.621                   -2.56604         160.175         -46.4144         58.7348         -46.4144         58.7354       -0.0244218         142.463
0.622                   -2.67289         158.931         -46.2826         57.0802         -46.2826         57.0808       -0.0246938         142.381
0.623                   -2.78609         157.676         -46.1493         55.4053         -46.1494         55.4059         -0.02497         142.299
0.624                   -2.90598         156.413         -46.0149         53.7093         -46.0149         53.7099       -0.0252502         142.217
0.625                   -3.03296         155.141         -45.8794         51.9917         -45.8794         51.9922       -0.0255346         142.134
0.626                   -3.16742         153.863         -45.7431         50.2519         -45.7431         50.2524       -0.0258233         142.051
0.627                   -3.30977         152.581         -45.6061         48.4893         -45.6061         48.4899       -0.0261163         141.968
0.628                   -3.46046         151.297         -45.4688         46.7037         -45.4688         46.7042       -0.0264136         141.885
0.629                   -3.61994         150.012         -45.3312         44.8947         -45.3313         44.8952       -0.0267154         141.801
