! TOUCHSTONE file generated by CST MICROWAVE STUDIO
! Date and time: Tue Nov 24 13:45:32 2020
! Project name: Scenario_1_Planar_Body_Tissue_Out_of_Line.cst
! Parameters = {dy1=173; L_HA=400; Ltissue=700; MT=2.54; Rad_Dielectric=30; Rad_Lower=7.3; Rad_Upper=30; Wtissue=700; a_HA=580; a_WG=246; b_HA=500; b_WG=121; c_HA=0; c_WG=187; d_feed=85; dx1=1039; h_feed=15; h_lower=18; h_upper=40; hfat=3; hgap=25; hmuscle=50; hskin=1.5}
! Header version: 2018
! Port assignment regex: !\s*Touchstone port\s*([0-9]+)\s*=\s*(CST MWS port|CST DS port)\s*([0-9]+|Zmin|Zmax)\s*\(\"(.*)\"\)(\s*mode\s*([0-9]+))?.*
! Touchstone port assignment:
! Touchstone port 1 = CST MWS port 1 ("")
! Touchstone port 2 = CST MWS port 2 ("")
# GHz S DB R 50
0.5                    -0.152518        -121.617         -64.5419         -21.118         -64.5412        -21.1141       -0.0076552         151.148
0.501                  -0.154589         -122.05         -64.5393        -23.1929         -64.5367        -23.1732      -0.00772003         151.083
0.502                   -0.15675        -122.486         -64.5277        -25.2503         -64.5235        -25.2167      -0.00778544         151.017
0.503                  -0.159006        -122.925         -64.5073        -27.2907         -64.5017         -27.245      -0.00785144         150.952
0.504                  -0.161361        -123.367         -64.4782        -29.3142         -64.4715        -29.2582      -0.00791805         150.887
0.505                  -0.163824        -123.812         -64.4407        -31.3215         -64.4331        -31.2566      -0.00798526         150.821
0.506                  -0.166401        -124.261         -64.3949        -33.3128         -64.3866        -33.2407       -0.0080531         150.755
0.507                  -0.169099        -124.712          -64.341        -35.2887         -64.3321        -35.2107      -0.00812156          150.69
0.508                  -0.171926        -125.167         -64.2791        -37.2498         -64.2698        -37.1671      -0.00819065         150.624
0.509                  -0.174892        -125.626         -64.2093        -39.1967         -64.1998        -39.1105      -0.00826039         150.558
0.51                   -0.178005        -126.088         -64.1319        -41.1299         -64.1222        -41.0415      -0.00833079         150.492
0.511                  -0.181277        -126.554         -64.0469        -43.0504         -64.0372        -42.9606      -0.00840184         150.426
0.512                  -0.184718        -127.023         -63.9546        -44.9588         -63.9449        -44.8685      -0.00847357          150.36
0.513                   -0.18834        -127.496          -63.855        -46.8561         -63.8454        -46.7662      -0.00854599         150.294
0.514                  -0.192157        -127.974         -63.7482        -48.7431         -63.7388        -48.6543       -0.0086191         150.228
0.515                  -0.196184        -128.455         -63.6344        -50.6209         -63.6253        -50.5339      -0.00869293         150.161
0.516                  -0.200436         -128.94         -63.5136        -52.4905         -63.5048        -52.4059      -0.00876748         150.095
0.517                   -0.20493        -129.429         -63.3861        -54.3531         -63.3776        -54.2713      -0.00884276         150.028
0.518                  -0.209685        -129.923         -63.2518        -56.2099         -63.2437        -56.1314      -0.00891881         149.962
0.519                  -0.214722        -130.421         -63.1109        -58.0621         -63.1032        -57.9873      -0.00899562         149.895
0.52                   -0.220062        -130.924         -62.9634        -59.9111         -62.9562        -59.8403      -0.00907322         149.828
0.521                  -0.225732        -131.431         -62.8095        -61.7584         -62.8027        -61.6918      -0.00915164         149.761
0.522                  -0.231757        -131.944         -62.6491        -63.6054         -62.6428        -63.5433      -0.00923088         149.695
0.523                  -0.238167        -132.461         -62.4825        -65.4538         -62.4766        -65.3963      -0.00931099         149.627
0.524                  -0.244995        -132.983         -62.3095        -67.3052         -62.3042        -67.2524      -0.00939197          149.56
0.525                  -0.252276         -133.51         -62.1304        -69.1614         -62.1255        -69.1134      -0.00947386         149.493
0.526                  -0.260049        -134.042         -61.9451        -71.0243         -61.9407        -70.9811      -0.00955669         149.426
0.527                  -0.268357         -134.58         -61.7537        -72.8958         -61.7497        -72.8573       -0.0096405         149.358
0.528                  -0.277247        -135.123         -61.5562        -74.7781         -61.5528        -74.7443      -0.00972532         149.291
0.529                  -0.286771        -135.671         -61.3528        -76.6732         -61.3498         -76.644      -0.00981119         149.223
0.53                   -0.296987        -136.226         -61.1435        -78.5835          -61.141        -78.5587      -0.00989816         149.156
0.531                  -0.307955        -136.786         -60.9282        -80.5114         -60.9262         -80.491      -0.00998628         149.088
0.532                  -0.319747        -137.351         -60.7073        -82.4595         -60.7057        -82.4431       -0.0100756          149.02
0.533                  -0.332435        -137.923         -60.4806        -84.4303         -60.4795        -84.4179       -0.0101662         148.952
0.534                  -0.346105          -138.5         -60.2483        -86.4268         -60.2476        -86.4181       -0.0102581         148.884
0.535                  -0.360844        -139.083         -60.0105        -88.4518         -60.0103        -88.4466       -0.0103514         148.816
0.536                  -0.376753        -139.672         -59.7674        -90.5085         -59.7676        -90.5065       -0.0104462         148.747
0.537                  -0.393938        -140.266          -59.519        -92.6001         -59.5196        -92.6011       -0.0105425         148.679
0.538                  -0.412516        -140.865         -59.2657        -94.7301         -59.2666        -94.7337       -0.0106406          148.61
0.539                   -0.43261        -141.469         -59.0075        -96.9019         -59.0088        -96.9079       -0.0107403         148.542
0.54                   -0.454356        -142.078         -58.7448        -99.1192         -58.7465        -99.1273       -0.0108419         148.473
0.541                  -0.477894        -142.691         -58.4778        -101.386         -58.4799        -101.396       -0.0109454         148.404
0.542                  -0.503375        -143.307          -58.207        -103.706         -58.2093        -103.717        -0.011051         148.335
0.543                  -0.530951        -143.926         -57.9326        -106.083         -57.9353        -106.096       -0.0111588         148.266
0.544                  -0.560778        -144.546         -57.6553        -108.522         -57.6582        -108.535       -0.0112688         148.197
0.545                  -0.593011        -145.166         -57.3756        -111.026         -57.3787         -111.04       -0.0113812         148.128
0.546                  -0.627796        -145.784          -57.094          -113.6         -57.0974        -113.614        -0.011496         148.058
0.547                  -0.665261        -146.399         -56.8114        -116.248          -56.815        -116.262       -0.0116133         147.989
0.548                  -0.705513        -147.008         -56.5286        -118.972         -56.5323        -118.986       -0.0117332         147.919
0.549                  -0.748619        -147.609         -56.2465        -121.778         -56.2503        -121.791       -0.0118555          147.85
0.55                   -0.794591        -148.198         -55.9662        -124.667         -55.9701        -124.679       -0.0119804          147.78
0.551                  -0.843374        -148.773         -55.6889        -127.642         -55.6928        -127.653       -0.0121078          147.71
0.552                   -0.89482         -149.33         -55.4158        -130.705         -55.4197        -130.715       -0.0122374          147.64
0.553                  -0.948672        -149.865         -55.1483        -133.856         -55.1521        -133.865       -0.0123693          147.57
0.554                   -1.00454        -150.375         -54.8878        -137.096         -54.8915        -137.104       -0.0125031         147.499
0.555                    -1.0619        -150.856          -54.636        -140.423         -54.6396        -140.429       -0.0126387         147.429
0.556                   -1.12007        -151.304         -54.3943        -143.833         -54.3977        -143.837       -0.0127758         147.359
0.557                    -1.1782        -151.717         -54.1643        -147.322         -54.1675        -147.325       -0.0129141         147.288
0.558                   -1.23533        -152.094         -53.9476        -150.884         -53.9505        -150.886       -0.0130534         147.217
0.559                   -1.29039        -152.435         -53.7456        -154.511         -53.7482        -154.512       -0.0131933         147.147
0.56                    -1.34226        -152.742         -53.5596        -158.193         -53.5619        -158.193       -0.0133337         147.076
0.561                   -1.38986        -153.016         -53.3906         -161.92         -53.3926        -161.919       -0.0134743         147.005
0.562                   -1.43217        -153.264         -53.2395        -165.678         -53.2411        -165.677        -0.013615         146.934
0.563                   -1.46838        -153.493         -53.1069        -169.455         -53.1082        -169.454       -0.0137555         146.862
0.564                   -1.49788        -153.708          -52.993        -173.238         -52.9939        -173.236       -0.0138959         146.791
0.565                   -1.52036         -153.92         -52.8978        -177.011         -52.8984         -177.01       -0.0140362          146.72
0.566                    -1.5358        -154.137         -52.8207         179.238          -52.821         179.239       -0.0141762         146.648
0.567                   -1.54447        -154.367         -52.7612         175.523         -52.7612         175.523       -0.0143162         146.576
0.568                   -1.54686        -154.616         -52.7182         171.855          -52.718         171.854       -0.0144561         146.504
0.569                   -1.54369        -154.893         -52.6905         168.244         -52.6901         168.243        -0.014596         146.432
0.57                    -1.53578          -155.2         -52.6768         164.701         -52.6762         164.699       -0.0147362          146.36
0.571                   -1.52401        -155.542         -52.6755         161.231         -52.6747         161.229       -0.0148768         146.288
0.572                    -1.5093        -155.921          -52.685         157.841         -52.6841         157.838       -0.0150178         146.215
0.573                   -1.49251        -156.338         -52.7037         154.535         -52.7028         154.531       -0.0151594         146.143
0.574                   -1.47443        -156.792         -52.7301         151.315         -52.7292          151.31       -0.0153018          146.07
0.575                   -1.45577        -157.284         -52.7626         148.182         -52.7616         148.176       -0.0154451         145.997
0.576                   -1.43715         -157.81         -52.7997         145.136         -52.7988          145.13       -0.0155895         145.924
0.577                   -1.41909         -158.37           -52.84         142.175         -52.8391         142.169        -0.015735         145.851
0.578                   -1.40201        -158.962         -52.8824         139.299         -52.8815         139.292       -0.0158819         145.777
0.579                   -1.38625        -159.583         -52.9255         136.503         -52.9247         136.496       -0.0160301         145.704
0.58                     -1.3721        -160.232         -52.9685         133.785         -52.9678         133.778       -0.0161798          145.63
0.581                   -1.35977        -160.908         -53.0103         131.141         -53.0097         131.135       -0.0163312         145.556
0.582                   -1.34942        -161.607         -53.0502         128.567         -53.0497         128.561       -0.0164842         145.482
0.583                   -1.34118        -162.328         -53.0875         126.059          -53.087         126.053        -0.016639         145.408
0.584                   -1.33516        -163.071         -53.1215         123.612         -53.1211         123.607       -0.0167956         145.334
0.585                   -1.33141        -163.833         -53.1518         121.223         -53.1514         121.218       -0.0169542         145.259
0.586                   -1.33001        -164.614         -53.1778         118.887         -53.1775         118.883       -0.0171148         145.185
0.587                   -1.33099        -165.413         -53.1992           116.6          -53.199         116.596       -0.0172774          145.11
0.588                   -1.33441        -166.228         -53.2157         114.358         -53.2156         114.355       -0.0174422         145.035
0.589                    -1.3403        -167.059          -53.227         112.157          -53.227         112.155       -0.0176092          144.96
0.59                    -1.34869        -167.906          -53.233         109.993          -53.233         109.992       -0.0177783         144.884
0.591                   -1.35964        -168.767         -53.2334         107.863         -53.2334         107.862       -0.0179498         144.809
0.592                   -1.37318        -169.643         -53.2282         105.762         -53.2282         105.762       -0.0181237         144.733
0.593                   -1.38938        -170.532         -53.2173         103.688         -53.2173         103.688       -0.0182999         144.657
0.594                   -1.40829        -171.436         -53.2005         101.637         -53.2006         101.638       -0.0184787         144.581
0.595                   -1.42998        -172.352          -53.178         99.6061         -53.1781         99.6079       -0.0186599         144.505
0.596                   -1.45453        -173.281         -53.1497         97.5922         -53.1498         97.5946       -0.0188437         144.428
0.597                   -1.48202        -174.224         -53.1156         95.5924         -53.1157         95.5953       -0.0190301         144.352
0.598                   -1.51257        -175.178         -53.0757         93.6041         -53.0758         93.6074       -0.0192192         144.275
0.599                   -1.54627        -176.145         -53.0302         91.6244         -53.0303         91.6282       -0.0194111         144.198
0.6                     -1.58326        -177.124         -52.9791         89.6509         -52.9792          89.655       -0.0196057         144.121
0.601                   -1.62366        -178.114         -52.9225         87.6811         -52.9226         87.6856       -0.0198031         144.043
0.602                   -1.66763        -179.116         -52.8606         85.7128         -52.8606         85.7175       -0.0200035         143.966
0.603                   -1.71533         179.872         -52.7933         83.7436         -52.7934         83.7485       -0.0202068         143.888
0.604                   -1.76693         178.849          -52.721         81.7715          -52.721         81.7765       -0.0204131          143.81
0.605                   -1.82261         177.816         -52.6437         79.7943         -52.6437         79.7994       -0.0206225         143.732
0.606                   -1.88258         176.775         -52.5616         77.8102         -52.5616         77.8152        -0.020835         143.653
0.607                   -1.94706         175.725         -52.4749         75.8172         -52.4748         75.8222       -0.0210507         143.575
0.608                   -2.01625         174.667         -52.3838         73.8135         -52.3837         73.8184       -0.0212697         143.496
0.609                   -2.09041         173.604         -52.2884         71.7975         -52.2883         71.8022        -0.021492         143.417
0.61                    -2.16977         172.535          -52.189         69.7676         -52.1889         69.7721       -0.0217176         143.337
0.611                   -2.25459         171.463         -52.0858         67.7222         -52.0857         67.7264       -0.0219467         143.258
0.612                   -2.34514         170.389         -51.9791         65.6598         -51.9789         65.6637       -0.0221793         143.178
0.613                   -2.44167         169.315          -51.869         63.5793         -51.8689         63.5828       -0.0224155         143.098
0.614                   -2.54446         168.243         -51.7559         61.4793         -51.7558         61.4825       -0.0226553         143.018
0.615                   -2.65376         167.176           -51.64         59.3587         -51.6399         59.3615       -0.0228989         142.938
0.616                   -2.76984         166.118         -51.5217         57.2166         -51.5215          57.219       -0.0231462         142.857
0.617                   -2.89293          165.07         -51.4011         55.0521          -51.401          55.054       -0.0233974         142.776
0.618                   -3.02324         164.037         -51.2786         52.8643         -51.2785         52.8659       -0.0236525         142.695
0.619                   -3.16097         163.024         -51.1545         50.6529         -51.1544         50.6539       -0.0239115         142.614
0.62                    -3.30625         162.033         -51.0291         48.4171         -51.0291         48.4178       -0.0241747         142.532
0.621                   -3.45917         161.072         -50.9028         46.1569         -50.9028         46.1571        -0.024442          142.45
0.622                   -3.61976         160.144         -50.7758         43.8719         -50.7758         43.8717       -0.0247134         142.368
0.623                   -3.78794         159.257         -50.6485         41.5623         -50.6486         41.5617       -0.0249892         142.286
0.624                   -3.96355         158.416         -50.5212         39.2282         -50.5214         39.2272       -0.0252693         142.203
0.625                    -4.1463         157.629         -50.3943           36.87         -50.3945         36.8687       -0.0255538         142.121
0.626                   -4.33575         156.902          -50.268         34.4883         -50.2682         34.4867       -0.0258427         142.037
0.627                   -4.53128         156.243         -50.1427         32.0837          -50.143         32.0819       -0.0261362         141.954
0.628                   -4.73212         155.659         -50.0187         29.6573          -50.019         29.6553       -0.0264343          141.87
0.629                   -4.93725         155.158         -49.8962         27.2101         -49.8966         27.2079       -0.0267371         141.787
