! TOUCHSTONE file generated by CST MICROWAVE STUDIO
! Date and time: Thu Feb 18 07:36:26 2021
! Project name: Scenario_1_Planar_Body_Tissue_Out_of_Line.cst
! Parameters = {L_HA=400; Ltissue=1000; MT=2.54; Rad_Dielectric=30; Rad_Lower=7.3; Rad_Upper=30; Wtissue=1000; a_HA=580; a_WG=246; b_HA=500; b_WG=121; c_HA=0; c_WG=187; d_feed=85; dx1=346; dy1=190.3; h_feed=15; h_lower=18; h_upper=40; hfat=3; hgap=25; hmuscle=50; hskin=1.5}
! Header version: 2018
! Port assignment regex: !\s*Touchstone port\s*([0-9]+)\s*=\s*(CST MWS port|CST DS port)\s*([0-9]+|Zmin|Zmax)\s*\(\"(.*)\"\)(\s*mode\s*([0-9]+))?.*
! Touchstone port assignment:
! Touchstone port 1 = CST MWS port 1 ("")
! Touchstone port 2 = CST MWS port 2 ("")
# GHz S DB R 50
0.5                     -0.27365        -121.597         -56.5889         23.5075         -56.5886         23.5067      -0.00821253         151.128
0.501                  -0.275981        -121.979         -56.4713         22.3966         -56.4732         22.4031      -0.00827473         151.063
0.502                  -0.278248        -122.363         -56.3501         21.2499         -56.3541         21.2649      -0.00833723         150.998
0.503                  -0.280451         -122.75         -56.2251          20.064         -56.2313         20.0887      -0.00840002         150.933
0.504                  -0.282594         -123.14         -56.0965         18.8353         -56.1048         18.8709      -0.00846313         150.868
0.505                  -0.284679        -123.532         -55.9642         17.5595         -55.9746         17.6073      -0.00852655         150.802
0.506                  -0.286706        -123.927         -55.8284         16.2319         -55.8409         16.2935      -0.00859031         150.737
0.507                  -0.288679        -124.325         -55.6893         14.8474         -55.7038         14.9245      -0.00865441         150.671
0.508                  -0.290601        -124.726         -55.5473         13.4005         -55.5635         13.4946      -0.00871886         150.605
0.509                  -0.292472         -125.13         -55.4029         11.8852         -55.4207         11.9981      -0.00878368          150.54
0.51                   -0.294296        -125.537         -55.2566          10.295         -55.2757         10.4283      -0.00884887         150.474
0.511                  -0.296076        -125.947         -55.1094         8.62323         -55.1294         8.77862      -0.00891444         150.408
0.512                  -0.297814         -126.36         -54.9622         6.86319         -54.9828         7.04207      -0.00898041         150.342
0.513                  -0.299513        -126.776         -54.8166         5.00828         -54.8372         5.21177      -0.00904679         150.276
0.514                  -0.301177        -127.195         -54.6742         3.05255         -54.6943         3.28126       -0.0091136          150.21
0.515                  -0.302807        -127.618         -54.5371        0.991152          -54.556         1.24502      -0.00918083         150.144
0.516                  -0.304409        -128.043         -54.4078        -1.17891         -54.4247       -0.900873      -0.00924852         150.077
0.517                  -0.305984        -128.473          -54.289        -3.45797         -54.3032         -3.1579      -0.00931666         150.011
0.518                  -0.307538        -128.906          -54.184        -5.84271         -54.1947        -5.52413      -0.00938527         149.944
0.519                  -0.309072        -129.342         -54.0961        -8.32518         -54.1025        -7.99313      -0.00945436         149.878
0.52                   -0.310593        -129.782         -54.0286        -10.8918         -54.0303        -10.5529      -0.00952396         149.811
0.521                  -0.312103        -130.225         -53.9849         -13.523         -53.9815        -13.1852      -0.00959406         149.744
0.522                  -0.313607        -130.673         -53.9677        -16.1926         -53.9591        -15.8648      -0.00966469         149.678
0.523                  -0.315109        -131.124         -53.9789         -18.869         -53.9655        -18.5606      -0.00973586         149.611
0.524                  -0.316615        -131.579         -54.0194        -21.5158         -54.0018        -21.2358      -0.00980759         149.544
0.525                  -0.318129        -132.038         -54.0886        -24.0949         -54.0681        -23.8508      -0.00987988         149.477
0.526                  -0.319657        -132.501         -54.1846        -26.5684         -54.1626        -26.3656      -0.00995276         149.409
0.527                  -0.321204        -132.968         -54.3043         -28.902         -54.2823        -28.7431       -0.0100262         149.342
0.528                  -0.322775        -133.439         -54.4429        -31.0673         -54.4228        -30.9517       -0.0101003         149.275
0.529                  -0.324378        -133.915         -54.5953        -33.0439         -54.5786        -32.9681        -0.010175         149.207
0.53                   -0.326019        -134.395         -54.7557        -34.8205         -54.7436        -34.7784       -0.0102504          149.14
0.531                  -0.327703         -134.88         -54.9182         -36.395         -54.9119        -36.3784       -0.0103264         149.072
0.532                  -0.329439        -135.369         -55.0775        -37.7732         -55.0775        -37.7732       -0.0104031         149.004
0.533                  -0.331233        -135.863         -55.2286         -38.968         -55.2351        -38.9754       -0.0104805         148.936
0.534                  -0.333094        -136.361         -55.3676        -39.9976         -55.3805        -40.0035       -0.0105586         148.868
0.535                  -0.335029        -136.865         -55.4912        -40.8833         -55.5101        -40.8799       -0.0106375           148.8
0.536                  -0.337048        -137.373         -55.5971        -41.6483         -55.6214         -41.629       -0.0107171         148.732
0.537                  -0.339159        -137.886          -55.684        -42.3157         -55.7129        -42.2756       -0.0107975         148.664
0.538                  -0.341373        -138.405         -55.7511        -42.9081         -55.7837        -42.8437       -0.0108786         148.595
0.539                  -0.343698        -138.929         -55.7983         -43.446         -55.8337        -43.3555       -0.0109606         148.527
0.54                   -0.346147        -139.458         -55.8259        -43.9482         -55.8633        -43.8307       -0.0110433         148.458
0.541                  -0.348731        -139.993         -55.8347        -44.4306         -55.8734        -44.2863        -0.011127         148.389
0.542                   -0.35146        -140.534         -55.8257        -44.9068          -55.865        -44.7369       -0.0112115         148.321
0.543                  -0.354349         -141.08         -55.7999        -45.3881         -55.8392        -45.1941       -0.0112969         148.252
0.544                   -0.35741        -141.633         -55.7586        -45.8834         -55.7974        -45.6675       -0.0113832         148.183
0.545                  -0.360657        -142.191          -55.703        -46.3999         -55.7409        -46.1642       -0.0114704         148.113
0.546                  -0.364106        -142.756         -55.6343        -46.9428         -55.6709        -46.6898       -0.0115586         148.044
0.547                  -0.367772        -143.327         -55.5535        -47.5161         -55.5887        -47.2483       -0.0116478         147.975
0.548                  -0.371672        -143.904         -55.4618        -48.1226         -55.4954        -47.8423        -0.011738         147.905
0.549                  -0.375825        -144.488         -55.3601        -48.7641         -55.3919        -48.4734       -0.0118292         147.836
0.55                   -0.380247        -145.079         -55.2494        -49.4416         -55.2794        -49.1427       -0.0119215         147.766
0.551                  -0.384961        -145.677         -55.1303        -50.1555         -55.1585        -49.8503       -0.0120149         147.696
0.552                  -0.389987        -146.282         -55.0037        -50.9058         -55.0301        -50.5961       -0.0121093         147.626
0.553                  -0.395347        -146.894         -54.8702        -51.6922         -54.8947        -51.3796        -0.012205         147.556
0.554                  -0.401066        -147.514         -54.7303        -52.5141         -54.7531        -52.1999       -0.0123017         147.486
0.555                  -0.407169        -148.141         -54.5846        -53.3707         -54.6056        -53.0563       -0.0123997         147.415
0.556                  -0.413684        -148.776         -54.4334        -54.2611         -54.4528        -53.9476       -0.0124989         147.345
0.557                  -0.420639         -149.42         -54.2772        -55.1845         -54.2949        -54.8729       -0.0125994         147.274
0.558                  -0.428065        -150.071         -54.1163        -56.1398         -54.1325        -55.8309       -0.0127011         147.204
0.559                  -0.435995        -150.731         -53.9509        -57.1261         -53.9657        -56.8208       -0.0128042         147.133
0.56                   -0.444465          -151.4         -53.7815        -58.1425         -53.7949        -57.8413       -0.0129087         147.062
0.561                  -0.453511        -152.078         -53.6081        -59.1881         -53.6202        -58.8916       -0.0130145         146.991
0.562                  -0.463173        -152.765          -53.431         -60.262         -53.4419        -59.9708       -0.0131218          146.92
0.563                  -0.473495        -153.461         -53.2503        -61.3635         -53.2601        -61.0779       -0.0132305         146.848
0.564                  -0.484522        -154.166         -53.0663        -62.4919          -53.075        -62.2123       -0.0133408         146.777
0.565                  -0.496303        -154.882          -52.879        -63.6465         -52.8867        -63.3732       -0.0134526         146.705
0.566                   -0.50889        -155.608         -52.6886        -64.8267         -52.6953        -64.5599       -0.0135659         146.633
0.567                  -0.522339        -156.343         -52.4951        -66.0321          -52.501        -65.7721        -0.013681         146.561
0.568                  -0.536711         -157.09         -52.2988        -67.2622         -52.3038        -67.0091       -0.0137977         146.489
0.569                   -0.55207        -157.847         -52.0996        -68.5167         -52.1038        -68.2706       -0.0139161         146.417
0.57                   -0.568485        -158.616         -51.8977        -69.7952         -51.9012        -69.5563       -0.0140363         146.345
0.571                   -0.58603        -159.396         -51.6931        -71.0976         -51.6959         -70.866       -0.0141583         146.272
0.572                  -0.604785        -160.188          -51.486        -72.4238         -51.4881        -72.1994       -0.0142822           146.2
0.573                  -0.624836        -160.991         -51.2763        -73.7736         -51.2779        -73.5565        -0.014408         146.127
0.574                  -0.646276        -161.807         -51.0642         -75.147         -51.0652        -74.9373       -0.0145358         146.054
0.575                  -0.669202        -162.635         -50.8497         -76.544         -50.8502        -76.3418       -0.0146656         145.981
0.576                  -0.693722        -163.477         -50.6329        -77.9649         -50.6329          -77.77       -0.0147976         145.908
0.577                   -0.71995        -164.331         -50.4138        -79.4098         -50.4134        -79.2222       -0.0149317         145.834
0.578                  -0.748012        -165.199         -50.1926        -80.8789         -50.1918        -80.6986        -0.015068         145.761
0.579                  -0.778038         -166.08         -49.9694        -82.3724         -49.9682        -82.1994       -0.0152066         145.687
0.58                   -0.810175        -166.975         -49.7441        -83.8909         -49.7425        -83.7251       -0.0153476         145.613
0.581                  -0.844576        -167.884         -49.5169        -85.4345          -49.515        -85.2759        -0.015491         145.539
0.582                  -0.881408        -168.808         -49.2878        -87.0039         -49.2857        -86.8523       -0.0156369         145.465
0.583                  -0.920851        -169.746          -49.057        -88.5995         -49.0546        -88.4549       -0.0157853         145.391
0.584                    -0.9631        -170.699         -48.8246        -90.2218          -48.822        -90.0841       -0.0159365         145.316
0.585                   -1.00836        -171.666         -48.5906        -91.8714         -48.5878        -91.7406       -0.0160903         145.242
0.586                   -1.05687        -172.648         -48.3553         -93.549         -48.3523        -93.4249        -0.016247         145.167
0.587                   -1.10885        -173.645         -48.1186        -95.2552         -48.1155        -95.1378       -0.0164066         145.092
0.588                   -1.16458        -174.657         -47.8808        -96.9907         -47.8776        -96.8798       -0.0165692         145.017
0.589                   -1.22434        -175.683         -47.6421        -98.7562         -47.6387        -98.6518       -0.0167348         144.941
0.59                    -1.28843        -176.724         -47.4025        -100.553          -47.399        -100.454       -0.0169036         144.866
0.591                   -1.35717        -177.779         -47.1623         -102.38         -47.1587        -102.288       -0.0170757          144.79
0.592                   -1.43091        -178.847         -46.9216         -104.24         -46.9181        -104.154       -0.0172511         144.714
0.593                   -1.51004        -179.928         -46.6807        -106.133         -46.6771        -106.053         -0.01743         144.638
0.594                   -1.59494          178.98         -46.4398         -108.06         -46.4362        -107.986       -0.0176124         144.562
0.595                   -1.68604         177.876         -46.1991        -110.021         -46.1956        -109.952       -0.0177985         144.485
0.596                    -1.7838         176.763         -45.9589        -112.017         -45.9554        -111.954       -0.0179882         144.409
0.597                    -1.8887         175.643         -45.7195        -114.048         -45.7161        -113.991       -0.0181818         144.332
0.598                   -2.00124         174.517         -45.4812        -116.116         -45.4778        -116.063       -0.0183793         144.255
0.599                   -2.12196         173.387         -45.2442         -118.22          -45.241        -118.173       -0.0185808         144.178
0.6                     -2.25141         172.258         -45.0089        -120.362         -45.0058        -120.319       -0.0187863         144.101
0.601                   -2.39018         171.131         -44.7758         -122.54         -44.7728        -122.502        -0.018996         144.023
0.602                   -2.53886         170.012          -44.545        -124.756         -44.5422        -124.721       -0.0192099         143.945
0.603                   -2.69804         168.905          -44.317        -127.008         -44.3144        -126.978        -0.019428         143.867
0.604                   -2.86832         167.815         -44.0923        -129.297         -44.0899        -129.272       -0.0196505         143.789
0.605                   -3.05031          166.75         -43.8712        -131.623          -43.869        -131.601       -0.0198772         143.711
0.606                   -3.24455         165.716         -43.6541        -133.984         -43.6521        -133.966       -0.0201083         143.633
0.607                   -3.45157         164.723         -43.4415         -136.38         -43.4397        -136.365       -0.0203438         143.554
0.608                   -3.67179          163.78         -43.2337         -138.81         -43.2322        -138.797       -0.0205835         143.475
0.609                   -3.90556         162.898         -43.0313        -141.271           -43.03        -141.261       -0.0208276         143.396
0.61                    -4.15305         162.089         -42.8345        -143.763         -42.8335        -143.755        -0.021076         143.316
0.611                   -4.41424          161.37         -42.6438        -146.283         -42.6431        -146.278       -0.0213285         143.237
0.612                   -4.68886         160.753         -42.4597        -148.828         -42.4592        -148.825        -0.021585         143.157
0.613                    -4.9763         160.259         -42.2823        -151.398          -42.282        -151.396       -0.0218456         143.077
0.614                    -5.2755         159.903         -42.1121        -153.988         -42.1121        -153.988         -0.02211         142.997
0.615                   -5.58491         159.708         -41.9493        -156.595         -41.9495        -156.596       -0.0223781         142.917
0.616                   -5.90232         159.692         -41.7942        -159.217         -41.7947        -159.219       -0.0226497         142.836
0.617                   -6.22477         159.876          -41.647        -161.849         -41.6476        -161.853       -0.0229247         142.755
0.618                   -6.54845          160.28         -41.5078        -164.489         -41.5086        -164.493       -0.0232028         142.674
0.619                   -6.86859         160.919         -41.3767        -167.133         -41.3777        -167.137       -0.0234839         142.593
0.62                    -7.17951         161.804         -41.2538        -169.777          -41.255        -169.781       -0.0237678         142.512
0.621                   -7.47463          162.94          -41.139        -172.417         -41.1403        -172.421       -0.0240542          142.43
0.622                   -7.74671         164.323         -41.0323        -175.049         -41.0337        -175.054       -0.0243431         142.348
0.623                   -7.98823         165.935         -40.9336         -177.67         -40.9351        -177.675       -0.0246341         142.266
0.624                   -8.19195         167.746         -40.8426         179.723         -40.8442         179.719       -0.0249273         142.184
0.625                   -8.35152         169.715         -40.7592         177.134         -40.7608          177.13       -0.0252224         142.101
0.626                   -8.46221         171.786         -40.6831         174.566         -40.6847         174.563       -0.0255193         142.018
0.627                   -8.52146         173.899          -40.614         172.022         -40.6156         172.019        -0.025818         141.935
0.628                   -8.52916          175.99         -40.5515         169.505         -40.5531         169.502       -0.0261184         141.851
0.629                   -8.48766         177.997         -40.4953         167.017         -40.4968         167.014       -0.0264205         141.768
