! TOUCHSTONE file generated by CST MICROWAVE STUDIO
! Date and time: Sat Nov 14 20:02:44 2020
! Project name: Scenario_1_Planar_Body_Tissue_Out_of_Line.cst
! Parameters = {dy1=-190.3; L_HA=400; Ltissue=700; MT=2.54; Rad_Dielectric=30; Rad_Lower=7.3; Rad_Upper=30; Wtissue=700; a_HA=580; a_WG=246; b_HA=500; b_WG=121; c_HA=0; c_WG=187; d_feed=85; dx1=693; h_feed=15; h_lower=18; h_upper=40; hfat=3; hgap=25; hmuscle=50; hskin=1.5}
! Header version: 2018
! Port assignment regex: !\s*Touchstone port\s*([0-9]+)\s*=\s*(CST MWS port|CST DS port)\s*([0-9]+|Zmin|Zmax)\s*\(\"(.*)\"\)(\s*mode\s*([0-9]+))?.*
! Touchstone port assignment:
! Touchstone port 1 = CST MWS port 1 ("")
! Touchstone port 2 = CST MWS port 2 ("")
# GHz S DB R 50
0.5                    -0.188653        -121.635         -62.1441        -176.292         -62.1443         -176.29      -0.00776148         151.158
0.501                  -0.190588        -122.051         -62.0929        -178.323         -62.0944        -178.331      -0.00782475         151.093
0.502                  -0.192574        -122.469         -62.0401         179.665         -62.0427         179.647      -0.00788848         151.028
0.503                  -0.194615        -122.891         -61.9855         177.671         -61.9892         177.645      -0.00795269         150.963
0.504                  -0.196714        -123.315         -61.9292         175.697         -61.9338         175.663      -0.00801737         150.897
0.505                  -0.198874        -123.742          -61.871         173.741         -61.8766         173.701      -0.00808255         150.832
0.506                    -0.2011        -124.172          -61.811         171.804         -61.8173         171.759      -0.00814823         150.766
0.507                  -0.203395        -124.605          -61.749         169.886         -61.7561         169.836      -0.00821442         150.701
0.508                  -0.205763        -125.042         -61.6851         167.988         -61.6929         167.934      -0.00828113         150.635
0.509                  -0.208209        -125.481         -61.6192         166.108         -61.6275         166.051      -0.00834837         150.569
0.51                   -0.210738        -125.924         -61.5512         164.247           -61.56         164.187      -0.00841614         150.504
0.511                  -0.213354         -126.37         -61.4811         162.405         -61.4904         162.343      -0.00848447         150.438
0.512                  -0.216063        -126.819         -61.4088         160.582         -61.4185         160.518      -0.00855336         150.372
0.513                  -0.218871        -127.272         -61.3343         158.777         -61.3443         158.712      -0.00862281         150.306
0.514                  -0.221782        -127.728         -61.2575         156.991         -61.2678         156.925      -0.00869285          150.24
0.515                  -0.224804        -128.188         -61.1784         155.222         -61.1888         155.157      -0.00876348         150.173
0.516                  -0.227944        -128.652          -61.097         153.471         -61.1075         153.406      -0.00883472         150.107
0.517                  -0.231207        -129.119         -61.0131         151.737         -61.0237         151.673      -0.00890657         150.041
0.518                  -0.234603         -129.59         -60.9267         150.021         -60.9373         149.958      -0.00897906         149.974
0.519                  -0.238138        -130.065         -60.8378         148.321         -60.8484         148.259      -0.00905218         149.908
0.52                   -0.241822        -130.543         -60.7463         146.638         -60.7568         146.577      -0.00912596         149.841
0.521                  -0.245664        -131.026         -60.6521          144.97         -60.6626         144.912      -0.00920041         149.774
0.522                  -0.249673        -131.513         -60.5553         143.318         -60.5656         143.261      -0.00927554         149.707
0.523                   -0.25386        -132.004         -60.4556          141.68         -60.4657         141.626      -0.00935137          149.64
0.524                  -0.258236        -132.499         -60.3532         140.057         -60.3631         140.006      -0.00942791         149.573
0.525                  -0.262813        -132.999         -60.2478         138.448         -60.2575         138.399      -0.00950517         149.506
0.526                  -0.267603        -133.503         -60.1395         136.853         -60.1489         136.806      -0.00958318         149.439
0.527                   -0.27262        -134.012         -60.0282          135.27         -60.0373         135.226      -0.00966195         149.372
0.528                  -0.277879        -134.525         -59.9138         133.699         -59.9225         133.658      -0.00974149         149.304
0.529                  -0.283396        -135.043         -59.7963          132.14         -59.8047         132.101      -0.00982182         149.237
0.53                   -0.289187        -135.566         -59.6756         130.591         -59.6836         130.556      -0.00990296         149.169
0.531                   -0.29527        -136.094         -59.5516         129.053         -59.5592          129.02      -0.00998494         149.102
0.532                  -0.301665        -136.627         -59.4242         127.524         -59.4314         127.494       -0.0100678         149.034
0.533                  -0.308392        -137.165         -59.2935         126.003         -59.3002         125.976       -0.0101515         148.966
0.534                  -0.315473        -137.708         -59.1592          124.49         -59.1656         124.465        -0.010236         148.898
0.535                  -0.322934        -138.257         -59.0214         122.985         -59.0274         122.962       -0.0103215          148.83
0.536                  -0.330799        -138.812           -58.88         121.485         -58.8855         121.465        -0.010408         148.762
0.537                  -0.339098        -139.372         -58.7349          119.99           -58.74         119.972       -0.0104954         148.693
0.538                  -0.347859        -139.938         -58.5861         118.499         -58.5907         118.484       -0.0105837         148.625
0.539                  -0.357116         -140.51         -58.4334         117.012         -58.4376         116.998       -0.0106731         148.557
0.54                   -0.366904        -141.088         -58.2768         115.526         -58.2806         115.515       -0.0107636         148.488
0.541                   -0.37726        -141.672         -58.1163         114.041         -58.1196         114.032       -0.0108551         148.419
0.542                  -0.388227        -142.263         -57.9517         112.557         -57.9546         112.549       -0.0109477          148.35
0.543                  -0.399849         -142.86         -57.7831          111.07         -57.7855         111.064       -0.0110414         148.281
0.544                  -0.412173        -143.464         -57.6102         109.581         -57.6123         109.576       -0.0111363         148.212
0.545                  -0.425251        -144.074         -57.4332         108.088         -57.4348         108.084       -0.0112325         148.143
0.546                  -0.439142        -144.691         -57.2518         106.589         -57.2531         106.587       -0.0113298         148.074
0.547                  -0.453905        -145.315         -57.0662         105.084          -57.067         105.082       -0.0114285         148.005
0.548                  -0.469607        -145.947         -56.8761          103.57         -56.8766         103.569       -0.0115284         147.935
0.549                   -0.48632        -146.585         -56.6816         102.045         -56.6818         102.045       -0.0116298         147.866
0.55                   -0.504121        -147.231         -56.4826         100.509         -56.4825          100.51       -0.0117325         147.796
0.551                  -0.523096        -147.883         -56.2792         98.9596         -56.2787         98.9602       -0.0118367         147.726
0.552                  -0.543335        -148.543         -56.0712         97.3944         -56.0705         97.3953       -0.0119425         147.656
0.553                  -0.564938        -149.211         -55.8586         95.8118         -55.8577         95.8129       -0.0120498         147.586
0.554                   -0.58801        -149.886         -55.6416         94.2097         -55.6404         94.2109       -0.0121588         147.516
0.555                  -0.612668        -150.567           -55.42          92.586         -55.4187         92.5871       -0.0122695         147.446
0.556                  -0.639036        -151.256         -55.1939         90.9384         -55.1924         90.9393       -0.0123819         147.375
0.557                  -0.667247        -151.952         -54.9634         89.2645         -54.9617         89.2651       -0.0124962         147.305
0.558                  -0.697445        -152.655         -54.7285         87.5619         -54.7267         87.5622       -0.0126124         147.234
0.559                  -0.729784        -153.364         -54.4893          85.828         -54.4875          85.828       -0.0127306         147.163
0.56                   -0.764428        -154.078          -54.246         84.0602          -54.244         84.0599       -0.0128509         147.092
0.561                  -0.801549        -154.798         -53.9986         82.2558         -53.9966          82.255       -0.0129733         147.021
0.562                  -0.841331        -155.522         -53.7474         80.4119         -53.7454         80.4106       -0.0130979          146.95
0.563                  -0.883966         -156.25         -53.4925         78.5255         -53.4905         78.5238       -0.0132249         146.879
0.564                  -0.929651        -156.981         -53.2342         76.5938         -53.2323         76.5916       -0.0133543         146.807
0.565                  -0.978591        -157.713         -52.9729         74.6136          -52.971         74.6111       -0.0134862         146.736
0.566                   -1.03099        -158.444         -52.7088         72.5819          -52.707          72.579       -0.0136207         146.664
0.567                   -1.08705        -159.174         -52.4424         70.4957         -52.4408         70.4926       -0.0137579         146.592
0.568                   -1.14697        -159.899         -52.1741         68.3519         -52.1726         68.3486       -0.0138979          146.52
0.569                   -1.21092        -160.618         -51.9044         66.1477         -51.9032         66.1443       -0.0140407         146.448
0.57                    -1.27907        -161.327         -51.6341         63.8801          -51.633         63.8768       -0.0141865         146.376
0.571                   -1.35152        -162.024         -51.3636         61.5468         -51.3627         61.5436       -0.0143353         146.303
0.572                   -1.42835        -162.704         -51.0938         59.1452         -51.0931         59.1424       -0.0144871         146.231
0.573                   -1.50957        -163.363         -50.8254         56.6735         -50.8249         56.6712       -0.0146421         146.158
0.574                   -1.59509        -163.997         -50.5594         54.1302         -50.5592         54.1285       -0.0148002         146.085
0.575                   -1.68474        -164.601         -50.2967         51.5141         -50.2967         51.5133       -0.0149615         146.012
0.576                    -1.7782         -165.17         -50.0383         48.8251         -50.0385         48.8253        -0.015126         145.939
0.577                   -1.87501        -165.698         -49.7853         46.0635         -49.7857         46.0649       -0.0152935         145.866
0.578                   -1.97454        -166.181         -49.5388         43.2306         -49.5393         43.2332       -0.0154642         145.792
0.579                   -2.07599        -166.612         -49.2999         40.3285         -49.3005         40.3326       -0.0156379         145.719
0.58                    -2.17834        -166.989         -49.0697         37.3603         -49.0705          37.366       -0.0158144         145.645
0.581                    -2.2804        -167.307         -48.8493         34.3304         -48.8502         34.3378       -0.0159937         145.571
0.582                   -2.38078        -167.563         -48.6398          31.244         -48.6408         31.2532       -0.0161757         145.498
0.583                   -2.47796        -167.758         -48.4421         28.1075         -48.4431         28.1184       -0.0163601         145.423
0.584                   -2.57031        -167.892         -48.2571         24.9281         -48.2582         24.9407       -0.0165467         145.349
0.585                   -2.65619        -167.968         -48.0856          21.714         -48.0866         21.7284       -0.0167354         145.275
0.586                   -2.73401        -167.994         -47.9279         18.4741         -47.9288         18.4901       -0.0169259           145.2
0.587                   -2.80231        -167.975         -47.7846         15.2177         -47.7854         15.2352        -0.017118         145.126
0.588                   -2.85989        -167.923         -47.6557         11.9546         -47.6564         11.9734       -0.0173115         145.051
0.589                   -2.90587        -167.849         -47.5412         8.69441         -47.5417         8.71439       -0.0175063         144.976
0.59                    -2.93971        -167.766         -47.4409         5.44671         -47.4412         5.46764        -0.017702         144.901
0.591                   -2.96132        -167.686         -47.3543         2.22063         -47.3544         2.24226       -0.0178986         144.825
0.592                   -2.97097        -167.623         -47.2807        -0.97536         -47.2807       -0.953249        -0.018096          144.75
0.593                    -2.9693        -167.589         -47.2196        -4.13354         -47.2193        -4.11119       -0.0182939         144.674
0.594                   -2.95727        -167.594         -47.1699        -7.24715         -47.1694        -7.22479       -0.0184925         144.598
0.595                   -2.93607        -167.646         -47.1306        -10.3104         -47.1299        -10.2883       -0.0186915         144.522
0.596                   -2.90701        -167.752         -47.1007        -13.3186         -47.0999        -13.2969        -0.018891         144.446
0.597                    -2.8715        -167.917         -47.0792        -16.2681         -47.0781        -16.2469       -0.0190911          144.37
0.598                   -2.83094        -168.144         -47.0649        -19.1561         -47.0637        -19.1357       -0.0192917         144.293
0.599                   -2.78665        -168.434         -47.0567        -21.9811         -47.0553        -21.9616       -0.0194931         144.217
0.6                      -2.7399        -168.786         -47.0536        -24.7422         -47.0521        -24.7236       -0.0196951          144.14
0.601                   -2.69178          -169.2         -47.0545        -27.4393         -47.0529        -27.4218       -0.0198981         144.063
0.602                   -2.64329        -169.673         -47.0586         -30.073         -47.0569        -30.0567       -0.0201021         143.985
0.603                   -2.59526        -170.202         -47.0649        -32.6446         -47.0632        -32.6294       -0.0203073         143.908
0.604                   -2.54841        -170.785         -47.0726        -35.1558         -47.0708        -35.1417       -0.0205138          143.83
0.605                   -2.50331        -171.418         -47.0809        -37.6085         -47.0792        -37.5956       -0.0207218         143.752
0.606                   -2.46044        -172.099         -47.0893        -40.0051         -47.0875        -39.9934       -0.0209315         143.674
0.607                   -2.42017        -172.822          -47.097        -42.3482         -47.0953        -42.3377       -0.0211431         143.596
0.608                   -2.38278        -173.587         -47.1036        -44.6407         -47.1019        -44.6312       -0.0213567         143.517
0.609                    -2.3485         -174.39         -47.1086        -46.8852         -47.1069        -46.8767       -0.0215724         143.439
0.61                    -2.31749        -175.228         -47.1116        -49.0847         -47.1099        -49.0773       -0.0217905          143.36
0.611                   -2.28987        -176.099         -47.1122        -51.2422         -47.1106        -51.2357       -0.0220112         143.281
0.612                   -2.26573            -177         -47.1101        -53.3605         -47.1086        -53.3549       -0.0222344         143.201
0.613                   -2.24511        -177.931          -47.105        -55.4426         -47.1036        -55.4378       -0.0224605         143.122
0.614                   -2.22805        -178.889         -47.0968        -57.4913         -47.0955        -57.4872       -0.0226896         143.042
0.615                   -2.21458        -179.873         -47.0853        -59.5093          -47.084        -59.5059       -0.0229218         142.962
0.616                   -2.20472         179.119         -47.0703        -61.4994         -47.0691        -61.4966       -0.0231572         142.881
0.617                   -2.19847         178.087         -47.0518         -63.464         -47.0507        -63.4618       -0.0233959         142.801
0.618                   -2.19584         177.032         -47.0295        -65.4059         -47.0285        -65.4041       -0.0236382          142.72
0.619                   -2.19686         175.956         -47.0036        -67.3273         -47.0026        -67.3259       -0.0238841         142.639
0.62                    -2.20153         174.858         -46.9738        -69.2306          -46.973        -69.2296       -0.0241337         142.557
0.621                   -2.20988         173.739         -46.9403         -71.118         -46.9395        -71.1173       -0.0243872         142.476
0.622                   -2.22194           172.6          -46.903        -72.9917         -46.9023        -72.9913       -0.0246447         142.394
0.623                   -2.23776         171.441          -46.862        -74.8538         -46.8614        -74.8536       -0.0249062         142.312
0.624                   -2.25739         170.261         -46.8172        -76.7062         -46.8167        -76.7062       -0.0251719          142.23
0.625                   -2.28089         169.062         -46.7687        -78.5508         -46.7683         -78.551        -0.025442         142.147
0.626                   -2.30833         167.844         -46.7166        -80.3895         -46.7162        -80.3897       -0.0257164         142.064
0.627                   -2.33981         166.606          -46.661         -82.224         -46.6607        -82.2242       -0.0259953         141.981
0.628                   -2.37543         165.348         -46.6019        -84.0559         -46.6016        -84.0562       -0.0262789         141.898
0.629                    -2.4153          164.07         -46.5394        -85.8868         -46.5391        -85.8871       -0.0265671         141.814
