! TOUCHSTONE file generated by CST MICROWAVE STUDIO
! Date and time: Mon Nov 30 08:10:10 2020
! Project name: Scenario_1_Planar_Body_Tissue_Out_of_Line.cst
! Parameters = {dy1=190.3; L_HA=400; Ltissue=700; MT=2.54; Rad_Dielectric=30; Rad_Lower=7.3; Rad_Upper=30; Wtissue=700; a_HA=580; a_WG=246; b_HA=500; b_WG=121; c_HA=0; c_WG=187; d_feed=85; dx1=866; h_feed=15; h_lower=18; h_upper=40; hfat=3; hgap=25; hmuscle=50; hskin=1.5}
! Header version: 2018
! Port assignment regex: !\s*Touchstone port\s*([0-9]+)\s*=\s*(CST MWS port|CST DS port)\s*([0-9]+|Zmin|Zmax)\s*\(\"(.*)\"\)(\s*mode\s*([0-9]+))?.*
! Touchstone port assignment:
! Touchstone port 1 = CST MWS port 1 ("")
! Touchstone port 2 = CST MWS port 2 ("")
# GHz S DB R 50
0.5                    -0.112578         -122.12         -64.3171         96.6412          -64.316         96.6471      -0.00749869         151.158
0.501                  -0.118061        -122.522         -64.3492         95.0356         -64.3483         95.0283      -0.00756644         151.093
0.502                   -0.12357        -122.926         -64.3802         93.4029         -64.3794         93.3823      -0.00763482         151.028
0.503                  -0.129104        -123.333         -64.4099         91.7427         -64.4092         91.7085      -0.00770383         150.963
0.504                  -0.134666        -123.741         -64.4383         90.0544         -64.4376         90.0066      -0.00777349         150.897
0.505                  -0.140258        -124.152         -64.4651         88.3377         -64.4645         88.2761       -0.0078438         150.832
0.506                  -0.145882        -124.565         -64.4903         86.5922         -64.4896         86.5167      -0.00791476         150.766
0.507                  -0.151539        -124.981         -64.5136         84.8176         -64.5129         84.7281      -0.00798639         150.701
0.508                  -0.157232        -125.399         -64.5351         83.0134         -64.5342         82.9099      -0.00805869         150.635
0.509                  -0.162963         -125.82         -64.5544         81.1795         -64.5534         81.0619      -0.00813167         150.569
0.51                   -0.168733        -126.243         -64.5714         79.3156         -64.5702          79.184      -0.00820534         150.503
0.511                  -0.174546        -126.668         -64.5859         77.4216         -64.5845         77.2758      -0.00827971         150.437
0.512                  -0.180404        -127.096         -64.5979         75.4973         -64.5961         75.3375      -0.00835477         150.371
0.513                  -0.186308        -127.527          -64.607         73.5427         -64.6049         73.3689      -0.00843055         150.305
0.514                  -0.192262        -127.961         -64.6131         71.5578         -64.6106         71.3701      -0.00850705         150.239
0.515                  -0.198269        -128.397         -64.6161         69.5427          -64.613         69.3412      -0.00858428         150.173
0.516                  -0.204332        -128.836         -64.6156         67.4977          -64.612         67.2825      -0.00866225         150.107
0.517                  -0.210452        -129.277         -64.6115         65.4229         -64.6073         65.1942      -0.00874096          150.04
0.518                  -0.216635        -129.722         -64.6037         63.3187         -64.5988         63.0768      -0.00882043         149.974
0.519                  -0.222882        -130.169         -64.5919         61.1856         -64.5863         60.9307      -0.00890066         149.907
0.52                   -0.229198         -130.62         -64.5758         59.0241         -64.5695         58.7565      -0.00898166         149.841
0.521                  -0.235586        -131.073         -64.5554         56.8348         -64.5483         56.5549      -0.00906345         149.774
0.522                   -0.24205        -131.529         -64.5305         54.6186         -64.5224         54.3267      -0.00914603         149.707
0.523                  -0.248593        -131.989         -64.5007         52.3762         -64.4917         52.0727      -0.00922942          149.64
0.524                  -0.255221        -132.451          -64.466         50.1085         -64.4561          49.794      -0.00931362         149.573
0.525                  -0.261936        -132.917         -64.4262         47.8167         -64.4153         47.4916      -0.00939864         149.506
0.526                  -0.268745        -133.386         -64.3811         45.5018         -64.3691         45.1666       -0.0094845         149.439
0.527                  -0.275652        -133.858         -64.3306         43.1651         -64.3175         42.8204       -0.0095712         149.371
0.528                  -0.282662        -134.334         -64.2746         40.8078         -64.2604         40.4543      -0.00965876         149.304
0.529                   -0.28978        -134.813         -64.2128         38.4314         -64.1975         38.0696      -0.00974719         149.237
0.53                   -0.297012        -135.296         -64.1453         36.0373         -64.1288         35.6679       -0.0098365         149.169
0.531                  -0.304364        -135.782         -64.0719          33.627         -64.0543         33.2507       -0.0099267         149.101
0.532                  -0.311842        -136.272         -63.9926          31.202         -63.9738         30.8195       -0.0100178         149.034
0.533                  -0.319453        -136.765         -63.9073         28.7639         -63.8874         28.3758       -0.0101098         148.966
0.534                  -0.327203        -137.263         -63.8159         26.3143         -63.7949         25.9214       -0.0102028         148.898
0.535                    -0.3351        -137.764         -63.7186         23.8548         -63.6964         23.4579       -0.0102967          148.83
0.536                  -0.343151        -138.269         -63.6152          21.387          -63.592         20.9867       -0.0103915         148.762
0.537                  -0.351365        -138.778         -63.5058         18.9126         -63.4816         18.5095       -0.0104873         148.693
0.538                   -0.35975        -139.291         -63.3906         16.4329         -63.3653         16.0279       -0.0105841         148.625
0.539                  -0.368315        -139.808         -63.2694         13.9496         -63.2432         13.5433       -0.0106819         148.557
0.54                   -0.377069        -140.329         -63.1425         11.4641         -63.1154         11.0571       -0.0107807         148.488
0.541                  -0.386023        -140.855         -63.0099          8.9777          -62.982          8.5707       -0.0108805         148.419
0.542                  -0.395187        -141.385         -62.8718          6.4918         -62.8431          6.0854       -0.0109814         148.351
0.543                  -0.404573        -141.919         -62.7282         4.00758         -62.6989         3.60237       -0.0110833         148.282
0.544                  -0.414191        -142.459         -62.5794         1.52617         -62.5494         1.12271       -0.0111863         148.213
0.545                  -0.424055        -143.002         -62.4255       -0.951389          -62.395        -1.35258       -0.0112904         148.144
0.546                  -0.434178        -143.551         -62.2667        -3.42418         -62.2357        -3.82261       -0.0113955         148.074
0.547                  -0.444574        -144.104         -62.1031        -5.89138         -62.0718        -6.28659       -0.0115018         148.005
0.548                  -0.455257        -144.662          -61.935        -8.35227         -61.9034        -8.74383       -0.0116093         147.936
0.549                  -0.466244        -145.225         -61.7625        -10.8062         -61.7307        -11.1938       -0.0117178         147.866
0.55                   -0.477551        -145.794         -61.5859        -13.2528         -61.5539        -13.6359       -0.0118276         147.797
0.551                  -0.489197        -146.367         -61.4052        -15.6915         -61.3732        -16.0699       -0.0119385         147.727
0.552                  -0.501198        -146.946         -61.2208        -18.1222         -61.1889        -18.4955       -0.0120507         147.657
0.553                  -0.513577        -147.531         -61.0329        -20.5445          -61.001        -20.9125        -0.012164         147.587
0.554                  -0.526354        -148.121         -60.8415        -22.9584         -60.8099        -23.3208       -0.0122787         147.517
0.555                  -0.539551        -148.716          -60.647         -25.364         -60.6157        -25.7205       -0.0123945         147.447
0.556                  -0.553192        -149.318         -60.4495        -27.7611         -60.4186        -28.1116       -0.0125117         147.376
0.557                  -0.567304        -149.925         -60.2493        -30.1501         -60.2188        -30.4944       -0.0126302         147.306
0.558                  -0.581912        -150.539         -60.0464        -32.5312         -60.0164        -32.8691         -0.01275         147.235
0.559                  -0.597046        -151.158         -59.8412        -34.9046         -59.8117         -35.236       -0.0128711         147.165
0.56                   -0.612738        -151.784         -59.6337        -37.2708         -59.6049        -37.5954       -0.0129936         147.094
0.561                  -0.629018        -152.416         -59.4241          -39.63          -59.396        -39.9479       -0.0131175         147.023
0.562                  -0.645923        -153.055         -59.2127        -41.9829         -59.1853        -42.2938       -0.0132428         146.952
0.563                   -0.66349          -153.7         -58.9995          -44.33          -58.973        -44.6338       -0.0133696         146.881
0.564                  -0.681758        -154.352         -58.7848        -46.6718         -58.7591        -46.9684       -0.0134978         146.809
0.565                  -0.700769        -155.011         -58.5686        -49.0089         -58.5439        -49.2982       -0.0136275         146.738
0.566                   -0.72057        -155.677         -58.3513        -51.3419         -58.3274        -51.6239       -0.0137587         146.666
0.567                  -0.741207        -156.349         -58.1327        -53.6716         -58.1098        -53.9461       -0.0138915         146.594
0.568                  -0.762733        -157.029         -57.9132        -55.9986         -57.8913        -56.2656       -0.0140258         146.523
0.569                  -0.785202        -157.717         -57.6929        -58.3236          -57.672        -58.5829       -0.0141617         146.451
0.57                   -0.808673        -158.412         -57.4718        -60.6473          -57.452        -60.8989       -0.0142992         146.378
0.571                  -0.833209        -159.114         -57.2502        -62.9706         -57.2314        -63.2144       -0.0144384         146.306
0.572                  -0.858877        -159.824         -57.0281        -65.2941         -57.0103          -65.53       -0.0145792         146.234
0.573                  -0.885747        -160.541         -56.8056        -67.6186         -56.7889        -67.8465       -0.0147218         146.161
0.574                  -0.913896        -161.266          -56.583        -69.9449         -56.5673        -70.1647       -0.0148661         146.089
0.575                  -0.943404        -161.999         -56.3602        -72.2738         -56.3456        -72.4853       -0.0150121         146.016
0.576                  -0.974359        -162.739         -56.1374        -74.6059         -56.1239        -74.8092         -0.01516         145.943
0.577                   -1.00685        -163.487         -55.9148        -76.9421         -55.9023         -77.137       -0.0153097          145.87
0.578                   -1.04098        -164.243         -55.6923         -79.283         -55.6809        -79.4696       -0.0154612         145.796
0.579                   -1.07685        -165.006         -55.4703        -81.6296         -55.4598        -81.8076       -0.0156147         145.723
0.58                    -1.11458        -165.777         -55.2487        -83.9824         -55.2392        -84.1519       -0.0157701         145.649
0.581                   -1.15427        -166.555         -55.0276        -86.3422         -55.0191        -86.5031       -0.0159274         145.575
0.582                   -1.19606         -167.34         -54.8073        -88.7097         -54.7997        -88.8619       -0.0160868         145.502
0.583                   -1.24007        -168.131         -54.5877        -91.0856          -54.581        -91.2291       -0.0162482         145.427
0.584                   -1.28644         -168.93         -54.3691        -93.4705         -54.3632        -93.6052       -0.0164117         145.353
0.585                   -1.33533        -169.734         -54.1515        -95.8651         -54.1464         -95.991       -0.0165773         145.279
0.586                   -1.38688        -170.543          -53.935        -98.2699         -53.9307        -98.3871        -0.016745         145.204
0.587                   -1.44125        -171.358         -53.7198        -100.686         -53.7163        -100.794        -0.016915          145.13
0.588                    -1.4986        -172.177          -53.506        -103.113         -53.5031        -103.212       -0.0170872         145.055
0.589                   -1.55911        -172.999         -53.2938        -105.552         -53.2915        -105.643       -0.0172617          144.98
0.59                    -1.62295        -173.823         -53.0832        -108.003         -53.0814        -108.085       -0.0174385         144.904
0.591                    -1.6903        -174.648         -52.8744        -110.467         -52.8731        -110.541       -0.0176177         144.829
0.592                   -1.76134        -175.473         -52.6675        -112.944         -52.6666        -113.009       -0.0177993         144.754
0.593                   -1.83623        -176.296         -52.4627        -115.435         -52.4622        -115.492       -0.0179834         144.678
0.594                   -1.91515        -177.115         -52.2601        -117.939         -52.2599        -117.988         -0.01817         144.602
0.595                   -1.99825        -177.929         -52.0599        -120.457         -52.0599        -120.498       -0.0183591         144.526
0.596                   -2.08569        -178.734         -51.8621        -122.989         -51.8623        -123.023       -0.0185509          144.45
0.597                   -2.17759        -179.529         -51.6671        -125.535         -51.6673        -125.561       -0.0187453         144.373
0.598                   -2.27404         179.689         -51.4748        -128.095          -51.475        -128.114       -0.0189424         144.296
0.599                   -2.37511         178.925         -51.2855        -130.669         -51.2857        -130.682       -0.0191423          144.22
0.6                     -2.48081          178.18         -51.0992        -133.257         -51.0994        -133.263        -0.019345         144.143
0.601                    -2.5911          177.46         -50.9163        -135.858         -50.9163        -135.858       -0.0195505         144.065
0.602                   -2.70587         176.767         -50.7368        -138.472         -50.7366        -138.467       -0.0197589         143.988
0.603                   -2.82493         176.107         -50.5608        -141.099         -50.5604        -141.089       -0.0199703          143.91
0.604                   -2.94799         175.484         -50.3885        -143.738         -50.3878        -143.723       -0.0201847         143.833
0.605                   -3.07466         174.903         -50.2201        -146.389         -50.2191        -146.369       -0.0204022         143.755
0.606                   -3.20441         174.368         -50.0557         -149.05         -50.0543        -149.027       -0.0206227         143.676
0.607                   -3.33658         173.884         -49.8954        -151.721         -49.8936        -151.695       -0.0208464         143.598
0.608                   -3.47037         173.455         -49.7393          -154.4         -49.7372        -154.372       -0.0210732         143.519
0.609                   -3.60483         173.085         -49.5876        -157.088          -49.585        -157.058       -0.0213033         143.441
0.61                    -3.73885         172.777         -49.4404        -159.782         -49.4374         -159.75       -0.0215367         143.362
0.611                   -3.87117         172.533         -49.2976        -162.482         -49.2942        -162.449       -0.0217734         143.282
0.612                   -4.00044         172.355         -49.1595        -165.186         -49.1557        -165.153       -0.0220134         143.203
0.613                   -4.12517         172.241         -49.0261        -167.893         -49.0219         -167.86       -0.0222567         143.123
0.614                   -4.24385          172.19         -48.8973        -170.602         -48.8928        -170.568       -0.0225034         143.043
0.615                   -4.35495         172.197         -48.7733         -173.31         -48.7685        -173.277       -0.0227536         142.963
0.616                     -4.457         172.257          -48.654        -176.016         -48.6489        -175.985       -0.0230071         142.883
0.617                   -4.54863         172.363         -48.5395        -178.719         -48.5341         -178.69       -0.0232641         142.802
0.618                   -4.62869         172.504         -48.4296         178.582         -48.4241          178.61       -0.0235244         142.722
0.619                   -4.69624          172.67         -48.3244          175.89         -48.3187         175.916       -0.0237882         142.641
0.62                    -4.75066         172.849         -48.2236         173.207         -48.2178          173.23       -0.0240554         142.559
0.621                   -4.79164         173.028         -48.1274         170.533         -48.1215         170.554        -0.024326         142.478
0.622                   -4.81921         173.195         -48.0354          167.87         -48.0296         167.889          -0.0246         142.396
0.623                   -4.83374         173.337         -47.9476          165.22         -47.9418         165.236       -0.0248774         142.314
0.624                   -4.83591         173.442         -47.8638         162.585         -47.8582         162.598       -0.0251581         142.232
0.625                   -4.82664         173.501         -47.7839         159.965         -47.7783         159.976       -0.0254422          142.15
0.626                   -4.80709         173.504         -47.7075         157.362         -47.7022         157.371       -0.0257295         142.067
0.627                   -4.77853         173.444         -47.6345         154.777         -47.6294         154.784       -0.0260202         141.984
0.628                   -4.74236         173.315         -47.5647         152.212         -47.5599         152.216       -0.0263143         141.901
0.629                   -4.69997         173.113         -47.4978         149.667         -47.4932         149.669       -0.0266116         141.817
