! TOUCHSTONE file generated by CST MICROWAVE STUDIO
! Date and time: Sat Nov 14 20:02:52 2020
! Project name: Scenario_1_Planar_Body_Tissue_Out_of_Line.cst
! Parameters = {dy1=-207.6; L_HA=400; Ltissue=700; MT=2.54; Rad_Dielectric=30; Rad_Lower=7.3; Rad_Upper=30; Wtissue=700; a_HA=580; a_WG=246; b_HA=500; b_WG=121; c_HA=0; c_WG=187; d_feed=85; dx1=693; h_feed=15; h_lower=18; h_upper=40; hfat=3; hgap=25; hmuscle=50; hskin=1.5}
! Header version: 2018
! Port assignment regex: !\s*Touchstone port\s*([0-9]+)\s*=\s*(CST MWS port|CST DS port)\s*([0-9]+|Zmin|Zmax)\s*\(\"(.*)\"\)(\s*mode\s*([0-9]+))?.*
! Touchstone port assignment:
! Touchstone port 1 = CST MWS port 1 ("")
! Touchstone port 2 = CST MWS port 2 ("")
# GHz S DB R 50
0.5                    -0.186356         -121.63         -62.3062        -177.687         -62.3057        -177.688      -0.00777256         151.155
0.501                  -0.188929        -122.047         -62.2431        -179.426         -62.2425        -179.427      -0.00783189          151.09
0.502                  -0.191533        -122.465         -62.1781         178.824         -62.1775         178.823      -0.00789198         151.024
0.503                  -0.194172        -122.887         -62.1112         177.063         -62.1105         177.063      -0.00795286         150.959
0.504                  -0.196848        -123.311         -62.0425         175.293         -62.0417         175.293      -0.00801452         150.894
0.505                  -0.199564        -123.738         -61.9718         173.513         -61.9709         173.513      -0.00807698         150.828
0.506                  -0.202324        -124.168         -61.8992         171.725         -61.8983         171.725      -0.00814022         150.763
0.507                  -0.205131          -124.6         -61.8248         169.929         -61.8238         169.929      -0.00820427         150.697
0.508                  -0.207989        -125.036         -61.7484         168.125         -61.7475         168.125      -0.00826911         150.631
0.509                  -0.210901        -125.474         -61.6703         166.314         -61.6692         166.314      -0.00833476         150.566
0.51                   -0.213873        -125.916         -61.5903         164.496         -61.5892         164.496      -0.00840122           150.5
0.511                  -0.216908        -126.361         -61.5084         162.673         -61.5073         162.673      -0.00846848         150.434
0.512                  -0.220012        -126.809         -61.4248         160.845         -61.4237         160.845      -0.00853657         150.368
0.513                   -0.22319         -127.26         -61.3394         159.013         -61.3382         159.013      -0.00860547         150.302
0.514                  -0.226447        -127.715         -61.2522         157.176          -61.251         157.177      -0.00867519         150.236
0.515                  -0.229789        -128.173         -61.1632         155.337         -61.1621         155.337      -0.00874573         150.169
0.516                  -0.233223        -128.635         -61.0726         153.495         -61.0714         153.496       -0.0088171         150.103
0.517                  -0.236755          -129.1         -60.9803         151.652         -60.9791         151.653      -0.00888929         150.037
0.518                  -0.240393        -129.569         -60.8863         149.808         -60.8851         149.809      -0.00896231          149.97
0.519                  -0.244145        -130.041         -60.7906         147.964         -60.7895         147.965      -0.00903616         149.904
0.52                   -0.248018        -130.518         -60.6933         146.121         -60.6922         146.121      -0.00911083         149.837
0.521                  -0.252023        -130.998         -60.5944         144.279         -60.5933         144.279      -0.00918633          149.77
0.522                  -0.256168        -131.483         -60.4938         142.439         -60.4928         142.439      -0.00926265         149.703
0.523                  -0.260463        -131.971         -60.3917         140.602         -60.3907         140.602      -0.00933979         149.636
0.524                  -0.264921        -132.464          -60.288         138.769         -60.2871         138.769      -0.00941775         149.569
0.525                  -0.269552        -132.961         -60.1827          136.94         -60.1818          136.94      -0.00949653         149.502
0.526                   -0.27437        -133.462         -60.0759         135.117          -60.075         135.117      -0.00957611         149.435
0.527                  -0.279388        -133.968         -59.9674           133.3         -59.9666         133.299      -0.00965649         149.368
0.528                   -0.28462        -134.479         -59.8573         131.489         -59.8566         131.489      -0.00973767           149.3
0.529                  -0.290084        -134.994         -59.7456         129.686          -59.745         129.685      -0.00981963         149.233
0.53                   -0.295795        -135.514         -59.6322         127.891         -59.6317         127.891      -0.00990236         149.165
0.531                  -0.301772         -136.04         -59.5172         126.105         -59.5167         126.105      -0.00998584         149.097
0.532                  -0.308035         -136.57         -59.4003         124.329         -59.3999         124.328       -0.0100701          149.03
0.533                  -0.314605        -137.105         -59.2817         122.563         -59.2814         122.563        -0.010155         148.962
0.534                  -0.321505        -137.646         -59.1611         120.808         -59.1609         120.808       -0.0102407         148.894
0.535                  -0.328759        -138.192         -59.0386         119.065         -59.0385         119.064        -0.010327         148.826
0.536                  -0.336396        -138.744          -58.914         117.334          -58.914         117.333        -0.010414         148.758
0.537                  -0.344442        -139.302         -58.7872         115.615         -58.7873         115.614       -0.0105016         148.689
0.538                  -0.352931        -139.865         -58.6582         113.909         -58.6583         113.909       -0.0105898         148.621
0.539                  -0.361894        -140.435         -58.5267         112.217         -58.5269         112.217       -0.0106785         148.553
0.54                   -0.371369        -141.011         -58.3926         110.538         -58.3929         110.538       -0.0107678         148.484
0.541                  -0.381396        -141.592         -58.2557         108.873         -58.2562         108.873       -0.0108575         148.415
0.542                  -0.392017        -142.181         -58.1159         107.222         -58.1165         107.223       -0.0109476         148.346
0.543                  -0.403277        -142.776          -57.973         105.585         -57.9736         105.586       -0.0110382         148.278
0.544                  -0.415229        -143.377         -57.8267         103.961         -57.8274         103.963        -0.011129         148.209
0.545                  -0.427924        -143.986         -57.6768         102.351         -57.6776         102.353       -0.0112202         148.139
0.546                  -0.441423        -144.601         -57.5231         100.754          -57.524         100.756       -0.0113116          148.07
0.547                   -0.45579        -145.224         -57.3653         99.1686         -57.3663          99.171       -0.0114033         148.001
0.548                  -0.471092        -145.853         -57.2033         97.5947         -57.2043         97.5976       -0.0114952         147.931
0.549                  -0.487405         -146.49         -57.0365          96.031         -57.0376         96.0344       -0.0115873         147.862
0.55                   -0.504809        -147.134         -56.8649         94.4762         -56.8661         94.4801       -0.0116797         147.792
0.551                  -0.523393        -147.786         -56.6882         92.9287         -56.6893         92.9331       -0.0117725         147.722
0.552                  -0.543251        -148.445         -56.5059         91.3866         -56.5071         91.3916       -0.0118659         147.652
0.553                  -0.564484        -149.111         -56.3179         89.8478         -56.3191         89.8533       -0.0119601         147.582
0.554                  -0.587204        -149.785         -56.1239         88.3097         -56.1251         88.3157       -0.0120554         147.512
0.555                  -0.611529        -150.466         -55.9235         86.7696         -55.9247         86.7761       -0.0121523         147.442
0.556                  -0.637586        -151.154         -55.7166         85.2243         -55.7178         85.2313       -0.0122514         147.371
0.557                  -0.665513        -151.848         -55.5029         83.6703         -55.5041         83.6778       -0.0123533           147.3
0.558                  -0.695455         -152.55         -55.2823         82.1038         -55.2833         82.1116       -0.0124588          147.23
0.559                  -0.727568        -153.257         -55.0544         80.5204         -55.0554         80.5285       -0.0125687         147.159
0.56                   -0.762016         -153.97         -54.8193         78.9156         -54.8203          78.924       -0.0126837         147.088
0.561                  -0.798973        -154.688         -54.5769         77.2844         -54.5778         77.2929       -0.0128046         147.016
0.562                   -0.83862         -155.41         -54.3271         75.6214         -54.3279           75.63        -0.012932         146.945
0.563                  -0.881145        -156.136         -54.0702          73.921         -54.0709         73.9296       -0.0130659         146.874
0.564                  -0.926739        -156.863         -53.8061         72.1774         -53.8067         72.1858       -0.0132064         146.802
0.565                  -0.975596        -157.591         -53.5353         70.3843         -53.5358         70.3925       -0.0133532          146.73
0.566                   -1.02791        -158.318         -53.2581         68.5354         -53.2585         68.5432       -0.0135056         146.658
0.567                   -1.08386        -159.043          -52.975         66.6243         -52.9753         66.6316       -0.0136629         146.586
0.568                   -1.14362        -159.762         -52.6866         64.6446         -52.6868         64.6514       -0.0138241         146.514
0.569                   -1.20734        -160.473         -52.3937         62.5901         -52.3938         62.5961       -0.0139885         146.442
0.57                    -1.27513        -161.173         -52.0973         60.4546         -52.0973         60.4598       -0.0141551          146.37
0.571                   -1.34708         -161.86         -51.7984         58.2326         -51.7984          58.237       -0.0143234         146.298
0.572                   -1.42319        -162.529         -51.4982         55.9192         -51.4982         55.9226       -0.0144928         146.225
0.573                   -1.50342        -163.176         -51.1983         53.5101         -51.1982         53.5124       -0.0146628         146.152
0.574                   -1.58762        -163.796            -50.9          51.002            -50.9         51.0033       -0.0148333          146.08
0.575                   -1.67554        -164.386         -50.6051         48.3932         -50.6051         48.3934        -0.015004         146.007
0.576                   -1.76679        -164.941         -50.3153          45.683         -50.3154         45.6821        -0.015175         145.934
0.577                   -1.86086        -165.455         -50.0326         42.8726         -50.0327         42.8707       -0.0153462         145.861
0.578                   -1.95706        -165.925         -49.7587         39.9649         -49.7589         39.9622       -0.0155176         145.787
0.579                   -2.05455        -166.345         -49.4955         36.9649         -49.4958         36.9614       -0.0156894         145.714
0.58                    -2.15232        -166.713         -49.2447         33.8795         -49.2452         33.8753       -0.0158617          145.64
0.581                   -2.24918        -167.026         -49.0082         30.7173         -49.0088         30.7126       -0.0160345         145.566
0.582                   -2.34383        -167.283         -48.7871         27.4889         -48.7879          27.484       -0.0162081         145.493
0.583                   -2.43488        -167.484         -48.5828         24.2066         -48.5838         24.2015       -0.0163825         145.418
0.584                   -2.52088        -167.632         -48.3962         20.8835         -48.3973         20.8784       -0.0165578         145.344
0.585                   -2.60041         -167.73         -48.2277         17.5337          -48.229         17.5289       -0.0167342          145.27
0.586                   -2.67213        -167.785         -48.0777         14.1717          -48.079         14.1672       -0.0169117         145.195
0.587                   -2.73488        -167.804         -47.9458         10.8116         -47.9473         10.8076       -0.0170906         145.121
0.588                   -2.78774        -167.797         -47.8317         7.46708         -47.8333         7.46367       -0.0172708         145.046
0.589                   -2.83006        -167.774         -47.7346         4.15067         -47.7362         4.14795       -0.0174525         144.971
0.59                    -2.86152        -167.746         -47.6533        0.873628          -47.655        0.871637       -0.0176357         144.895
0.591                   -2.88214        -167.725         -47.5868        -2.35438         -47.5885        -2.35561       -0.0178205          144.82
0.592                   -2.89225        -167.722         -47.5335        -5.52536         -47.5352        -5.52583       -0.0180071         144.745
0.593                   -2.89248        -167.745         -47.4921        -8.63305         -47.4938        -8.63279       -0.0181954         144.669
0.594                   -2.88368        -167.805          -47.461        -11.6729         -47.4627        -11.6719       -0.0183856         144.593
0.595                   -2.86687        -167.907         -47.4388        -14.6418         -47.4404        -14.6402       -0.0185776         144.517
0.596                   -2.84319        -168.058          -47.424        -17.5382         -47.4256         -17.536       -0.0187716          144.44
0.597                   -2.81382        -168.262         -47.4153        -20.3616         -47.4168         -20.359       -0.0189677         144.364
0.598                   -2.77993         -168.52         -47.4113        -23.1128         -47.4128        -23.1097       -0.0191657         144.287
0.599                   -2.74265        -168.834          -47.411        -25.7932         -47.4124        -25.7898       -0.0193659         144.211
0.6                     -2.70304        -169.204         -47.4133        -28.4049         -47.4145        -28.4012       -0.0195683         144.134
0.601                   -2.66206        -169.629         -47.4171        -30.9507         -47.4183        -30.9468       -0.0197729         144.056
0.602                   -2.62054        -170.107         -47.4218        -33.4335         -47.4229        -33.4295       -0.0199797         143.979
0.603                   -2.57922        -170.637         -47.4265        -35.8567         -47.4275        -35.8525       -0.0201889         143.901
0.604                   -2.53874        -171.215         -47.4306        -38.2236         -47.4315        -38.2195       -0.0204004         143.823
0.605                   -2.49962        -171.841         -47.4336        -40.5378         -47.4345        -40.5337       -0.0206143         143.745
0.606                   -2.46231        -172.509          -47.435        -42.8029         -47.4358        -42.7988       -0.0208307         143.667
0.607                   -2.42714        -173.219         -47.4345        -45.0222         -47.4352        -45.0183       -0.0210496         143.589
0.608                   -2.39443        -173.968         -47.4316        -47.1992         -47.4322        -47.1954        -0.021271          143.51
0.609                   -2.36439        -174.753         -47.4262        -49.3371         -47.4267        -49.3335        -0.021495         143.431
0.61                     -2.3372        -175.573         -47.4179        -51.4393         -47.4184        -51.4358       -0.0217217         143.352
0.611                   -2.31301        -176.424         -47.4067        -53.5085         -47.4072        -53.5053       -0.0219511         143.273
0.612                   -2.29192        -177.306         -47.3924        -55.5479         -47.3928        -55.5449       -0.0221832         143.193
0.613                   -2.27401        -178.217         -47.3748        -57.5601         -47.3752        -57.5573       -0.0224182         143.114
0.614                   -2.25936        -179.155          -47.354        -59.5477         -47.3543        -59.5452        -0.022656         143.034
0.615                   -2.24802         179.881         -47.3298        -61.5133         -47.3301         -61.511       -0.0228968         142.954
0.616                   -2.24003         178.893         -47.3022        -63.4592         -47.3025        -63.4571       -0.0231406         142.873
0.617                   -2.23542          177.88         -47.2713        -65.3876         -47.2714        -65.3857       -0.0233875         142.793
0.618                   -2.23425         176.844         -47.2369        -67.3006          -47.237         -67.299       -0.0236376         142.712
0.619                   -2.23653         175.786         -47.1991        -69.2002         -47.1992        -69.1988       -0.0238908         142.631
0.62                    -2.24233         174.706          -47.158        -71.0883         -47.1581        -71.0871       -0.0241475         142.549
0.621                   -2.25168         173.604         -47.1135        -72.9667         -47.1136        -72.9657       -0.0244075         142.468
0.622                   -2.26463         172.482         -47.0657        -74.8371         -47.0658        -74.8363       -0.0246711         142.386
0.623                   -2.28126         171.339         -47.0148        -76.7011         -47.0148        -76.7005       -0.0249383         142.304
0.624                   -2.30161         170.175         -46.9606        -78.5602         -46.9606        -78.5598       -0.0252092         142.221
0.625                   -2.32578         168.992         -46.9033         -80.416         -46.9034        -80.4157        -0.025484         142.139
0.626                   -2.35386         167.788          -46.843        -82.2698          -46.843        -82.2697       -0.0257627         142.056
0.627                   -2.38594         166.565         -46.7797        -84.1229         -46.7798        -84.1229       -0.0260456         141.973
0.628                   -2.42214         165.321         -46.7136        -85.9767         -46.7136        -85.9768       -0.0263327         141.889
0.629                   -2.46259         164.057         -46.6447        -87.8323         -46.6447        -87.8326       -0.0266242         141.805
