! TOUCHSTONE file generated by CST MICROWAVE STUDIO
! Date and time: Mon Nov 30 08:10:00 2020
! Project name: Scenario_1_Planar_Body_Tissue_Out_of_Line.cst
! Parameters = {dy1=207.6; L_HA=400; Ltissue=700; MT=2.54; Rad_Dielectric=30; Rad_Lower=7.3; Rad_Upper=30; Wtissue=700; a_HA=580; a_WG=246; b_HA=500; b_WG=121; c_HA=0; c_WG=187; d_feed=85; dx1=866; h_feed=15; h_lower=18; h_upper=40; hfat=3; hgap=25; hmuscle=50; hskin=1.5}
! Header version: 2018
! Port assignment regex: !\s*Touchstone port\s*([0-9]+)\s*=\s*(CST MWS port|CST DS port)\s*([0-9]+|Zmin|Zmax)\s*\(\"(.*)\"\)(\s*mode\s*([0-9]+))?.*
! Touchstone port assignment:
! Touchstone port 1 = CST MWS port 1 ("")
! Touchstone port 2 = CST MWS port 2 ("")
# GHz S DB R 50
0.5                    -0.114647        -122.126         -64.4291         94.7247         -64.4285         94.7294      -0.00751044         151.154
0.501                  -0.123381        -122.578         -64.1642         93.0037         -64.1637           93.01      -0.00758674         151.089
0.502                  -0.132391        -123.032         -63.8966         91.2361         -63.8962         91.2438      -0.00766375         151.024
0.503                  -0.141692        -123.488         -63.6265         89.4199         -63.6261          89.429      -0.00774149         150.958
0.504                  -0.151302        -123.946         -63.3541          87.553         -63.3538         87.5634      -0.00781994         150.893
0.505                  -0.161236        -124.407         -63.0797         85.6334         -63.0793         85.6449      -0.00789912         150.827
0.506                  -0.171515        -124.869         -62.8034          83.659          -62.803         83.6715      -0.00797903         150.762
0.507                  -0.182156        -125.333         -62.5256         81.6277         -62.5253          81.641      -0.00805967         150.696
0.508                  -0.193182          -125.8         -62.2467         79.5373         -62.2463         79.5513      -0.00814104          150.63
0.509                  -0.204615        -126.268          -61.967         77.3857         -61.9667         77.4003      -0.00822315         150.564
0.51                   -0.216479        -126.739         -61.6871         75.1711         -61.6867         75.1861      -0.00830599         150.499
0.511                  -0.228799        -127.211         -61.4073         72.8915          -61.407         72.9067      -0.00838958         150.433
0.512                  -0.241602        -127.685         -61.1284         70.5452          -61.128         70.5605      -0.00847391         150.367
0.513                  -0.254916         -128.16         -60.8509         68.1308         -60.8504         68.1461      -0.00855899           150.3
0.514                  -0.268772        -128.637         -60.5754          65.647         -60.5749         65.6621      -0.00864482         150.234
0.515                  -0.283199        -129.116         -60.3028         63.0931         -60.3022         63.1077      -0.00873139         150.168
0.516                  -0.298229        -129.595         -60.0337         60.4686         -60.0331         60.4826      -0.00881872         150.102
0.517                  -0.313895        -130.075         -59.7691         57.7736         -59.7685         57.7869       -0.0089068         150.035
0.518                  -0.330228        -130.556         -59.5098         55.0088         -59.5092         55.0211      -0.00899564         149.969
0.519                   -0.34726        -131.038         -59.2568         52.1754         -59.2561         52.1867      -0.00908523         149.902
0.52                   -0.365021        -131.519         -59.0108         49.2756         -59.0102         49.2857      -0.00917559         149.835
0.521                  -0.383539        -131.999          -58.773         46.3122         -58.7724         46.3209       -0.0092667         149.768
0.522                  -0.402834        -132.478         -58.5442         43.2888         -58.5436         43.2959      -0.00935857         149.702
0.523                  -0.422925        -132.956         -58.3253         40.2098         -58.3247         40.2154       -0.0094512         149.635
0.524                  -0.443818        -133.431         -58.1171         37.0808         -58.1166         37.0847      -0.00954459         149.568
0.525                  -0.465508        -133.903         -57.9204         33.9077           -57.92         33.9099      -0.00963874           149.5
0.526                  -0.487977        -134.371         -57.7359         30.6975         -57.7356          30.698      -0.00973365         149.433
0.527                  -0.511182        -134.834          -57.564         27.4577         -57.5639         27.4565      -0.00982931         149.366
0.528                   -0.53506         -135.29         -57.4051         24.1964         -57.4052         24.1936      -0.00992573         149.299
0.529                  -0.559515         -135.74         -57.2596         20.9219         -57.2598         20.9175       -0.0100229         149.231
0.53                   -0.584415        -136.182         -57.1274          17.643         -57.1279         17.6371       -0.0101208         149.163
0.531                  -0.609586        -136.614         -57.0085         14.3681         -57.0092         14.3609       -0.0102195         149.096
0.532                  -0.634809        -137.036         -56.9026         11.1058         -56.9035         11.0973       -0.0103189         149.028
0.533                  -0.659815        -137.447         -56.8093           7.864         -56.8105         7.85452       -0.0104191          148.96
0.534                  -0.684281        -137.846          -56.728         4.65041         -56.7296         4.64007       -0.0105199         148.892
0.535                  -0.707842        -138.233         -56.6581         1.47193           -56.66          1.4609       -0.0106215         148.824
0.536                   -0.73009        -138.609         -56.5989        -1.66527          -56.601         -1.6768       -0.0107239         148.756
0.537                  -0.750597        -138.973         -56.5493         -4.7558         -56.5517        -4.76765       -0.0108269         148.688
0.538                   -0.76893        -139.328         -56.5086        -7.79515         -56.5113        -7.80715       -0.0109306         148.619
0.539                  -0.784681        -139.676         -56.4757        -10.7797         -56.4786        -10.7916        -0.011035         148.551
0.54                   -0.797497        -140.019         -56.4497        -13.7065         -56.4529        -13.7183       -0.0111401         148.482
0.541                  -0.807111        -140.361         -56.4296        -16.5737          -56.433        -16.5852       -0.0112459         148.414
0.542                  -0.813372        -140.706         -56.4145        -19.3799         -56.4181        -19.3909       -0.0113523         148.345
0.543                   -0.81626        -141.058         -56.4033        -22.1246         -56.4071        -22.1351       -0.0114594         148.276
0.544                  -0.815899        -141.421         -56.3953        -24.8077         -56.3993        -24.8176       -0.0115671         148.207
0.545                  -0.812551          -141.8         -56.3896        -27.4299         -56.3937        -27.4391       -0.0116754         148.138
0.546                  -0.806593        -142.197         -56.3854        -29.9921         -56.3896        -30.0005       -0.0117843         148.069
0.547                  -0.798498        -142.615          -56.382        -32.4956         -56.3863        -32.5032       -0.0118938             148
0.548                  -0.788788        -143.056         -56.3787        -34.9422         -56.3831         -34.949       -0.0120038          147.93
0.549                  -0.778011        -143.521         -56.3749        -37.3338         -56.3794        -37.3396       -0.0121144         147.861
0.55                   -0.766699        -144.011           -56.37        -39.6724         -56.3746        -39.6774       -0.0122255         147.791
0.551                  -0.755349        -144.524         -56.3636        -41.9604         -56.3682        -41.9644       -0.0123372         147.722
0.552                  -0.744401        -145.061         -56.3552           -44.2         -56.3598        -44.2032       -0.0124493         147.652
0.553                  -0.734228         -145.62         -56.3444        -46.3937          -56.349         -46.396       -0.0125619         147.582
0.554                  -0.725136          -146.2         -56.3309        -48.5439         -56.3354        -48.5454       -0.0126749         147.512
0.555                  -0.717365        -146.798         -56.3142        -50.6532         -56.3187        -50.6538       -0.0127885         147.442
0.556                  -0.711093        -147.414         -56.2942        -52.7238         -56.2987        -52.7236       -0.0129024         147.371
0.557                  -0.706446        -148.045         -56.2705        -54.7584          -56.275        -54.7574       -0.0130169         147.301
0.558                  -0.703508         -148.69         -56.2431        -56.7592         -56.2474        -56.7574       -0.0131317          147.23
0.559                  -0.702329        -149.349         -56.2116        -58.7286         -56.2158        -58.7262        -0.013247          147.16
0.56                   -0.702933        -150.019         -56.1759         -60.669         -56.1801        -60.6659       -0.0133628         147.089
0.561                  -0.705323          -150.7         -56.1359        -62.5825           -56.14        -62.5789       -0.0134791         147.018
0.562                  -0.709493        -151.391         -56.0915        -64.4715         -56.0955        -64.4673       -0.0135958         146.947
0.563                  -0.715428        -152.091         -56.0425        -66.3381         -56.0464        -66.3334       -0.0137131         146.876
0.564                  -0.723109        -152.799         -55.9889        -68.1844         -55.9926        -68.1792        -0.013831         146.804
0.565                  -0.732516        -153.516         -55.9306        -70.0124         -55.9342        -70.0068       -0.0139496         146.733
0.566                  -0.743634         -154.24         -55.8676        -71.8242          -55.871        -71.8182       -0.0140689         146.661
0.567                   -0.75645        -154.971         -55.7997        -73.6217          -55.803        -73.6153       -0.0141889          146.59
0.568                  -0.770956         -155.71          -55.727        -75.4068         -55.7302        -75.4002       -0.0143099         146.518
0.569                   -0.78715        -156.455         -55.6495        -77.1815         -55.6525        -77.1747       -0.0144319         146.446
0.57                    -0.80504        -157.207         -55.5671        -78.9477           -55.57        -78.9406       -0.0145551         146.374
0.571                  -0.824637        -157.965         -55.4798        -80.7071         -55.4826        -80.6999       -0.0146795         146.301
0.572                  -0.845962        -158.731         -55.3877        -82.4615         -55.3903        -82.4542       -0.0148053         146.229
0.573                  -0.869045        -159.502         -55.2907        -84.2127         -55.2932        -84.2054       -0.0149327         146.156
0.574                  -0.893923         -160.28         -55.1889        -85.9626         -55.1912        -85.9552       -0.0150618         146.084
0.575                   -0.92064        -161.064         -55.0823        -87.7128         -55.0844        -87.7055       -0.0151928         146.011
0.576                  -0.949251        -161.855         -54.9709        -89.4651         -54.9729        -89.4578       -0.0153259         145.938
0.577                  -0.979817        -162.652         -54.8548        -91.2212         -54.8566         -91.214       -0.0154612         145.864
0.578                   -1.01241        -163.455          -54.734        -92.9828         -54.7357        -92.9757       -0.0155989         145.791
0.579                   -1.04711        -164.264         -54.6086        -94.7517         -54.6102        -94.7448       -0.0157392         145.717
0.58                      -1.084        -165.078         -54.4787        -96.5295         -54.4802        -96.5228       -0.0158821         145.644
0.581                   -1.12317        -165.899         -54.3443        -98.3181         -54.3457        -98.3116       -0.0160279          145.57
0.582                   -1.16474        -166.725         -54.2056        -100.119         -54.2069        -100.113       -0.0161767         145.496
0.583                   -1.20882        -167.555         -54.0627        -101.934         -54.0638        -101.928       -0.0163286         145.422
0.584                   -1.25551        -168.391         -53.9156        -103.765         -53.9166        -103.759       -0.0164837         145.347
0.585                   -1.30496         -169.23         -53.7645        -105.613         -53.7654        -105.608        -0.016642         145.273
0.586                    -1.3573        -170.074         -53.6096        -107.481         -53.6104        -107.476       -0.0168037         145.198
0.587                   -1.41266         -170.92          -53.451        -109.369         -53.4517        -109.365       -0.0169688         145.123
0.588                    -1.4712        -171.768         -53.2888         -111.28         -53.2894        -111.276       -0.0171372         145.048
0.589                   -1.53306        -172.618         -53.1233        -113.216         -53.1239        -113.212       -0.0173091         144.973
0.59                     -1.5984        -173.468         -52.9547        -115.177         -52.9552        -115.174       -0.0174844         144.898
0.591                   -1.66737        -174.316         -52.7832        -117.166         -52.7836        -117.163       -0.0176631         144.822
0.592                   -1.74012        -175.162          -52.609        -119.184         -52.6094        -119.181       -0.0178452         144.747
0.593                   -1.81681        -176.004         -52.4325        -121.232         -52.4328         -121.23       -0.0180306         144.671
0.594                   -1.89757         -176.84         -52.2539        -123.312         -52.2541         -123.31       -0.0182194         144.595
0.595                   -1.98253        -177.668         -52.0735        -125.426         -52.0737        -125.424       -0.0184114         144.519
0.596                    -2.0718        -178.485         -51.8917        -127.574         -51.8919        -127.573       -0.0186067         144.442
0.597                   -2.16546         -179.29         -51.7088        -129.758         -51.7089        -129.757       -0.0188052         144.366
0.598                   -2.26357         179.922         -51.5252        -131.978         -51.5253        -131.977       -0.0190068         144.289
0.599                   -2.36614         179.153         -51.3414        -134.236         -51.3414        -134.235       -0.0192116         144.212
0.6                     -2.47314         178.406         -51.1576        -136.531         -51.1577        -136.531       -0.0194194         144.135
0.601                   -2.58446         177.686         -50.9745        -138.865         -50.9745        -138.865       -0.0196302         144.058
0.602                   -2.69996         176.995         -50.7923        -141.238         -50.7923        -141.238       -0.0198439          143.98
0.603                   -2.81937         176.339         -50.6117        -143.648         -50.6117        -143.649       -0.0200607         143.902
0.604                   -2.94236         175.721          -50.433        -146.097         -50.4331        -146.098       -0.0202803         143.825
0.605                   -3.06848         175.146         -50.2569        -148.583         -50.2569        -148.584       -0.0205028         143.746
0.606                   -3.19716         174.618         -50.0836        -151.105         -50.0836        -151.106       -0.0207282         143.668
0.607                   -3.32771          174.14         -49.9138        -153.662         -49.9138        -153.663       -0.0209564          143.59
0.608                    -3.4593         173.716         -49.7479        -156.252         -49.7479        -156.253       -0.0211875         143.511
0.609                   -3.59099          173.35         -49.5863        -158.874         -49.5863        -158.875       -0.0214214         143.432
0.61                    -3.72169         173.044         -49.4295        -161.524         -49.4295        -161.525       -0.0216581         143.353
0.611                    -3.8502         172.798         -49.2778          -164.2         -49.2778        -164.201       -0.0218976         143.274
0.612                   -3.97523         172.614         -49.1316        -166.899         -49.1316          -166.9         -0.02214         143.194
0.613                   -4.09542         172.489         -48.9911        -169.618         -48.9912        -169.619       -0.0223851         143.115
0.614                   -4.20938         172.422         -48.8567        -172.353         -48.8568        -172.354       -0.0226331         143.035
0.615                   -4.31576         172.408         -48.7285        -175.101         -48.7286        -175.102        -0.022884         142.955
0.616                   -4.41327          172.44         -48.6066        -177.858         -48.6067        -177.859       -0.0231377         142.874
0.617                   -4.50073         172.511         -48.4911         179.379         -48.4912         179.379       -0.0233942         142.794
0.618                   -4.57719         172.613          -48.382         176.616          -48.382         176.615       -0.0236537         142.713
0.619                   -4.64187         172.735         -48.2792         173.855         -48.2792         173.854       -0.0239162         142.632
0.62                    -4.69431         172.866         -48.1825           171.1         -48.1825         171.099       -0.0241816          142.55
0.621                   -4.73431         172.995         -48.0918         168.354         -48.0918         168.354         -0.02445         142.469
0.622                   -4.76196          173.11         -48.0069         165.622         -48.0068         165.622       -0.0247214         142.387
0.623                   -4.77765           173.2         -47.9273         162.906         -47.9273         162.906        -0.024996         142.305
0.624                   -4.78202         173.255         -47.8528         160.208         -47.8528         160.208       -0.0252736         142.223
0.625                   -4.77594         173.266         -47.7831         157.532          -47.783         157.532       -0.0255545          142.14
0.626                   -4.76044         173.224         -47.7176          154.88         -47.7175         154.879       -0.0258387         142.057
0.627                   -4.73669         173.124         -47.6559         152.252         -47.6559         152.252       -0.0261262         141.974
0.628                   -4.70592          172.96         -47.5977         149.651         -47.5976         149.651       -0.0264171         141.891
0.629                    -4.6694         172.728         -47.5424         147.078         -47.5424         147.077       -0.0267115         141.807
