! TOUCHSTONE file generated by CST MICROWAVE STUDIO
! Date and time: Thu Feb 18 07:36:52 2021
! Project name: Scenario_1_Planar_Body_Tissue_Out_of_Line.cst
! Parameters = {L_HA=400; Ltissue=1000; MT=2.54; Rad_Dielectric=30; Rad_Lower=7.3; Rad_Upper=30; Wtissue=1000; a_HA=580; a_WG=246; b_HA=500; b_WG=121; c_HA=0; c_WG=187; d_feed=85; dx1=346; dy1=224.9; h_feed=15; h_lower=18; h_upper=40; hfat=3; hgap=25; hmuscle=50; hskin=1.5}
! Header version: 2018
! Port assignment regex: !\s*Touchstone port\s*([0-9]+)\s*=\s*(CST MWS port|CST DS port)\s*([0-9]+|Zmin|Zmax)\s*\(\"(.*)\"\)(\s*mode\s*([0-9]+))?.*
! Touchstone port assignment:
! Touchstone port 1 = CST MWS port 1 ("")
! Touchstone port 2 = CST MWS port 2 ("")
# GHz S DB R 50
0.5                    -0.270826        -121.624         -57.1043         18.0236         -57.1044         18.0233      -0.00825776         151.145
0.501                  -0.271913        -122.022         -57.2112         16.4844         -57.2112         16.4905      -0.00833259          151.08
0.502                  -0.273024        -122.422         -57.3127          14.913         -57.3127         14.9252      -0.00840702         151.015
0.503                  -0.274162        -122.825         -57.4086         13.3106         -57.4087         13.3285      -0.00848108          150.95
0.504                  -0.275328         -123.23         -57.4987         11.6783         -57.4988         11.7018      -0.00855478         150.884
0.505                  -0.276523        -123.637         -57.5827         10.0176          -57.583         10.0462      -0.00862815         150.819
0.506                  -0.277747        -124.047         -57.6604         8.32987         -57.6608         8.36331      -0.00870121         150.753
0.507                  -0.279004         -124.46         -57.7315         6.61686         -57.7322         6.65474      -0.00877397         150.688
0.508                  -0.280293        -124.875         -57.7959          4.8803         -57.7968         4.92224      -0.00884647         150.622
0.509                  -0.281618        -125.293         -57.8534         3.12209         -57.8545         3.16771      -0.00891872         150.556
0.51                   -0.282978        -125.713         -57.9038         1.34423         -57.9052         1.39314      -0.00899075         150.491
0.511                  -0.284377        -126.137         -57.9469       -0.451169         -57.9487       -0.399361      -0.00906258         150.425
0.512                  -0.285815        -126.563         -57.9827        -2.26192         -57.9848        -2.20761      -0.00913424         150.359
0.513                  -0.287295        -126.992         -58.0111        -4.08577         -58.0135        -4.02936      -0.00920575         150.293
0.514                  -0.288818        -127.424          -58.032        -5.92041         -58.0347        -5.86229      -0.00927715         150.227
0.515                  -0.290387        -127.859         -58.0453        -7.76353         -58.0484        -7.70407      -0.00934845          150.16
0.516                  -0.292004        -128.297          -58.051        -9.61277         -58.0545        -9.55236      -0.00941968         150.094
0.517                  -0.293672        -128.737         -58.0493        -11.4658          -58.053        -11.4048      -0.00949088         150.028
0.518                  -0.295391        -129.181         -58.0401        -13.3204         -58.0441        -13.2591      -0.00956207         149.961
0.519                  -0.297167        -129.629         -58.0234        -15.1743         -58.0278         -15.113      -0.00963328         149.895
0.52                   -0.298999        -130.079         -57.9995        -17.0253         -58.0041        -16.9644      -0.00970453         149.828
0.521                  -0.300893        -130.533         -57.9684        -18.8713         -57.9733        -18.8111      -0.00977587         149.761
0.522                   -0.30285         -130.99         -57.9303        -20.7104         -57.9354        -20.6511      -0.00984731         149.695
0.523                  -0.304875         -131.45         -57.8853        -22.5408         -57.8906        -22.4826       -0.0099189         149.628
0.524                  -0.306969        -131.914         -57.8337        -24.3606         -57.8392        -24.3038      -0.00999066         149.561
0.525                  -0.309137        -132.381         -57.7756        -26.1684         -57.7812        -26.1131       -0.0100626         149.494
0.526                  -0.311383        -132.852         -57.7112        -27.9627          -57.717        -27.9091       -0.0101348         149.426
0.527                   -0.31371        -133.327         -57.6409        -29.7422         -57.6467        -29.6904       -0.0102073         149.359
0.528                  -0.316122        -133.805         -57.5647        -31.5058         -57.5707        -31.4559       -0.0102801         149.292
0.529                  -0.318625        -134.288          -57.483        -33.2524          -57.489        -33.2045       -0.0103532         149.224
0.53                   -0.321221        -134.774         -57.3961        -34.9813          -57.402        -34.9355       -0.0104268         149.157
0.531                  -0.323917        -135.264          -57.304        -36.6918           -57.31        -36.6481       -0.0105007         149.089
0.532                  -0.326718        -135.758         -57.2072        -38.3833         -57.2131        -38.3418       -0.0105751         149.021
0.533                  -0.329628        -136.257         -57.1058        -40.0553         -57.1117         -40.016       -0.0106499         148.953
0.534                  -0.332654        -136.759         -57.0001        -41.7077         -57.0058        -41.6705       -0.0107253         148.885
0.535                  -0.335802        -137.266         -56.8903        -43.3402         -56.8959        -43.3052       -0.0108013         148.817
0.536                  -0.339078        -137.778         -56.7766        -44.9528         -56.7821          -44.92       -0.0108778         148.749
0.537                  -0.342489        -138.294         -56.6593        -46.5456         -56.6646        -46.5148       -0.0109551         148.681
0.538                  -0.346043        -138.814         -56.5386        -48.1186         -56.5437        -48.0899        -0.011033         148.612
0.539                  -0.349746        -139.339         -56.4146        -49.6721         -56.4195        -49.6454       -0.0111116         148.544
0.54                   -0.353608        -139.869         -56.2875        -51.2064         -56.2922        -51.1817        -0.011191         148.475
0.541                  -0.357637        -140.404         -56.1576         -52.722         -56.1621        -52.6991       -0.0112712         148.407
0.542                  -0.361842        -140.944          -56.025        -54.2191         -56.0293        -54.1981       -0.0113522         148.338
0.543                  -0.366232         -141.49         -55.8899        -55.6984         -55.8939        -55.6791       -0.0114342         148.269
0.544                   -0.37082         -142.04         -55.7523        -57.1603         -55.7561        -57.1427       -0.0115171           148.2
0.545                  -0.375614        -142.596         -55.6126        -58.6055         -55.6161        -58.5895        -0.011601         148.131
0.546                  -0.380627        -143.158         -55.4706        -60.0345         -55.4739          -60.02       -0.0116859         148.061
0.547                  -0.385873        -143.725         -55.3267         -61.448         -55.3297         -61.435       -0.0117718         147.992
0.548                  -0.391362        -144.298         -55.1809        -62.8467         -55.1836        -62.8351       -0.0118589         147.923
0.549                  -0.397112        -144.877         -55.0333        -64.2313         -55.0358         -64.221       -0.0119472         147.853
0.55                   -0.403135        -145.462          -54.884        -65.6025         -54.8862        -65.5935       -0.0120367         147.783
0.551                  -0.409448        -146.053         -54.7331         -66.961          -54.735        -66.9531       -0.0121274         147.713
0.552                  -0.416069        -146.651         -54.5807        -68.3075         -54.5823        -68.3008       -0.0122195         147.643
0.553                  -0.423016        -147.256         -54.4268        -69.6428         -54.4281        -69.6372       -0.0123129         147.573
0.554                  -0.430309        -147.867         -54.2714        -70.9677         -54.2726         -70.963       -0.0124077         147.503
0.555                  -0.437968        -148.485         -54.1147        -72.2829         -54.1156        -72.2792        -0.012504         147.433
0.556                  -0.446015         -149.11         -53.9567        -73.5891         -53.9574        -73.5863       -0.0126017         147.362
0.557                  -0.454476        -149.743         -53.7975        -74.8871         -53.7979        -74.8851        -0.012701         147.292
0.558                  -0.463375        -150.383          -53.637        -76.1778         -53.6371        -76.1766       -0.0128019         147.221
0.559                  -0.472739        -151.031         -53.4753        -77.4617         -53.4752        -77.4613       -0.0129045          147.15
0.56                     -0.4826        -151.687         -53.3124        -78.7398         -53.3121          -78.74       -0.0130087         147.079
0.561                  -0.492987        -152.351         -53.1484        -80.0127         -53.1479        -80.0136       -0.0131147         147.008
0.562                  -0.503935        -153.023         -52.9833        -81.2813         -52.9825        -81.2828       -0.0132225         146.937
0.563                  -0.515479        -153.704          -52.817        -82.5463          -52.816        -82.5483       -0.0133322         146.865
0.564                  -0.527661        -154.393         -52.6496        -83.8084         -52.6485         -83.811       -0.0134437         146.794
0.565                   -0.54052        -155.092         -52.4811        -85.0684         -52.4798        -85.0715       -0.0135572         146.722
0.566                  -0.554102          -155.8         -52.3116         -86.327         -52.3101        -86.3307       -0.0136727          146.65
0.567                  -0.568457        -156.518         -52.1409        -87.5852         -52.1392        -87.5892       -0.0137902         146.579
0.568                  -0.583635        -157.246         -51.9691        -88.8435         -51.9673        -88.8479       -0.0139098         146.506
0.569                  -0.599694        -157.984         -51.7963        -90.1027         -51.7943        -90.1076       -0.0140315         146.434
0.57                   -0.616694        -158.732         -51.6223        -91.3637         -51.6202         -91.369       -0.0141554         146.362
0.571                    -0.6347        -159.491         -51.4473        -92.6272          -51.445        -92.6329       -0.0142816         146.289
0.572                  -0.653783        -160.261         -51.2711         -93.894         -51.2687           -93.9         -0.01441         146.217
0.573                   -0.67402        -161.043         -51.0938        -95.1649         -51.0913        -95.1712       -0.0145407         146.144
0.574                  -0.695492        -161.836         -50.9154        -96.4407         -50.9128        -96.4473       -0.0146738         146.071
0.575                  -0.718289        -162.641         -50.7358        -97.7221         -50.7332         -97.729       -0.0148093         145.998
0.576                  -0.742506        -163.458         -50.5552        -99.0101         -50.5524        -99.0172       -0.0149473         145.925
0.577                  -0.768249        -164.288         -50.3733        -100.305         -50.3705        -100.313       -0.0150877         145.852
0.578                  -0.795628        -165.131         -50.1904        -101.609         -50.1875        -101.616       -0.0152307         145.778
0.579                  -0.824767        -165.987         -50.0062        -102.921         -50.0033        -102.929       -0.0153763         145.704
0.58                   -0.855798        -166.857         -49.8209        -104.244          -49.818        -104.252       -0.0155244         145.631
0.581                  -0.888862        -167.741         -49.6345        -105.577         -49.6315        -105.585       -0.0156752         145.557
0.582                  -0.924116        -168.639         -49.4469        -106.922         -49.4439         -106.93       -0.0158287         145.483
0.583                  -0.961726        -169.551         -49.2582        -108.279         -49.2551        -108.288       -0.0159849         145.408
0.584                   -1.00188        -170.478         -49.0683         -109.65         -49.0652        -109.659       -0.0161439         145.334
0.585                   -1.04476         -171.42         -48.8773        -111.035         -48.8742        -111.044       -0.0163056         145.259
0.586                    -1.0906        -172.376         -48.6851        -112.436         -48.6821        -112.445       -0.0164701         145.185
0.587                   -1.13961        -173.349         -48.4919        -113.854         -48.4889        -113.863       -0.0166374          145.11
0.588                   -1.19206        -174.336         -48.2976        -115.289         -48.2947        -115.298       -0.0168076         145.035
0.589                   -1.24821        -175.339         -48.1023        -116.742         -48.0994        -116.752       -0.0169806         144.959
0.59                    -1.30836        -176.357          -47.906        -118.215         -47.9031        -118.225       -0.0171565         144.884
0.591                   -1.37282         -177.39         -47.7088        -119.709         -47.7059        -119.719       -0.0173354         144.808
0.592                   -1.44194        -178.438         -47.5106        -121.225         -47.5079        -121.234       -0.0175171         144.733
0.593                   -1.51609          -179.5         -47.3117        -122.763          -47.309        -122.773       -0.0177018         144.657
0.594                   -1.59566         179.424         -47.1121        -124.326         -47.1095        -124.336       -0.0178894          144.58
0.595                   -1.68108         178.335         -46.9118        -125.914         -46.9092        -125.924       -0.0180799         144.504
0.596                   -1.77281         177.234         -46.7109        -127.529         -46.7085        -127.538       -0.0182735         144.428
0.597                   -1.87135         176.123         -46.5097        -129.171         -46.5073         -129.18       -0.0184699         144.351
0.598                   -1.97721         175.003         -46.3081        -130.841         -46.3059        -130.851       -0.0186693         144.274
0.599                   -2.09094         173.876         -46.1064        -132.542         -46.1043        -132.551       -0.0188717         144.197
0.6                     -2.21313         172.745         -45.9048        -134.274         -45.9028        -134.283        -0.019077          144.12
0.601                   -2.34439         171.614         -45.7033        -136.038         -45.7015        -136.047       -0.0192853         144.043
0.602                   -2.48536         170.484         -45.5023        -137.835         -45.5006        -137.844       -0.0194965         143.965
0.603                   -2.63669         169.362         -45.3019        -139.667         -45.3003        -139.675       -0.0197107         143.887
0.604                   -2.79905         168.252         -45.1024        -141.534         -45.1009        -141.542       -0.0199278         143.809
0.605                    -2.9731         167.159          -44.904        -143.438         -44.9027        -143.445       -0.0201477         143.731
0.606                   -3.15949         166.093         -44.7071        -145.378         -44.7059        -145.385       -0.0203706         143.653
0.607                   -3.35884          165.06         -44.5119        -147.356         -44.5108        -147.363       -0.0205964         143.574
0.608                   -3.57171          164.07         -44.3188        -149.373         -44.3179        -149.379        -0.020825         143.496
0.609                   -3.79856         163.134         -44.1281        -151.428         -44.1274        -151.434       -0.0210565         143.417
0.61                    -4.03973         162.264         -43.9403        -153.523         -43.9396        -153.527       -0.0212909         143.338
0.611                   -4.29538         161.475         -43.7556        -155.656         -43.7551         -155.66       -0.0215281         143.258
0.612                    -4.5654         160.783         -43.5746        -157.829         -43.5742        -157.832       -0.0217681         143.179
0.613                    -4.8494         160.205         -43.3977         -160.04         -43.3974        -160.042        -0.022011         143.099
0.614                   -5.14654         159.761         -43.2252        -162.288          -43.225         -162.29       -0.0222566         143.019
0.615                    -5.4555          159.47         -43.0577        -164.574         -43.0576        -164.574       -0.0225051         142.939
0.616                   -5.77431         159.354         -42.8955        -166.894         -42.8955        -166.894       -0.0227564         142.858
0.617                   -6.10023         159.435         -42.7391        -169.249         -42.7392        -169.248       -0.0230104         142.777
0.618                   -6.42967         159.735          -42.589        -171.635         -42.5892        -171.633       -0.0232673         142.696
0.619                   -6.75803         160.271         -42.4456        -174.051         -42.4458        -174.048        -0.023527         142.615
0.62                    -7.07971         161.059         -42.3092        -176.493         -42.3095        -176.489       -0.0237895         142.534
0.621                   -7.38812         162.105         -42.1803        -178.959         -42.1805        -178.955       -0.0240549         142.452
0.622                   -7.67587          163.41          -42.059         178.555         -42.0593          178.56       -0.0243231          142.37
0.623                   -7.93512         164.959         -41.9458         176.051         -41.9461         176.057       -0.0245942         142.288
0.624                   -8.15811         166.727         -41.8408         173.535         -41.8411         173.542       -0.0248682         142.206
0.625                   -8.33785         168.673         -41.7442          171.01         -41.7445         171.017       -0.0251452         142.123
0.626                   -8.46882         170.743         -41.6562          168.48         -41.6564         168.488       -0.0254252          142.04
0.627                   -8.54772         172.875         -41.5766          165.95         -41.5768         165.958       -0.0257082         141.957
0.628                   -8.57375         175.003         -41.5056         163.423         -41.5058         163.431       -0.0259943         141.874
0.629                   -8.54879         177.063          -41.443         160.905         -41.4431         160.913       -0.0262836          141.79
