! TOUCHSTONE file generated by CST MICROWAVE STUDIO
! Date and time: Fri Dec 11 14:16:44 2020
! Project name: Scenario_1_Planar_Body_Tissue_Out_of_Line_v2.cst
! Parameters = {dy1=224.9; L_HA=400; Ltissue=700; MT=2.54; Rad_Dielectric=30; Rad_Lower=7.3; Rad_Upper=30; Wtissue=700; a_HA=580; a_WG=246; b_HA=500; b_WG=121; c_HA=0; c_WG=187; d_feed=85; dx1=520; h_feed=15; h_lower=18; h_upper=40; hfat=3; hgap=25; hmuscle=50; hskin=1.5}
! Header version: 2018
! Port assignment regex: !\s*Touchstone port\s*([0-9]+)\s*=\s*(CST MWS port|CST DS port)\s*([0-9]+|Zmin|Zmax)\s*\(\"(.*)\"\)(\s*mode\s*([0-9]+))?.*
! Touchstone port assignment:
! Touchstone port 1 = CST MWS port 1 ("")
! Touchstone port 2 = CST MWS port 2 ("")
# GHz S DB R 50
0.5                    -0.089714        -121.934         -63.4685        -67.6814         -63.4679        -67.6752       -0.0073516         151.151
0.501                 -0.0932927         -122.39         -63.2683        -68.6727         -63.2677        -68.6668      -0.00741299         151.086
0.502                 -0.0970644        -122.849         -63.0636        -69.6842         -63.0631        -69.6786      -0.00747545         151.021
0.503                  -0.101045        -123.312         -62.8546        -70.7164         -62.8541         -70.711      -0.00753899         150.955
0.504                   -0.10525        -123.779         -62.6411        -71.7699         -62.6406        -71.7649      -0.00760365          150.89
0.505                    -0.1097         -124.25         -62.4231        -72.8455         -62.4227        -72.8408      -0.00766944         150.824
0.506                  -0.114414        -124.724         -62.2006        -73.9439         -62.2001        -73.9394      -0.00773639         150.758
0.507                  -0.119414        -125.202         -61.9734        -75.0658          -61.973        -75.0616      -0.00780454         150.693
0.508                  -0.124726        -125.685         -61.7416        -76.2121         -61.7413        -76.2082      -0.00787389         150.627
0.509                  -0.130376        -126.171         -61.5052        -77.3837         -61.5048          -77.38       -0.0079445         150.561
0.51                   -0.136393        -126.662          -61.264        -78.5815         -61.2637        -78.5781      -0.00801637         150.495
0.511                  -0.142811        -127.157         -61.0181        -79.8066         -61.0179        -79.8034      -0.00808955         150.429
0.512                  -0.149664        -127.657         -60.7675        -81.0601         -60.7673        -81.0572      -0.00816407         150.363
0.513                  -0.156991        -128.161         -60.5121        -82.3432         -60.5119        -82.3405      -0.00823997         150.297
0.514                  -0.164837         -128.67          -60.252        -83.6572         -60.2518        -83.6547      -0.00831727          150.23
0.515                  -0.173247        -129.183         -59.9871        -85.0034         -59.9869        -85.0012      -0.00839602         150.164
0.516                  -0.182274        -129.701         -59.7175        -86.3834         -59.7173        -86.3814      -0.00847625         150.098
0.517                  -0.191973        -130.224         -59.4432        -87.7987          -59.443        -87.7969      -0.00855801         150.031
0.518                  -0.202408        -130.752         -59.1641        -89.2511          -59.164        -89.2495      -0.00864134         149.964
0.519                  -0.213645        -131.285         -58.8805        -90.7423         -58.8804         -90.741      -0.00872629         149.898
0.52                   -0.225758        -131.822         -58.5924        -92.2744         -58.5923        -92.2732      -0.00881291         149.831
0.521                  -0.238827        -132.365         -58.2998        -93.8493         -58.2997        -93.8483      -0.00890124         149.764
0.522                  -0.252939        -132.912         -58.0029        -95.4692         -58.0028        -95.4684      -0.00899133         149.697
0.523                  -0.268186        -133.463         -57.7018        -97.1365         -57.7017        -97.1359      -0.00908325          149.63
0.524                  -0.284669        -134.018         -57.3967        -98.8537         -57.3967        -98.8532      -0.00917704         149.563
0.525                  -0.302495        -134.578         -57.0878        -100.623         -57.0878        -100.623      -0.00927277         149.495
0.526                  -0.321774        -135.141         -56.7754        -102.448         -56.7754        -102.448      -0.00937049         149.428
0.527                  -0.342626        -135.706         -56.4597         -104.33         -56.4597         -104.33      -0.00947027         149.361
0.528                   -0.36517        -136.274         -56.1411        -106.274         -56.1411        -106.274      -0.00957216         149.293
0.529                  -0.389528        -136.844           -55.82        -108.281           -55.82        -108.281      -0.00967622         149.225
0.53                   -0.415822        -137.414         -55.4968        -110.355         -55.4969        -110.355      -0.00978253         149.158
0.531                  -0.444164        -137.983         -55.1722        -112.499         -55.1722        -112.499      -0.00989112          149.09
0.532                   -0.47466         -138.55         -54.8465        -114.715         -54.8466        -114.715       -0.0100021         149.022
0.533                  -0.507396        -139.114         -54.5206        -117.007         -54.5207        -117.008       -0.0101154         148.954
0.534                  -0.542434        -139.671         -54.1953        -119.378         -54.1953        -119.378       -0.0102312         148.886
0.535                  -0.579802        -140.221         -53.8713        -121.829         -53.8713         -121.83       -0.0103494         148.818
0.536                  -0.619481        -140.761         -53.5495        -124.363         -53.5496        -124.364       -0.0104701         148.749
0.537                  -0.661397        -141.288         -53.2311        -126.982         -53.2312        -126.983       -0.0105933         148.681
0.538                  -0.705406        -141.801         -52.9172        -129.687         -52.9173        -129.687        -0.010719         148.612
0.539                  -0.751286        -142.295         -52.6089        -132.478          -52.609        -132.478       -0.0108471         148.544
0.54                   -0.798721        -142.768         -52.3076        -135.354         -52.3076        -135.354       -0.0109775         148.475
0.541                    -0.8473        -143.218         -52.0145        -138.314         -52.0146        -138.314       -0.0111101         148.407
0.542                  -0.896515        -143.643         -51.7311        -141.355         -51.7311        -141.355       -0.0112449         148.338
0.543                  -0.945763        -144.041         -51.4587        -144.473         -51.4587        -144.474       -0.0113816         148.269
0.544                  -0.994364        -144.411         -51.1986        -147.664         -51.1987        -147.664       -0.0115199           148.2
0.545                   -1.04158        -144.753         -50.9523         -150.92         -50.9523        -150.921       -0.0116596         148.131
0.546                   -1.08665        -145.069         -50.7208        -154.235         -50.7208        -154.235       -0.0118005         148.061
0.547                   -1.12884        -145.359         -50.5052        -157.597         -50.5052        -157.597        -0.011942         147.992
0.548                   -1.16744        -145.627         -50.3065        -160.998         -50.3065        -160.998       -0.0120839         147.923
0.549                   -1.20186        -145.877         -50.1252        -164.427         -50.1252        -164.426       -0.0122257         147.853
0.55                    -1.23163        -146.113         -49.9618         -167.87         -49.9618         -167.87       -0.0123669         147.784
0.551                   -1.25646        -146.342         -49.8165        -171.317         -49.8164        -171.317       -0.0125073         147.714
0.552                   -1.27619        -146.568         -49.6891        -174.756          -49.689        -174.755       -0.0126463         147.644
0.553                   -1.29085        -146.797         -49.5793        -178.173         -49.5792        -178.173       -0.0127835         147.575
0.554                   -1.30064        -147.034         -49.4865         178.441         -49.4864         178.441       -0.0129188         147.505
0.555                   -1.30586        -147.283         -49.4099         175.097         -49.4097         175.097       -0.0130517         147.435
0.556                   -1.30694        -147.549         -49.3484         171.804         -49.3482         171.804       -0.0131823         147.364
0.557                   -1.30437        -147.835         -49.3009          168.57         -49.3008         168.571       -0.0133104         147.294
0.558                   -1.29867        -148.143         -49.2662         165.402         -49.2661         165.403       -0.0134361         147.224
0.559                   -1.29038        -148.474          -49.243         162.305         -49.2428         162.306       -0.0135594         147.153
0.56                    -1.28003         -148.83         -49.2298         159.283         -49.2296         159.283       -0.0136807         147.083
0.561                   -1.26811        -149.212         -49.2255         156.338         -49.2253         156.339       -0.0138002         147.012
0.562                   -1.25509        -149.618         -49.2286         153.472         -49.2283         153.472       -0.0139182         146.941
0.563                   -1.24138        -150.048         -49.2379         150.686         -49.2377         150.686       -0.0140351          146.87
0.564                   -1.22732        -150.502         -49.2522         147.978          -49.252         147.978       -0.0141514         146.798
0.565                   -1.21324         -150.98         -49.2706         145.348         -49.2703         145.348       -0.0142673         146.727
0.566                   -1.19938        -151.478         -49.2918         142.793         -49.2916         142.793       -0.0143834         146.656
0.567                   -1.18596        -151.998         -49.3151         140.313         -49.3149         140.313          -0.0145         146.584
0.568                   -1.17317        -152.537         -49.3396         137.903         -49.3394         137.903       -0.0146175         146.512
0.569                   -1.16114        -153.095         -49.3646         135.561         -49.3644         135.561       -0.0147362          146.44
0.57                    -1.14999         -153.67         -49.3894         133.284         -49.3891         133.284       -0.0148564         146.368
0.571                   -1.13981        -154.262         -49.4134         131.069         -49.4132         131.069       -0.0149783         146.296
0.572                   -1.13066         -154.87         -49.4362         128.912          -49.436         128.912       -0.0151022         146.223
0.573                   -1.12261        -155.492         -49.4572          126.81         -49.4571          126.81       -0.0152282         146.151
0.574                   -1.11568        -156.129         -49.4762          124.76         -49.4761          124.76       -0.0153566         146.078
0.575                   -1.10992        -156.779         -49.4929         122.758         -49.4927         122.758       -0.0154874         146.005
0.576                   -1.10533        -157.442         -49.5069         120.802         -49.5067         120.802       -0.0156208         145.932
0.577                   -1.10194        -158.118         -49.5179         118.888         -49.5178         118.888       -0.0157569         145.859
0.578                   -1.09976        -158.805          -49.526         117.014         -49.5258         117.013       -0.0158956         145.785
0.579                    -1.0988        -159.505         -49.5307         115.175         -49.5306         115.175       -0.0160371         145.712
0.58                    -1.09906        -160.216         -49.5322         113.371         -49.5321         113.371       -0.0161814         145.638
0.581                   -1.10055        -160.938         -49.5301         111.598         -49.5301         111.598       -0.0163286         145.564
0.582                   -1.10329         -161.67         -49.5246         109.854         -49.5245         109.854       -0.0164786          145.49
0.583                   -1.10727        -162.414         -49.5154         108.136         -49.5153         108.136       -0.0166314         145.416
0.584                   -1.11252        -163.169         -49.5026         106.443         -49.5025         106.442       -0.0167871         145.342
0.585                   -1.11903        -163.934         -49.4861         104.771         -49.4861         104.771       -0.0169457         145.267
0.586                   -1.12684        -164.709         -49.4659         103.119         -49.4659         103.119       -0.0171072         145.193
0.587                   -1.13595        -165.496         -49.4421         101.486         -49.4421         101.485       -0.0172715         145.118
0.588                   -1.14639        -166.292         -49.4145         99.8682         -49.4145         99.8681       -0.0174388         145.043
0.589                   -1.15818          -167.1         -49.3833         98.2652         -49.3833         98.2651       -0.0176089         144.968
0.59                    -1.17135        -167.918         -49.3485          96.675         -49.3485         96.6748       -0.0177818         144.892
0.591                   -1.18593        -168.747           -49.31         95.0958           -49.31         95.0957       -0.0179577         144.817
0.592                   -1.20196        -169.586         -49.2679         93.5263          -49.268         93.5262       -0.0181364         144.741
0.593                   -1.21948        -170.437         -49.2222         91.9649         -49.2223         91.9648        -0.018318         144.665
0.594                   -1.23852        -171.299         -49.1731         90.4103         -49.1732         90.4101       -0.0185025         144.589
0.595                   -1.25915        -172.171         -49.1205          88.861         -49.1206         88.8608       -0.0186899         144.513
0.596                   -1.28142        -173.056         -49.0645         87.3158         -49.0646         87.3157       -0.0188801         144.437
0.597                   -1.30537        -173.951         -49.0051         85.7735         -49.0052         85.7733       -0.0190733          144.36
0.598                   -1.33109        -174.858         -48.9424         84.2329         -48.9425         84.2327       -0.0192694         144.283
0.599                   -1.35863        -175.777         -48.8764         82.6927         -48.8766         82.6925       -0.0194684         144.207
0.6                     -1.38807        -176.708         -48.8072         81.1519         -48.8074         81.1517       -0.0196703         144.129
0.601                    -1.4195        -177.651          -48.735         79.6095         -48.7351         79.6093       -0.0198752         144.052
0.602                     -1.453        -178.606         -48.6596         78.0643         -48.6598         78.0641       -0.0200831         143.975
0.603                   -1.48866        -179.573         -48.5813         76.5154         -48.5815         76.5152       -0.0202939         143.897
0.604                    -1.5266         179.447            -48.5         74.9618         -48.5002         74.9616       -0.0205078         143.819
0.605                   -1.56691         178.455         -48.4159         73.4025         -48.4162         73.4023       -0.0207247         143.741
0.606                   -1.60971          177.45         -48.3291         71.8367         -48.3293         71.8365       -0.0209446         143.663
0.607                   -1.65512         176.432         -48.2395         70.2635         -48.2398         70.2632       -0.0211676         143.584
0.608                   -1.70329         175.401         -48.1474         68.6819         -48.1476         68.6816       -0.0213937         143.505
0.609                   -1.75434         174.358         -48.0527         67.0911          -48.053         67.0908        -0.021623         143.427
0.61                    -1.80844         173.301         -47.9557         65.4904         -47.9559         65.4901       -0.0218554         143.347
0.611                   -1.86573         172.232         -47.8562          63.879         -47.8565         63.8786        -0.022091         143.268
0.612                    -1.9264          171.15         -47.7546          62.256         -47.7549         62.2556       -0.0223298         143.188
0.613                   -1.99061         170.055         -47.6509         60.6208         -47.6511         60.6204       -0.0225719         143.109
0.614                   -2.05856         168.948         -47.5451         58.9726         -47.5454         58.9722       -0.0228173         143.029
0.615                   -2.13045         167.829         -47.4375         57.3107         -47.4377         57.3103        -0.023066         142.948
0.616                    -2.2065         166.697          -47.328         55.6346         -47.3283         55.6342       -0.0233181         142.868
0.617                   -2.28692         165.554          -47.217         53.9435         -47.2172         53.9431       -0.0235736         142.787
0.618                   -2.37196           164.4         -47.1044          52.237         -47.1046         52.2365       -0.0238326         142.706
0.619                   -2.46187         163.235         -46.9904         50.5144         -46.9906         50.5139        -0.024095         142.625
0.62                     -2.5569          162.06         -46.8751         48.7752         -46.8754         48.7747        -0.024361         142.544
0.621                   -2.65733         160.875         -46.7588          47.019         -46.7591         47.0185       -0.0246306         142.462
0.622                   -2.76344         159.683         -46.6415         45.2453         -46.6418         45.2448       -0.0249039          142.38
0.623                   -2.87555         158.483         -46.5234         43.4537         -46.5237         43.4532       -0.0251808         142.298
0.624                   -2.99395         157.277         -46.4047          41.644          -46.405         41.6435       -0.0254615         142.216
0.625                   -3.11897         156.066         -46.2855         39.8158         -46.2858         39.8153        -0.025746         142.133
0.626                   -3.25095         154.853          -46.166         37.9689         -46.1663         37.9684       -0.0260344          142.05
0.627                   -3.39022         153.638         -46.0465         36.1033         -46.0467         36.1027       -0.0263266         141.967
0.628                   -3.53716         152.424          -45.927         34.2187         -45.9272         34.2181       -0.0266229         141.884
0.629                    -3.6921         151.214         -45.8077         32.3152         -45.8079         32.3146       -0.0269232           141.8
