! TOUCHSTONE file generated by CST MICROWAVE STUDIO
! Date and time: Tue Nov 24 13:46:02 2020
! Project name: Scenario_1_Planar_Body_Tissue_Out_of_Line.cst
! Parameters = {dy1=224.9; L_HA=400; Ltissue=700; MT=2.54; Rad_Dielectric=30; Rad_Lower=7.3; Rad_Upper=30; Wtissue=700; a_HA=580; a_WG=246; b_HA=500; b_WG=121; c_HA=0; c_WG=187; d_feed=85; dx1=1039; h_feed=15; h_lower=18; h_upper=40; hfat=3; hgap=25; hmuscle=50; hskin=1.5}
! Header version: 2018
! Port assignment regex: !\s*Touchstone port\s*([0-9]+)\s*=\s*(CST MWS port|CST DS port)\s*([0-9]+|Zmin|Zmax)\s*\(\"(.*)\"\)(\s*mode\s*([0-9]+))?.*
! Touchstone port assignment:
! Touchstone port 1 = CST MWS port 1 ("")
! Touchstone port 2 = CST MWS port 2 ("")
# GHz S DB R 50
0.5                     -0.14917        -121.653         -65.0705        -24.0709         -65.0703        -24.0698      -0.00763599          151.15
0.501                  -0.151582        -122.084          -65.005         -25.902         -65.0048        -25.9022      -0.00770035         151.085
0.502                  -0.154073        -122.517         -64.9357        -27.7521         -64.9355        -27.7535      -0.00776532         151.019
0.503                  -0.156651        -122.954         -64.8627         -29.621         -64.8625        -29.6234      -0.00783089         150.954
0.504                  -0.159322        -123.394         -64.7858        -31.5082         -64.7856        -31.5116      -0.00789709         150.889
0.505                  -0.162094        -123.838         -64.7049        -33.4134         -64.7047        -33.4176      -0.00796392         150.823
0.506                  -0.164976        -124.285           -64.62        -35.3361         -64.6197         -35.341      -0.00803138         150.757
0.507                  -0.167976        -124.735         -64.5309        -37.2758         -64.5306        -37.2813      -0.00809948         150.692
0.508                  -0.171106        -125.188         -64.4376        -39.2322         -64.4373        -39.2381      -0.00816823         150.626
0.509                  -0.174374        -125.645           -64.34        -41.2047         -64.3397        -41.2109      -0.00823764          150.56
0.51                   -0.177792        -126.106          -64.238        -43.1929         -64.2377        -43.1992      -0.00830771         150.494
0.511                  -0.181372        -126.571         -64.1316        -45.1961         -64.1313        -45.2025      -0.00837846         150.428
0.512                  -0.185129        -127.039         -64.0207         -47.214         -64.0204        -47.2202       -0.0084499         150.362
0.513                  -0.189075        -127.511         -63.9053         -49.246          -63.905         -49.252      -0.00852203         150.296
0.514                  -0.193227        -127.988         -63.7853        -51.2916          -63.785        -51.2972      -0.00859486          150.23
0.515                    -0.1976        -128.468         -63.6607        -53.3504         -63.6604        -53.3554      -0.00866842         150.163
0.516                  -0.202214        -128.952         -63.5315        -55.4217         -63.5312        -55.4261      -0.00874271         150.097
0.517                  -0.207088        -129.441         -63.3976        -57.5053         -63.3974        -57.5089      -0.00881776         150.031
0.518                  -0.212242        -129.934         -63.2591        -59.6006         -63.2589        -59.6033      -0.00889356         149.964
0.519                  -0.217702        -130.432         -63.1159        -61.7073         -63.1157         -61.709      -0.00897016         149.897
0.52                    -0.22349        -130.934          -62.968         -63.825         -62.9679        -63.8255      -0.00904755         149.831
0.521                  -0.229636         -131.44         -62.8155        -65.9533         -62.8155        -65.9526      -0.00912577         149.764
0.522                  -0.236168        -131.952         -62.6584         -68.092         -62.6584          -68.09      -0.00920484         149.697
0.523                  -0.243119        -132.468         -62.4966        -70.2408         -62.4967        -70.2375      -0.00928479          149.63
0.524                  -0.250524        -132.989         -62.3303        -72.3996         -62.3304        -72.3948      -0.00936565         149.563
0.525                  -0.258422        -133.515         -62.1594        -74.5683         -62.1596         -74.562      -0.00944745         149.495
0.526                  -0.266853        -134.046         -61.9839        -76.7468         -61.9843        -76.7388      -0.00953023         149.428
0.527                  -0.275864        -134.583         -61.8041        -78.9351         -61.8045        -78.9254      -0.00961403         149.361
0.528                  -0.285503        -135.124         -61.6198        -81.1332         -61.6203        -81.1219       -0.0096989         149.293
0.529                  -0.295823        -135.671         -61.4312        -83.3415         -61.4318        -83.3284      -0.00978489         149.226
0.53                   -0.306883        -136.222         -61.2382          -85.56          -61.239        -85.5451      -0.00987205         149.158
0.531                  -0.318745        -136.779         -61.0411        -87.7892         -61.0419        -87.7725      -0.00996044          149.09
0.532                  -0.331477        -137.341         -60.8398        -90.0294         -60.8407        -90.0109       -0.0100501         149.022
0.533                   -0.34515        -137.909         -60.6344        -92.2812         -60.6354        -92.2609       -0.0101412         148.954
0.534                  -0.359845        -138.481          -60.425        -94.5451         -60.4261         -94.523       -0.0102338         148.886
0.535                  -0.375644        -139.058         -60.2117        -96.8218         -60.2129         -96.798       -0.0103278         148.818
0.536                  -0.392636        -139.639         -59.9946        -99.1122         -59.9959        -99.0867       -0.0104235          148.75
0.537                  -0.410916        -140.225         -59.7738        -101.417         -59.7751         -101.39       -0.0105209         148.681
0.538                  -0.430583        -140.815         -59.5493        -103.738         -59.5507        -103.709       -0.0106202         148.613
0.539                  -0.451739        -141.408         -59.3213        -106.075         -59.3228        -106.044       -0.0107213         148.544
0.54                    -0.47449        -142.004         -59.0899         -108.43         -59.0914        -108.398       -0.0108244         148.475
0.541                  -0.498942        -142.602         -58.8553        -110.804         -58.8568        -110.771       -0.0109296         148.407
0.542                    -0.5252        -143.202         -58.6175        -113.198          -58.619        -113.165       -0.0110369         148.338
0.543                  -0.553366        -143.802         -58.3767        -115.615         -58.3782        -115.581       -0.0111464         148.269
0.544                  -0.583532        -144.401         -58.1331        -118.056         -58.1346        -118.021       -0.0112581           148.2
0.545                  -0.615776        -144.998         -57.8868        -120.523         -57.8882        -120.487       -0.0113721          148.13
0.546                   -0.65016        -145.591         -57.6381        -123.018         -57.6394        -122.982       -0.0114882         148.061
0.547                  -0.686716        -146.178         -57.3871        -125.542         -57.3883        -125.506       -0.0116065         147.992
0.548                  -0.725443        -146.758         -57.1341        -128.098         -57.1352        -128.063       -0.0117269         147.922
0.549                  -0.766296        -147.329         -56.8793        -130.688         -56.8803        -130.654       -0.0118493         147.852
0.55                   -0.809174        -147.887          -56.623        -133.315         -56.6239        -133.282       -0.0119734         147.783
0.551                  -0.853915        -148.431         -56.3657        -135.981         -56.3664         -135.95       -0.0120992         147.713
0.552                  -0.900279        -148.958         -56.1075        -138.688         -56.1081         -138.66       -0.0122265         147.643
0.553                  -0.947948        -149.466          -55.849         -141.44         -55.8494        -141.415       -0.0123551         147.573
0.554                  -0.996517        -149.953         -55.5906        -144.239         -55.5908        -144.217       -0.0124848         147.503
0.555                    -1.0455        -150.417         -55.3328        -147.088         -55.3329         -147.07       -0.0126155         147.432
0.556                   -1.09432        -150.857         -55.0762        -149.988         -55.0762        -149.975       -0.0127469         147.362
0.557                   -1.14234        -151.273         -54.8214        -152.944         -54.8214        -152.937        -0.012879         147.291
0.558                   -1.18889        -151.664         -54.5692        -155.956         -54.5692        -155.956       -0.0130116         147.221
0.559                   -1.23328        -152.031         -54.3204        -159.028         -54.3205        -159.035       -0.0131446          147.15
0.56                    -1.27481        -152.377         -54.0758        -162.161         -54.0761        -162.176        -0.013278         147.079
0.561                   -1.31286        -152.705         -53.8364        -165.357          -53.837         -165.38       -0.0134118         147.008
0.562                   -1.34691        -153.019         -53.6032        -168.616         -53.6043        -168.648       -0.0135459         146.937
0.563                   -1.37654        -153.323         -53.3774        -171.939         -53.3791        -171.981       -0.0136805         146.866
0.564                   -1.40148        -153.622         -53.1601        -175.325         -53.1626        -175.378       -0.0138154         146.794
0.565                   -1.42163        -153.923         -52.9526        -178.773         -52.9562        -178.836       -0.0139508         146.723
0.566                   -1.43703        -154.229         -52.7562         177.721         -52.7611         177.647       -0.0140868         146.651
0.567                   -1.44788        -154.546         -52.5722         174.159         -52.5786         174.074       -0.0142234          146.58
0.568                   -1.45451        -154.878         -52.4019         170.547         -52.4102         170.451       -0.0143608         146.508
0.569                   -1.45735         -155.23         -52.2466         166.891         -52.2569         166.786       -0.0144989         146.436
0.57                    -1.45689        -155.604         -52.1073         163.198         -52.1201         163.085       -0.0146379         146.363
0.571                   -1.45368        -156.003         -51.9853          159.48         -52.0008          159.36       -0.0147778         146.291
0.572                   -1.44827        -156.429         -51.8814         155.744         -51.8997          155.62       -0.0149189         146.219
0.573                   -1.44121        -156.882         -51.7962         152.005         -51.8177         151.877        -0.015061         146.146
0.574                   -1.43302        -157.363         -51.7303         148.273         -51.7551         148.146       -0.0152044         146.073
0.575                   -1.42418        -157.872         -51.6838         144.563         -51.7119         144.438        -0.015349             146
0.576                   -1.41512        -158.408         -51.6566         140.887         -51.6881         140.769       -0.0154951         145.927
0.577                   -1.40625        -158.972         -51.6484         137.261          -51.683         137.151       -0.0156425         145.854
0.578                    -1.3979         -159.56         -51.6582         133.696          -51.696         133.599       -0.0157915         145.781
0.579                   -1.39037        -160.174         -51.6853         130.206          -51.726         130.124        -0.015942         145.707
0.58                     -1.3839        -160.811         -51.7283         126.803         -51.7715         126.739       -0.0160942         145.633
0.581                   -1.37871        -161.471         -51.7857         123.496          -51.831         123.454        -0.016248          145.56
0.582                   -1.37498        -162.152         -51.8558         120.296         -51.9028         120.276       -0.0164036         145.486
0.583                   -1.37286        -162.853         -51.9368          117.21         -51.9849         117.215        -0.016561         145.411
0.584                   -1.37249        -163.574         -52.0266         114.243         -52.0753         114.273       -0.0167203         145.337
0.585                   -1.37397        -164.314         -52.1233         111.401          -52.172         111.457       -0.0168814         145.263
0.586                   -1.37739         -165.07         -52.2246         108.684         -52.2727         108.766       -0.0170445         145.188
0.587                   -1.38285        -165.844         -52.3284         106.095         -52.3753         106.202       -0.0172097         145.113
0.588                   -1.39042        -166.634         -52.4326         103.633         -52.4777         103.763       -0.0173769         145.038
0.589                   -1.40017        -167.439         -52.5352         101.294          -52.578         101.445       -0.0175462         144.963
0.59                    -1.41218        -168.259         -52.6341         99.0742         -52.6741         99.2445       -0.0177177         144.888
0.591                   -1.42651        -169.093         -52.7273         96.9686         -52.7641         97.1549       -0.0178915         144.812
0.592                   -1.44324        -169.941         -52.8132         94.9699         -52.8465         95.1686       -0.0180675         144.737
0.593                   -1.46243        -170.803         -52.8901         93.0697         -52.9197         93.2772       -0.0182458         144.661
0.594                   -1.48417        -171.677         -52.9565         91.2583         -52.9822         91.4709       -0.0184266         144.585
0.595                   -1.50853        -172.564         -53.0112         89.5253         -53.0331         89.7391       -0.0186098         144.508
0.596                   -1.53561        -173.464         -53.0532         87.8592         -53.0713         88.0705       -0.0187954         144.432
0.597                   -1.56549        -174.375         -53.0817          86.248         -53.0961         86.4534       -0.0189837         144.355
0.598                   -1.59829        -175.298         -53.0962         84.6795         -53.1072         84.8757       -0.0191745         144.279
0.599                   -1.63411        -176.232         -53.0964         83.1412         -53.1043         83.3254        -0.019368         144.202
0.6                     -1.67306        -177.177         -53.0823         81.6209         -53.0874         81.7909       -0.0195643         144.124
0.601                   -1.71528        -178.132         -53.0541         80.1066         -53.0569         80.2607       -0.0197633         144.047
0.602                    -1.7609        -179.097         -53.0122         78.5873         -53.0131         78.7244       -0.0199652         143.969
0.603                   -1.81005         179.929         -52.9573         77.0527         -52.9568         77.1721         -0.02017         143.892
0.604                    -1.8629         178.946         -52.8903         75.4935         -52.8886         75.5952       -0.0203778         143.814
0.605                    -1.9196         177.956          -52.812         73.9017         -52.8097         73.9861       -0.0205886         143.736
0.606                   -1.98032         176.958         -52.7235         72.2703         -52.7209         72.3383       -0.0208026         143.657
0.607                   -2.04524         175.954          -52.626         70.5938         -52.6234         70.6465       -0.0210197         143.579
0.608                   -2.11453         174.944         -52.5205         68.8679         -52.5182         68.9068       -0.0212401           143.5
0.609                   -2.18839         173.931         -52.4083         67.0895         -52.4064         67.1162       -0.0214637         143.421
0.61                    -2.26701         172.914         -52.2906         65.2565         -52.2893         65.2727       -0.0216908         143.342
0.611                   -2.35058         171.897         -52.1683          63.368         -52.1677         63.3754       -0.0219213         143.262
0.612                    -2.4393         170.879         -52.0427         61.4239         -52.0428         61.4242       -0.0221554         143.183
0.613                   -2.53337         169.864         -51.9145          59.425         -51.9154         59.4198        -0.022393         143.103
0.614                   -2.63296         168.853         -51.7848         57.3726         -51.7863         57.3635       -0.0226343         143.023
0.615                   -2.73827         167.849         -51.6544         55.2687         -51.6565          55.257       -0.0228793         142.942
0.616                   -2.84944         166.854         -51.5239         53.1158         -51.5265         53.1026       -0.0231281         142.862
0.617                   -2.96664         165.872          -51.394         50.9165          -51.397         50.9029       -0.0233807         142.781
0.618                   -3.08999         164.905         -51.2652         48.6739         -51.2684         48.6606       -0.0236372           142.7
0.619                   -3.21955         163.957         -51.1379         46.3911         -51.1414         46.3787       -0.0238977         142.618
0.62                     -3.3554         163.031         -51.0127         44.0713         -51.0161         44.0603       -0.0241622         142.537
0.621                   -3.49751         162.133         -50.8896         41.7178         -50.8929         41.7085       -0.0244308         142.455
0.622                   -3.64583         161.266         -50.7691         39.3337         -50.7721         39.3263       -0.0247035         142.373
0.623                   -3.80021         160.435         -50.6511         36.9223         -50.6537         36.9167       -0.0249804         142.291
0.624                   -3.96044         159.645         -50.5359         34.4865          -50.538         34.4826       -0.0252616         142.208
0.625                   -4.12618         158.902         -50.4235         32.0292          -50.425         32.0269        -0.025547         142.126
0.626                   -4.29701          158.21         -50.3139         29.5532         -50.3147         29.5522       -0.0258367         142.043
0.627                   -4.47236         157.576          -50.207          27.061          -50.207          27.061       -0.0261307         141.959
0.628                   -4.65154         157.003         -50.1028          24.555          -50.102         24.5557       -0.0264292         141.876
0.629                   -4.83369         156.499         -50.0012         22.0373         -49.9996         22.0383       -0.0267321         141.792
