! TOUCHSTONE file generated by CST MICROWAVE STUDIO
! Date and time: Thu Feb 18 07:37:02 2021
! Project name: Scenario_1_Planar_Body_Tissue_Out_of_Line.cst
! Parameters = {L_HA=400; Ltissue=1000; MT=2.54; Rad_Dielectric=30; Rad_Lower=7.3; Rad_Upper=30; Wtissue=1000; a_HA=580; a_WG=246; b_HA=500; b_WG=121; c_HA=0; c_WG=187; d_feed=85; dx1=346; dy1=242.2; h_feed=15; h_lower=18; h_upper=40; hfat=3; hgap=25; hmuscle=50; hskin=1.5}
! Header version: 2018
! Port assignment regex: !\s*Touchstone port\s*([0-9]+)\s*=\s*(CST MWS port|CST DS port)\s*([0-9]+|Zmin|Zmax)\s*\(\"(.*)\"\)(\s*mode\s*([0-9]+))?.*
! Touchstone port assignment:
! Touchstone port 1 = CST MWS port 1 ("")
! Touchstone port 2 = CST MWS port 2 ("")
# GHz S DB R 50
0.5                    -0.268723         -121.66         -57.3777         14.9116         -57.3778         14.9119      -0.00825572         151.141
0.501                  -0.273945        -121.842         -57.3786         14.2151         -57.3781         14.2142      -0.00831748         151.076
0.502                  -0.279309        -122.026         -57.3798         13.5093         -57.3787         13.5074      -0.00837962         151.011
0.503                  -0.284816        -122.211         -57.3812         12.7942         -57.3795         12.7912      -0.00844215         150.946
0.504                  -0.290468        -122.398         -57.3828         12.0694         -57.3805         12.0654      -0.00850508         150.881
0.505                  -0.296266        -122.586         -57.3846         11.3349         -57.3817         11.3297      -0.00856842         150.816
0.506                   -0.30221        -122.776         -57.3866         10.5902         -57.3831          10.584      -0.00863218          150.75
0.507                  -0.308301        -122.966         -57.3889         9.83528         -57.3848         9.82801      -0.00869638         150.685
0.508                  -0.314541        -123.159         -57.3913          9.0698         -57.3866         9.06146      -0.00876103         150.619
0.509                  -0.320931        -123.353          -57.394         8.29352         -57.3886         8.28412      -0.00882613         150.553
0.51                   -0.327471        -123.548         -57.3969         7.50618         -57.3909         7.49573      -0.00889171         150.488
0.511                  -0.334163        -123.745            -57.4         6.70752         -57.3933         6.69602      -0.00895777         150.422
0.512                  -0.341007        -123.943         -57.4033         5.89726         -57.3959         5.88471      -0.00902433         150.356
0.513                  -0.348004        -124.143         -57.4067         5.07512         -57.3986         5.06154      -0.00909139          150.29
0.514                  -0.355157        -124.344         -57.4104          4.2408         -57.4016          4.2262      -0.00915898         150.224
0.515                  -0.362465        -124.547         -57.4142           3.394         -57.4047         3.37841       -0.0092271         150.158
0.516                  -0.369929        -124.752         -57.4182         2.53442          -57.408         2.51784      -0.00929577         150.092
0.517                  -0.377552        -124.958         -57.4224         1.66174         -57.4114         1.64419        -0.009365         150.025
0.518                  -0.385333        -125.166         -57.4267        0.775632         -57.4149        0.757141      -0.00943481         149.959
0.519                  -0.393273        -125.375         -57.4312       -0.124243         -57.4186       -0.143652       -0.0095052         149.892
0.52                   -0.401375        -125.586         -57.4358        -1.03823         -57.4223        -1.05853      -0.00957619         149.826
0.521                  -0.409638        -125.799         -57.4404        -1.96668         -57.4262        -1.98784       -0.0096478         149.759
0.522                  -0.418064        -126.014         -57.4452        -2.90995         -57.4301        -2.93194      -0.00972004         149.692
0.523                  -0.426653         -126.23         -57.4501        -3.86843         -57.4341         -3.8912      -0.00979292         149.626
0.524                  -0.435408        -126.449          -57.455        -4.84249         -57.4381        -4.86601      -0.00986646         149.559
0.525                  -0.444329        -126.669         -57.4599        -5.83253         -57.4422        -5.85675      -0.00994067         149.492
0.526                  -0.453416        -126.891         -57.4649        -6.83894         -57.4462        -6.86381       -0.0100156         149.424
0.527                  -0.462672        -127.114         -57.4698        -7.86215         -57.4502        -7.88761       -0.0100912         149.357
0.528                  -0.472096         -127.34         -57.4747        -8.90257         -57.4542        -8.92857       -0.0101675          149.29
0.529                  -0.481691        -127.567         -57.4795        -9.96062          -57.458         -9.9871       -0.0102445         149.222
0.53                   -0.491457        -127.797         -57.4842        -11.0368         -57.4617        -11.0636       -0.0103224         149.155
0.531                  -0.501395        -128.028         -57.4888        -12.1314         -57.4653        -12.1586       -0.0104009         149.087
0.532                  -0.511506        -128.262         -57.4932        -13.2451         -57.4687        -13.2725       -0.0104803          149.02
0.533                  -0.521792        -128.497         -57.4974        -14.3782         -57.4718        -14.4058       -0.0105604         148.952
0.534                  -0.532253        -128.735         -57.5013        -15.5312         -57.4747        -15.5588       -0.0106414         148.884
0.535                   -0.54289        -128.974         -57.5049        -16.7046         -57.4772        -16.7322       -0.0107231         148.816
0.536                  -0.553705        -129.216         -57.5082        -17.8989         -57.4793        -17.9263       -0.0108058         148.748
0.537                  -0.564698        -129.459          -57.511        -19.1145          -57.481        -19.1417       -0.0108893         148.679
0.538                  -0.575871        -129.705         -57.5133         -20.352         -57.4822        -20.3788       -0.0109736         148.611
0.539                  -0.587225        -129.953         -57.5151        -21.6119         -57.4829        -21.6381       -0.0110589         148.543
0.54                   -0.598761        -130.204         -57.5163        -22.8945         -57.4829        -22.9201       -0.0111451         148.474
0.541                  -0.610479        -130.456         -57.5169        -24.2006         -57.4822        -24.2253       -0.0112322         148.405
0.542                  -0.622382        -130.711         -57.5166        -25.5304         -57.4807        -25.5542       -0.0113203         148.337
0.543                  -0.634469        -130.968         -57.5155        -26.8846         -57.4784        -26.9071       -0.0114094         148.268
0.544                  -0.646743        -131.227         -57.5135        -28.2635         -57.4751        -28.2848       -0.0114994         148.199
0.545                  -0.659204        -131.489         -57.5105        -29.6678         -57.4708        -29.6874       -0.0115905          148.13
0.546                  -0.671853        -131.753         -57.5063        -31.0977         -57.4654        -31.1156       -0.0116825          148.06
0.547                  -0.684692         -132.02          -57.501        -32.5538         -57.4587        -32.5698       -0.0117757         147.991
0.548                  -0.697721        -132.289         -57.4942        -34.0366         -57.4507        -34.0503       -0.0118699         147.922
0.549                  -0.710942         -132.56         -57.4861        -35.5463         -57.4412        -35.5576       -0.0119651         147.852
0.55                   -0.724356        -132.835         -57.4763        -37.0834         -57.4301        -37.0921       -0.0120615         147.782
0.551                  -0.737963        -133.111         -57.4649        -38.6483         -57.4174         -38.654       -0.0121591         147.713
0.552                  -0.751766         -133.39         -57.4516        -40.2412         -57.4027        -40.2438       -0.0122577         147.643
0.553                  -0.765765        -133.672         -57.4364        -41.8624         -57.3862        -41.8616       -0.0123576         147.573
0.554                  -0.779961        -133.957          -57.419        -43.5123         -57.3675        -43.5077       -0.0124586         147.503
0.555                  -0.794356        -134.244         -57.3994        -45.1909         -57.3465        -45.1823       -0.0125609         147.432
0.556                  -0.808951        -134.534         -57.3773        -46.8985         -57.3231        -46.8856       -0.0126644         147.362
0.557                  -0.823746        -134.827         -57.3527        -48.6351         -57.2971        -48.6176       -0.0127691         147.291
0.558                  -0.838744        -135.123         -57.3253        -50.4008         -57.2685        -50.3783       -0.0128752         147.221
0.559                  -0.853944        -135.421          -57.295        -52.1955         -57.2369        -52.1678       -0.0129825          147.15
0.56                    -0.86935        -135.722         -57.2617        -54.0191         -57.2022        -53.9859       -0.0130912         147.079
0.561                   -0.88496        -136.027          -57.225        -55.8715         -57.1644        -55.8324       -0.0132013         147.008
0.562                  -0.900778        -136.334          -57.185        -57.7523         -57.1231        -57.7072       -0.0133127         146.937
0.563                  -0.916804        -136.644         -57.1413        -59.6614         -57.0783        -59.6098       -0.0134255         146.865
0.564                  -0.933039        -136.958         -57.0939        -61.5982         -57.0297        -61.5399       -0.0135398         146.794
0.565                  -0.949484        -137.274         -57.0426        -63.5622         -56.9772        -63.4969       -0.0136555         146.722
0.566                  -0.966142        -137.594         -56.9871        -65.5529         -56.9207        -65.4804       -0.0137727         146.651
0.567                  -0.983012        -137.917         -56.9274        -67.5696         -56.8599        -67.4896       -0.0138914         146.579
0.568                    -1.0001        -138.243         -56.8632        -69.6115         -56.7948        -69.5238       -0.0140117         146.507
0.569                    -1.0174        -138.572         -56.7945        -71.6777         -56.7252        -71.5822       -0.0141335         146.435
0.57                    -1.03492        -138.905         -56.7211        -73.7674         -56.6509        -73.6638       -0.0142569         146.363
0.571                   -1.05265        -139.241         -56.6428        -75.8795         -56.5719        -75.7676        -0.014382          146.29
0.572                   -1.07061        -139.581         -56.5596        -78.0129          -56.488        -77.8927       -0.0145087         146.218
0.573                   -1.08879        -139.924         -56.4713        -80.1664         -56.3991        -80.0379        -0.014637         146.145
0.574                   -1.10718         -140.27         -56.3779        -82.3389         -56.3051        -82.2019       -0.0147671         146.072
0.575                   -1.12581        -140.621         -56.2792        -84.5289          -56.206        -84.3835       -0.0148989         145.999
0.576                   -1.14466        -140.974         -56.1753        -86.7353         -56.1016        -86.5814       -0.0150325         145.926
0.577                   -1.16373        -141.332         -56.0661        -88.9565         -55.9921        -88.7943       -0.0151679         145.853
0.578                   -1.18304        -141.693         -55.9515        -91.1913         -55.8773        -91.0208       -0.0153051         145.779
0.579                   -1.20257        -142.058         -55.8316        -93.4382         -55.7572        -93.2595       -0.0154442         145.706
0.58                    -1.22234        -142.427         -55.7064        -95.6957         -55.6319        -95.5091       -0.0155853         145.632
0.581                   -1.24233          -142.8         -55.5758        -97.9624         -55.5013        -97.7681       -0.0157282         145.558
0.582                   -1.26257        -143.176         -55.4401        -100.237         -55.3656        -100.035       -0.0158731         145.484
0.583                   -1.28304        -143.557         -55.2992        -102.518         -55.2248        -102.309         -0.01602          145.41
0.584                   -1.30374        -143.942         -55.1532        -104.804          -55.079        -104.588        -0.016169         145.335
0.585                   -1.32469        -144.331         -55.0022        -107.094         -54.9284        -106.872         -0.01632         145.261
0.586                   -1.34588        -144.724         -54.8464        -109.386         -54.7729        -109.158       -0.0164731         145.186
0.587                   -1.36731        -145.122         -54.6859         -111.68         -54.6128        -111.446       -0.0166284         145.111
0.588                   -1.38898        -145.523         -54.5208        -113.973         -54.4482        -113.734       -0.0167859         145.036
0.589                    -1.4109         -145.93         -54.3514        -116.266         -54.2793        -116.023       -0.0169456         144.961
0.59                    -1.43307         -146.34         -54.1777        -118.558         -54.1062         -118.31       -0.0171076         144.885
0.591                   -1.45549        -146.755              -54        -120.846         -53.9291        -120.594       -0.0172719          144.81
0.592                   -1.47817        -147.175         -53.8186        -123.131         -53.7483        -122.876       -0.0174385         144.734
0.593                   -1.50109          -147.6         -53.6335        -125.412         -53.5639        -125.154       -0.0176075         144.658
0.594                   -1.52428        -148.029          -53.445        -127.687         -53.3762        -127.428       -0.0177789         144.582
0.595                   -1.54772        -148.463         -53.2533        -129.958         -53.1853        -129.696       -0.0179529         144.506
0.596                   -1.57142        -148.902         -53.0587        -132.222         -52.9915         -131.96       -0.0181293         144.429
0.597                   -1.59539        -149.346         -52.8614        -134.481         -52.7949        -134.217       -0.0183083         144.352
0.598                   -1.61962        -149.795         -52.6615        -136.732         -52.5959        -136.469       -0.0184899         144.276
0.599                   -1.64412        -150.249         -52.4594        -138.977         -52.3946        -138.714       -0.0186742         144.199
0.6                     -1.66888        -150.708         -52.2552        -141.215         -52.1913        -140.952       -0.0188612         144.121
0.601                   -1.69392        -151.173         -52.0492        -143.446         -51.9862        -143.185       -0.0190509         144.044
0.602                   -1.71924        -151.643         -51.8416         -145.67         -51.7795         -145.41       -0.0192435         143.966
0.603                   -1.74483        -152.118         -51.6326        -147.886         -51.5715        -147.629       -0.0194389         143.888
0.604                   -1.77071          -152.6         -51.4225        -150.096         -51.3623        -149.841       -0.0196372          143.81
0.605                   -1.79686        -153.086         -51.2114        -152.298         -51.1521        -152.046       -0.0198384         143.732
0.606                   -1.82331        -153.579         -50.9997        -154.494         -50.9413        -154.245       -0.0200427         143.654
0.607                   -1.85004        -154.077         -50.7873        -156.682         -50.7299        -156.437         -0.02025         143.575
0.608                   -1.87706        -154.581         -50.5747        -158.865         -50.5182        -158.624       -0.0204604         143.496
0.609                   -1.90438        -155.092          -50.362         -161.04         -50.3064        -160.804       -0.0206741         143.417
0.61                      -1.932        -155.608         -50.1493         -163.21         -50.0947        -162.978       -0.0208909         143.338
0.611                   -1.95992        -156.131         -49.9369        -165.374         -49.8833        -165.147       -0.0211111         143.258
0.612                   -1.98815         -156.66         -49.7249        -167.532         -49.6723         -167.31       -0.0213346         143.178
0.613                   -2.01668        -157.196         -49.5136        -169.684         -49.4619        -169.468       -0.0215615         143.098
0.614                   -2.04553        -157.738          -49.303        -171.831         -49.2523        -171.621       -0.0217919         143.018
0.615                    -2.0747        -158.287         -49.0935        -173.972         -49.0437        -173.768       -0.0220259         142.938
0.616                   -2.10418        -158.843          -48.885        -176.109         -48.8362        -175.911       -0.0222634         142.857
0.617                   -2.13399        -159.405         -48.6778        -178.241           -48.63        -178.049       -0.0225046         142.776
0.618                   -2.16413        -159.975          -48.472         179.632         -48.4252         179.817       -0.0227496         142.695
0.619                   -2.19461        -160.552         -48.2678          177.51          -48.222         177.688       -0.0229984         142.613
0.62                    -2.22542        -161.136         -48.0653         175.392         -48.0205         175.563        -0.023251         142.532
0.621                   -2.25658        -161.728         -47.8646         173.278         -47.8209         173.443       -0.0235077          142.45
0.622                   -2.28809        -162.328         -47.6659         171.169         -47.6232         171.327       -0.0237683         142.368
0.623                   -2.31995        -162.935         -47.4692         169.064         -47.4275         169.215       -0.0240331         142.285
0.624                   -2.35217         -163.55         -47.2747         166.964         -47.2341         167.108        -0.024302         142.203
0.625                   -2.38475        -164.173         -47.0825         164.868          -47.043         165.005       -0.0245752          142.12
0.626                   -2.41771        -164.805         -46.8926         162.777         -46.8542         162.907       -0.0248527         142.037
0.627                   -2.45104        -165.445         -46.7053          160.69         -46.6679         160.814       -0.0251347         141.953
0.628                   -2.48476        -166.093         -46.5204         158.608         -46.4842         158.725       -0.0254212          141.87
0.629                   -2.51887         -166.75         -46.3383         156.532         -46.3031         156.641       -0.0257123         141.786
