! TOUCHSTONE file generated by CST MICROWAVE STUDIO
! Date and time: Sat Nov 14 20:03:07 2020
! Project name: Scenario_1_Planar_Body_Tissue_Out_of_Line.cst
! Parameters = {dy1=-242.2; L_HA=400; Ltissue=700; MT=2.54; Rad_Dielectric=30; Rad_Lower=7.3; Rad_Upper=30; Wtissue=700; a_HA=580; a_WG=246; b_HA=500; b_WG=121; c_HA=0; c_WG=187; d_feed=85; dx1=693; h_feed=15; h_lower=18; h_upper=40; hfat=3; hgap=25; hmuscle=50; hskin=1.5}
! Header version: 2018
! Port assignment regex: !\s*Touchstone port\s*([0-9]+)\s*=\s*(CST MWS port|CST DS port)\s*([0-9]+|Zmin|Zmax)\s*\(\"(.*)\"\)(\s*mode\s*([0-9]+))?.*
! Touchstone port assignment:
! Touchstone port 1 = CST MWS port 1 ("")
! Touchstone port 2 = CST MWS port 2 ("")
# GHz S DB R 50
0.5                    -0.181973        -121.647         -62.6307         178.964         -62.6312         178.968      -0.00778761         151.158
0.501                  -0.184738        -122.066         -62.6475         177.728          -62.626         177.611      -0.00785202         151.093
0.502                  -0.187545        -122.488         -62.6612         176.459         -62.6175         176.232      -0.00791685         151.028
0.503                  -0.190396        -122.912         -62.6714         175.159         -62.6056         174.832      -0.00798211         150.962
0.504                  -0.193297        -123.339         -62.6781         173.828         -62.5901         173.411      -0.00804781         150.897
0.505                  -0.196249        -123.769         -62.6809         172.466          -62.571         171.969      -0.00811396         150.832
0.506                  -0.199258        -124.202         -62.6796         171.073          -62.548         170.507      -0.00818057         150.766
0.507                  -0.202327        -124.637          -62.674         169.651         -62.5211         169.026      -0.00824766           150.7
0.508                  -0.205461        -125.076         -62.6639         168.201         -62.4902         167.526      -0.00831522         150.635
0.509                  -0.208665        -125.518         -62.6491         166.723         -62.4551         166.008      -0.00838328         150.569
0.51                   -0.211943        -125.963         -62.6293         165.218         -62.4158         164.473      -0.00845184         150.503
0.511                  -0.215301        -126.411         -62.6045         163.687         -62.3722         162.921      -0.00852091         150.437
0.512                  -0.218744        -126.862         -62.5743         162.132         -62.3241         161.352      -0.00859051         150.371
0.513                  -0.222278        -127.316         -62.5387         160.554         -62.2714         159.769      -0.00866065         150.305
0.514                   -0.22591        -127.774         -62.4975         158.953         -62.2142         158.171      -0.00873134         150.239
0.515                  -0.229645        -128.235         -62.4505         157.332         -62.1523         156.559      -0.00880259         150.173
0.516                  -0.233492          -128.7         -62.3977         155.692         -62.0857         154.934      -0.00887442         150.106
0.517                  -0.237457        -129.168         -62.3389         154.034         -62.0144         153.298      -0.00894684          150.04
0.518                  -0.241549        -129.639         -62.2742         152.359         -61.9382          151.65      -0.00901987         149.973
0.519                  -0.245776        -130.115         -62.2033          150.67         -61.8572         149.991      -0.00909351         149.907
0.52                   -0.250147        -130.594         -62.1263         148.967         -61.7713         148.322      -0.00916778          149.84
0.521                  -0.254671        -131.077         -62.0432         147.251         -61.6806         146.645      -0.00924271         149.773
0.522                   -0.25936        -131.564         -61.9539         145.525         -61.5849         144.959      -0.00931829         149.706
0.523                  -0.264223        -132.055         -61.8584          143.79         -61.4844         143.266      -0.00939456         149.639
0.524                  -0.269273        -132.551         -61.7569         142.046         -61.3791         141.565      -0.00947152         149.572
0.525                  -0.274522         -133.05         -61.6493         140.295         -61.2689         139.859       -0.0095492         149.505
0.526                  -0.279983        -133.554         -61.5356         138.538         -61.1538         138.146      -0.00962761         149.438
0.527                   -0.28567        -134.062          -61.416         136.776          -61.034         136.429      -0.00970678         149.371
0.528                  -0.291599        -134.574         -61.2906          135.01         -60.9094         134.706      -0.00978671         149.303
0.529                  -0.297786        -135.091         -61.1594         133.241         -60.7802         132.979      -0.00986744         149.236
0.53                   -0.304249        -135.613         -61.0225          131.47         -60.6462         131.248      -0.00994897         149.168
0.531                  -0.311005         -136.14         -60.8801         129.696         -60.5077         129.514       -0.0100313           149.1
0.532                  -0.318075        -136.671         -60.7323         127.922         -60.3646         127.775       -0.0101146         149.033
0.533                   -0.32548        -137.207         -60.5791         126.146          -60.217         126.034       -0.0101987         148.965
0.534                  -0.333243        -137.749         -60.4208          124.37          -60.065         124.289       -0.0102837         148.897
0.535                   -0.34139        -138.296         -60.2574         122.593         -59.9086         122.541       -0.0103697         148.829
0.536                  -0.349945        -138.848         -60.0891         120.815         -59.7479         120.789       -0.0104566          148.76
0.537                  -0.358939        -139.405          -59.916         119.037          -59.583         119.034       -0.0105445         148.692
0.538                  -0.368401        -139.968         -59.7382         117.258          -59.414         117.275       -0.0106334         148.624
0.539                  -0.378364        -140.536         -59.5559         115.478         -59.2408         115.513       -0.0107233         148.555
0.54                   -0.388863        -141.111         -59.3692         113.696         -59.0637         113.745       -0.0108144         148.486
0.541                  -0.399938        -141.691         -59.1783         111.912         -58.8826         111.974       -0.0109066         148.418
0.542                  -0.411627        -142.277         -58.9832         110.126         -58.6976         110.196       -0.0109999         148.349
0.543                  -0.423977        -142.869          -58.784         108.336         -58.5088         108.413       -0.0110944          148.28
0.544                  -0.437033        -143.467          -58.581         106.543         -58.3164         106.624       -0.0111901         148.211
0.545                  -0.450848        -144.072         -58.3741         104.744         -58.1202         104.827       -0.0112872         148.142
0.546                  -0.465475        -144.683         -58.1636         102.939         -57.9205         103.022       -0.0113855         148.072
0.547                  -0.480974          -145.3         -57.9495         101.127         -57.7173         101.209       -0.0114852         148.003
0.548                   -0.49741        -145.923          -57.732         99.3067         -57.5107          99.385       -0.0115863         147.933
0.549                  -0.514849        -146.554         -57.5111          97.477         -57.3008         97.5505       -0.0116889         147.864
0.55                   -0.533366         -147.19         -57.2871         95.6367         -57.0876          95.704        -0.011793         147.794
0.551                   -0.55304        -147.833         -57.0599         93.7842         -56.8712         93.8443       -0.0118987         147.724
0.552                  -0.573955        -148.483         -56.8297         91.9181         -56.6518         91.9702        -0.012006         147.654
0.553                  -0.596203        -149.139         -56.5967         90.0369         -56.4294         90.0804        -0.012115         147.584
0.554                  -0.619879        -149.801          -56.361         88.1391         -56.2041         88.1735       -0.0122257         147.514
0.555                  -0.645088        -150.469         -56.1226         86.2229         -55.9761         86.2481       -0.0123383         147.443
0.556                  -0.671939        -151.143         -55.8819         84.2867         -55.7455         84.3026       -0.0124528         147.373
0.557                   -0.70055        -151.823         -55.6388         82.3288         -55.5124         82.3355       -0.0125692         147.302
0.558                  -0.731044        -152.508         -55.3936         80.3472         -55.2769         80.3451       -0.0126877         147.232
0.559                  -0.763551        -153.198         -55.1464         78.3402         -55.0392         78.3298       -0.0128083         147.161
0.56                   -0.798207        -153.892         -54.8975         76.3059         -54.7996         76.2878        -0.012931          147.09
0.561                  -0.835153         -154.59          -54.647         74.2423         -54.5581         74.2174        -0.013056         147.019
0.562                  -0.874534        -155.291         -54.3953         72.1476         -54.3151         72.1167       -0.0131834         146.947
0.563                  -0.916499        -155.994         -54.1425         70.0198         -54.0707          69.984       -0.0133131         146.876
0.564                  -0.961197        -156.698          -53.889          67.857         -53.8253         67.8174       -0.0134453         146.804
0.565                   -1.00877        -157.401          -53.635         65.6573         -53.5791         65.6151         -0.01358         146.733
0.566                   -1.05937        -158.102         -53.3809         63.4189         -53.3325         63.3755       -0.0137174         146.661
0.567                   -1.11312          -158.8         -53.1271         61.1402         -53.0857         61.0967       -0.0138573         146.589
0.568                   -1.17015        -159.493          -52.874         58.8194         -52.8393         58.7773           -0.014         146.517
0.569                   -1.23054        -160.177          -52.622          56.455         -52.5936         56.4156       -0.0141454         146.445
0.57                    -1.29436        -160.852         -52.3717         54.0459         -52.3491         54.0104       -0.0142935         146.373
0.571                   -1.36165        -161.513         -52.1234         51.5908         -52.1062         51.5605       -0.0144444           146.3
0.572                   -1.43239        -162.159         -51.8778         49.0891         -51.8656          49.065       -0.0145981         146.228
0.573                   -1.50649        -162.785         -51.6355         46.5401         -51.6278         46.5233       -0.0147545         146.155
0.574                   -1.58382        -163.389          -51.397         43.9438         -51.3934         43.9352       -0.0149137         146.082
0.575                   -1.66413        -163.966          -51.163         41.3003          -51.163         41.3006       -0.0150755         146.009
0.576                   -1.74709        -164.514         -50.9342         38.6103         -50.9373         38.6202       -0.0152398         145.936
0.577                   -1.83228        -165.027         -50.7111         35.8751         -50.7169         35.8948       -0.0154067         145.863
0.578                   -1.91913        -165.504         -50.4945         33.0964         -50.5025         33.1259        -0.015576         145.789
0.579                   -2.00696        -165.941          -50.285         30.2762         -50.2947         30.3156       -0.0157477         145.716
0.58                    -2.09499        -166.335         -50.0832         27.4176         -50.0942         27.4664       -0.0159214         145.642
0.581                   -2.18229        -166.684         -49.8898         24.5237         -49.9017         24.5814       -0.0160972         145.568
0.582                   -2.26785        -166.988         -49.7052         21.5984         -49.7176         21.6643       -0.0162749         145.494
0.583                    -2.3506        -167.246           -49.53         18.6463         -49.5425         18.7193       -0.0164544          145.42
0.584                    -2.4294         -167.46         -49.3646         15.6721         -49.3769         15.7511       -0.0166355         145.346
0.585                   -2.50314        -167.633         -49.2092          12.681         -49.2211         12.7647        -0.016818         145.271
0.586                   -2.57076        -167.769         -49.0642         9.67868         -49.0755         9.76571       -0.0170019         145.197
0.587                   -2.63128        -167.874         -48.9297         6.67084         -48.9401         6.75976        -0.017187         145.122
0.588                   -2.68391        -167.955         -48.8056         3.66337          -48.815         3.75273       -0.0173733         145.047
0.589                   -2.72801         -168.02         -48.6919        0.662154         -48.7002        0.750546       -0.0175606         144.972
0.59                    -2.76322        -168.076         -48.5883        -2.32706         -48.5956        -2.24097       -0.0177489         144.897
0.591                   -2.78938        -168.134         -48.4947        -5.29871         -48.5009        -5.21614       -0.0179381         144.821
0.592                   -2.80659        -168.202         -48.4105        -8.24759         -48.4157        -8.16961       -0.0181283         144.746
0.593                   -2.81519        -168.288         -48.3354        -11.1689         -48.3395        -11.0964       -0.0183195          144.67
0.594                   -2.81572        -168.401         -48.2686        -14.0582         -48.2719        -13.9919       -0.0185116         144.594
0.595                   -2.80888        -168.545         -48.2098        -16.9116         -48.2122        -16.8522       -0.0187047         144.518
0.596                    -2.7955        -168.728          -48.158        -19.7261         -48.1597        -19.6737       -0.0188989         144.442
0.597                   -2.77649        -168.954         -48.1128        -22.4987         -48.1139        -22.4536       -0.0190943         144.365
0.598                   -2.75279        -169.226         -48.0733        -25.2275         -48.0739        -25.1896        -0.019291         144.288
0.599                   -2.72535        -169.545         -48.0388        -27.9108         -48.0391          -27.88        -0.019489         144.212
0.6                     -2.69508        -169.913         -48.0086        -30.5476         -48.0087        -30.5236       -0.0196885         144.135
0.601                   -2.66285         -170.33          -47.982        -33.1374         -47.9819        -33.1198       -0.0198895         144.057
0.602                   -2.62945        -170.796         -47.9583        -35.6802         -47.9582        -35.6685       -0.0200924          143.98
0.603                   -2.59559         -171.31         -47.9368        -38.1764         -47.9367        -38.1699        -0.020297         143.902
0.604                   -2.56191         -171.87          -47.917        -40.6267         -47.9169        -40.6249       -0.0205037         143.824
0.605                   -2.52896        -172.473         -47.8982        -43.0321         -47.8983        -43.0344       -0.0207125         143.746
0.606                   -2.49722         -173.12         -47.8799        -45.3941         -47.8801        -45.3999       -0.0209236         143.668
0.607                   -2.46708        -173.806         -47.8615        -47.7143         -47.8619        -47.7228       -0.0211371          143.59
0.608                   -2.43889        -174.531         -47.8427        -49.9943         -47.8433        -50.0051       -0.0213531         143.511
0.609                   -2.41292        -175.292          -47.823        -52.2362         -47.8238        -52.2486       -0.0215718         143.432
0.61                    -2.38942        -176.087         -47.8021        -54.4421          -47.803        -54.4556       -0.0217933         143.353
0.611                   -2.36856        -176.915         -47.7795         -56.614         -47.7806        -56.6282       -0.0220177         143.274
0.612                   -2.35051        -177.773         -47.7551        -58.7541         -47.7563        -58.7686       -0.0222451         143.194
0.613                   -2.33539        -178.661         -47.7285        -60.8648         -47.7298        -60.8792       -0.0224758         143.114
0.614                   -2.32331        -179.577         -47.6995        -62.9482         -47.7009        -62.9622       -0.0227097         143.034
0.615                   -2.31437         179.481         -47.6679        -65.0067         -47.6694        -65.0201        -0.022947         142.954
0.616                   -2.30863         178.513         -47.6337        -67.0424         -47.6351         -67.055       -0.0231878         142.873
0.617                   -2.30617         177.521         -47.5966        -69.0576          -47.598        -69.0693       -0.0234322         142.793
0.618                   -2.30704         176.506         -47.5565        -71.0545          -47.558        -71.0651       -0.0236804         142.712
0.619                   -2.31132         175.467         -47.5134        -73.0351         -47.5148        -73.0446       -0.0239323          142.63
0.62                    -2.31905         174.407         -47.4673        -75.0016         -47.4686        -75.0099       -0.0241883         142.549
0.621                   -2.33031         173.325          -47.418        -76.9559         -47.4192        -76.9632       -0.0244482         142.467
0.622                   -2.34516         172.222         -47.3657           -78.9         -47.3668        -78.9062       -0.0247123         142.385
0.623                   -2.36368         171.098         -47.3102        -80.8358         -47.3112         -80.841       -0.0249806         142.303
0.624                   -2.38594         169.954         -47.2516         -82.765         -47.2525        -82.7694       -0.0252533         142.221
0.625                   -2.41203          168.79         -47.1901        -84.6895         -47.1907         -84.693       -0.0255304         142.138
0.626                   -2.44205         167.606         -47.1255        -86.6109          -47.126        -86.6137        -0.025812         142.055
0.627                   -2.47612         166.403          -47.058        -88.5308         -47.0584        -88.5329       -0.0260982         141.972
0.628                   -2.51433          165.18         -46.9876        -90.4507         -46.9879        -90.4523       -0.0263892         141.888
0.629                   -2.55684         163.937         -46.9146         -92.372         -46.9147        -92.3732        -0.026685         141.804
