! TOUCHSTONE file generated by CST MICROWAVE STUDIO
! Date and time: Thu Feb 18 07:37:11 2021
! Project name: Scenario_1_Planar_Body_Tissue_Out_of_Line.cst
! Parameters = {L_HA=400; Ltissue=1000; MT=2.54; Rad_Dielectric=30; Rad_Lower=7.3; Rad_Upper=30; Wtissue=1000; a_HA=580; a_WG=246; b_HA=500; b_WG=121; c_HA=0; c_WG=187; d_feed=85; dx1=346; dy1=259.5; h_feed=15; h_lower=18; h_upper=40; hfat=3; hgap=25; hmuscle=50; hskin=1.5}
! Header version: 2018
! Port assignment regex: !\s*Touchstone port\s*([0-9]+)\s*=\s*(CST MWS port|CST DS port)\s*([0-9]+|Zmin|Zmax)\s*\(\"(.*)\"\)(\s*mode\s*([0-9]+))?.*
! Touchstone port assignment:
! Touchstone port 1 = CST MWS port 1 ("")
! Touchstone port 2 = CST MWS port 2 ("")
# GHz S DB R 50
0.5                    -0.266109        -121.665         -57.6699         11.5653         -57.6701         11.5656      -0.00821886         151.144
0.501                  -0.270321        -121.973         -57.7171         11.1263         -57.7172         11.1262      -0.00823908         151.079
0.502                  -0.274578        -122.282          -57.765         10.6831         -57.7652         10.6826      -0.00826027         151.014
0.503                  -0.278879        -122.593         -57.8137         10.2355          -57.814         10.2345      -0.00828245         150.949
0.504                  -0.283225        -122.905         -57.8632         9.78334         -57.8636          9.7819      -0.00830561         150.884
0.505                  -0.287616        -123.219         -57.9136         9.32659          -57.914         9.32469      -0.00832976         150.819
0.506                  -0.292054        -123.533         -57.9649         8.86512         -57.9654         8.86275      -0.00835493         150.753
0.507                  -0.296538         -123.85         -58.0171         8.39881         -58.0176         8.39596      -0.00838111         150.688
0.508                   -0.30107        -124.167         -58.0702         7.92754         -58.0708          7.9242      -0.00840832         150.622
0.509                  -0.305648        -124.486         -58.1243          7.4512         -58.1249         7.44736      -0.00843657         150.557
0.51                   -0.310275        -124.807         -58.1793         6.96964           -58.18         6.96528      -0.00846586         150.491
0.511                  -0.314951        -125.128         -58.2353         6.48273         -58.2361         6.47785      -0.00849621         150.425
0.512                  -0.319675        -125.452         -58.2924         5.99033         -58.2932         5.98492      -0.00852762         150.359
0.513                   -0.32445        -125.776         -58.3505         5.49229         -58.3514         5.48633      -0.00856011         150.294
0.514                  -0.329274        -126.102         -58.4098         4.98845         -58.4107         4.98194      -0.00859368         150.228
0.515                   -0.33415         -126.43         -58.4701         4.47866         -58.4711         4.47157      -0.00862836         150.161
0.516                  -0.339076        -126.759         -58.5316         3.96274         -58.5326         3.95506      -0.00866414         150.095
0.517                  -0.344055         -127.09         -58.5943         3.44051         -58.5954         3.43224      -0.00870104         150.029
0.518                  -0.349086        -127.422         -58.6582         2.91179         -58.6593          2.9029      -0.00873906         149.962
0.519                  -0.354171        -127.755         -58.7233         2.37638         -58.7246         2.36687      -0.00877823         149.896
0.52                   -0.359309        -128.091         -58.7898         1.83408         -58.7911         1.82392      -0.00881855         149.829
0.521                  -0.364501        -128.427         -58.8575         1.28467         -58.8589         1.27384      -0.00886004         149.763
0.522                  -0.369749        -128.766         -58.9267        0.727913         -58.9281        0.716407       -0.0089027         149.696
0.523                  -0.375052        -129.106         -58.9972        0.163582         -58.9987        0.151377      -0.00894654         149.629
0.524                  -0.380411        -129.447         -59.0692        -0.40858         -59.0708       -0.421501      -0.00899159         149.562
0.525                  -0.385827         -129.79         -59.1427       -0.988838         -59.1444         -1.0025      -0.00903785         149.495
0.526                  -0.391301        -130.135         -59.2178        -1.57747         -59.2195        -1.59189      -0.00908533         149.428
0.527                  -0.396834        -130.481         -59.2944        -2.17478         -59.2963        -2.18997      -0.00913404         149.361
0.528                  -0.402425         -130.83         -59.3727        -2.78107         -59.3746        -2.79706      -0.00918401         149.294
0.529                  -0.408076        -131.179         -59.4527        -3.39667         -59.4547         -3.4135      -0.00923524         149.226
0.53                   -0.413788        -131.531         -59.5345        -4.02195         -59.5365        -4.03962      -0.00928775         149.159
0.531                  -0.419561        -131.884         -59.6181        -4.65726         -59.6202         -4.6758      -0.00934154         149.091
0.532                  -0.425396        -132.239         -59.7035        -5.30299         -59.7057        -5.32245      -0.00939664         149.023
0.533                  -0.431294        -132.596         -59.7908        -5.95958         -59.7931        -5.97997      -0.00945305         148.955
0.534                  -0.437255        -132.954         -59.8802        -6.62746         -59.8825        -6.64881      -0.00951079         148.888
0.535                  -0.443281        -133.314         -59.9716         -7.3071          -59.974        -7.32945      -0.00956988          148.82
0.536                  -0.449372        -133.676         -60.0652        -7.99901         -60.0677        -8.02238      -0.00963033         148.751
0.537                  -0.455529         -134.04         -60.1609        -8.70372         -60.1635        -8.72816      -0.00969215         148.683
0.538                  -0.461753        -134.406         -60.2589         -9.4218         -60.2616        -9.44735      -0.00975536         148.615
0.539                  -0.468044        -134.773         -60.3593        -10.1539         -60.3621        -10.1806      -0.00981998         148.546
0.54                   -0.474404        -135.143         -60.4622        -10.9006          -60.465        -10.9285      -0.00988602         148.478
0.541                  -0.480834        -135.514         -60.5675        -11.6626         -60.5704        -11.6917      -0.00995349         148.409
0.542                  -0.487334        -135.887         -60.6755        -12.4407         -60.6785        -12.4711       -0.0100224          148.34
0.543                  -0.493906        -136.263         -60.7861        -13.2358         -60.7892        -13.2675       -0.0100928         148.272
0.544                   -0.50055         -136.64         -60.8996        -14.0485         -60.9028        -14.0816       -0.0101647         148.203
0.545                  -0.507267        -137.019          -61.016          -14.88         -61.0193        -14.9145       -0.0102381         148.133
0.546                  -0.514059          -137.4         -61.1353        -15.7312         -61.1387        -15.7672       -0.0103129         148.064
0.547                  -0.520925        -137.783         -61.2578        -16.6031         -61.2613        -16.6407       -0.0103894         147.995
0.548                  -0.527869        -138.168         -61.3835        -17.4969          -61.387        -17.5361       -0.0104674         147.926
0.549                  -0.534889        -138.556         -61.5125        -18.4139         -61.5162        -18.4549       -0.0105469         147.856
0.55                   -0.541989        -138.945          -61.645        -19.3555         -61.6487        -19.3982       -0.0106281         147.786
0.551                  -0.549168        -139.337          -61.781        -20.3231         -61.7848        -20.3677       -0.0107108         147.717
0.552                  -0.556427         -139.73         -61.9208        -21.3184         -61.9246        -21.3649       -0.0107952         147.647
0.553                  -0.563769        -140.126         -62.0643         -22.343         -62.0683        -22.3916       -0.0108812         147.577
0.554                  -0.571193        -140.524         -62.2118        -23.3989         -62.2158        -23.4496       -0.0109689         147.506
0.555                  -0.578702        -140.924         -62.3633        -24.4881         -62.3674        -24.5411       -0.0110583         147.436
0.556                  -0.586297        -141.327         -62.5191        -25.6129         -62.5232        -25.6682       -0.0111493         147.366
0.557                  -0.593978        -141.731         -62.6791        -26.7757         -62.6834        -26.8336       -0.0112421         147.295
0.558                  -0.601747        -142.138         -62.8437        -27.9793         -62.8479        -28.0398       -0.0113367         147.225
0.559                  -0.609606        -142.547         -63.0127        -29.2265         -63.0171        -29.2897        -0.011433         147.154
0.56                   -0.617555        -142.959         -63.1865        -30.5206         -63.1909        -30.5867       -0.0115311         147.083
0.561                  -0.625596        -143.373          -63.365        -31.8651         -63.3694        -31.9343        -0.011631         147.012
0.562                  -0.633731        -143.789         -63.5484        -33.2638         -63.5528        -33.3362       -0.0117328         146.941
0.563                  -0.641961        -144.208         -63.7367         -34.721         -63.7411        -34.7968       -0.0118364          146.87
0.564                  -0.650287         -144.63         -63.9299        -36.2412         -63.9343        -36.3208       -0.0119418         146.798
0.565                  -0.658711        -145.053         -64.1281        -37.8297         -64.1324         -37.913       -0.0120492         146.727
0.566                  -0.667234         -145.48         -64.3312        -39.4919         -64.3354        -39.5793       -0.0121585         146.655
0.567                  -0.675858        -145.908         -64.5391         -41.234         -64.5432        -41.3256       -0.0122698         146.583
0.568                  -0.684585         -146.34         -64.7516        -43.0625         -64.7556        -43.1586        -0.012383         146.511
0.569                  -0.693416        -146.774         -64.9685        -44.9846         -64.9723        -45.0855       -0.0124983         146.439
0.57                   -0.702353         -147.21         -65.1893        -47.0083         -65.1929        -47.1141       -0.0126155         146.367
0.571                  -0.711398         -147.65         -65.4137        -49.1418          -65.417        -49.2528       -0.0127348         146.294
0.572                  -0.720551        -148.092         -65.6408        -51.3943         -65.6437        -51.5106       -0.0128562         146.222
0.573                  -0.729816        -148.537         -65.8699        -53.7751         -65.8723         -53.897       -0.0129797         146.149
0.574                  -0.739194        -148.984         -66.0997        -56.2943         -66.1016        -56.4219       -0.0131054         146.076
0.575                  -0.748687        -149.434          -66.329        -58.9619         -66.3302        -59.0954       -0.0132331         146.003
0.576                  -0.758297        -149.888         -66.5559        -61.7881         -66.5564        -61.9275       -0.0133631          145.93
0.577                  -0.768026        -150.344         -66.7784        -64.7826          -66.778        -64.9278       -0.0134953         145.857
0.578                  -0.777876        -150.803         -66.9939        -67.9543         -66.9925        -68.1051       -0.0136298         145.784
0.579                  -0.787848        -151.265         -67.1995        -71.3104         -67.1969        -71.4665       -0.0137665          145.71
0.58                   -0.797946         -151.73         -67.3918         -74.856         -67.3879        -75.0167       -0.0139055         145.636
0.581                  -0.808171        -152.198          -67.567        -78.5925         -67.5616        -78.7573       -0.0140469         145.562
0.582                  -0.818525        -152.669         -67.7209        -82.5177         -67.7139        -82.6854       -0.0141906         145.488
0.583                  -0.829012        -153.143          -67.849        -86.6235         -67.8403         -86.793       -0.0143368         145.414
0.584                  -0.839633         -153.62          -67.947        -90.8962         -67.9364         -91.066       -0.0144854          145.34
0.585                   -0.85039        -154.101         -68.0106        -95.3154         -67.9981        -95.4837       -0.0146364         145.265
0.586                  -0.861287        -154.585          -68.036        -99.8542         -68.0216        -100.019         -0.01479          145.19
0.587                  -0.872325        -155.072         -68.0202         -104.48          -68.004         -104.64       -0.0149461         145.116
0.588                  -0.883508        -155.562         -67.9613        -109.155         -67.9433        -109.308       -0.0151047         145.041
0.589                  -0.894838        -156.056         -67.8583         -113.84         -67.8387        -113.985        -0.015266         144.965
0.59                   -0.906318        -156.554          -67.712        -118.495          -67.691         -118.63       -0.0154299          144.89
0.591                   -0.91795        -157.054         -67.5239        -123.081         -67.5018        -123.206       -0.0155966         144.814
0.592                  -0.929739        -157.559          -67.297        -127.566          -67.274        -127.679       -0.0157659         144.739
0.593                  -0.941686        -158.067         -67.0348        -131.921         -67.0113        -132.023        -0.015938         144.663
0.594                  -0.953795        -158.578         -66.7415        -136.124         -66.7177        -136.214       -0.0161129         144.587
0.595                  -0.966069        -159.094         -66.4217         -140.16         -66.3977         -140.24       -0.0162906          144.51
0.596                  -0.978511        -159.613         -66.0796        -144.021         -66.0557         -144.09       -0.0164713         144.434
0.597                  -0.991125        -160.136         -65.7195        -147.703         -65.6958        -147.762       -0.0166548         144.357
0.598                   -1.00391        -160.662         -65.3453        -151.206          -65.322        -151.256       -0.0168414         144.281
0.599                   -1.01688        -161.193         -64.9606        -154.536         -64.9377        -154.578       -0.0170309         144.203
0.6                     -1.03003        -161.728         -64.5682        -157.698         -64.5458        -157.733       -0.0172235         144.126
0.601                   -1.04337        -162.266         -64.1708        -160.703         -64.1491        -160.731       -0.0174192         144.049
0.602                   -1.05689        -162.809         -63.7707        -163.559         -63.7496        -163.582       -0.0176181         143.971
0.603                   -1.07062        -163.356         -63.3695        -166.277          -63.349        -166.294       -0.0178201         143.893
0.604                   -1.08453        -163.907         -62.9688        -168.866          -62.949        -168.879       -0.0180254         143.815
0.605                   -1.09866        -164.463         -62.5697        -171.337         -62.5505        -171.346        -0.018234         143.737
0.606                   -1.11298        -165.023         -62.1731          -173.7         -62.1545        -173.706        -0.018446         143.659
0.607                   -1.12752        -165.587         -61.7797        -175.963         -61.7618        -175.966       -0.0186613          143.58
0.608                   -1.14228        -166.156         -61.3901        -178.136         -61.3729        -178.136       -0.0188801         143.501
0.609                   -1.15726         -166.73         -61.0047         179.774          -60.988         179.776       -0.0191024         143.422
0.61                    -1.17246        -167.308         -60.6238         177.759         -60.6076         177.763       -0.0193282         143.343
0.611                    -1.1879        -167.891         -60.2474         175.813         -60.2319         175.818       -0.0195577         143.264
0.612                   -1.20357        -168.479         -59.8759         173.929         -59.8608         173.935       -0.0197909         143.184
0.613                   -1.21948        -169.072         -59.5091         172.101         -59.4946         172.109       -0.0200277         143.104
0.614                   -1.23564        -169.669         -59.1471         170.324         -59.1331         170.333       -0.0202684         143.024
0.615                   -1.25205        -170.272           -58.79         168.594         -58.7764         168.603       -0.0205129         142.944
0.616                   -1.26873         -170.88         -58.4375         166.905         -58.4244         166.915       -0.0207613         142.863
0.617                   -1.28566        -171.494         -58.0897         165.255          -58.077         165.265       -0.0210137         142.782
0.618                   -1.30288        -172.112         -57.7465         163.638         -57.7342         163.649       -0.0212701         142.701
0.619                   -1.32037        -172.736         -57.4076         162.053         -57.3958         162.064       -0.0215307          142.62
0.62                    -1.33814        -173.366         -57.0732         160.494         -57.0617         160.506       -0.0217954         142.538
0.621                   -1.35621        -174.001         -56.7429         158.961         -56.7318         158.973       -0.0220643         142.456
0.622                   -1.37458        -174.643         -56.4167          157.45          -56.406         157.462       -0.0223376         142.374
0.623                   -1.39326         -175.29         -56.0945         155.959         -56.0841          155.97       -0.0226153         142.292
0.624                   -1.41225        -175.943         -55.7762         154.485         -55.7661         154.496       -0.0228974         142.209
0.625                   -1.43157        -176.602         -55.4615         153.026         -55.4517         153.038        -0.023184         142.127
0.626                   -1.45122        -177.267         -55.1505         151.581          -55.141         151.592       -0.0234752         142.044
0.627                   -1.47121        -177.939         -54.8429         150.148         -54.8337         150.159       -0.0237712          141.96
0.628                   -1.49155        -178.617         -54.5388         148.724         -54.5299         148.735       -0.0240719         141.877
0.629                   -1.51225        -179.302         -54.2379         147.309         -54.2292          147.32       -0.0243774         141.793
