! TOUCHSTONE file generated by CST MICROWAVE STUDIO
! Date and time: Fri Dec 11 14:17:13 2020
! Project name: Scenario_1_Planar_Body_Tissue_Out_of_Line_v2.cst
! Parameters = {dy1=259.5; L_HA=400; Ltissue=700; MT=2.54; Rad_Dielectric=30; Rad_Lower=7.3; Rad_Upper=30; Wtissue=700; a_HA=580; a_WG=246; b_HA=500; b_WG=121; c_HA=0; c_WG=187; d_feed=85; dx1=520; h_feed=15; h_lower=18; h_upper=40; hfat=3; hgap=25; hmuscle=50; hskin=1.5}
! Header version: 2018
! Port assignment regex: !\s*Touchstone port\s*([0-9]+)\s*=\s*(CST MWS port|CST DS port)\s*([0-9]+|Zmin|Zmax)\s*\(\"(.*)\"\)(\s*mode\s*([0-9]+))?.*
! Touchstone port assignment:
! Touchstone port 1 = CST MWS port 1 ("")
! Touchstone port 2 = CST MWS port 2 ("")
# GHz S DB R 50
0.5                     -0.09392        -121.948         -64.1267        -73.7973         -64.1259        -73.7917      -0.00732795         151.158
0.501                 -0.0972073        -122.405         -63.9219         -74.839         -63.9212        -74.8344      -0.00739381         151.093
0.502                  -0.100746        -122.866         -63.7133        -75.8963         -63.7127        -75.8927      -0.00746043         151.028
0.503                  -0.104553        -123.329         -63.5008          -76.97         -63.5003        -76.9673      -0.00752783         150.962
0.504                  -0.108644        -123.797         -63.2844        -78.0609          -63.284         -78.059      -0.00759605         150.897
0.505                  -0.113039        -124.268          -63.064        -79.1697         -63.0636        -79.1686      -0.00766511         150.831
0.506                  -0.117756        -124.743         -62.8396        -80.2974         -62.8393        -80.2969      -0.00773504         150.766
0.507                  -0.122818        -125.221         -62.6111        -81.4449         -62.6109        -81.4449      -0.00780589           150.7
0.508                  -0.128248        -125.703         -62.3785        -82.6132         -62.3784        -82.6137      -0.00787769         150.634
0.509                  -0.134073        -126.189         -62.1418        -83.8033         -62.1418        -83.8043      -0.00795047         150.568
0.51                   -0.140318         -126.68          -61.901        -85.0164          -61.901        -85.0178      -0.00802429         150.502
0.511                  -0.147016        -127.174         -61.6559        -86.2538          -61.656        -86.2554      -0.00809919         150.436
0.512                  -0.154198        -127.672         -61.4066        -87.5166         -61.4068        -87.5185       -0.0081752          150.37
0.513                    -0.1619        -128.174         -61.1531        -88.8064         -61.1533        -88.8084      -0.00825238         150.304
0.514                   -0.17016         -128.68         -60.8954        -90.1245         -60.8956        -90.1266      -0.00833079         150.238
0.515                   -0.17902        -129.191         -60.6335        -91.4725         -60.6337        -91.4746      -0.00841048         150.172
0.516                  -0.188524        -129.706         -60.3673         -92.852         -60.3675        -92.8541      -0.00849149         150.105
0.517                  -0.198722        -130.224         -60.0969        -94.2648         -60.0972        -94.2669      -0.00857391         150.039
0.518                  -0.209666        -130.747         -59.8224        -95.7128         -59.8227        -95.7148      -0.00865777         149.972
0.519                  -0.221411        -131.274         -59.5438        -97.1979         -59.5441        -97.1998      -0.00874317         149.905
0.52                   -0.234019        -131.805         -59.2612        -98.7222         -59.2614        -98.7239      -0.00883015         149.839
0.521                  -0.247553         -132.34         -58.9747        -100.288         -58.9749        -100.289      -0.00891879         149.772
0.522                  -0.262083        -132.879         -58.6843        -101.897         -58.6845        -101.898      -0.00900917         149.705
0.523                  -0.277682        -133.421         -58.3903        -103.552         -58.3905        -103.553      -0.00910135         149.638
0.524                  -0.294427        -133.966         -58.0929        -105.256          -58.093        -105.257      -0.00919541         149.571
0.525                  -0.312396        -134.514         -57.7922        -107.011         -57.7923        -107.011      -0.00929143         149.503
0.526                  -0.331674        -135.065         -57.4885        -108.819         -57.4885         -108.82      -0.00938947         149.436
0.527                  -0.352346        -135.617         -57.1821        -110.685         -57.1821        -110.685      -0.00948961         149.369
0.528                  -0.374495        -136.171         -56.8733        -112.609         -56.8732        -112.609       -0.0095919         149.301
0.529                  -0.398208        -136.726         -56.5626        -114.596         -56.5624        -114.595      -0.00969641         149.234
0.53                   -0.423563         -137.28         -56.2503        -116.647         -56.2501        -116.647      -0.00980319         149.166
0.531                  -0.450635        -137.833         -55.9371        -118.766         -55.9368        -118.766      -0.00991226         149.098
0.532                  -0.479488        -138.384         -55.6235        -120.956         -55.6231        -120.955       -0.0100237          149.03
0.533                  -0.510172        -138.932         -55.3102        -123.218         -55.3097        -123.218       -0.0101374         148.962
0.534                  -0.542716        -139.474         -54.9978        -125.556         -54.9973        -125.555       -0.0102534         148.894
0.535                  -0.577125         -140.01         -54.6873         -127.97         -54.6867         -127.97       -0.0103717         148.826
0.536                  -0.613372        -140.538         -54.3794        -130.463         -54.3788        -130.463       -0.0104922         148.758
0.537                  -0.651388        -141.055         -54.0753        -133.036         -54.0746        -133.036       -0.0106147          148.69
0.538                   -0.69106        -141.561         -53.7759        -135.689         -53.7751        -135.689       -0.0107392         148.621
0.539                  -0.732218        -142.052         -53.4822        -138.422         -53.4814        -138.422       -0.0108655         148.553
0.54                   -0.774634        -142.527         -53.1955        -141.234         -53.1947        -141.234       -0.0109934         148.484
0.541                  -0.818014        -142.985          -52.917        -144.122         -52.9161        -144.123       -0.0111226         148.416
0.542                  -0.861997        -143.423         -52.6478        -147.084         -52.6469        -147.085       -0.0112528         148.347
0.543                  -0.906158         -143.84         -52.3891        -150.115         -52.3882        -150.117       -0.0113839         148.278
0.544                   -0.95001        -144.235         -52.1421        -153.211         -52.1411        -153.213       -0.0115154         148.209
0.545                  -0.993023        -144.609         -51.9077        -156.364         -51.9068        -156.367       -0.0116471          148.14
0.546                   -1.03463         -144.96         -51.6871        -159.568         -51.6862        -159.571       -0.0117787         148.071
0.547                   -1.07427        -145.291         -51.4809        -162.814         -51.4801        -162.817       -0.0119099         148.002
0.548                   -1.11137        -145.603         -51.2899        -166.092         -51.2892        -166.095       -0.0120403         147.933
0.549                   -1.14542        -145.898         -51.1145        -169.392         -51.1138        -169.395       -0.0121698         147.863
0.55                    -1.17598        -146.179         -50.9549        -172.705         -50.9544        -172.708       -0.0122983         147.794
0.551                    -1.2027        -146.451         -50.8113        -176.019         -50.8108        -176.022       -0.0124254         147.724
0.552                   -1.22533        -146.717         -50.6834        -179.325          -50.683        -179.328       -0.0125513         147.654
0.553                   -1.24374        -146.981         -50.5708         177.387         -50.5705         177.385       -0.0126758         147.585
0.554                   -1.25793        -147.248         -50.4729         174.128         -50.4728         174.126       -0.0127989         147.515
0.555                   -1.26803        -147.522         -50.3891         170.906          -50.389         170.905       -0.0129209         147.445
0.556                   -1.27424        -147.807         -50.3183         167.728         -50.3182         167.727       -0.0130417         147.375
0.557                   -1.27687        -148.105         -50.2595         164.601         -50.2595         164.601       -0.0131615         147.304
0.558                   -1.27628        -148.421         -50.2118          161.53         -50.2118         161.531       -0.0132806         147.234
0.559                   -1.27288        -148.755         -50.1738          158.52         -50.1739         158.521       -0.0133991         147.163
0.56                    -1.26711         -149.11         -50.1445         155.574         -50.1446         155.576       -0.0135173         147.093
0.561                    -1.2594        -149.487         -50.1228         152.694         -50.1228         152.697       -0.0136354         147.022
0.562                   -1.25016        -149.887         -50.1074         149.881         -50.1074         149.885       -0.0137536         146.951
0.563                   -1.23981        -150.309         -50.0973         147.136         -50.0973         147.141       -0.0138722          146.88
0.564                   -1.22871        -150.753         -50.0915         144.459         -50.0915         144.464       -0.0139914         146.808
0.565                   -1.21718         -151.22         -50.0891         141.848         -50.0891         141.854       -0.0141114         146.737
0.566                   -1.20553        -151.709         -50.0892         139.301         -50.0891         139.308       -0.0142324         146.666
0.567                   -1.19402        -152.218         -50.0909         136.818         -50.0908         136.825       -0.0143546         146.594
0.568                   -1.18285        -152.748         -50.0936         134.395         -50.0934         134.402       -0.0144782         146.522
0.569                   -1.17222        -153.296         -50.0967          132.03         -50.0964         132.037       -0.0146033          146.45
0.57                    -1.16228        -153.863         -50.0995          129.72         -50.0991         129.728         -0.01473         146.378
0.571                   -1.15315        -154.447         -50.1016         127.463         -50.1012          127.47       -0.0148585         146.306
0.572                   -1.14496        -155.048         -50.1025         125.255          -50.102         125.263       -0.0149888         146.233
0.573                   -1.13777        -155.664         -50.1019         123.094         -50.1013         123.102       -0.0151212         146.161
0.574                   -1.13165        -156.296         -50.0994         120.977         -50.0988         120.985       -0.0152556         146.088
0.575                   -1.12667        -156.941         -50.0948         118.901         -50.0941         118.908       -0.0153922         146.015
0.576                   -1.12286        -157.601         -50.0879         116.863         -50.0871          116.87        -0.015531         145.942
0.577                   -1.12025        -158.273         -50.0784         114.861         -50.0776         114.867        -0.015672         145.869
0.578                   -1.11887        -158.958         -50.0662         112.891         -50.0654         112.898       -0.0158154         145.796
0.579                   -1.11874        -159.655         -50.0512         110.952         -50.0504         110.958       -0.0159611         145.722
0.58                    -1.11988        -160.364         -50.0333         109.041         -50.0325         109.047       -0.0161093         145.649
0.581                   -1.12231        -161.084         -50.0125         107.157         -50.0116         107.162       -0.0162599         145.575
0.582                   -1.12603        -161.816         -49.9886         105.295         -49.9877           105.3        -0.016413         145.501
0.583                   -1.13107        -162.559         -49.9617         103.456         -49.9608          103.46       -0.0165686         145.427
0.584                   -1.13743        -163.312         -49.9318         101.636         -49.9309          101.64       -0.0167267         145.353
0.585                   -1.14513        -164.076         -49.8988         99.8343         -49.8979         99.8374       -0.0168875         145.278
0.586                    -1.1542         -164.85         -49.8627         98.0486         -49.8619         98.0513       -0.0170508         145.204
0.587                   -1.16463        -165.635         -49.8237         96.2775          -49.823         96.2797       -0.0172167         145.129
0.588                   -1.17646         -166.43         -49.7817         94.5195          -49.781         94.5212       -0.0173853         145.054
0.589                   -1.18972        -167.236         -49.7367         92.7731         -49.7361         92.7744       -0.0175565         144.979
0.59                    -1.20442        -168.052         -49.6889         91.0369         -49.6884         91.0378       -0.0177304         144.904
0.591                   -1.22059        -168.878         -49.6382         89.3097         -49.6378         89.3103        -0.017907         144.829
0.592                   -1.23828        -169.715         -49.5847         87.5903         -49.5844         87.5906       -0.0180863         144.753
0.593                   -1.25752        -170.562         -49.5286         85.8776         -49.5283         85.8776       -0.0182683         144.677
0.594                   -1.27834         -171.42         -49.4697         84.1704         -49.4696         84.1702       -0.0184531         144.601
0.595                    -1.3008        -172.288         -49.4083         82.4678         -49.4082         82.4675       -0.0186406         144.525
0.596                   -1.32495        -173.167         -49.3443         80.7689         -49.3444         80.7684        -0.018831         144.449
0.597                   -1.35084        -174.057         -49.2779         79.0727          -49.278         79.0722       -0.0190241         144.373
0.598                   -1.37854        -174.958          -49.209         77.3784         -49.2093          77.378         -0.01922         144.296
0.599                    -1.4081         -175.87         -49.1378         75.6852         -49.1382         75.6849       -0.0194188         144.219
0.6                      -1.4396        -176.793         -49.0644         73.9924         -49.0648         73.9922       -0.0196205         144.142
0.601                   -1.47311        -177.727         -48.9887         72.2992         -48.9892         72.2992        -0.019825         144.065
0.602                   -1.50873        -178.672         -48.9109          70.605         -48.9115         70.6052       -0.0200324         143.988
0.603                   -1.54652        -179.629          -48.831          68.909         -48.8317         68.9095       -0.0202427          143.91
0.604                   -1.58661         179.403         -48.7491         67.2107         -48.7499         67.2115        -0.020456         143.832
0.605                   -1.62907         178.424         -48.6652         65.5094         -48.6661         65.5106       -0.0206722         143.754
0.606                   -1.67403         177.433         -48.5795         63.8045         -48.5804         63.8061       -0.0208914         143.676
0.607                   -1.72159          176.43         -48.4919         62.0955         -48.4928         62.0975       -0.0211136         143.598
0.608                   -1.77189         175.416         -48.4025         60.3817         -48.4035         60.3842       -0.0213388         143.519
0.609                   -1.82506          174.39         -48.3115         58.6627         -48.3125         58.6657       -0.0215671          143.44
0.61                    -1.88123         173.352         -48.2188         56.9379         -48.2198         56.9414       -0.0217984         143.361
0.611                   -1.94055         172.303         -48.1245         55.2068         -48.1256         55.2107       -0.0220328         143.282
0.612                   -2.00318         171.243         -48.0288         53.4688         -48.0298         53.4731       -0.0222703         143.203
0.613                    -2.0693         170.172         -47.9316         51.7234         -47.9326         51.7281        -0.022511         143.123
0.614                   -2.13906          169.09          -47.833         49.9701          -47.834         49.9752       -0.0227548         143.043
0.615                   -2.21267         167.997         -47.7331         48.2084         -47.7341         48.2138       -0.0230019         142.963
0.616                   -2.29031         166.894          -47.632         46.4377         -47.6329         46.4435       -0.0232522         142.883
0.617                    -2.3722         165.781         -47.5297         44.6576         -47.5306         44.6636       -0.0235057         142.802
0.618                   -2.45854         164.658         -47.4264         42.8675         -47.4272         42.8738       -0.0237625         142.721
0.619                   -2.54957         163.527         -47.3221          41.067         -47.3228         41.0734       -0.0240227          142.64
0.62                    -2.64551         162.388         -47.2168         39.2556         -47.2175         39.2621       -0.0242862         142.559
0.621                   -2.74663         161.242         -47.1108         37.4327         -47.1114         37.4393       -0.0245532         142.478
0.622                   -2.85317         160.089          -47.004          35.598         -47.0046         35.6046       -0.0248236         142.396
0.623                    -2.9654         158.932         -46.8967         33.7509         -46.8972         33.7575       -0.0250974         142.314
0.624                    -3.0836          157.77         -46.7888         31.8911         -46.7893         31.8975       -0.0253748         142.232
0.625                   -3.20805         156.607         -46.6806         30.0182          -46.681         30.0244       -0.0256558         142.149
0.626                   -3.33904         155.442         -46.5721         28.1317         -46.5724         28.1376       -0.0259404         142.067
0.627                   -3.47686         154.279         -46.4635         26.2313         -46.4638         26.2369       -0.0262286         141.984
0.628                   -3.62184         153.118         -46.3549         24.3167         -46.3551          24.322       -0.0265206           141.9
0.629                   -3.77425         151.964         -46.2465         22.3878         -46.2466         22.3926       -0.0268164         141.817
