! TOUCHSTONE file generated by CST MICROWAVE STUDIO
! Date and time: Sat Nov 14 20:03:14 2020
! Project name: Scenario_1_Planar_Body_Tissue_Out_of_Line.cst
! Parameters = {dy1=-259.5; L_HA=400; Ltissue=700; MT=2.54; Rad_Dielectric=30; Rad_Lower=7.3; Rad_Upper=30; Wtissue=700; a_HA=580; a_WG=246; b_HA=500; b_WG=121; c_HA=0; c_WG=187; d_feed=85; dx1=693; h_feed=15; h_lower=18; h_upper=40; hfat=3; hgap=25; hmuscle=50; hskin=1.5}
! Header version: 2018
! Port assignment regex: !\s*Touchstone port\s*([0-9]+)\s*=\s*(CST MWS port|CST DS port)\s*([0-9]+|Zmin|Zmax)\s*\(\"(.*)\"\)(\s*mode\s*([0-9]+))?.*
! Touchstone port assignment:
! Touchstone port 1 = CST MWS port 1 ("")
! Touchstone port 2 = CST MWS port 2 ("")
# GHz S DB R 50
0.5                    -0.179891        -121.659         -62.8222         176.976         -62.8222         176.977      -0.00776289         151.158
0.501                  -0.182791        -122.075         -62.7218         175.152         -62.7219         175.153      -0.00782354         151.093
0.502                  -0.185723        -122.495         -62.6213         173.319         -62.6215          173.32      -0.00788474         151.028
0.503                  -0.188691        -122.917         -62.5207         171.478         -62.5209          171.48      -0.00794651         150.963
0.504                    -0.1917        -123.342         -62.4198         169.631         -62.4201         169.634      -0.00800887         150.897
0.505                  -0.194753         -123.77         -62.3189         167.778         -62.3192         167.781      -0.00807181         150.832
0.506                  -0.197854          -124.2         -62.2178         165.918         -62.2182         165.922      -0.00813535         150.766
0.507                  -0.201008        -124.634         -62.1167         164.055         -62.1171         164.059      -0.00819951         150.701
0.508                   -0.20422        -125.071         -62.0154         162.187         -62.0159         162.191      -0.00826428         150.635
0.509                  -0.207495        -125.511         -61.9141         160.315         -61.9146          160.32      -0.00832969         150.569
0.51                   -0.210839        -125.954         -61.8127         158.442         -61.8132         158.447      -0.00839573         150.504
0.511                  -0.214256          -126.4         -61.7112         156.566         -61.7117         156.572      -0.00846243         150.438
0.512                  -0.217753         -126.85         -61.6096          154.69         -61.6101         154.696       -0.0085298         150.372
0.513                  -0.221337        -127.303         -61.5079         152.814         -61.5084          152.82      -0.00859784         150.306
0.514                  -0.225014        -127.759         -61.4061         150.938         -61.4065         150.945      -0.00866657          150.24
0.515                   -0.22879        -128.219          -61.304         149.063         -61.3045          149.07        -0.008736         150.173
0.516                  -0.232675        -128.682         -61.2018         147.191         -61.2022         147.198      -0.00880615         150.107
0.517                  -0.236675        -129.149         -61.0993         145.322         -61.0997         145.329      -0.00887702         150.041
0.518                  -0.240799         -129.62         -60.9964         143.456         -60.9968         143.464      -0.00894862         149.974
0.519                  -0.245056        -130.094         -60.8932         141.595         -60.8936         141.603      -0.00902099         149.908
0.52                   -0.249456        -130.573         -60.7896         139.739         -60.7899         139.747      -0.00909411         149.841
0.521                  -0.254009        -131.055         -60.6854         137.889         -60.6857         137.897      -0.00916802         149.774
0.522                  -0.258725        -131.541         -60.5807         136.045         -60.5809         136.053      -0.00924273         149.707
0.523                  -0.263617        -132.032         -60.4752         134.208         -60.4755         134.216      -0.00931824          149.64
0.524                  -0.268697        -132.526          -60.369         132.379         -60.3692         132.387      -0.00939458         149.573
0.525                  -0.273976        -133.025         -60.2619         130.557         -60.2621         130.565      -0.00947177         149.506
0.526                  -0.279471        -133.528         -60.1538         128.744         -60.1539         128.752      -0.00954981         149.439
0.527                  -0.285195        -134.036         -60.0446          126.94         -60.0447         126.948      -0.00962873         149.372
0.528                  -0.291164        -134.548         -59.9342         125.145         -59.9342         125.152      -0.00970854         149.304
0.529                  -0.297395        -135.064         -59.8224         123.359         -59.8224         123.366      -0.00978927         149.237
0.53                   -0.303907        -135.586         -59.7092         121.583         -59.7092          121.59      -0.00987092         149.169
0.531                  -0.310718        -136.112         -59.5943         119.817         -59.5943         119.823      -0.00995353         149.102
0.532                   -0.31785        -136.643         -59.4777          118.06         -59.4776         118.066       -0.0100371         149.034
0.533                  -0.325325         -137.18         -59.3592         116.313         -59.3591         116.319       -0.0101217         148.966
0.534                  -0.333166        -137.721         -59.2386         114.576         -59.2385         114.581       -0.0102073         148.898
0.535                  -0.341399        -138.268         -59.1159         112.848         -59.1158         112.853       -0.0102939          148.83
0.536                  -0.350051        -138.819         -58.9909         111.129         -58.9907         111.134       -0.0103816         148.762
0.537                  -0.359152        -139.377         -58.8634         109.418         -58.8632         109.423       -0.0104703         148.694
0.538                  -0.368732         -139.94         -58.7332         107.716          -58.733         107.721       -0.0105602         148.625
0.539                  -0.378826        -140.508         -58.6003         106.022         -58.6001         106.026       -0.0106512         148.557
0.54                    -0.38947        -141.082         -58.4644         104.334         -58.4642         104.338       -0.0107434         148.488
0.541                  -0.400702        -141.662         -58.3255         102.653         -58.3253         102.656       -0.0108367         148.419
0.542                  -0.412564        -142.248         -58.1834         100.977         -58.1832          100.98       -0.0109313         148.351
0.543                  -0.425101         -142.84         -58.0379         99.3052         -58.0377          99.308       -0.0110272         148.282
0.544                   -0.43836        -143.438         -57.8889         97.6369         -57.8887         97.6394       -0.0111243         148.213
0.545                  -0.452394        -144.043         -57.7364         95.9708         -57.7362         95.9729       -0.0112227         148.144
0.546                  -0.467258        -144.653         -57.5801         94.3054         -57.5799         94.3073       -0.0113225         148.074
0.547                   -0.48301         -145.27           -57.42         92.6395         -57.4198         92.6411       -0.0114237         148.005
0.548                  -0.499715        -145.893         -57.2559         90.9716         -57.2558         90.9729       -0.0115264         147.936
0.549                  -0.517441        -146.522         -57.0878         89.3001         -57.0877         89.3011       -0.0116305         147.866
0.55                   -0.536261        -147.157         -56.9156         87.6232         -56.9155          87.624       -0.0117361         147.796
0.551                  -0.556253        -147.799         -56.7393         85.9391         -56.7392         85.9398       -0.0118432         147.727
0.552                  -0.577499        -148.447         -56.5587          84.246         -56.5586         84.2465        -0.011952         147.657
0.553                  -0.600091        -149.101         -56.3739         82.5419         -56.3738         82.5422       -0.0120624         147.587
0.554                   -0.62412        -149.761         -56.1848         80.8245         -56.1848         80.8247       -0.0121746         147.516
0.555                  -0.649689        -150.427         -55.9915         79.0918         -55.9915         79.0919       -0.0122884         147.446
0.556                  -0.676903        -151.099          -55.794         77.3414         -55.7939         77.3414       -0.0124041         147.376
0.557                  -0.705875        -151.775         -55.5922          75.571         -55.5923         75.5709       -0.0125216         147.305
0.558                  -0.736721        -152.457         -55.3865         73.7781         -55.3865          73.778        -0.012641         147.235
0.559                  -0.769565        -153.142         -55.1767         71.9602         -55.1768         71.9601       -0.0127624         147.164
0.56                   -0.804532        -153.832         -54.9631         70.1148         -54.9632         70.1146       -0.0128858         147.093
0.561                  -0.841755        -154.524         -54.7459         68.2392          -54.746         68.2391       -0.0130113         147.022
0.562                  -0.881365        -155.219         -54.5253         66.3309         -54.5254         66.3308       -0.0131389         146.951
0.563                  -0.923498        -155.915         -54.3015         64.3873         -54.3016         64.3871       -0.0132687          146.88
0.564                  -0.968283        -156.611         -54.0748         62.4057         -54.0749         62.4056       -0.0134007         146.808
0.565                   -1.01585        -157.306         -53.8455         60.3836         -53.8456         60.3836        -0.013535         146.737
0.566                   -1.06632        -157.999         -53.6141         58.3186         -53.6142         58.3186       -0.0136716         146.665
0.567                    -1.1198        -158.687          -53.381         56.2083         -53.3811         56.2084       -0.0138107         146.593
0.568                   -1.17637        -159.369         -53.1467         54.0506         -53.1468         54.0507       -0.0139521         146.521
0.569                   -1.23612        -160.043         -52.9116         51.8434         -52.9117         51.8436       -0.0140959         146.449
0.57                    -1.29906        -160.706         -52.6764         49.5851         -52.6765         49.5853       -0.0142422         146.377
0.571                   -1.36521        -161.356         -52.4416         47.2741         -52.4417         47.2743        -0.014391         146.305
0.572                   -1.43451         -161.99          -52.208         44.9093         -52.2081         44.9096       -0.0145423         146.232
0.573                   -1.50685        -162.604         -51.9762         42.4902         -51.9763         42.4905       -0.0146961          146.16
0.574                   -1.58206        -163.197          -51.747         40.0164         -51.7471         40.0167       -0.0148523         146.087
0.575                   -1.65988        -163.764         -51.5212         37.4881         -51.5212         37.4885       -0.0150109         146.014
0.576                   -1.73997        -164.302         -51.2995         34.9063         -51.2995         34.9066       -0.0151719         145.941
0.577                   -1.82189        -164.809         -51.0826         32.2723         -51.0827         32.2726       -0.0153353         145.868
0.578                    -1.9051         -165.28         -50.8715         29.5882         -50.8715         29.5885       -0.0155009         145.794
0.579                   -1.98895        -165.715         -50.6668         26.8566         -50.6669         26.8569       -0.0156687         145.721
0.58                     -2.0727         -166.11         -50.4694         24.0809         -50.4693         24.0811       -0.0158386         145.647
0.581                   -2.15551        -166.464         -50.2797          21.265         -50.2797         21.2652       -0.0160105         145.574
0.582                   -2.23647        -166.777         -50.0985         18.4135         -50.0985         18.4136       -0.0161843           145.5
0.583                   -2.31462         -167.05         -49.9263         15.5313         -49.9263         15.5314       -0.0163598         145.426
0.584                   -2.38896        -167.284         -49.7636         12.6241         -49.7636         12.6241        -0.016537         145.352
0.585                   -2.45853        -167.481         -49.6106         9.69758         -49.6106         9.69758       -0.0167158         145.277
0.586                    -2.5224        -167.647         -49.4676           6.758         -49.4676         6.75795        -0.016896         145.203
0.587                   -2.57977        -167.786         -49.3346         3.81155         -49.3346         3.81145       -0.0170776         145.128
0.588                   -2.62994        -167.903         -49.2118        0.864472         -49.2118        0.864339       -0.0172604         145.053
0.589                   -2.67241        -168.008         -49.0988         -2.0771         -49.0988        -2.07725       -0.0174444         144.978
0.59                    -2.70685        -168.106         -48.9956        -5.00726         -48.9956        -5.00744       -0.0176296         144.903
0.591                   -2.73314        -168.206         -48.9016        -7.92047         -48.9016        -7.92065       -0.0178159         144.828
0.592                   -2.75138        -168.315         -48.8166        -10.8116         -48.8166        -10.8118       -0.0180032         144.753
0.593                   -2.76186        -168.441         -48.7399         -13.676         -48.7399        -13.6762       -0.0181917         144.677
0.594                   -2.76502         -168.59         -48.6709        -16.5096          -48.671        -16.5098       -0.0183812         144.601
0.595                   -2.76148        -168.769         -48.6091         -19.309         -48.6092        -19.3091       -0.0185719         144.525
0.596                   -2.75195        -168.982         -48.5538        -22.0713         -48.5539        -22.0713       -0.0187638         144.449
0.597                    -2.7372        -169.234         -48.5043        -24.7941         -48.5043        -24.7941       -0.0189569         144.373
0.598                   -2.71806        -169.527         -48.4598        -27.4758         -48.4599        -27.4757       -0.0191514         144.296
0.599                   -2.69536        -169.864         -48.4198        -30.1152         -48.4199        -30.1151       -0.0193473         144.219
0.6                     -2.66991        -170.246         -48.3835        -32.7118         -48.3835        -32.7115       -0.0195447         144.143
0.601                   -2.64247        -170.673         -48.3502        -35.2652         -48.3503        -35.2649       -0.0197439         144.065
0.602                   -2.61378        -171.145         -48.3194        -37.7758         -48.3195        -37.7754       -0.0199447         143.988
0.603                   -2.58449        -171.661         -48.2904        -40.2441         -48.2905        -40.2436       -0.0201475         143.911
0.604                   -2.55518        -172.221         -48.2628        -42.6711         -48.2629        -42.6705       -0.0203524         143.833
0.605                   -2.52639        -172.823         -48.2359        -45.0579          -48.236        -45.0573       -0.0205593         143.755
0.606                   -2.49856        -173.465         -48.2094        -47.4059         -48.2095        -47.4052       -0.0207686         143.677
0.607                    -2.4721        -174.146         -48.1828        -49.7168         -48.1829         -49.716       -0.0209803         143.599
0.608                   -2.44733        -174.863         -48.1557        -51.9921         -48.1558        -51.9912       -0.0211945          143.52
0.609                   -2.42456        -175.616         -48.1277        -54.2337         -48.1278        -54.2328       -0.0214114         143.441
0.61                    -2.40402        -176.402         -48.0987        -56.4436         -48.0987        -56.4426        -0.021631         143.362
0.611                   -2.38591        -177.221         -48.0681        -58.6236         -48.0682        -58.6226       -0.0218536         143.283
0.612                   -2.37042        -178.069         -48.0359        -60.7758          -48.036        -60.7747       -0.0220793         143.204
0.613                   -2.35767        -178.947         -48.0019         -62.902         -48.0019        -62.9009        -0.022308         143.124
0.614                   -2.34781        -179.852         -47.9658        -65.0044         -47.9658        -65.0033       -0.0225401         143.044
0.615                   -2.34093         179.217         -47.9275        -67.0848         -47.9275        -67.0836       -0.0227755         142.964
0.616                   -2.33713          178.26         -47.8868        -69.1451         -47.8868         -69.144       -0.0230144         142.884
0.617                   -2.33649         177.278         -47.8437        -71.1874         -47.8437        -71.1863       -0.0232568         142.803
0.618                    -2.3391         176.273         -47.7981        -73.2135          -47.798        -73.2124        -0.023503         142.723
0.619                   -2.34502         175.246         -47.7498        -75.2251         -47.7498         -75.224        -0.023753         142.641
0.62                    -2.35434         174.196          -47.699        -77.2241          -47.699         -77.223       -0.0240068          142.56
0.621                   -2.36713         173.124         -47.6455        -79.2122         -47.6455        -79.2111       -0.0242647         142.479
0.622                   -2.38347         172.031         -47.5893         -81.191         -47.5893        -81.1899       -0.0245266         142.397
0.623                   -2.40344         170.918         -47.5305        -83.1622         -47.5304        -83.1611       -0.0247928         142.315
0.624                   -2.42713         169.784         -47.4689        -85.1273         -47.4689        -85.1263       -0.0250632         142.233
0.625                   -2.45465         168.631         -47.4048        -87.0879         -47.4047        -87.0869        -0.025338          142.15
0.626                   -2.48608         167.458         -47.3381        -89.0453          -47.338        -89.0444       -0.0256172         142.067
0.627                   -2.52156         166.265         -47.2688        -91.0012         -47.2687        -91.0002       -0.0259011         141.984
0.628                    -2.5612         165.053          -47.197        -92.9566         -47.1969        -92.9558       -0.0261896         141.901
0.629                   -2.60514         163.822         -47.1229        -94.9131         -47.1228        -94.9123       -0.0264828         141.817
