! TOUCHSTONE file generated by CST MICROWAVE STUDIO
! Date and time: Mon Nov 30 08:09:34 2020
! Project name: Scenario_1_Planar_Body_Tissue_Out_of_Line.cst
! Parameters = {dy1=259.5; L_HA=400; Ltissue=700; MT=2.54; Rad_Dielectric=30; Rad_Lower=7.3; Rad_Upper=30; Wtissue=700; a_HA=580; a_WG=246; b_HA=500; b_WG=121; c_HA=0; c_WG=187; d_feed=85; dx1=866; h_feed=15; h_lower=18; h_upper=40; hfat=3; hgap=25; hmuscle=50; hskin=1.5}
! Header version: 2018
! Port assignment regex: !\s*Touchstone port\s*([0-9]+)\s*=\s*(CST MWS port|CST DS port)\s*([0-9]+|Zmin|Zmax)\s*\(\"(.*)\"\)(\s*mode\s*([0-9]+))?.*
! Touchstone port assignment:
! Touchstone port 1 = CST MWS port 1 ("")
! Touchstone port 2 = CST MWS port 2 ("")
# GHz S DB R 50
0.5                    -0.120688        -122.091         -64.8219         87.9965         -64.8204         88.0016      -0.00750596         151.159
0.501                  -0.126931        -122.547         -64.5804         86.1767          -64.579         86.1796      -0.00757621         151.093
0.502                  -0.133577        -123.006         -64.3355         84.3174         -64.3341         84.3183      -0.00764761         151.028
0.503                  -0.140652        -123.467         -64.0874         82.4167          -64.086         82.4157      -0.00772018         150.963
0.504                  -0.148186         -123.93         -63.8363         80.4727          -63.835           80.47      -0.00779397         150.897
0.505                   -0.15621        -124.397         -63.5824         78.4834         -63.5812         78.4792      -0.00786901         150.832
0.506                  -0.164753        -124.865         -63.3261         76.4468         -63.3249         76.4414      -0.00794533         150.766
0.507                   -0.17385        -125.336         -63.0675         74.3611         -63.0665         74.3545      -0.00802297         150.701
0.508                   -0.18353        -125.809         -62.8072         72.2242         -62.8062         72.2168      -0.00810196         150.635
0.509                  -0.193827        -126.284         -62.5454         70.0344         -62.5446         70.0263      -0.00818231         150.569
0.51                    -0.20477         -126.76         -62.2827         67.7898          -62.282         67.7812      -0.00826403         150.503
0.511                  -0.216388        -127.238         -62.0195         65.4887         -62.0189         65.4798      -0.00834714         150.437
0.512                  -0.228706        -127.716         -61.7564         63.1297         -61.7559         63.1207      -0.00843163         150.371
0.513                  -0.241743        -128.196         -61.4939         60.7115         -61.4935         60.7026      -0.00851748         150.305
0.514                  -0.255516        -128.675         -61.2327         58.2331         -61.2324         58.2243      -0.00860468         150.239
0.515                   -0.27003        -129.154         -60.9734         55.6937         -60.9732         55.6854      -0.00869317         150.172
0.516                  -0.285281        -129.632         -60.7169         53.0932         -60.7168         53.0853       -0.0087829         150.106
0.517                  -0.301255        -130.108         -60.4638         50.4315         -60.4637         50.4243      -0.00887381          150.04
0.518                  -0.317924        -130.582         -60.2149         47.7095         -60.2149          47.703       -0.0089658         149.973
0.519                  -0.335243        -131.054         -59.9711         44.9283         -59.9712         44.9226      -0.00905878         149.907
0.52                    -0.35315        -131.522         -59.7332         42.0898         -59.7333         42.0849      -0.00915264          149.84
0.521                  -0.371566        -131.986         -59.5021         39.1964         -59.5022         39.1924      -0.00924725         149.773
0.522                  -0.390392        -132.446         -59.2785         36.2514         -59.2785         36.2482      -0.00934249         149.706
0.523                  -0.409511        -132.902         -59.0631         33.2586         -59.0632         33.2563      -0.00943823         149.639
0.524                  -0.428789        -133.351         -58.8569         30.2227         -58.8568         30.2212      -0.00953433         149.572
0.525                  -0.448076        -133.796         -58.6603         27.1488         -58.6602         27.1481      -0.00963067         149.505
0.526                  -0.467214        -134.235          -58.474         24.0428         -58.4738         24.0428      -0.00972712         149.438
0.527                  -0.486035        -134.669         -58.2984         20.9111         -58.2982         20.9116      -0.00982359         149.371
0.528                  -0.504374        -135.097          -58.134         17.7604         -58.1336         17.7614      -0.00991997         149.303
0.529                  -0.522072        -135.522         -57.9808         14.5977         -57.9804         14.5991       -0.0100162         149.236
0.53                   -0.538979        -135.942         -57.8391         11.4304         -57.8386         11.4321       -0.0101122         149.169
0.531                  -0.554968         -136.36         -57.7088         8.26568         -57.7081         8.26748        -0.010208         149.101
0.532                  -0.569932        -136.776         -57.5896         5.11059         -57.5889         5.11243       -0.0103036         149.033
0.533                  -0.583794        -137.191         -57.4814           1.972         -57.4806         1.97377       -0.0103989         148.965
0.534                  -0.596505        -137.607         -57.3836        -1.14366         -57.3827        -1.14203       -0.0104941         148.898
0.535                  -0.608048        -138.025         -57.2957        -4.23044         -57.2948        -4.22903       -0.0105891          148.83
0.536                  -0.618436        -138.446         -57.2171          -7.283         -57.2162        -7.28188        -0.010684         148.761
0.537                  -0.627709        -138.871         -57.1472        -10.2967         -57.1462        -10.2959       -0.0107789         148.693
0.538                  -0.635931        -139.301         -57.0851        -13.2674          -57.084        -13.2669       -0.0108739         148.625
0.539                  -0.643187        -139.737           -57.03        -16.1919          -57.029        -16.1918       -0.0109691         148.557
0.54                   -0.649576         -140.18         -56.9813        -19.0677         -56.9802        -19.0679       -0.0110645         148.488
0.541                  -0.655209        -140.631         -56.9379        -21.8927         -56.9369        -21.8933       -0.0111603         148.419
0.542                  -0.660203        -141.091         -56.8992        -24.6657         -56.8982        -24.6667       -0.0112566         148.351
0.543                  -0.664678        -141.559         -56.8643        -27.3861         -56.8634        -27.3873       -0.0113534         148.282
0.544                  -0.668752        -142.036         -56.8326        -30.0536         -56.8316        -30.0551       -0.0114508         148.213
0.545                  -0.672541        -142.523         -56.8031        -32.6686         -56.8023        -32.6703        -0.011549         148.144
0.546                  -0.676156        -143.019         -56.7754        -35.2318         -56.7746        -35.2337        -0.011648         148.075
0.547                  -0.679703        -143.524         -56.7487        -37.7443         -56.7479        -37.7464       -0.0117479         148.005
0.548                  -0.683278        -144.039         -56.7224        -40.2075         -56.7217        -40.2096       -0.0118488         147.936
0.549                  -0.686971        -144.563          -56.696        -42.6229         -56.6954        -42.6251       -0.0119507         147.866
0.55                   -0.690866        -145.097         -56.6691        -44.9925         -56.6685        -44.9947       -0.0120538         147.797
0.551                  -0.695037         -145.64          -56.641         -47.318         -56.6405        -47.3202        -0.012158         147.727
0.552                  -0.699555        -146.193         -56.6116        -49.6017         -56.6111        -49.6037       -0.0122634         147.657
0.553                  -0.704481        -146.754         -56.5803        -51.8455         -56.5799        -51.8475       -0.0123701         147.587
0.554                  -0.709875        -147.324         -56.5469        -54.0518         -56.5465        -54.0537       -0.0124781         147.517
0.555                  -0.715789        -147.903         -56.5111        -56.2227         -56.5107        -56.2244       -0.0125875         147.447
0.556                  -0.722273        -148.491         -56.4726        -58.3604         -56.4723         -58.362       -0.0126983         147.376
0.557                  -0.729373        -149.087         -56.4311        -60.4672         -56.4309        -60.4687       -0.0128106         147.306
0.558                  -0.737134        -149.692         -56.3866        -62.5452         -56.3864        -62.5465       -0.0129244         147.235
0.559                  -0.745597        -150.305         -56.3389        -64.5966         -56.3387        -64.5977       -0.0130397         147.165
0.56                   -0.754806        -150.927         -56.2877        -66.6235         -56.2875        -66.6245       -0.0131565         147.094
0.561                  -0.764799        -151.556          -56.233         -68.628         -56.2328        -68.6288        -0.013275         147.023
0.562                  -0.775619        -152.194         -56.1747         -70.612         -56.1745        -70.6127       -0.0133951         146.952
0.563                  -0.787306         -152.84         -56.1127        -72.5776         -56.1125        -72.5781       -0.0135168          146.88
0.564                  -0.799904        -153.494         -56.0469        -74.5267         -56.0467        -74.5271       -0.0136403         146.809
0.565                  -0.813455        -154.156         -55.9772        -76.4611         -55.9771        -76.4614       -0.0137655         146.737
0.566                  -0.828006        -154.826         -55.9037        -78.3828         -55.9036         -78.383       -0.0138924         146.666
0.567                  -0.843604        -155.504         -55.8263        -80.2934         -55.8261        -80.2935       -0.0140211         146.594
0.568                  -0.860299         -156.19          -55.745        -82.1947         -55.7448        -82.1948       -0.0141517         146.522
0.569                  -0.878145        -156.884         -55.6597        -84.0884         -55.6595        -84.0885        -0.014284          146.45
0.57                   -0.897197        -157.586         -55.5705        -85.9762         -55.5703        -85.9763       -0.0144183         146.378
0.571                  -0.917516        -158.296         -55.4774        -87.8596         -55.4772        -87.8597       -0.0145545         146.305
0.572                  -0.939165        -159.014         -55.3804        -89.7404         -55.3802        -89.7405       -0.0146926         146.233
0.573                   -0.96221        -159.739         -55.2795          -91.62         -55.2793        -91.6201       -0.0148326          146.16
0.574                  -0.986725        -160.472         -55.1748        -93.4999         -55.1746        -93.5001       -0.0149747         146.088
0.575                   -1.01279        -161.213         -55.0663        -95.3817         -55.0661         -95.382       -0.0151188         146.015
0.576                   -1.04047        -161.962          -54.954        -97.2669         -54.9538        -97.2672       -0.0152649         145.942
0.577                   -1.06987        -162.718          -54.838         -99.157         -54.8378        -99.1573       -0.0154132         145.868
0.578                   -1.10107        -163.481         -54.7184        -101.053         -54.7182        -101.054       -0.0155635         145.795
0.579                   -1.13417        -164.251         -54.5952        -102.957          -54.595        -102.958        -0.015716         145.722
0.58                    -1.16927        -165.028         -54.4686        -104.871         -54.4683        -104.871       -0.0158707         145.648
0.581                   -1.20648        -165.812         -54.3385        -106.794         -54.3383        -106.795       -0.0160277         145.574
0.582                   -1.24591        -166.602         -54.2051         -108.73         -54.2049        -108.731       -0.0161868           145.5
0.583                   -1.28767        -167.397         -54.0686        -110.679         -54.0684         -110.68       -0.0163483         145.426
0.584                   -1.33189        -168.198          -53.929        -112.643         -53.9287        -112.644        -0.016512         145.352
0.585                    -1.3787        -169.004         -53.7864        -114.623         -53.7861        -114.624       -0.0166781         145.277
0.586                   -1.42822        -169.814          -53.641        -116.621         -53.6407        -116.621       -0.0168466         145.203
0.587                   -1.48059        -170.627         -53.4929        -118.637         -53.4927        -118.637       -0.0170175         145.128
0.588                   -1.53594        -171.443         -53.3424        -120.673         -53.3421        -120.673       -0.0171908         145.053
0.589                   -1.59441         -172.26         -53.1895         -122.73         -53.1893        -122.731       -0.0173666         144.978
0.59                    -1.65613        -173.078         -53.0345         -124.81         -53.0343        -124.811       -0.0175449         144.902
0.591                   -1.72123        -173.895         -52.8776        -126.914         -52.8774        -126.914       -0.0177258         144.827
0.592                   -1.78985        -174.709          -52.719        -129.042         -52.7188        -129.042       -0.0179092         144.751
0.593                   -1.86209         -175.52         -52.5589        -131.196         -52.5587        -131.196       -0.0180952         144.676
0.594                   -1.93805        -176.325         -52.3977        -133.377         -52.3975        -133.377       -0.0182838           144.6
0.595                   -2.01784        -177.122         -52.2355        -135.586         -52.2353        -135.586        -0.018475         144.523
0.596                   -2.10151        -177.909         -52.0727        -137.823         -52.0725        -137.822        -0.018669         144.447
0.597                   -2.18911        -178.683         -51.9096        -140.088         -51.9093        -140.088       -0.0188656         144.371
0.598                   -2.28063        -179.443         -51.7465        -142.384         -51.7462        -142.384       -0.0190649         144.294
0.599                   -2.37605         179.816         -51.5837        -144.709         -51.5833        -144.709       -0.0192669         144.217
0.6                     -2.47528         179.095         -51.4215        -147.065         -51.4212        -147.065       -0.0194717          144.14
0.601                   -2.57819         178.398         -51.2604        -149.451           -51.26         -149.45       -0.0196793         144.063
0.602                   -2.68458         177.728         -51.1007        -151.866         -51.1003        -151.865       -0.0198896         143.985
0.603                   -2.79416         177.089         -50.9428        -154.311         -50.9423         -154.31       -0.0201027         143.908
0.604                   -2.90659         176.484          -50.787        -156.784         -50.7865        -156.784       -0.0203186          143.83
0.605                   -3.02142         175.916         -50.6337        -159.286         -50.6331        -159.285       -0.0205373         143.752
0.606                   -3.13811         175.389         -50.4832        -161.814         -50.4827        -161.814       -0.0207587         143.674
0.607                   -3.25604         174.904          -50.336        -164.367         -50.3354        -164.367        -0.020983         143.595
0.608                   -3.37448         174.466         -50.1923        -166.944         -50.1917        -166.944       -0.0212101         143.516
0.609                   -3.49261         174.075         -50.0525        -169.543         -50.0519        -169.543         -0.02144         143.438
0.61                    -3.60952         173.732         -49.9169        -172.161         -49.9162        -172.161       -0.0216727         143.359
0.611                   -3.72424         173.439         -49.7857        -174.796          -49.785        -174.797       -0.0219082         143.279
0.612                   -3.83573         173.195         -49.6591        -177.446         -49.6584        -177.447       -0.0221464           143.2
0.613                   -3.94296         172.997         -49.5373         179.892         -49.5366          179.89       -0.0223875          143.12
0.614                   -4.04485         172.844         -49.4205          177.22         -49.4198         177.219       -0.0226314          143.04
0.615                   -4.14041         172.731         -49.3087         174.543          -49.308         174.541        -0.022878          142.96
0.616                   -4.22868         172.654          -49.202         171.862         -49.2014          171.86       -0.0231275          142.88
0.617                   -4.30883         172.605         -49.1004         169.182         -49.0998         169.179       -0.0233798         142.799
0.618                   -4.38016         172.579         -49.0038         166.504         -49.0032         166.501        -0.023635         142.718
0.619                   -4.44216         172.567         -48.9121         163.832         -48.9116         163.829        -0.023893         142.637
0.62                    -4.49447          172.56         -48.8252         161.168         -48.8247         161.165       -0.0241539         142.556
0.621                   -4.53699         172.551         -48.7429         158.516         -48.7424         158.513       -0.0244178         142.474
0.622                   -4.56977          172.53         -48.6649         155.877         -48.6645         155.874       -0.0246847         142.392
0.623                   -4.59309          172.49         -48.5909         153.254         -48.5906         153.251       -0.0249547          142.31
0.624                   -4.60742         172.421         -48.5207         150.649         -48.5204         150.646       -0.0252278         142.228
0.625                   -4.61336         172.318          -48.454         148.064         -48.4538         148.061       -0.0255041         142.145
0.626                   -4.61166         172.174         -48.3903           145.5         -48.3901         145.497       -0.0257838         142.063
0.627                   -4.60316         171.983         -48.3294         142.958         -48.3293         142.956       -0.0260669          141.98
0.628                   -4.58877         171.741         -48.2708          140.44         -48.2707         140.438       -0.0263535         141.896
0.629                   -4.56943         171.444         -48.2143         137.946         -48.2142         137.944       -0.0266438         141.813
