! TOUCHSTONE file generated by CST MICROWAVE STUDIO
! Date and time: Thu Feb 18 07:37:25 2021
! Project name: Scenario_1_Planar_Body_Tissue_Out_of_Line.cst
! Parameters = {L_HA=400; Ltissue=1000; MT=2.54; Rad_Dielectric=30; Rad_Lower=7.3; Rad_Upper=30; Wtissue=1000; a_HA=580; a_WG=246; b_HA=500; b_WG=121; c_HA=0; c_WG=187; d_feed=85; dx1=346; dy1=276.8; h_feed=15; h_lower=18; h_upper=40; hfat=3; hgap=25; hmuscle=50; hskin=1.5}
! Header version: 2018
! Port assignment regex: !\s*Touchstone port\s*([0-9]+)\s*=\s*(CST MWS port|CST DS port)\s*([0-9]+|Zmin|Zmax)\s*\(\"(.*)\"\)(\s*mode\s*([0-9]+))?.*
! Touchstone port assignment:
! Touchstone port 1 = CST MWS port 1 ("")
! Touchstone port 2 = CST MWS port 2 ("")
# GHz S DB R 50
0.5                    -0.263088        -121.689         -57.9574         7.95973         -57.9575         7.95957      -0.00821591         151.142
0.501                  -0.263503        -122.088         -57.9154          5.3048         -57.9145         5.31136      -0.00827151         151.077
0.502                  -0.263964        -122.489         -57.8761         2.69331         -57.8744         2.70584      -0.00832781         151.011
0.503                  -0.264474        -122.893         -57.8394        0.125849         -57.8368        0.143638       -0.0083848         150.946
0.504                  -0.265034        -123.299         -57.8049        -2.39721         -57.8015        -2.37483      -0.00844251         150.881
0.505                  -0.265646        -123.708         -57.7723        -4.87566         -57.7682        -4.84932      -0.00850093         150.815
0.506                  -0.266312         -124.12         -57.7414         -7.3095         -57.7366        -7.27977      -0.00856008          150.75
0.507                  -0.267032        -124.534         -57.7119        -9.69885         -57.7065        -9.66627      -0.00861995         150.684
0.508                  -0.267811        -124.951         -57.6836         -12.044         -57.6777         -12.009      -0.00868056         150.618
0.509                  -0.268648         -125.37         -57.6562        -14.3453         -57.6498        -14.3084      -0.00874192         150.552
0.51                   -0.269547        -125.793         -57.6295        -16.6034         -57.6227         -16.565      -0.00880403         150.486
0.511                   -0.27051        -126.218         -57.6033        -18.8188         -57.5961        -18.7792       -0.0088669          150.42
0.512                  -0.271539        -126.646         -57.5774        -20.9922         -57.5699        -20.9518      -0.00893054         150.354
0.513                  -0.272636        -127.078         -57.5516        -23.1244         -57.5437        -23.0834      -0.00899496         150.288
0.514                  -0.273803        -127.512         -57.5257        -25.2162         -57.5176         -25.175      -0.00906017         150.222
0.515                  -0.275045        -127.949         -57.4995        -27.2685         -57.4912        -27.2273      -0.00912616         150.156
0.516                  -0.276362        -128.389         -57.4728        -29.2823         -57.4644        -29.2412      -0.00919297         150.089
0.517                  -0.277758        -128.832         -57.4456        -31.2585          -57.437        -31.2178      -0.00926058         150.023
0.518                  -0.279236        -129.279         -57.4176        -33.1981          -57.409        -33.1579      -0.00932901         149.956
0.519                    -0.2808        -129.729         -57.3888        -35.1021         -57.3801        -35.0626      -0.00939828          149.89
0.52                   -0.282451        -130.182         -57.3591        -36.9716         -57.3503        -36.9328      -0.00946838         149.823
0.521                  -0.284194        -130.638         -57.3282        -38.8074         -57.3195        -38.7695      -0.00953934         149.756
0.522                  -0.286033        -131.098         -57.2961        -40.6107         -57.2875        -40.5738      -0.00961115         149.689
0.523                   -0.28797        -131.562         -57.2628        -42.3825         -57.2542        -42.3466      -0.00968383         149.622
0.524                  -0.290011        -132.029         -57.2281        -44.1238         -57.2196         -44.089       -0.0097574         149.555
0.525                  -0.292158        -132.499         -57.1919        -45.8356         -57.1835        -45.8019      -0.00983185         149.488
0.526                  -0.294417        -132.973         -57.1543         -47.519         -57.1459        -47.4864       -0.0099072          149.42
0.527                  -0.296791        -133.451          -57.115        -49.1748         -57.1068        -49.1434      -0.00998347         149.353
0.528                  -0.299286        -133.933          -57.074         -50.804          -57.066        -50.7739       -0.0100607         149.286
0.529                  -0.301907        -134.418         -57.0313        -52.4077         -57.0235        -52.3788       -0.0101388         149.218
0.53                   -0.304658        -134.908         -56.9869        -53.9867         -56.9792         -53.959       -0.0102178          149.15
0.531                  -0.307546        -135.401         -56.9406         -55.542         -56.9331        -55.5155       -0.0102979         149.083
0.532                  -0.310576        -135.899         -56.8925        -57.0744         -56.8852        -57.0491       -0.0103789         149.015
0.533                  -0.313754        -136.401         -56.8424        -58.5849         -56.8353        -58.5608       -0.0104609         148.947
0.534                  -0.317086        -136.907         -56.7904        -60.0743         -56.7835        -60.0514       -0.0105438         148.879
0.535                   -0.32058        -137.417         -56.7364        -61.5434         -56.7297        -61.5217       -0.0106278         148.811
0.536                  -0.324242        -137.932         -56.6804        -62.9931         -56.6739        -62.9726       -0.0107128         148.742
0.537                   -0.32808        -138.451         -56.6223        -64.4242          -56.616        -64.4048       -0.0107989         148.674
0.538                  -0.332102        -138.975         -56.5621        -65.8375          -56.556        -65.8192       -0.0108859         148.606
0.539                  -0.336316        -139.504         -56.4998        -67.2337         -56.4939        -67.2165       -0.0109741         148.537
0.54                    -0.34073        -140.037         -56.4353        -68.6137         -56.4297        -68.5975       -0.0110633         148.468
0.541                  -0.345355        -140.575         -56.3686        -69.9781         -56.3632         -69.963       -0.0111536           148.4
0.542                    -0.3502        -141.119         -56.2998        -71.3278         -56.2946        -71.3136       -0.0112451         148.331
0.543                  -0.355275        -141.667         -56.2287        -72.6633         -56.2237          -72.65       -0.0113376         148.262
0.544                  -0.360591        -142.221         -56.1554        -73.9855         -56.1506        -73.9731       -0.0114313         148.193
0.545                   -0.36616         -142.78         -56.0797         -75.295         -56.0752        -75.2835       -0.0115262         148.123
0.546                  -0.371994        -143.344         -56.0018        -76.5924         -55.9975        -76.5818       -0.0116222         148.054
0.547                  -0.378106        -143.914         -55.9216        -77.8786         -55.9174        -77.8687       -0.0117194         147.985
0.548                   -0.38451         -144.49          -55.839         -79.154          -55.835        -79.1449       -0.0118178         147.915
0.549                  -0.391221        -145.072          -55.754        -80.4195         -55.7503        -80.4111       -0.0119174         147.845
0.55                   -0.398253         -145.66         -55.6667        -81.6756         -55.6631        -81.6679       -0.0120183         147.776
0.551                  -0.405624        -146.253         -55.5769        -82.9229         -55.5736        -82.9159       -0.0121205         147.706
0.552                   -0.41335        -146.853         -55.4848        -84.1622         -55.4816        -84.1558       -0.0122239         147.636
0.553                  -0.421451         -147.46         -55.3902         -85.394         -55.3872        -85.3882       -0.0123286         147.566
0.554                  -0.429945        -148.073         -55.2931         -86.619         -55.2903        -86.6137       -0.0124347         147.495
0.555                  -0.438855        -148.693         -55.1935        -87.8378         -55.1909         -87.833        -0.012542         147.425
0.556                  -0.448202        -149.319         -55.0914        -89.0509         -55.0889        -89.0467       -0.0126508         147.354
0.557                  -0.458009        -149.953         -54.9868        -90.2592         -54.9845        -90.2554       -0.0127609         147.284
0.558                  -0.468303        -150.594         -54.8797        -91.4631         -54.8775        -91.4598       -0.0128725         147.213
0.559                  -0.479111        -151.243         -54.7699        -92.6633         -54.7679        -92.6604       -0.0129854         147.142
0.56                    -0.49046        -151.899         -54.6576        -93.8605         -54.6558        -93.8579       -0.0130998         147.071
0.561                  -0.502382        -152.562         -54.5427        -95.0552          -54.541         -95.053       -0.0132157             147
0.562                   -0.51491        -153.234         -54.4252        -96.2481         -54.4236        -96.2462       -0.0133331         146.929
0.563                  -0.528079        -153.914          -54.305        -97.4399         -54.3036        -97.4383       -0.0134521         146.858
0.564                  -0.541925        -154.603         -54.1822        -98.6312         -54.1808        -98.6298       -0.0135725         146.786
0.565                   -0.55649          -155.3         -54.0567        -99.8226         -54.0554        -99.8215       -0.0136946         146.714
0.566                  -0.571816        -156.006         -53.9285        -101.015         -53.9273        -101.014       -0.0138183         146.643
0.567                   -0.58795        -156.721         -53.7975        -102.209         -53.7965        -102.208       -0.0139436         146.571
0.568                   -0.60494        -157.445         -53.6639        -103.405          -53.663        -103.404       -0.0140706         146.499
0.569                  -0.622839        -158.179         -53.5275        -104.604         -53.5267        -104.604       -0.0141992         146.426
0.57                   -0.641705        -158.923         -53.3883        -105.807         -53.3876        -105.807       -0.0143296         146.354
0.571                  -0.661598        -159.677         -53.2464        -107.014         -53.2458        -107.014       -0.0144618         146.282
0.572                  -0.682583        -160.441         -53.1017        -108.226         -53.1012        -108.226       -0.0145958         146.209
0.573                  -0.704732        -161.216         -52.9542        -109.445         -52.9537        -109.445       -0.0147316         146.136
0.574                  -0.728119        -162.001         -52.8039         -110.67         -52.8035         -110.67       -0.0148692         146.063
0.575                  -0.752827        -162.798         -52.6508        -111.903         -52.6505        -111.903       -0.0150087          145.99
0.576                  -0.778943        -163.606         -52.4949        -113.144         -52.4947        -113.144       -0.0151502         145.917
0.577                   -0.80656        -164.426         -52.3362        -114.395          -52.336        -114.395       -0.0152937         145.844
0.578                  -0.835782        -165.258         -52.1747        -115.655         -52.1745        -115.656       -0.0154392          145.77
0.579                  -0.866718        -166.102         -52.0104        -116.928         -52.0103        -116.928       -0.0155867         145.697
0.58                   -0.899486        -166.958         -51.8433        -118.212         -51.8432        -118.212       -0.0157363         145.623
0.581                  -0.934214        -167.827         -51.6734        -119.509         -51.6734        -119.509       -0.0158881         145.549
0.582                   -0.97104        -168.709         -51.5007        -120.821         -51.5008        -120.821        -0.016042         145.475
0.583                   -1.01011        -169.605         -51.3254        -122.148         -51.3254        -122.148       -0.0161982           145.4
0.584                   -1.05159        -170.513         -51.1473        -123.491         -51.1474        -123.491       -0.0163567         145.326
0.585                   -1.09565        -171.436         -50.9666        -124.851         -50.9667        -124.852       -0.0165174         145.251
0.586                   -1.14248        -172.371         -50.7832        -126.231         -50.7833        -126.231       -0.0166806         145.176
0.587                   -1.19227        -173.321         -50.5973         -127.63         -50.5975         -127.63       -0.0168462         145.101
0.588                   -1.24526        -174.285         -50.4089         -129.05         -50.4091         -129.05       -0.0170142         145.026
0.589                   -1.30166        -175.262         -50.2181        -130.492         -50.2182        -130.492       -0.0171848         144.951
0.59                    -1.36175        -176.254         -50.0249        -131.958         -50.0251        -131.958       -0.0173579         144.876
0.591                   -1.42579        -177.259         -49.8295        -133.449         -49.8297        -133.449       -0.0175336           144.8
0.592                   -1.49407        -178.277          -49.632        -134.966         -49.6321        -134.966       -0.0177121         144.724
0.593                   -1.56692        -179.309         -49.4324        -136.511         -49.4326        -136.511       -0.0178933         144.648
0.594                   -1.64467         179.647          -49.231        -138.085         -49.2312        -138.085       -0.0180772         144.572
0.595                    -1.7277         178.591         -49.0279         -139.69         -49.0281         -139.69        -0.018264         144.496
0.596                   -1.81639         177.524         -48.8233        -141.326         -48.8235        -141.326       -0.0184536         144.419
0.597                   -1.91116         176.447         -48.6174        -142.996         -48.6176        -142.996       -0.0186462         144.342
0.598                   -2.01247         175.361         -48.4104          -144.7         -48.4105          -144.7       -0.0188418         144.265
0.599                   -2.12078         174.268         -48.2025        -146.441         -48.2027         -146.44       -0.0190403         144.188
0.6                      -2.2366         173.171         -47.9941        -148.218         -47.9942        -148.218       -0.0192419         144.111
0.601                   -2.36046         172.071         -47.7853        -150.035         -47.7855        -150.034       -0.0194466         144.034
0.602                   -2.49292         170.971         -47.5767        -151.891         -47.5768        -151.891       -0.0196544         143.956
0.603                   -2.63454         169.875         -47.3684        -153.788         -47.3685        -153.788       -0.0198653         143.878
0.604                   -2.78592         168.788         -47.1609        -155.727          -47.161        -155.727       -0.0200793           143.8
0.605                   -2.94767         167.713         -46.9546        -157.709         -46.9546        -157.709       -0.0202964         143.722
0.606                   -3.12037         166.656         -46.7498        -159.734         -46.7499        -159.734       -0.0205167         143.643
0.607                   -3.30463         165.625         -46.5472        -161.803         -46.5473        -161.803       -0.0207401         143.564
0.608                     -3.501         164.626         -46.3471        -163.916         -46.3472        -163.916       -0.0209665         143.486
0.609                      -3.71         163.668         -46.1501        -166.073         -46.1502        -166.073        -0.021196         143.407
0.61                    -3.93204         162.762         -45.9567        -168.274         -45.9568        -168.273       -0.0214285         143.327
0.611                   -4.16746         161.919         -45.7674        -170.517         -45.7675        -170.517       -0.0216639         143.248
0.612                    -4.4164         161.151         -45.5828        -172.802         -45.5829        -172.802       -0.0219022         143.168
0.613                   -4.67883         160.474         -45.4035        -175.127         -45.4035        -175.127       -0.0221434         143.088
0.614                   -4.95439         159.904         -45.2299        -177.491         -45.2299        -177.491       -0.0223873         143.008
0.615                   -5.24241         159.458         -45.0626        -179.891         -45.0626        -179.891       -0.0226339         142.927
0.616                   -5.54172         159.155         -44.9021         177.676         -44.9021         177.676       -0.0228831         142.847
0.617                   -5.85063         159.015          -44.749         175.212          -44.749         175.212        -0.023135         142.766
0.618                   -6.16673          159.06         -44.6035         172.721         -44.6035         172.721       -0.0233894         142.685
0.619                   -6.48683         159.309         -44.4662         170.207         -44.4662         170.207       -0.0236463         142.604
0.62                    -6.80685         159.781         -44.3374         167.674         -44.3374         167.673       -0.0239057         142.522
0.621                   -7.12172         160.491         -44.2173         165.126         -44.2173         165.126       -0.0241677          142.44
0.622                   -7.42544         161.448         -44.1061         162.568         -44.1061         162.568       -0.0244323         142.358
0.623                   -7.71114         162.656         -44.0039         160.005         -44.0039         160.005       -0.0246995         142.276
0.624                   -7.97141         164.104         -43.9109         157.442         -43.9109         157.442       -0.0249695         142.193
0.625                   -8.19869         165.773         -43.8269         154.884         -43.8268         154.884       -0.0252423          142.11
0.626                   -8.38589         167.628         -43.7517         152.335         -43.7517         152.335       -0.0255181         142.027
0.627                    -8.5271         169.623         -43.6854           149.8         -43.6853           149.8        -0.025797         141.944
0.628                   -8.61824         171.699         -43.6274         147.284         -43.6274         147.284       -0.0260792          141.86
0.629                   -8.65757         173.793         -43.5776         144.791         -43.5776          144.79        -0.026365         141.776
